Time,v(clk),v(data),v(out),v(reset)
1.00000000000000e-08,7.50000000000000e-01,0.00000000000000e+00,-1.72880439149132e-05,0.00000000000000e+00
1.00100000000000e-08,7.50000000000000e-01,7.49999999999982e-02,-9.11059801524117e-06,0.00000000000000e+00
1.00300000000000e-08,7.50000000000000e-01,2.24999999999995e-01,-1.65959032021046e-06,0.00000000000000e+00
1.00700000000000e-08,7.50000000000000e-01,5.24999999999987e-01,4.51333220657935e-08,0.00000000000000e+00
1.01000000000000e-08,7.50000000000000e-01,7.49999999999994e-01,1.11622937960798e-06,0.00000000000000e+00
1.01080000000000e-08,7.50000000000000e-01,7.50000000000000e-01,1.87835219463139e-06,0.00000000000000e+00
1.01240000000000e-08,7.50000000000000e-01,7.50000000000000e-01,3.09619813028406e-06,0.00000000000000e+00
1.01560000000000e-08,7.50000000000000e-01,7.50000000000000e-01,2.70801416352162e-06,0.00000000000000e+00
1.02200000000000e-08,7.50000000000000e-01,7.50000000000000e-01,2.06107000608191e-06,0.00000000000000e+00
1.03480000000000e-08,7.50000000000000e-01,7.50000000000000e-01,2.53472996760221e-06,0.00000000000000e+00
1.06040000000000e-08,7.50000000000000e-01,7.50000000000000e-01,2.12299042004135e-06,0.00000000000000e+00
1.11160000000000e-08,7.50000000000000e-01,7.50000000000000e-01,2.08029979292465e-06,0.00000000000000e+00
1.21400000000000e-08,7.50000000000000e-01,7.50000000000000e-01,1.74468777010967e-06,0.00000000000000e+00
1.41880000000000e-08,7.50000000000000e-01,7.50000000000000e-01,1.67066862055481e-06,0.00000000000000e+00
1.51000000000000e-08,7.50000000000000e-01,7.50000000000000e-01,1.45190543483689e-06,0.00000000000000e+00
1.51100000000000e-08,6.74999999999989e-01,7.50000000000000e-01,1.97696751538065e-04,7.50000000000106e-02
1.51300000000000e-08,5.24999999999993e-01,7.50000000000000e-01,2.51114459307880e-04,2.25000000000007e-01
1.51700000000000e-08,2.25000000000000e-01,7.50000000000000e-01,1.34677083503523e-04,5.25000000000000e-01
1.52000000000000e-08,0.00000000000000e+00,7.50000000000000e-01,3.01797360260023e-04,7.50000000000000e-01
1.52080000000000e-08,0.00000000000000e+00,7.50000000000000e-01,2.47951944051819e-04,7.50000000000000e-01
1.52240000000000e-08,0.00000000000000e+00,7.50000000000000e-01,9.40462991546182e-05,7.50000000000000e-01
1.52560000000000e-08,0.00000000000000e+00,7.50000000000000e-01,-3.58148316483162e-04,7.50000000000000e-01
1.53200000000000e-08,0.00000000000000e+00,7.50000000000000e-01,-3.16040409994181e-04,7.50000000000000e-01
1.54480000000000e-08,0.00000000000000e+00,7.50000000000000e-01,2.40623552654126e-05,7.50000000000000e-01
1.56299582213693e-08,0.00000000000000e+00,7.50000000000000e-01,-9.99988358868255e-05,7.50000000000000e-01
1.58773525374317e-08,0.00000000000000e+00,7.50000000000000e-01,2.88212030753306e-04,7.50000000000000e-01
1.63721411695564e-08,0.00000000000000e+00,7.50000000000000e-01,-3.19968257279582e-04,7.50000000000000e-01
1.68716646129611e-08,0.00000000000000e+00,7.50000000000000e-01,3.29640503908735e-04,7.50000000000000e-01
1.78707114997704e-08,0.00000000000000e+00,7.50000000000000e-01,-3.26549149362648e-04,7.50000000000000e-01
1.93568459435743e-08,0.00000000000000e+00,7.50000000000000e-01,3.24300225223038e-04,7.50000000000000e-01
2.16830239911260e-08,0.00000000000000e+00,7.50000000000000e-01,-3.20935157220259e-04,7.50000000000000e-01
2.50000000000000e-08,0.00000000000000e+00,7.50000000000000e-01,3.19323900312375e-04,7.50000000000000e-01
2.50100000000000e-08,7.49999999999858e-02,7.50000000000000e-01,3.63677039595112e-04,7.50000000000000e-01
2.50300000000000e-08,2.25000000000007e-01,7.50000000000000e-01,3.53127666904929e-04,7.50000000000000e-01
2.50700000000000e-08,5.25000000000000e-01,7.50000000000000e-01,-9.90405059932351e-05,7.50000000000000e-01
2.51000000000000e-08,7.50000000000000e-01,7.50000000000000e-01,-2.90191481956344e-03,7.50000000000000e-01
2.51080000000000e-08,7.50000000000000e-01,7.50000000000000e-01,-4.09215265134075e-03,7.50000000000000e-01
2.51240000000000e-08,7.50000000000000e-01,7.50000000000000e-01,-6.00104064097078e-03,7.50000000000000e-01
2.51560000000000e-08,7.50000000000000e-01,7.50000000000000e-01,-3.95258050160714e-03,7.50000000000000e-01
2.52200000000000e-08,7.50000000000000e-01,7.50000000000000e-01,1.59073041470776e-01,7.50000000000000e-01
2.53480000000000e-08,7.50000000000000e-01,7.50000000000000e-01,6.97413978054627e-01,7.50000000000000e-01
2.56040000000000e-08,7.50000000000000e-01,7.50000000000000e-01,7.64501015583482e-01,7.50000000000000e-01
2.58810645336866e-08,7.50000000000000e-01,7.50000000000000e-01,7.36017141027460e-01,7.50000000000000e-01
2.63558024915943e-08,7.50000000000000e-01,7.50000000000000e-01,7.62350022879352e-01,7.50000000000000e-01
2.70226436863707e-08,7.50000000000000e-01,7.50000000000000e-01,7.37602645939190e-01,7.50000000000000e-01
2.83563260759234e-08,7.50000000000000e-01,7.50000000000000e-01,7.61603344509955e-01,7.50000000000000e-01
3.10236908550289e-08,7.50000000000000e-01,7.50000000000000e-01,7.38036198778946e-01,7.50000000000000e-01
3.48236908550289e-08,7.50000000000000e-01,7.50000000000000e-01,7.61405495405952e-01,7.50000000000000e-01
3.51000000000000e-08,7.49999999999963e-01,7.50000000000000e-01,7.39347598523162e-01,7.50000000000000e-01
3.51100000000000e-08,6.74999999999977e-01,7.50000000000000e-01,7.45456549079120e-01,7.50000000000000e-01
3.51300000000000e-08,5.24999999999956e-01,7.50000000000000e-01,7.50622241848351e-01,7.50000000000000e-01
3.51700000000000e-08,2.24999999999963e-01,7.50000000000000e-01,7.50980687917420e-01,7.50000000000000e-01
3.52000000000000e-08,0.00000000000000e+00,7.50000000000000e-01,7.53390634363682e-01,7.50000000000000e-01
3.52080000000000e-08,0.00000000000000e+00,7.50000000000000e-01,7.52028669579217e-01,7.50000000000000e-01
3.52240000000000e-08,0.00000000000000e+00,7.50000000000000e-01,7.45609873058147e-01,7.50000000000000e-01
3.52560000000000e-08,0.00000000000000e+00,7.50000000000000e-01,7.29472381274287e-01,7.50000000000000e-01
3.53200000000000e-08,0.00000000000000e+00,7.50000000000000e-01,7.36774212654074e-01,7.50000000000000e-01
3.54480000000000e-08,0.00000000000000e+00,7.50000000000000e-01,7.53181896177822e-01,7.50000000000000e-01
3.56390528289548e-08,0.00000000000000e+00,7.50000000000000e-01,7.46780457820318e-01,7.50000000000000e-01
3.59463320609595e-08,0.00000000000000e+00,7.50000000000000e-01,7.52186828287507e-01,7.50000000000000e-01
3.65608905249689e-08,0.00000000000000e+00,7.50000000000000e-01,7.47667870385405e-01,7.50000000000000e-01
3.77900074529877e-08,0.00000000000000e+00,7.50000000000000e-01,7.52043467172593e-01,7.50000000000000e-01
4.02482413090253e-08,0.00000000000000e+00,7.50000000000000e-01,7.47884358048181e-01,7.50000000000000e-01
4.40482413090253e-08,0.00000000000000e+00,7.50000000000000e-01,7.52006625410552e-01,7.50000000000000e-01
4.50000000000000e-08,0.00000000000000e+00,7.50000000000000e-01,7.48027620868808e-01,7.50000000000000e-01
4.50100000000000e-08,7.49999999999858e-02,7.50000000000000e-01,7.48762438790186e-01,6.75000000000014e-01
4.50300000000000e-08,2.25000000000007e-01,7.50000000000000e-01,7.49612077713219e-01,5.24999999999993e-01
4.50700000000000e-08,5.25000000000000e-01,7.50000000000000e-01,7.54635454345346e-01,2.25000000000000e-01
4.51000000000000e-08,7.50000000000000e-01,7.50000000000000e-01,7.68338294027519e-01,0.00000000000000e+00
4.51080000000000e-08,7.50000000000000e-01,7.50000000000000e-01,7.74192930464683e-01,0.00000000000000e+00
4.51240000000000e-08,7.50000000000000e-01,7.50000000000000e-01,7.83230987189646e-01,0.00000000000000e+00
4.51560000000000e-08,7.50000000000000e-01,7.50000000000000e-01,6.78162806285228e-01,0.00000000000000e+00
4.52200000000000e-08,7.50000000000000e-01,7.50000000000000e-01,2.24765468334498e-01,0.00000000000000e+00
4.53332884905683e-08,7.50000000000000e-01,7.50000000000000e-01,-3.69881463187353e-02,0.00000000000000e+00
4.54967597157194e-08,7.50000000000000e-01,7.50000000000000e-01,2.12099993213227e-02,0.00000000000000e+00
4.58073085603528e-08,7.50000000000000e-01,7.50000000000000e-01,-1.52397589013468e-02,0.00000000000000e+00
4.61685113132164e-08,7.50000000000000e-01,7.50000000000000e-01,1.22308061708771e-02,0.00000000000000e+00
4.68909168189435e-08,7.50000000000000e-01,7.50000000000000e-01,-1.06690554332848e-02,0.00000000000000e+00
4.83357278303978e-08,7.50000000000000e-01,7.50000000000000e-01,1.02712265987843e-02,0.00000000000000e+00
5.01000000000000e-08,7.50000000000000e-01,7.49999999999957e-01,-9.63026484762312e-03,0.00000000000000e+00
5.03889622022909e-08,7.50000000000000e-01,7.50000000000000e-01,-5.98290232492388e-04,0.00000000000000e+00
5.09668866068726e-08,7.50000000000000e-01,7.50000000000000e-01,5.15517553712369e-04,0.00000000000000e+00
5.21227354160360e-08,7.50000000000000e-01,7.50000000000000e-01,-4.70600727568170e-04,0.00000000000000e+00
5.44344330343628e-08,7.50000000000000e-01,7.50000000000000e-01,4.52642899705464e-04,0.00000000000000e+00
5.51000000000000e-08,7.50000000000000e-01,7.50000000000000e-01,-3.89250600330970e-04,0.00000000000000e+00
5.51100000000000e-08,6.75000000000027e-01,7.50000000000000e-01,-6.77527441400594e-05,7.49999999999734e-02
5.51300000000000e-08,5.25000000000005e-01,7.50000000000000e-01,1.41077441074375e-04,2.24999999999995e-01
5.51700000000000e-08,2.25000000000013e-01,7.50000000000000e-01,1.13109291196886e-04,5.24999999999987e-01
5.52000000000000e-08,0.00000000000000e+00,7.50000000000000e-01,2.32266170713175e-04,7.50000000000000e-01
5.52080000000000e-08,0.00000000000000e+00,7.50000000000000e-01,7.85941591599226e-05,7.50000000000000e-01
5.52240000000000e-08,0.00000000000000e+00,7.50000000000000e-01,-4.63313838181503e-04,7.50000000000000e-01
5.52560000000000e-08,0.00000000000000e+00,7.50000000000000e-01,-1.37891285426033e-03,7.50000000000000e-01
5.53200000000000e-08,0.00000000000000e+00,7.50000000000000e-01,-5.80901488720163e-04,7.50000000000000e-01
5.54362206830529e-08,0.00000000000000e+00,7.50000000000000e-01,5.14333711027697e-04,7.50000000000000e-01
5.56232382393595e-08,0.00000000000000e+00,7.50000000000000e-01,-6.19952051297591e-04,7.50000000000000e-01
5.58536259458059e-08,0.00000000000000e+00,7.50000000000000e-01,5.60752895209644e-04,7.50000000000000e-01
5.63144013586986e-08,0.00000000000000e+00,7.50000000000000e-01,-4.73249432324546e-04,7.50000000000000e-01
5.67847645102387e-08,0.00000000000000e+00,7.50000000000000e-01,3.98694875763286e-04,7.50000000000000e-01
5.77254908133190e-08,0.00000000000000e+00,7.50000000000000e-01,-3.61265753008902e-04,7.50000000000000e-01
5.91104840037069e-08,0.00000000000000e+00,7.50000000000000e-01,3.40199965673561e-04,7.50000000000000e-01
6.12978672746508e-08,0.00000000000000e+00,7.50000000000000e-01,-3.24205284298547e-04,7.50000000000000e-01
6.50000000000000e-08,0.00000000000000e+00,7.50000000000000e-01,3.17915196718137e-04,7.50000000000000e-01
6.50100000000000e-08,7.49999999999858e-02,7.50000000000000e-01,4.02267967634026e-04,7.50000000000000e-01
6.50300000000000e-08,2.24999999999957e-01,7.50000000000000e-01,4.33602939954342e-04,7.50000000000000e-01
6.50700000000000e-08,5.24999999999900e-01,7.50000000000000e-01,-7.07902718668774e-05,7.50000000000000e-01
6.51000000000000e-08,7.49999999999957e-01,7.50000000000000e-01,-2.90073858945833e-03,7.50000000000000e-01
6.51080000000000e-08,7.50000000000000e-01,7.50000000000000e-01,-4.09110728334543e-03,7.50000000000000e-01
6.51240000000000e-08,7.50000000000000e-01,7.50000000000000e-01,-5.99943008900530e-03,7.50000000000000e-01
6.51560000000000e-08,7.50000000000000e-01,7.50000000000000e-01,-3.89812975017259e-03,7.50000000000000e-01
6.52200000000000e-08,7.50000000000000e-01,7.50000000000000e-01,1.59708861128850e-01,7.50000000000000e-01
6.53480000000000e-08,7.50000000000000e-01,7.50000000000000e-01,6.97718252131725e-01,7.50000000000000e-01
6.56040000000000e-08,7.50000000000000e-01,7.50000000000000e-01,7.64424668887994e-01,7.50000000000000e-01
6.58813554038042e-08,7.50000000000000e-01,7.50000000000000e-01,7.36091537033201e-01,7.50000000000000e-01
6.63556770491615e-08,7.50000000000000e-01,7.50000000000000e-01,7.62283173611901e-01,7.50000000000000e-01
6.70226579323546e-08,7.50000000000000e-01,7.50000000000000e-01,7.37670751792944e-01,7.50000000000000e-01
6.83566196987408e-08,7.50000000000000e-01,7.50000000000000e-01,7.61540201107186e-01,7.50000000000000e-01
7.10245432315132e-08,7.50000000000000e-01,7.50000000000000e-01,7.38102099220930e-01,7.50000000000000e-01
7.48245432315132e-08,7.50000000000000e-01,7.50000000000000e-01,7.61343361383335e-01,7.50000000000000e-01
7.51000000000000e-08,7.50000000000000e-01,7.50000000000000e-01,7.39410330718909e-01,7.50000000000000e-01
7.51100000000000e-08,6.75000000000076e-01,7.50000000000000e-01,7.45482202790972e-01,7.50000000000000e-01
7.51300000000000e-08,5.25000000000105e-01,7.50000000000000e-01,7.50617442042497e-01,7.50000000000000e-01
7.51700000000000e-08,2.25000000000162e-01,7.50000000000000e-01,7.50983441133335e-01,7.50000000000000e-01
7.52000000000000e-08,1.05027098129540e-13,7.50000000000000e-01,7.53390581788473e-01,7.50000000000000e-01
7.52080000000000e-08,0.00000000000000e+00,7.50000000000000e-01,7.52030245871048e-01,7.50000000000000e-01
7.52240000000000e-08,0.00000000000000e+00,7.50000000000000e-01,7.45613284498104e-01,7.50000000000000e-01
7.52560000000000e-08,0.00000000000000e+00,7.50000000000000e-01,7.29474818774376e-01,7.50000000000000e-01
7.53200000000000e-08,0.00000000000000e+00,7.50000000000000e-01,7.36773503476093e-01,7.50000000000000e-01
7.54480000000000e-08,0.00000000000000e+00,7.50000000000000e-01,7.53182193681668e-01,7.50000000000000e-01
7.56390544159814e-08,0.00000000000000e+00,7.50000000000000e-01,7.46780241829922e-01,7.50000000000000e-01
7.59463305236009e-08,0.00000000000000e+00,7.50000000000000e-01,7.52187019357628e-01,7.50000000000000e-01
7.65608827388397e-08,0.00000000000000e+00,7.50000000000000e-01,7.47667695736776e-01,7.50000000000000e-01
7.77899871693174e-08,0.00000000000000e+00,7.50000000000000e-01,7.52043633405983e-01,7.50000000000000e-01
8.02481960302728e-08,0.00000000000000e+00,7.50000000000000e-01,7.47884194056868e-01,7.50000000000000e-01
8.40481960302728e-08,0.00000000000000e+00,7.50000000000000e-01,7.52006786464606e-01,7.50000000000000e-01
8.50000000000000e-08,0.00000000000000e+00,7.50000000000000e-01,7.48027461703249e-01,7.50000000000000e-01
8.50100000000000e-08,7.49999999999858e-02,7.50000000000000e-01,7.48762355385795e-01,6.75000000000014e-01
8.50300000000000e-08,2.24999999999957e-01,7.50000000000000e-01,7.49612070974161e-01,5.25000000000043e-01
8.50700000000000e-08,5.24999999999900e-01,7.50000000000000e-01,7.54635453886360e-01,2.25000000000100e-01
8.51000000000000e-08,7.49999999999957e-01,7.50000000000000e-01,7.68338283958853e-01,4.29656310529936e-14
8.51080000000000e-08,7.50000000000000e-01,7.50000000000000e-01,7.74192919903598e-01,0.00000000000000e+00
8.51240000000000e-08,7.50000000000000e-01,7.50000000000000e-01,7.83231011936104e-01,0.00000000000000e+00
8.51560000000000e-08,7.50000000000000e-01,7.50000000000000e-01,6.78163020151022e-01,0.00000000000000e+00
8.52200000000000e-08,7.50000000000000e-01,7.50000000000000e-01,2.24765729661782e-01,0.00000000000000e+00
8.53333068369644e-08,7.50000000000000e-01,7.50000000000000e-01,-3.70008587215759e-02,0.00000000000000e+00
8.54967738144553e-08,7.50000000000000e-01,7.50000000000000e-01,2.12164529047424e-02,0.00000000000000e+00
8.58074309254261e-08,7.50000000000000e-01,7.50000000000000e-01,-1.52456102437790e-02,0.00000000000000e+00
8.61686218706942e-08,7.50000000000000e-01,7.50000000000000e-01,1.22353166430887e-02,0.00000000000000e+00
8.68910037612303e-08,7.50000000000000e-01,7.50000000000000e-01,-1.06727750605428e-02,0.00000000000000e+00
8.83357675423025e-08,7.50000000000000e-01,7.50000000000000e-01,1.02747909147188e-02,0.00000000000000e+00
9.01000000000000e-08,7.50000000000000e-01,7.49999999999957e-01,-9.63352169874677e-03,0.00000000000000e+00
9.03889527562144e-08,7.50000000000000e-01,7.50000000000000e-01,-5.98563436429602e-04,0.00000000000000e+00
9.09668582686433e-08,7.50000000000000e-01,7.50000000000000e-01,5.15746673526575e-04,0.00000000000000e+00
9.21226692935011e-08,7.50000000000000e-01,7.50000000000000e-01,-4.70808127991435e-04,0.00000000000000e+00
9.44342913432166e-08,7.50000000000000e-01,7.50000000000000e-01,4.52840572645785e-04,0.00000000000000e+00
9.51000000000000e-08,7.50000000000000e-01,7.50000000000000e-01,-3.89432022690460e-04,0.00000000000000e+00
9.51100000000000e-08,6.75000000000076e-01,7.50000000000000e-01,-6.78825117371579e-05,7.49999999999237e-02
9.51300000000000e-08,5.25000000000105e-01,7.50000000000000e-01,1.41021852131745e-04,2.24999999999895e-01
9.51700000000000e-08,2.25000000000162e-01,7.50000000000000e-01,1.13101917150790e-04,5.24999999999838e-01
9.52000000000000e-08,1.05027098129540e-13,7.50000000000000e-01,2.32265792874900e-04,7.49999999999895e-01
9.52080000000000e-08,0.00000000000000e+00,7.50000000000000e-01,7.85951543054025e-05,7.50000000000000e-01
9.52240000000000e-08,0.00000000000000e+00,7.50000000000000e-01,-4.63309844135590e-04,7.50000000000000e-01
9.52560000000000e-08,0.00000000000000e+00,7.50000000000000e-01,-1.37890132907044e-03,7.50000000000000e-01
9.53200000000000e-08,0.00000000000000e+00,7.50000000000000e-01,-5.80896068693909e-04,7.50000000000000e-01
9.54362225419842e-08,0.00000000000000e+00,7.50000000000000e-01,5.14327627204606e-04,7.50000000000000e-01
9.56232391763580e-08,0.00000000000000e+00,7.50000000000000e-01,-6.19944908585496e-04,7.50000000000000e-01
9.58536293912218e-08,0.00000000000000e+00,7.50000000000000e-01,5.60748783152213e-04,7.50000000000000e-01
9.63144098209493e-08,0.00000000000000e+00,7.50000000000000e-01,-4.73248202767203e-04,7.50000000000000e-01
9.67847772337880e-08,0.00000000000000e+00,7.50000000000000e-01,3.98695450041653e-04,7.50000000000000e-01
9.77255120594653e-08,0.00000000000000e+00,7.50000000000000e-01,-3.61267077875119e-04,7.50000000000000e-01
9.91105202498320e-08,0.00000000000000e+00,7.50000000000000e-01,3.40201721802934e-04,7.50000000000000e-01
1.01297923843029e-07,0.00000000000000e+00,7.50000000000000e-01,-3.24207306710257e-04,7.50000000000000e-01
1.05000000000000e-07,0.00000000000000e+00,7.50000000000000e-01,3.17917132621731e-04,7.50000000000000e-01
1.05010000000000e-07,7.49999999999858e-02,7.50000000000000e-01,4.02268835491437e-04,7.50000000000000e-01
1.05030000000000e-07,2.24999999999957e-01,7.50000000000000e-01,4.33602077628839e-04,7.50000000000000e-01
1.05070000000000e-07,5.24999999999900e-01,7.50000000000000e-01,-7.07904952431879e-05,7.50000000000000e-01
1.05100000000000e-07,7.49999999999957e-01,7.50000000000000e-01,-2.90073810191990e-03,7.50000000000000e-01
1.05108000000000e-07,7.50000000000000e-01,7.50000000000000e-01,-4.09110690087687e-03,7.50000000000000e-01
1.05124000000000e-07,7.50000000000000e-01,7.50000000000000e-01,-5.99942991156018e-03,7.50000000000000e-01
1.05156000000000e-07,7.50000000000000e-01,7.50000000000000e-01,-3.89813212080491e-03,7.50000000000000e-01
1.05220000000000e-07,7.50000000000000e-01,7.50000000000000e-01,1.59708832729569e-01,7.50000000000000e-01
1.05348000000000e-07,7.50000000000000e-01,7.50000000000000e-01,6.97718238421238e-01,7.50000000000000e-01
1.05604000000000e-07,7.50000000000000e-01,7.50000000000000e-01,7.64424672332261e-01,7.50000000000000e-01
1.05881355390057e-07,7.50000000000000e-01,7.50000000000000e-01,7.36091533682687e-01,7.50000000000000e-01
1.06355677054223e-07,7.50000000000000e-01,7.50000000000000e-01,7.62283176620145e-01,7.50000000000000e-01
1.07022657930450e-07,7.50000000000000e-01,7.50000000000000e-01,7.37670748725556e-01,7.50000000000000e-01
1.08356619682905e-07,7.50000000000000e-01,7.50000000000000e-01,7.61540203952646e-01,7.50000000000000e-01
1.11024543187815e-07,7.50000000000000e-01,7.50000000000000e-01,7.38102096253193e-01,7.50000000000000e-01
1.14824543187815e-07,7.50000000000000e-01,7.50000000000000e-01,7.61343364173374e-01,7.50000000000000e-01
1.15100000000000e-07,7.50000000000000e-01,7.50000000000000e-01,7.39410327872212e-01,7.50000000000000e-01
