Time,v(clk),v(data),v(out)
1.00000000000000e-08,7.50000000000000e-01,0.00000000000000e+00,-3.72518022725343e-05
1.00100000000000e-08,7.50000000000000e-01,7.49999999999982e-02,-2.63090762643581e-05
1.00300000000000e-08,7.50000000000000e-01,2.24999999999995e-01,-1.34858544684757e-05
1.00700000000000e-08,7.50000000000000e-01,5.24999999999987e-01,-7.40304690771687e-06
1.01000000000000e-08,7.50000000000000e-01,7.49999999999994e-01,-5.15474787120968e-06
1.01080000000000e-08,7.50000000000000e-01,7.50000000000000e-01,-3.10824030340384e-06
1.01240000000000e-08,7.50000000000000e-01,7.50000000000000e-01,9.84428759703837e-07
1.01560000000000e-08,7.50000000000000e-01,7.50000000000000e-01,4.42064710507589e-06
1.02200000000000e-08,7.50000000000000e-01,7.50000000000000e-01,2.07541151939217e-06
1.03480000000000e-08,7.50000000000000e-01,7.50000000000000e-01,8.98368789029741e-07
1.06040000000000e-08,7.50000000000000e-01,7.50000000000000e-01,7.23423480538180e-07
1.11160000000000e-08,7.50000000000000e-01,7.50000000000000e-01,1.83242808657683e-06
1.21400000000000e-08,7.50000000000000e-01,7.50000000000000e-01,5.68444046561943e-07
1.41880000000000e-08,7.50000000000000e-01,7.50000000000000e-01,1.50128569924258e-06
1.51000000000000e-08,7.50000000000000e-01,7.50000000000000e-01,3.61034858362662e-07
1.51100000000000e-08,6.74999999999989e-01,7.50000000000000e-01,-9.69626504683102e-05
1.51300000000000e-08,5.24999999999993e-01,7.50000000000000e-01,-2.12194682905370e-04
1.51700000000000e-08,2.25000000000000e-01,7.50000000000000e-01,-7.14815211131162e-05
1.52000000000000e-08,0.00000000000000e+00,7.50000000000000e-01,3.20045860380549e-04
1.52080000000000e-08,0.00000000000000e+00,7.50000000000000e-01,4.76524723977259e-04
1.52240000000000e-08,0.00000000000000e+00,7.50000000000000e-01,5.78700867218784e-04
1.52560000000000e-08,0.00000000000000e+00,7.50000000000000e-01,2.46581125166817e-04
1.53200000000000e-08,0.00000000000000e+00,7.50000000000000e-01,-2.51050318444856e-04
1.54480000000000e-08,0.00000000000000e+00,7.50000000000000e-01,-1.45120282219708e-04
1.57040000000000e-08,0.00000000000000e+00,7.50000000000000e-01,-1.20130910229662e-04
1.60392845565171e-08,0.00000000000000e+00,7.50000000000000e-01,1.93142695051687e-04
1.66998031365797e-08,0.00000000000000e+00,7.50000000000000e-01,-1.01134256396514e-04
1.73408107828238e-08,0.00000000000000e+00,7.50000000000000e-01,3.68096896049726e-05
1.86228260753119e-08,0.00000000000000e+00,7.50000000000000e-01,-1.19871100186884e-05
2.11868566602883e-08,0.00000000000000e+00,7.50000000000000e-01,2.09088198054388e-06
2.49868566602883e-08,0.00000000000000e+00,7.50000000000000e-01,4.85183383253833e-06
2.50000000000000e-08,0.00000000000000e+00,7.50000000000000e-01,-4.61222479327394e-05
2.50100000000000e-08,7.49999999999858e-02,7.50000000000000e-01,1.18751942154355e-04
2.50300000000000e-08,2.25000000000007e-01,7.50000000000000e-01,3.30744346417250e-04
2.50700000000000e-08,5.25000000000000e-01,7.50000000000000e-01,1.49791778683912e-04
2.51000000000000e-08,7.50000000000000e-01,7.50000000000000e-01,-2.68184509970953e-03
2.51080000000000e-08,7.50000000000000e-01,7.50000000000000e-01,-3.93165745287212e-03
2.51240000000000e-08,7.50000000000000e-01,7.50000000000000e-01,-5.99599017651592e-03
2.51560000000000e-08,7.50000000000000e-01,7.50000000000000e-01,-6.99977903547094e-03
2.52200000000000e-08,7.50000000000000e-01,7.50000000000000e-01,6.75075129353145e-02
2.53480000000000e-08,7.50000000000000e-01,7.50000000000000e-01,5.45865232123257e-01
2.56040000000000e-08,7.50000000000000e-01,7.50000000000000e-01,7.82014807749955e-01
2.58857891801655e-08,7.50000000000000e-01,7.50000000000000e-01,7.22449404332026e-01
2.64493675404965e-08,7.50000000000000e-01,7.50000000000000e-01,7.74150493854264e-01
2.71319863938798e-08,7.50000000000000e-01,7.50000000000000e-01,7.26784393298587e-01
2.84972241006464e-08,7.50000000000000e-01,7.50000000000000e-01,7.71498018859397e-01
3.01000000000000e-08,7.50000000000000e-01,7.50000000000000e-01,7.28445055258215e-01
3.01100000000000e-08,7.50000000000000e-01,6.75000000000039e-01,7.37356533071064e-01
3.01300000000000e-08,7.50000000000000e-01,5.25000000000018e-01,7.47805399130928e-01
3.01700000000000e-08,7.50000000000000e-01,2.25000000000025e-01,7.50430745936914e-01
3.02000000000000e-08,7.50000000000000e-01,1.80966353013901e-14,7.50004256385123e-01
3.02080000000000e-08,7.50000000000000e-01,0.00000000000000e+00,7.50004828674595e-01
3.02240000000000e-08,7.50000000000000e-01,0.00000000000000e+00,7.49990291286597e-01
3.02560000000000e-08,7.50000000000000e-01,0.00000000000000e+00,7.49959417182639e-01
3.03200000000000e-08,7.50000000000000e-01,0.00000000000000e+00,7.49964759916631e-01
3.04480000000000e-08,7.50000000000000e-01,0.00000000000000e+00,7.49996469732895e-01
3.06174263009536e-08,7.50000000000000e-01,0.00000000000000e+00,7.49966907271836e-01
3.09562789028609e-08,7.50000000000000e-01,0.00000000000000e+00,7.49973716947403e-01
3.13867952366110e-08,7.50000000000000e-01,0.00000000000000e+00,7.49984129613426e-01
3.22478279041112e-08,7.50000000000000e-01,0.00000000000000e+00,7.49970314719282e-01
3.39508101191527e-08,7.50000000000000e-01,0.00000000000000e+00,7.49992203790827e-01
3.51000000000000e-08,7.49999999999963e-01,0.00000000000000e+00,7.49973202869525e-01
3.51100000000000e-08,6.74999999999977e-01,0.00000000000000e+00,7.49877394047015e-01
3.51300000000000e-08,5.24999999999956e-01,0.00000000000000e+00,7.49787241271255e-01
3.51700000000000e-08,2.24999999999963e-01,0.00000000000000e+00,7.50915626906056e-01
3.52000000000000e-08,0.00000000000000e+00,0.00000000000000e+00,7.53430044320467e-01
3.52080000000000e-08,0.00000000000000e+00,0.00000000000000e+00,7.53907660874522e-01
3.52240000000000e-08,0.00000000000000e+00,0.00000000000000e+00,7.53635745730325e-01
3.52560000000000e-08,0.00000000000000e+00,0.00000000000000e+00,7.45824210199653e-01
3.53200000000000e-08,0.00000000000000e+00,0.00000000000000e+00,7.25304726979556e-01
3.54480000000000e-08,0.00000000000000e+00,0.00000000000000e+00,7.33978274249708e-01
3.56496539817832e-08,0.00000000000000e+00,0.00000000000000e+00,7.54016887009662e-01
3.59614581033931e-08,0.00000000000000e+00,0.00000000000000e+00,7.45741544058693e-01
3.63573266629848e-08,0.00000000000000e+00,0.00000000000000e+00,7.52503059020488e-01
3.71490637821682e-08,0.00000000000000e+00,0.00000000000000e+00,7.47286274968082e-01
3.87325380205349e-08,0.00000000000000e+00,0.00000000000000e+00,7.52225375051111e-01
3.91000000000000e-08,0.00000000000000e+00,0.00000000000000e+00,7.48105135598390e-01
3.93909479609720e-08,0.00000000000000e+00,0.00000000000000e+00,7.49747372387034e-01
3.99728438829159e-08,0.00000000000000e+00,0.00000000000000e+00,7.50025221297168e-01
4.11366357268039e-08,0.00000000000000e+00,0.00000000000000e+00,7.49801182187209e-01
4.34642194145797e-08,0.00000000000000e+00,0.00000000000000e+00,7.50033649283414e-01
4.50000000000000e-08,0.00000000000000e+00,0.00000000000000e+00,7.49829789927535e-01
4.50100000000000e-08,7.49999999999858e-02,0.00000000000000e+00,7.49962378748617e-01
4.50300000000000e-08,2.25000000000007e-01,0.00000000000000e+00,7.50094617460157e-01
4.50700000000000e-08,5.25000000000000e-01,0.00000000000000e+00,7.49946937789239e-01
4.51000000000000e-08,7.50000000000000e-01,0.00000000000000e+00,7.49573741631502e-01
4.51080000000000e-08,7.50000000000000e-01,0.00000000000000e+00,7.49452799194349e-01
4.51240000000000e-08,7.50000000000000e-01,0.00000000000000e+00,7.49348536769465e-01
4.51560000000000e-08,7.50000000000000e-01,0.00000000000000e+00,7.49720379731279e-01
4.52200000000000e-08,7.50000000000000e-01,0.00000000000000e+00,7.55485527431481e-01
4.53480000000000e-08,7.50000000000000e-01,0.00000000000000e+00,5.96374160138623e-01
4.56040000000000e-08,7.50000000000000e-01,0.00000000000000e+00,1.94401440462598e-02
4.58878761611953e-08,7.50000000000000e-01,0.00000000000000e+00,-1.44615184974719e-02
4.64556284835858e-08,7.50000000000000e-01,0.00000000000000e+00,1.30202039027602e-02
4.70418436585362e-08,7.50000000000000e-01,0.00000000000000e+00,-1.12626595606691e-02
4.82142740084370e-08,7.50000000000000e-01,0.00000000000000e+00,1.08602015325622e-02
5.00000000000000e-08,7.50000000000000e-01,0.00000000000000e+00,-1.02160787967624e-02
5.00100000000000e-08,7.50000000000000e-01,7.49999999999858e-02,-5.85192731432077e-03
5.00300000000000e-08,7.50000000000000e-01,2.24999999999957e-01,-1.49590548634088e-03
5.00700000000000e-08,7.50000000000000e-01,5.25000000000000e-01,-2.26741229675011e-04
5.01000000000000e-08,7.50000000000000e-01,7.50000000000000e-01,5.71617735752594e-05
5.01080000000000e-08,7.50000000000000e-01,7.50000000000000e-01,-5.89847155979539e-06
5.01240000000000e-08,7.50000000000000e-01,7.50000000000000e-01,-2.64881233431880e-05
5.01560000000000e-08,7.50000000000000e-01,7.50000000000000e-01,2.70437218104491e-05
5.02200000000000e-08,7.50000000000000e-01,7.50000000000000e-01,-7.41440585817071e-06
5.03480000000000e-08,7.50000000000000e-01,7.50000000000000e-01,4.95082866522681e-06
5.06040000000000e-08,7.50000000000000e-01,7.50000000000000e-01,-7.56373242843597e-06
5.11160000000001e-08,7.50000000000000e-01,7.50000000000000e-01,4.38633618716523e-06
5.21400000000002e-08,7.50000000000000e-01,7.50000000000000e-01,-5.40235781409503e-06
5.41880000000003e-08,7.50000000000000e-01,7.50000000000000e-01,4.65452498570442e-06
5.51000000000000e-08,7.50000000000000e-01,7.50000000000000e-01,-5.62460206212333e-06
5.51100000000000e-08,6.75000000000027e-01,7.50000000000000e-01,-9.83164541179943e-05
5.51300000000000e-08,5.25000000000005e-01,7.50000000000000e-01,-2.09884977050712e-04
5.51700000000000e-08,2.25000000000013e-01,7.50000000000000e-01,-6.86201682922050e-05
5.52000000000000e-08,0.00000000000000e+00,7.50000000000000e-01,3.09289771445106e-04
5.52080000000000e-08,0.00000000000000e+00,7.50000000000000e-01,4.56712968954665e-04
5.52240000000000e-08,0.00000000000000e+00,7.50000000000000e-01,5.08547522161840e-04
5.52560000000000e-08,0.00000000000000e+00,7.50000000000000e-01,-2.07790017438772e-04
5.53200000000000e-08,0.00000000000000e+00,7.50000000000000e-01,-1.30462068706044e-03
5.54480000000000e-08,0.00000000000000e+00,7.50000000000000e-01,-3.62305734724275e-06
5.56582686430931e-08,0.00000000000000e+00,7.50000000000000e-01,-1.49435690592645e-04
5.60090317761169e-08,0.00000000000000e+00,7.50000000000000e-01,1.35570362974598e-04
5.65566953682332e-08,0.00000000000000e+00,7.50000000000000e-01,2.70916121344993e-05
5.71869274084284e-08,0.00000000000000e+00,7.50000000000000e-01,-1.17579769269318e-04
5.84473914888188e-08,0.00000000000000e+00,7.50000000000000e-01,1.50080888699743e-04
6.09683196495996e-08,0.00000000000000e+00,7.50000000000000e-01,-1.63825999340240e-04
6.47683196495996e-08,0.00000000000000e+00,7.50000000000000e-01,1.71830238445291e-04
6.50000000000000e-08,0.00000000000000e+00,7.50000000000000e-01,-2.40846330416603e-04
6.50100000000000e-08,7.49999999999858e-02,7.50000000000000e-01,5.78039160818444e-05
6.50300000000000e-08,2.24999999999957e-01,7.50000000000000e-01,3.96931290508731e-04
6.50700000000000e-08,5.24999999999900e-01,7.50000000000000e-01,3.28699398252433e-04
6.51000000000000e-08,7.49999999999957e-01,7.50000000000000e-01,-2.41265115866532e-03
6.51080000000000e-08,7.50000000000000e-01,7.50000000000000e-01,-3.67902495651480e-03
6.51240000000000e-08,7.50000000000000e-01,7.50000000000000e-01,-5.80748702709519e-03
6.51560000000000e-08,7.50000000000000e-01,7.50000000000000e-01,-7.12668353121816e-03
6.52200000000000e-08,7.50000000000000e-01,7.50000000000000e-01,6.33126575754609e-02
6.53480000000000e-08,7.50000000000000e-01,7.50000000000000e-01,5.39417623878441e-01
6.56040000000000e-08,7.50000000000000e-01,7.50000000000000e-01,7.82253765091199e-01
6.58856302540325e-08,7.50000000000000e-01,7.50000000000000e-01,7.22301029421843e-01
6.64488907620974e-08,7.50000000000000e-01,7.50000000000000e-01,7.74328399223733e-01
6.71278013620753e-08,7.50000000000000e-01,7.50000000000000e-01,7.26641381653449e-01
6.84856225620309e-08,7.50000000000000e-01,7.50000000000000e-01,7.71648122648773e-01
7.01000000000000e-08,7.50000000000000e-01,7.50000000000000e-01,7.28303317882254e-01
7.01100000000000e-08,7.50000000000000e-01,6.75000000000014e-01,7.37284397978753e-01
7.01300000000000e-08,7.50000000000000e-01,5.25000000000043e-01,7.47805209111911e-01
7.01700000000000e-08,7.50000000000000e-01,2.25000000000100e-01,7.50440717092940e-01
7.02000000000000e-08,7.50000000000000e-01,4.29656310529936e-14,7.50000522291779e-01
7.02080000000000e-08,7.50000000000000e-01,0.00000000000000e+00,7.50003460218185e-01
7.02240000000000e-08,7.50000000000000e-01,0.00000000000000e+00,7.49992769969030e-01
7.02560000000000e-08,7.50000000000000e-01,0.00000000000000e+00,7.49963425043679e-01
7.03200000000000e-08,7.50000000000000e-01,0.00000000000000e+00,7.49965456082082e-01
7.04480000000000e-08,7.50000000000000e-01,0.00000000000000e+00,7.49992505687580e-01
7.06169862803187e-08,7.50000000000000e-01,0.00000000000000e+00,7.49969434470652e-01
7.09549588409563e-08,7.50000000000000e-01,0.00000000000000e+00,7.49970751862965e-01
7.13837008708500e-08,7.50000000000000e-01,0.00000000000000e+00,7.49986053637864e-01
7.22411849306375e-08,7.50000000000000e-01,0.00000000000000e+00,7.49967853571998e-01
7.39354112419018e-08,7.50000000000000e-01,0.00000000000000e+00,7.49994133652441e-01
7.51000000000000e-08,7.50000000000000e-01,0.00000000000000e+00,7.49971113279523e-01
7.51100000000000e-08,6.75000000000076e-01,0.00000000000000e+00,7.49875630520416e-01
7.51300000000000e-08,5.25000000000105e-01,0.00000000000000e+00,7.49786099247271e-01
7.51700000000000e-08,2.25000000000162e-01,0.00000000000000e+00,7.50915431593223e-01
7.52000000000000e-08,1.05027098129540e-13,0.00000000000000e+00,7.53428586305566e-01
7.52080000000000e-08,0.00000000000000e+00,0.00000000000000e+00,7.53904170597713e-01
7.52240000000000e-08,0.00000000000000e+00,0.00000000000000e+00,7.53624773830581e-01
7.52560000000000e-08,0.00000000000000e+00,0.00000000000000e+00,7.45796008146501e-01
7.53200000000000e-08,0.00000000000000e+00,0.00000000000000e+00,7.25285141314126e-01
7.54480000000000e-08,0.00000000000000e+00,0.00000000000000e+00,7.33989207310050e-01
7.56496533218166e-08,0.00000000000000e+00,0.00000000000000e+00,7.54009523523573e-01
7.59614585784628e-08,0.00000000000000e+00,0.00000000000000e+00,7.45747125620826e-01
7.63573255942744e-08,0.00000000000000e+00,0.00000000000000e+00,7.52498743594606e-01
7.71490596258975e-08,0.00000000000000e+00,0.00000000000000e+00,7.47290142126568e-01
7.81000000000000e-08,0.00000000000000e+00,0.00000000000000e+00,7.52101515051949e-01
7.82583468063246e-08,0.00000000000000e+00,0.00000000000000e+00,7.50165173240918e-01
7.85750404189739e-08,0.00000000000000e+00,0.00000000000000e+00,7.49655191854671e-01
7.92084276442724e-08,0.00000000000000e+00,0.00000000000000e+00,7.50073392169623e-01
8.04752020948695e-08,0.00000000000000e+00,0.00000000000000e+00,7.49736478527674e-01
8.30087509960636e-08,0.00000000000000e+00,0.00000000000000e+00,7.50087714114525e-01
8.50000000000000e-08,0.00000000000000e+00,0.00000000000000e+00,7.49774870117773e-01
8.50100000000000e-08,7.49999999999858e-02,0.00000000000000e+00,7.49922819004440e-01
8.50300000000000e-08,2.24999999999957e-01,0.00000000000000e+00,7.50076303367529e-01
8.50700000000000e-08,5.24999999999900e-01,0.00000000000000e+00,7.49945051155966e-01
8.51000000000000e-08,7.49999999999957e-01,0.00000000000000e+00,7.49573086178371e-01
8.51080000000000e-08,7.50000000000000e-01,0.00000000000000e+00,7.49452604621727e-01
8.51240000000000e-08,7.50000000000000e-01,0.00000000000000e+00,7.49348641291844e-01
8.51560000000000e-08,7.50000000000000e-01,0.00000000000000e+00,7.49720399845554e-01
8.52200000000000e-08,7.50000000000000e-01,0.00000000000000e+00,7.55486885757118e-01
8.53480000000000e-08,7.50000000000000e-01,0.00000000000000e+00,5.96324813968723e-01
8.56040000000000e-08,7.50000000000000e-01,0.00000000000000e+00,1.94195019940194e-02
8.58878815680575e-08,7.50000000000000e-01,0.00000000000000e+00,-1.44478507260006e-02
8.64556447041726e-08,7.50000000000000e-01,0.00000000000000e+00,1.30085448060792e-02
8.70418452524191e-08,7.50000000000000e-01,0.00000000000000e+00,-1.12530603199549e-02
8.82142463489121e-08,7.50000000000000e-01,0.00000000000000e+00,1.08511815199551e-02
9.00000000000000e-08,7.50000000000000e-01,0.00000000000000e+00,-1.02077282079064e-02
9.00100000000000e-08,7.50000000000000e-01,7.49999999999858e-02,-5.84621831428411e-03
9.00300000000000e-08,7.50000000000000e-01,2.24999999999957e-01,-1.49351412737032e-03
9.00700000000000e-08,7.50000000000000e-01,5.24999999999900e-01,-2.26370767282755e-04
9.01000000000000e-08,7.50000000000000e-01,7.49999999999957e-01,5.72449637526173e-05
9.01080000000000e-08,7.50000000000000e-01,7.50000000000000e-01,-5.82150028184680e-06
9.01240000000000e-08,7.50000000000000e-01,7.50000000000000e-01,-2.64435475902103e-05
9.01560000000000e-08,7.50000000000000e-01,7.50000000000000e-01,2.70403013332005e-05
9.02200000000000e-08,7.50000000000000e-01,7.50000000000000e-01,-7.41210272391796e-06
9.03480000000000e-08,7.50000000000000e-01,7.50000000000000e-01,4.94953202210754e-06
9.06040000000000e-08,7.50000000000000e-01,7.50000000000000e-01,-7.56160408691212e-06
9.11159999999999e-08,7.50000000000000e-01,7.50000000000000e-01,4.38513937709578e-06
9.21399999999999e-08,7.50000000000000e-01,7.50000000000000e-01,-5.40063730700840e-06
9.41879999999998e-08,7.50000000000000e-01,7.50000000000000e-01,4.65327313354516e-06
9.51000000000000e-08,7.50000000000000e-01,7.50000000000000e-01,-5.62287230758754e-06
9.51100000000000e-08,6.75000000000076e-01,7.50000000000000e-01,-9.83119387550774e-05
9.51300000000000e-08,5.25000000000105e-01,7.50000000000000e-01,-2.09887654199714e-04
9.51700000000000e-08,2.25000000000162e-01,7.50000000000000e-01,-6.86197307231545e-05
9.52000000000000e-08,1.05027098129540e-13,7.50000000000000e-01,3.09292346324527e-04
9.52080000000000e-08,0.00000000000000e+00,7.50000000000000e-01,4.56718542816911e-04
9.52240000000000e-08,0.00000000000000e+00,7.50000000000000e-01,5.08566138384473e-04
9.52560000000000e-08,0.00000000000000e+00,7.50000000000000e-01,-2.07725514726156e-04
9.53200000000000e-08,0.00000000000000e+00,7.50000000000000e-01,-1.30441359137496e-03
9.54480000000000e-08,0.00000000000000e+00,7.50000000000000e-01,-3.63147632322786e-06
9.56582885317994e-08,0.00000000000000e+00,7.50000000000000e-01,-1.49439351930469e-04
9.60090609305085e-08,0.00000000000000e+00,7.50000000000000e-01,1.35595343576000e-04
9.65567789885149e-08,0.00000000000000e+00,7.50000000000000e-01,2.70348175262659e-05
9.71870255537235e-08,0.00000000000000e+00,7.50000000000000e-01,-1.17516291091818e-04
9.84475186841406e-08,0.00000000000000e+00,7.50000000000000e-01,1.50016437089940e-04
1.00968504944975e-07,0.00000000000000e+00,7.50000000000000e-01,-1.63761006488835e-04
1.04768504944975e-07,0.00000000000000e+00,7.50000000000000e-01,1.71765695536220e-04
1.05000000000000e-07,0.00000000000000e+00,7.50000000000000e-01,-2.40811357415018e-04
1.05010000000000e-07,7.49999999999858e-02,7.50000000000000e-01,5.78023583715503e-05
1.05030000000000e-07,2.24999999999957e-01,7.50000000000000e-01,3.96897909345925e-04
1.05070000000000e-07,5.24999999999900e-01,7.50000000000000e-01,3.28660481710756e-04
1.05100000000000e-07,7.49999999999957e-01,7.50000000000000e-01,-2.41270626485866e-03
1.05108000000000e-07,7.50000000000000e-01,7.50000000000000e-01,-3.67907569179558e-03
1.05124000000000e-07,7.50000000000000e-01,7.50000000000000e-01,-5.80752496823553e-03
1.05156000000000e-07,7.50000000000000e-01,7.50000000000000e-01,-7.12666933503117e-03
1.05220000000000e-07,7.50000000000000e-01,7.50000000000000e-01,6.33132939703734e-02
1.05348000000000e-07,7.50000000000000e-01,7.50000000000000e-01,5.39418623264926e-01
1.05604000000000e-07,7.50000000000000e-01,7.50000000000000e-01,7.82253732246318e-01
1.05885630270941e-07,7.50000000000000e-01,7.50000000000000e-01,7.22301049466722e-01
1.06448890812823e-07,7.50000000000000e-01,7.50000000000000e-01,7.74328374064390e-01
