Time,v(clk),v(data),v(out)
1.00000000000000e-08,7.50000000000000e-01,0.00000000000000e+00,4.29007705324350e-05
1.00100000000000e-08,7.50000000000000e-01,7.49999999999982e-02,3.23765573605334e-05
1.00300000000000e-08,7.50000000000000e-01,2.24999999999995e-01,1.83761559250234e-05
1.00700000000000e-08,7.50000000000000e-01,5.24999999999987e-01,5.33210882393276e-06
1.01000000000000e-08,7.50000000000000e-01,7.49999999999994e-01,9.38876928660570e-07
1.01080000000000e-08,7.50000000000000e-01,7.50000000000000e-01,1.60684332659033e-06
1.01240000000000e-08,7.50000000000000e-01,7.50000000000000e-01,3.56465572899645e-06
1.01560000000000e-08,7.50000000000000e-01,7.50000000000000e-01,9.32529801647708e-06
1.02200000000000e-08,7.50000000000000e-01,7.50000000000000e-01,1.05311205267702e-05
1.03480000000000e-08,7.50000000000000e-01,7.50000000000000e-01,7.70399389700416e-06
1.06040000000000e-08,7.50000000000000e-01,7.50000000000000e-01,6.69916833358208e-06
1.11160000000000e-08,7.50000000000000e-01,7.50000000000000e-01,6.77711358950187e-06
1.21400000000000e-08,7.50000000000000e-01,7.50000000000000e-01,6.56171026799327e-06
1.41880000000000e-08,7.50000000000000e-01,7.50000000000000e-01,5.80824036883806e-06
1.51000000000000e-08,7.50000000000000e-01,7.50000000000000e-01,6.11258033480274e-06
1.51100000000000e-08,6.74999999999989e-01,7.50000000000000e-01,-1.03829051367382e-04
1.51300000000000e-08,5.24999999999993e-01,7.50000000000000e-01,-2.64175885106160e-04
1.51700000000000e-08,2.25000000000000e-01,7.50000000000000e-01,-1.80013355602887e-04
1.52000000000000e-08,0.00000000000000e+00,7.50000000000000e-01,2.42423651440726e-04
1.52080000000000e-08,0.00000000000000e+00,7.50000000000000e-01,4.42693107161579e-04
1.52240000000000e-08,0.00000000000000e+00,7.50000000000000e-01,6.54209993333377e-04
1.52560000000000e-08,0.00000000000000e+00,7.50000000000000e-01,4.77354080278158e-04
1.53200000000000e-08,0.00000000000000e+00,7.50000000000000e-01,-1.49207495567127e-04
1.54480000000000e-08,0.00000000000000e+00,7.50000000000000e-01,-3.48982536663094e-04
1.57040000000000e-08,0.00000000000000e+00,7.50000000000000e-01,-1.10102095779097e-04
1.60974266550286e-08,0.00000000000000e+00,7.50000000000000e-01,6.82578862166404e-05
1.65894519277649e-08,0.00000000000000e+00,7.50000000000000e-01,2.00443495292213e-04
1.75448249463434e-08,0.00000000000000e+00,7.50000000000000e-01,-2.47905808486829e-04
1.85566229576044e-08,0.00000000000000e+00,7.50000000000000e-01,2.80028336201551e-04
2.05666176693202e-08,0.00000000000000e+00,7.50000000000000e-01,-2.75759754854371e-04
2.34192701712853e-08,0.00000000000000e+00,7.50000000000000e-01,2.84489402187303e-04
2.50000000000000e-08,0.00000000000000e+00,7.50000000000000e-01,-2.73248464134235e-04
2.50100000000000e-08,7.49999999999858e-02,7.50000000000000e-01,-3.18541821116014e-05
2.50300000000000e-08,2.25000000000007e-01,7.50000000000000e-01,3.26912458726195e-04
2.50700000000000e-08,5.25000000000000e-01,7.50000000000000e-01,3.90093468210950e-04
2.51000000000000e-08,7.50000000000000e-01,7.50000000000000e-01,-1.45757500593822e-03
2.51080000000000e-08,7.50000000000000e-01,7.50000000000000e-01,-2.45817620021001e-03
2.51240000000000e-08,7.50000000000000e-01,7.50000000000000e-01,-4.28978599568189e-03
2.51560000000000e-08,7.50000000000000e-01,7.50000000000000e-01,-6.57843085529178e-03
2.52200000000000e-08,7.50000000000000e-01,7.50000000000000e-01,5.07427877629581e-03
2.53480000000000e-08,7.50000000000000e-01,7.50000000000000e-01,2.68729504945169e-01
2.56040000000000e-08,7.50000000000000e-01,7.50000000000000e-01,7.39206724593749e-01
2.60038181501956e-08,7.50000000000000e-01,7.50000000000000e-01,7.51502453837422e-01
2.65504389632566e-08,7.50000000000000e-01,7.50000000000000e-01,7.49167682009299e-01
2.73274733554392e-08,7.50000000000000e-01,7.50000000000000e-01,7.50241325622699e-01
2.83812577028194e-08,7.50000000000000e-01,7.50000000000000e-01,7.49817894627898e-01
3.01000000000000e-08,7.50000000000000e-01,7.50000000000000e-01,7.49980199884755e-01
3.01100000000000e-08,7.50000000000000e-01,6.75000000000039e-01,7.50270430516163e-01
3.01300000000000e-08,7.50000000000000e-01,5.25000000000018e-01,7.50383880482712e-01
3.01700000000000e-08,7.50000000000000e-01,2.25000000000025e-01,7.50110041245917e-01
3.02000000000000e-08,7.50000000000000e-01,1.80966353013901e-14,7.50104928392674e-01
3.02080000000000e-08,7.50000000000000e-01,0.00000000000000e+00,7.50085094381876e-01
3.02240000000000e-08,7.50000000000000e-01,0.00000000000000e+00,7.50056304659752e-01
3.02560000000000e-08,7.50000000000000e-01,0.00000000000000e+00,7.50014623352358e-01
3.03200000000000e-08,7.50000000000000e-01,0.00000000000000e+00,7.49939156371862e-01
3.04480000000000e-08,7.50000000000000e-01,0.00000000000000e+00,7.49980235969468e-01
3.06413224936376e-08,7.50000000000000e-01,0.00000000000000e+00,7.49967273472954e-01
3.10279674809129e-08,7.50000000000000e-01,0.00000000000000e+00,7.49939227723044e-01
3.14410257681739e-08,7.50000000000000e-01,0.00000000000000e+00,7.49979441465964e-01
3.22671423426961e-08,7.50000000000000e-01,0.00000000000000e+00,7.49943061001339e-01
3.39193754917403e-08,7.50000000000000e-01,0.00000000000000e+00,7.49985676092205e-01
3.51000000000000e-08,7.49999999999963e-01,0.00000000000000e+00,7.49950669235156e-01
3.51100000000000e-08,6.74999999999977e-01,0.00000000000000e+00,7.49846868979696e-01
3.51300000000000e-08,5.24999999999956e-01,0.00000000000000e+00,7.49738578415985e-01
3.51700000000000e-08,2.24999999999963e-01,0.00000000000000e+00,7.50846555081149e-01
3.52000000000000e-08,0.00000000000000e+00,0.00000000000000e+00,7.53311621303785e-01
3.52080000000000e-08,0.00000000000000e+00,0.00000000000000e+00,7.53909503402898e-01
3.52240000000000e-08,0.00000000000000e+00,0.00000000000000e+00,7.54447299528703e-01
3.52560000000000e-08,0.00000000000000e+00,0.00000000000000e+00,7.51550362266351e-01
3.53200000000000e-08,0.00000000000000e+00,0.00000000000000e+00,7.34423324100535e-01
3.54480000000000e-08,0.00000000000000e+00,0.00000000000000e+00,7.24559964063768e-01
3.56907811051847e-08,0.00000000000000e+00,0.00000000000000e+00,7.50508279735834e-01
3.59662742315005e-08,0.00000000000000e+00,0.00000000000000e+00,7.47949611533344e-01
3.65172604841322e-08,0.00000000000000e+00,0.00000000000000e+00,7.50586307852894e-01
3.71054063271055e-08,0.00000000000000e+00,0.00000000000000e+00,7.48721076762453e-01
3.82816980130520e-08,0.00000000000000e+00,0.00000000000000e+00,7.50546928820309e-01
3.91000000000000e-08,0.00000000000000e+00,0.00000000000000e+00,7.49033254955687e-01
3.93352583371893e-08,0.00000000000000e+00,0.00000000000000e+00,7.49675997914384e-01
3.98057750115679e-08,0.00000000000000e+00,0.00000000000000e+00,7.49829042290288e-01
4.07468083603251e-08,0.00000000000000e+00,0.00000000000000e+00,7.49721675844753e-01
4.26288750578395e-08,0.00000000000000e+00,0.00000000000000e+00,7.49844096672912e-01
4.50000000000000e-08,0.00000000000000e+00,0.00000000000000e+00,7.49745354952617e-01
4.50100000000000e-08,7.49999999999858e-02,0.00000000000000e+00,7.49873131431283e-01
4.50300000000000e-08,2.25000000000007e-01,0.00000000000000e+00,7.50008656988294e-01
4.50700000000000e-08,5.25000000000000e-01,0.00000000000000e+00,7.49912745247496e-01
4.51000000000000e-08,7.50000000000000e-01,0.00000000000000e+00,7.49589214905993e-01
4.51080000000000e-08,7.50000000000000e-01,0.00000000000000e+00,7.49450670243169e-01
4.51240000000000e-08,7.50000000000000e-01,0.00000000000000e+00,7.49280239103691e-01
4.51560000000000e-08,7.50000000000000e-01,0.00000000000000e+00,7.49254223521873e-01
4.52200000000000e-08,7.50000000000000e-01,0.00000000000000e+00,7.50838040473395e-01
4.53480000000000e-08,7.50000000000000e-01,0.00000000000000e+00,7.63814389265147e-01
4.56040000000000e-08,7.50000000000000e-01,0.00000000000000e+00,2.56628177922524e-01
4.59545977502967e-08,7.50000000000000e-01,0.00000000000000e+00,-8.50870539785258e-02
4.63747916467809e-08,7.50000000000000e-01,0.00000000000000e+00,6.48501694137284e-02
4.71143086742449e-08,7.50000000000000e-01,0.00000000000000e+00,-4.55881376448491e-02
4.78756430127985e-08,7.50000000000000e-01,0.00000000000000e+00,3.96945074428742e-02
4.93983116899055e-08,7.50000000000000e-01,0.00000000000000e+00,-3.29508821141679e-02
5.00000000000000e-08,7.50000000000000e-01,0.00000000000000e+00,2.64318697232888e-02
5.00100000000000e-08,7.50000000000000e-01,7.49999999999858e-02,2.14930123237852e-02
5.00300000000000e-08,7.50000000000000e-01,2.24999999999957e-01,1.32839459802642e-02
5.00700000000000e-08,7.50000000000000e-01,5.25000000000000e-01,4.56362841915503e-03
5.01000000000000e-08,7.50000000000000e-01,7.50000000000000e-01,2.10516792195475e-03
5.01080000000000e-08,7.50000000000000e-01,7.50000000000000e-01,1.75217075247439e-03
5.01240000000000e-08,7.50000000000000e-01,7.50000000000000e-01,1.15839337481634e-03
5.01560000000000e-08,7.50000000000000e-01,7.50000000000000e-01,5.05345899782086e-04
5.02200000000000e-08,7.50000000000000e-01,7.50000000000000e-01,6.75082951416064e-05
5.03480000000000e-08,7.50000000000000e-01,7.50000000000000e-01,-1.25476030976499e-05
5.06040000000000e-08,7.50000000000000e-01,7.50000000000000e-01,8.68421714472767e-06
5.11160000000001e-08,7.50000000000000e-01,7.50000000000000e-01,-4.40847726129213e-06
5.21400000000002e-08,7.50000000000000e-01,7.50000000000000e-01,7.55972589846533e-06
5.41880000000003e-08,7.50000000000000e-01,7.50000000000000e-01,-2.00229930172281e-06
5.51000000000000e-08,7.50000000000000e-01,7.50000000000000e-01,5.77155396724784e-06
5.51100000000000e-08,6.75000000000027e-01,7.50000000000000e-01,-1.06686212055812e-04
5.51300000000000e-08,5.25000000000005e-01,7.50000000000000e-01,-2.68999414430371e-04
5.51700000000000e-08,2.25000000000013e-01,7.50000000000000e-01,-1.77980279142967e-04
5.52000000000000e-08,0.00000000000000e+00,7.50000000000000e-01,2.29326887950188e-04
5.52080000000000e-08,0.00000000000000e+00,7.50000000000000e-01,4.25005657304092e-04
5.52240000000000e-08,0.00000000000000e+00,7.50000000000000e-01,6.16823064935795e-04
5.52560000000000e-08,0.00000000000000e+00,7.50000000000000e-01,2.91039867585344e-04
5.53200000000000e-08,0.00000000000000e+00,7.50000000000000e-01,-1.07382444692969e-03
5.54480000000000e-08,0.00000000000000e+00,7.50000000000000e-01,-7.99935122809438e-04
5.56730338847151e-08,0.00000000000000e+00,7.50000000000000e-01,2.23098153184213e-04
5.60840069598400e-08,0.00000000000000e+00,7.50000000000000e-01,-2.36495283356007e-04
5.65279035166832e-08,0.00000000000000e+00,7.50000000000000e-01,4.92518790494501e-04
5.66388776558940e-08,0.00000000000000e+00,7.50000000000000e-01,4.25848629843212e-06
5.68608259343157e-08,0.00000000000000e+00,7.50000000000000e-01,-8.78205435641197e-05
5.73047224911589e-08,0.00000000000000e+00,7.50000000000000e-01,8.75867997101615e-05
5.81925156048454e-08,0.00000000000000e+00,7.50000000000000e-01,-7.04965129443040e-05
5.99681018322184e-08,0.00000000000000e+00,7.50000000000000e-01,7.59092380422828e-05
6.35192742869644e-08,0.00000000000000e+00,7.50000000000000e-01,-6.44772583668803e-05
6.50000000000000e-08,0.00000000000000e+00,7.50000000000000e-01,6.90822502676528e-05
6.50100000000000e-08,7.49999999999858e-02,7.50000000000000e-01,2.40974864733956e-04
6.50300000000000e-08,2.24999999999957e-01,7.50000000000000e-01,4.80463115310206e-04
6.50700000000000e-08,5.24999999999900e-01,7.50000000000000e-01,4.47653337172539e-04
6.51000000000000e-08,7.49999999999957e-01,7.50000000000000e-01,-1.41554084741889e-03
6.51080000000000e-08,7.50000000000000e-01,7.50000000000000e-01,-2.42087996277078e-03
6.51240000000000e-08,7.50000000000000e-01,7.50000000000000e-01,-4.26344403992489e-03
6.51560000000000e-08,7.50000000000000e-01,7.50000000000000e-01,-6.58636938747467e-03
6.52200000000000e-08,7.50000000000000e-01,7.50000000000000e-01,4.39448743908688e-03
6.53480000000000e-08,7.50000000000000e-01,7.50000000000000e-01,2.65051531583201e-01
6.56040000000000e-08,7.50000000000000e-01,7.50000000000000e-01,7.38170615499638e-01
6.60062149144024e-08,7.50000000000000e-01,7.50000000000000e-01,7.51991227402689e-01
6.65501189017157e-08,7.50000000000000e-01,7.50000000000000e-01,7.48702868920064e-01
6.73310442043970e-08,7.50000000000000e-01,7.50000000000000e-01,7.50638969000148e-01
6.83826806186950e-08,7.50000000000000e-01,7.50000000000000e-01,7.49430859272038e-01
7.01000000000000e-08,7.50000000000000e-01,7.50000000000000e-01,7.50337742532608e-01
7.01100000000000e-08,7.50000000000000e-01,6.75000000000014e-01,7.50496942200303e-01
7.01300000000000e-08,7.50000000000000e-01,5.25000000000043e-01,7.50447296368034e-01
7.01700000000000e-08,7.50000000000000e-01,2.25000000000100e-01,7.50105576610928e-01
7.02000000000000e-08,7.50000000000000e-01,4.29656310529936e-14,7.50103854193420e-01
7.02080000000000e-08,7.50000000000000e-01,0.00000000000000e+00,7.50083838520021e-01
7.02240000000000e-08,7.50000000000000e-01,0.00000000000000e+00,7.50055093547793e-01
7.02560000000000e-08,7.50000000000000e-01,0.00000000000000e+00,7.50013963611584e-01
7.03200000000000e-08,7.50000000000000e-01,0.00000000000000e+00,7.49939528820470e-01
7.04480000000000e-08,7.50000000000000e-01,0.00000000000000e+00,7.49980287981564e-01
7.06411726587966e-08,7.50000000000000e-01,0.00000000000000e+00,7.49967098962854e-01
7.10275179763900e-08,7.50000000000000e-01,0.00000000000000e+00,7.49939346693226e-01
7.14400771913848e-08,7.50000000000000e-01,0.00000000000000e+00,7.49979283962237e-01
7.22651956213745e-08,7.50000000000000e-01,0.00000000000000e+00,7.49943173667711e-01
7.39154324813539e-08,7.50000000000000e-01,0.00000000000000e+00,7.49985534877814e-01
7.51000000000000e-08,7.50000000000000e-01,0.00000000000000e+00,7.49950772235011e-01
7.51100000000000e-08,6.75000000000076e-01,0.00000000000000e+00,7.49846956651627e-01
7.51300000000000e-08,5.25000000000105e-01,0.00000000000000e+00,7.49738634355553e-01
7.51700000000000e-08,2.25000000000162e-01,0.00000000000000e+00,7.50846558597072e-01
7.52000000000000e-08,1.05027098129540e-13,0.00000000000000e+00,7.53311593965202e-01
7.52080000000000e-08,0.00000000000000e+00,0.00000000000000e+00,7.53909460931898e-01
7.52240000000000e-08,0.00000000000000e+00,0.00000000000000e+00,7.54447177377906e-01
7.52560000000000e-08,0.00000000000000e+00,0.00000000000000e+00,7.51549776691831e-01
7.53200000000000e-08,0.00000000000000e+00,0.00000000000000e+00,7.34422306160235e-01
7.54480000000000e-08,0.00000000000000e+00,0.00000000000000e+00,7.24559861223402e-01
7.56907811664622e-08,0.00000000000000e+00,0.00000000000000e+00,7.50508469801439e-01
7.59662742920290e-08,0.00000000000000e+00,0.00000000000000e+00,7.47949467846665e-01
7.65172605431627e-08,0.00000000000000e+00,0.00000000000000e+00,7.50586410404091e-01
7.71054064896103e-08,0.00000000000000e+00,0.00000000000000e+00,7.48720990201568e-01
7.81000000000000e-08,0.00000000000000e+00,0.00000000000000e+00,7.50521981057909e-01
7.82176291892895e-08,0.00000000000000e+00,0.00000000000000e+00,7.49874930658321e-01
7.84528875678686e-08,0.00000000000000e+00,0.00000000000000e+00,7.49632017065752e-01
7.89234043250267e-08,0.00000000000000e+00,0.00000000000000e+00,7.49820500763675e-01
7.98644378393430e-08,0.00000000000000e+00,0.00000000000000e+00,7.49699171756855e-01
8.17465048679755e-08,0.00000000000000e+00,0.00000000000000e+00,7.49848996038078e-01
8.50000000000000e-08,0.00000000000000e+00,0.00000000000000e+00,7.49736665709747e-01
8.50100000000000e-08,7.49999999999858e-02,0.00000000000000e+00,7.49863312009189e-01
8.50300000000000e-08,2.24999999999957e-01,0.00000000000000e+00,7.49998654094521e-01
8.50700000000000e-08,5.24999999999900e-01,0.00000000000000e+00,7.49908930844952e-01
8.51000000000000e-08,7.49999999999957e-01,0.00000000000000e+00,7.49587961789428e-01
8.51080000000000e-08,7.50000000000000e-01,0.00000000000000e+00,7.49450255997928e-01
8.51240000000000e-08,7.50000000000000e-01,0.00000000000000e+00,7.49281762080182e-01
8.51560000000000e-08,7.50000000000000e-01,0.00000000000000e+00,7.49255993275506e-01
8.52200000000000e-08,7.50000000000000e-01,0.00000000000000e+00,7.50839152381489e-01
8.53480000000000e-08,7.50000000000000e-01,0.00000000000000e+00,7.63814831830431e-01
8.56040000000000e-08,7.50000000000000e-01,0.00000000000000e+00,2.56639141790377e-01
8.59546126042656e-08,7.50000000000000e-01,0.00000000000000e+00,-8.50895794377216e-02
8.63747902195353e-08,7.50000000000000e-01,0.00000000000000e+00,6.48513012204195e-02
8.71143330938242e-08,7.50000000000000e-01,0.00000000000000e+00,-4.55875938580833e-02
8.78756484317185e-08,7.50000000000000e-01,0.00000000000000e+00,3.96952745074509e-02
8.93982791075071e-08,7.50000000000000e-01,0.00000000000000e+00,-3.29512210705748e-02
9.00000000000000e-08,7.50000000000000e-01,0.00000000000000e+00,2.64325263063049e-02
9.00100000000000e-08,7.50000000000000e-01,7.49999999999858e-02,2.14937891190505e-02
9.00300000000000e-08,7.50000000000000e-01,2.24999999999957e-01,1.32845998120941e-02
9.00700000000000e-08,7.50000000000000e-01,5.24999999999900e-01,4.56381759568929e-03
9.01000000000000e-08,7.50000000000000e-01,7.49999999999957e-01,2.10528860430557e-03
9.01080000000000e-08,7.50000000000000e-01,7.50000000000000e-01,1.75226438413152e-03
9.01240000000000e-08,7.50000000000000e-01,7.50000000000000e-01,1.15845065616492e-03
9.01560000000000e-08,7.50000000000000e-01,7.50000000000000e-01,5.05370944056074e-04
9.02200000000000e-08,7.50000000000000e-01,7.50000000000000e-01,6.75052814704258e-05
9.03480000000000e-08,7.50000000000000e-01,7.50000000000000e-01,-1.25452290728398e-05
9.06040000000000e-08,7.50000000000000e-01,7.50000000000000e-01,8.68341577644691e-06
9.11159999999999e-08,7.50000000000000e-01,7.50000000000000e-01,-4.40710273220610e-06
9.21399999999999e-08,7.50000000000000e-01,7.50000000000000e-01,7.55869384055398e-06
9.41879999999998e-08,7.50000000000000e-01,7.50000000000000e-01,-2.00087630658182e-06
9.51000000000000e-08,7.50000000000000e-01,7.50000000000000e-01,5.77050548419746e-06
9.51100000000000e-08,6.75000000000076e-01,7.50000000000000e-01,-1.06686508718229e-04
9.51300000000000e-08,5.25000000000105e-01,7.50000000000000e-01,-2.68998736406470e-04
9.51700000000000e-08,2.25000000000162e-01,7.50000000000000e-01,-1.77979858953459e-04
9.52000000000000e-08,1.05027098129540e-13,7.50000000000000e-01,2.29327027929868e-04
9.52080000000000e-08,0.00000000000000e+00,7.50000000000000e-01,4.25006264399730e-04
9.52240000000000e-08,0.00000000000000e+00,7.50000000000000e-01,6.16825472743734e-04
9.52560000000000e-08,0.00000000000000e+00,7.50000000000000e-01,2.91050903981904e-04
9.53200000000000e-08,0.00000000000000e+00,7.50000000000000e-01,-1.07377434121903e-03
9.54480000000000e-08,0.00000000000000e+00,7.50000000000000e-01,-7.99905900766562e-04
9.56730383648274e-08,0.00000000000000e+00,7.50000000000000e-01,2.23085224219426e-04
9.60840084049277e-08,0.00000000000000e+00,7.50000000000000e-01,-2.36481614511062e-04
9.65279116171147e-08,0.00000000000000e+00,7.50000000000000e-01,4.92503335978471e-04
9.66388874201614e-08,0.00000000000000e+00,7.50000000000000e-01,4.25421398555018e-06
9.68608390262549e-08,0.00000000000000e+00,7.50000000000000e-01,-8.78168492691490e-05
9.73047422384419e-08,0.00000000000000e+00,7.50000000000000e-01,8.75846834538646e-05
9.81925486628159e-08,0.00000000000000e+00,7.50000000000000e-01,-7.04950364429774e-05
9.99681615115638e-08,0.00000000000000e+00,7.50000000000000e-01,7.59080331089262e-05
1.03519387209060e-07,0.00000000000000e+00,7.50000000000000e-01,-6.44761834357693e-05
1.05000000000000e-07,0.00000000000000e+00,7.50000000000000e-01,6.90810175718419e-05
1.05010000000000e-07,7.49999999999858e-02,7.50000000000000e-01,2.40973830884769e-04
1.05030000000000e-07,2.24999999999957e-01,7.50000000000000e-01,4.80462385348532e-04
1.05070000000000e-07,5.24999999999900e-01,7.50000000000000e-01,4.47651957498039e-04
1.05100000000000e-07,7.49999999999957e-01,7.50000000000000e-01,-1.41554336831885e-03
1.05108000000000e-07,7.50000000000000e-01,7.50000000000000e-01,-2.42088249717247e-03
1.05124000000000e-07,7.50000000000000e-01,7.50000000000000e-01,-4.26344627901509e-03
1.05156000000000e-07,7.50000000000000e-01,7.50000000000000e-01,-6.58637023780127e-03
