Time,v(clk),v(data),v(out)
1.00000000000000e-08,7.50000000000000e-01,0.00000000000000e+00,1.12705614303751e-05
1.00100000000000e-08,7.50000000000000e-01,7.49999999999982e-02,1.40292509133166e-05
1.00300000000000e-08,7.50000000000000e-01,2.24999999999995e-01,1.39344985265050e-05
1.00700000000000e-08,7.50000000000000e-01,5.24999999999987e-01,8.81763755376797e-06
1.01000000000000e-08,7.50000000000000e-01,7.49999999999994e-01,6.98234623004723e-06
1.01080000000000e-08,7.50000000000000e-01,7.50000000000000e-01,6.41847455452871e-06
1.01240000000000e-08,7.50000000000000e-01,7.50000000000000e-01,7.75356478804889e-06
1.01560000000000e-08,7.50000000000000e-01,7.50000000000000e-01,1.14716282714339e-05
1.02200000000000e-08,7.50000000000000e-01,7.50000000000000e-01,1.19082157666317e-05
1.03480000000000e-08,7.50000000000000e-01,7.50000000000000e-01,9.30761495137461e-06
1.06040000000000e-08,7.50000000000000e-01,7.50000000000000e-01,8.92193995374879e-06
1.10578611318460e-08,7.50000000000000e-01,7.50000000000000e-01,8.42193617318215e-06
1.19655833955379e-08,7.50000000000000e-01,7.50000000000000e-01,9.32793546629292e-06
1.37810279229218e-08,7.50000000000000e-01,7.50000000000000e-01,8.16130800275917e-06
1.51000000000000e-08,7.50000000000000e-01,7.50000000000000e-01,8.90823454769048e-06
1.51100000000000e-08,6.74999999999989e-01,7.50000000000000e-01,-8.45116939522800e-05
1.51300000000000e-08,5.24999999999993e-01,7.50000000000000e-01,-2.10580282813302e-04
1.51700000000000e-08,2.25000000000000e-01,7.50000000000000e-01,3.77903480497099e-05
1.52000000000000e-08,0.00000000000000e+00,7.50000000000000e-01,6.15543702855076e-04
1.52080000000000e-08,0.00000000000000e+00,7.50000000000000e-01,7.95142283547129e-04
1.52240000000000e-08,0.00000000000000e+00,7.50000000000000e-01,8.92261442658873e-04
1.52560000000000e-08,0.00000000000000e+00,7.50000000000000e-01,2.12097035505857e-04
1.53200000000000e-08,0.00000000000000e+00,7.50000000000000e-01,-5.54238182755754e-04
1.54480000000000e-08,0.00000000000000e+00,7.50000000000000e-01,-2.02126006033504e-05
1.56443466111638e-08,0.00000000000000e+00,7.50000000000000e-01,-2.16182135215549e-04
1.59929040103869e-08,0.00000000000000e+00,7.50000000000000e-01,8.53911994357220e-05
1.63940035340281e-08,0.00000000000000e+00,7.50000000000000e-01,2.05611508337360e-04
1.71747171765695e-08,0.00000000000000e+00,7.50000000000000e-01,-2.42558627351482e-04
1.81964031532402e-08,0.00000000000000e+00,7.50000000000000e-01,2.72470463393230e-04
2.02230817458066e-08,0.00000000000000e+00,7.50000000000000e-01,-2.62188362627259e-04
2.33563848723983e-08,0.00000000000000e+00,7.50000000000000e-01,2.75442286633441e-04
2.50000000000000e-08,0.00000000000000e+00,7.50000000000000e-01,-2.61160143606156e-04
2.50100000000000e-08,7.49999999999858e-02,7.50000000000000e-01,-1.92567861030529e-05
2.50300000000000e-08,2.25000000000007e-01,7.50000000000000e-01,3.44864569408646e-04
2.50700000000000e-08,5.25000000000000e-01,7.50000000000000e-01,7.84183668367883e-04
2.51000000000000e-08,7.50000000000000e-01,7.50000000000000e-01,5.86584850355176e-04
2.51080000000000e-08,7.50000000000000e-01,7.50000000000000e-01,2.03018163792437e-04
2.51240000000000e-08,7.50000000000000e-01,7.50000000000000e-01,-7.17794403853680e-04
2.51560000000000e-08,7.50000000000000e-01,7.50000000000000e-01,-2.86728355333198e-03
2.52200000000000e-08,7.50000000000000e-01,7.50000000000000e-01,-5.94365010521976e-03
2.53480000000000e-08,7.50000000000000e-01,7.50000000000000e-01,4.00219861443732e-02
2.56040000000000e-08,7.50000000000000e-01,7.50000000000000e-01,6.53869221701639e-01
2.60508223765862e-08,7.50000000000000e-01,7.50000000000000e-01,7.69826051415863e-01
2.65075619558346e-08,7.50000000000000e-01,7.50000000000000e-01,7.31937743403740e-01
2.74210411143314e-08,7.50000000000000e-01,7.50000000000000e-01,7.67086095837713e-01
2.88624982669332e-08,7.50000000000000e-01,7.50000000000000e-01,7.32730860872238e-01
3.12058897323093e-08,7.50000000000000e-01,7.50000000000000e-01,7.66509571288720e-01
3.50058897323093e-08,7.50000000000000e-01,7.50000000000000e-01,7.33072443915924e-01
3.51000000000000e-08,7.49999999999963e-01,7.50000000000000e-01,7.61866041191538e-01
3.51100000000000e-08,6.74999999999977e-01,7.50000000000000e-01,7.54741592237986e-01
3.51300000000000e-08,5.24999999999956e-01,7.50000000000000e-01,7.49044303432479e-01
3.51700000000000e-08,2.24999999999963e-01,7.50000000000000e-01,7.51958568611651e-01
3.52000000000000e-08,0.00000000000000e+00,7.50000000000000e-01,7.53862009588628e-01
3.52080000000000e-08,0.00000000000000e+00,7.50000000000000e-01,7.53487409287443e-01
3.52240000000000e-08,0.00000000000000e+00,7.50000000000000e-01,7.49686350731677e-01
3.52560000000000e-08,0.00000000000000e+00,7.50000000000000e-01,7.35687049645030e-01
3.53200000000000e-08,0.00000000000000e+00,7.50000000000000e-01,7.33274469399308e-01
3.54480000000000e-08,0.00000000000000e+00,7.50000000000000e-01,7.50968459495565e-01
3.56571485694198e-08,0.00000000000000e+00,7.50000000000000e-01,7.48035403089666e-01
3.59657694162149e-08,0.00000000000000e+00,7.50000000000000e-01,7.50915950537234e-01
3.65830111098052e-08,0.00000000000000e+00,7.50000000000000e-01,7.48750489086282e-01
3.78174944969858e-08,0.00000000000000e+00,7.50000000000000e-01,7.50964510964523e-01
4.02864612713469e-08,0.00000000000000e+00,7.50000000000000e-01,7.48934774940406e-01
4.40864612713469e-08,0.00000000000000e+00,7.50000000000000e-01,7.50977312389647e-01
4.50000000000000e-08,0.00000000000000e+00,7.50000000000000e-01,7.49025367127419e-01
4.50100000000000e-08,7.49999999999858e-02,7.50000000000000e-01,7.49513335431580e-01
4.50300000000000e-08,2.25000000000007e-01,7.50000000000000e-01,7.50040666079268e-01
4.50700000000000e-08,5.25000000000000e-01,7.50000000000000e-01,7.50157291088325e-01
4.51000000000000e-08,7.50000000000000e-01,7.50000000000000e-01,7.49920525474157e-01
4.51080000000000e-08,7.50000000000000e-01,6.90000000000031e-01,7.49721306256175e-01
4.51240000000000e-08,7.50000000000000e-01,5.69999999999994e-01,7.49376276401191e-01
4.51560000000000e-08,7.50000000000000e-01,3.30000000000020e-01,7.48979555619404e-01
4.52000000000000e-08,7.50000000000000e-01,4.29656310529936e-14,7.48824176311175e-01
4.52064000000000e-08,7.50000000000000e-01,0.00000000000000e+00,7.48809663048466e-01
4.52192000000000e-08,7.50000000000000e-01,0.00000000000000e+00,7.48777461060430e-01
4.52448000000000e-08,7.50000000000000e-01,0.00000000000000e+00,7.48770887677208e-01
4.52960000000000e-08,7.50000000000000e-01,0.00000000000000e+00,7.49023493389458e-01
4.53984000000000e-08,7.50000000000000e-01,0.00000000000000e+00,7.50386837936564e-01
4.55898875999587e-08,7.50000000000000e-01,0.00000000000000e+00,7.51522134275735e-01
4.58451121963881e-08,7.50000000000000e-01,0.00000000000000e+00,6.04287449232385e-01
4.62331686050006e-08,7.50000000000000e-01,0.00000000000000e+00,6.55615666202965e-02
4.67307670103105e-08,7.50000000000000e-01,0.00000000000000e+00,-3.26150598161218e-02
4.76556257284656e-08,7.50000000000000e-01,0.00000000000000e+00,2.67068725999010e-02
4.87118425563088e-08,7.50000000000000e-01,0.00000000000000e+00,-1.96939448463008e-02
5.08242762119952e-08,7.50000000000000e-01,0.00000000000000e+00,1.89055880153434e-02
5.46242762119952e-08,7.50000000000000e-01,0.00000000000000e+00,-1.65738870317876e-02
5.51000000000000e-08,7.50000000000000e-01,0.00000000000000e+00,1.12704678143608e-02
5.51100000000000e-08,6.75000000000027e-01,0.00000000000000e+00,7.89559466526799e-03
5.51300000000000e-08,5.25000000000005e-01,0.00000000000000e+00,4.21110852505543e-03
5.51700000000000e-08,2.25000000000013e-01,0.00000000000000e+00,2.90221415248851e-03
5.52000000000000e-08,0.00000000000000e+00,0.00000000000000e+00,2.37234314778056e-03
5.52080000000000e-08,0.00000000000000e+00,0.00000000000000e+00,2.30336764217418e-03
5.52240000000000e-08,0.00000000000000e+00,0.00000000000000e+00,1.79423864973088e-03
5.52560000000000e-08,0.00000000000000e+00,0.00000000000000e+00,-3.29413096099379e-04
5.53200000000000e-08,0.00000000000000e+00,0.00000000000000e+00,-2.13115222807382e-03
5.54480000000000e-08,0.00000000000000e+00,0.00000000000000e+00,-6.95826570870993e-04
5.56428906518436e-08,0.00000000000000e+00,0.00000000000000e+00,1.71303592395450e-04
5.59946056054143e-08,0.00000000000000e+00,0.00000000000000e+00,-6.58322122002383e-05
5.66125957284264e-08,0.00000000000000e+00,0.00000000000000e+00,5.21372252938607e-05
5.78485759744507e-08,0.00000000000000e+00,0.00000000000000e+00,-2.89849764788380e-05
6.03205364664992e-08,0.00000000000000e+00,0.00000000000000e+00,3.81749643780828e-05
6.41205364664992e-08,0.00000000000000e+00,0.00000000000000e+00,-2.22636399389610e-05
6.50000000000000e-08,0.00000000000000e+00,0.00000000000000e+00,2.65666451030738e-05
6.50100000000000e-08,7.49999999999858e-02,0.00000000000000e+00,1.59434710505404e-04
6.50300000000000e-08,2.24999999999957e-01,0.00000000000000e+00,2.82276415349794e-04
6.50700000000000e-08,5.24999999999900e-01,0.00000000000000e+00,2.26283731028037e-04
6.51000000000000e-08,7.49999999999957e-01,0.00000000000000e+00,3.06412425378488e-06
6.51080000000000e-08,7.50000000000000e-01,0.00000000000000e+00,-1.20746248880699e-04
6.51240000000000e-08,7.50000000000000e-01,0.00000000000000e+00,-2.68901361899915e-04
6.51560000000000e-08,7.50000000000000e-01,0.00000000000000e+00,-2.77576836974214e-04
6.52200000000000e-08,7.50000000000000e-01,0.00000000000000e+00,-1.42534021173521e-04
6.53480000000000e-08,7.50000000000000e-01,0.00000000000000e+00,-1.86502996833149e-05
6.56040000000000e-08,7.50000000000000e-01,0.00000000000000e+00,6.13076787399774e-05
6.61159999999999e-08,7.50000000000000e-01,0.00000000000000e+00,-4.26694657346821e-07
6.71399999999999e-08,7.50000000000000e-01,0.00000000000000e+00,1.67371052828876e-05
6.84763605165284e-08,7.50000000000000e-01,0.00000000000000e+00,5.97180445789137e-06
7.10207076589296e-08,7.50000000000000e-01,0.00000000000000e+00,1.19407384449894e-05
7.48207076589296e-08,7.50000000000000e-01,0.00000000000000e+00,6.07087536007344e-06
7.51000000000000e-08,7.50000000000000e-01,0.00000000000000e+00,6.77796184794799e-06
7.51100000000000e-08,6.75000000000076e-01,0.00000000000000e+00,-8.59274563018431e-05
7.51300000000000e-08,5.25000000000105e-01,0.00000000000000e+00,-2.10586144650873e-04
7.51700000000000e-08,2.25000000000162e-01,0.00000000000000e+00,3.75257867618606e-05
7.52000000000000e-08,1.05027098129540e-13,0.00000000000000e+00,6.19741472698873e-04
7.52080000000000e-08,0.00000000000000e+00,0.00000000000000e+00,8.01901402075977e-04
7.52240000000000e-08,0.00000000000000e+00,0.00000000000000e+00,9.00889606795935e-04
7.52560000000000e-08,0.00000000000000e+00,0.00000000000000e+00,2.10176052362371e-04
7.53200000000000e-08,0.00000000000000e+00,0.00000000000000e+00,-5.57310222023738e-04
7.54480000000000e-08,0.00000000000000e+00,0.00000000000000e+00,-5.95597168010567e-05
7.56435808754314e-08,0.00000000000000e+00,0.00000000000000e+00,1.77720458704456e-05
7.59922835730219e-08,0.00000000000000e+00,0.00000000000000e+00,-6.59693270808892e-07
7.66896889682029e-08,0.00000000000000e+00,0.00000000000000e+00,1.33840507927953e-05
7.80844997585648e-08,0.00000000000000e+00,0.00000000000000e+00,2.06465871118583e-07
8.08741213392886e-08,0.00000000000000e+00,0.00000000000000e+00,1.31793849850988e-05
8.46741213392886e-08,0.00000000000000e+00,0.00000000000000e+00,2.74998581346279e-07
8.50000000000000e-08,0.00000000000000e+00,0.00000000000000e+00,1.31999161452345e-05
8.50100000000000e-08,7.49999999999858e-02,0.00000000000000e+00,1.38798759163367e-04
8.50300000000000e-08,2.24999999999957e-01,0.00000000000000e+00,2.60870578905281e-04
8.50700000000000e-08,5.24999999999900e-01,0.00000000000000e+00,2.18039500267608e-04
8.51000000000000e-08,7.49999999999957e-01,0.00000000000000e+00,-2.42162554563163e-06
8.51080000000000e-08,7.50000000000000e-01,0.00000000000000e+00,-1.25422007864709e-04
8.51240000000000e-08,7.50000000000000e-01,0.00000000000000e+00,-2.72297592880749e-04
8.51560000000000e-08,7.50000000000000e-01,0.00000000000000e+00,-2.79488609673237e-04
8.52200000000000e-08,7.50000000000000e-01,0.00000000000000e+00,-1.43090703702359e-04
8.53480000000000e-08,7.50000000000000e-01,0.00000000000000e+00,-1.86461745581706e-05
8.56040000000000e-08,7.50000000000000e-01,0.00000000000000e+00,6.13035449692143e-05
8.61159999999999e-08,7.50000000000000e-01,0.00000000000000e+00,-4.25721850182137e-07
8.71399999999999e-08,7.50000000000000e-01,0.00000000000000e+00,1.67365869856197e-05
8.84763488318425e-08,7.50000000000000e-01,0.00000000000000e+00,5.97197517180140e-06
9.00000000000000e-08,7.50000000000000e-01,0.00000000000000e+00,1.16505038592393e-05
9.00100000000000e-08,7.50000000000000e-01,7.49999999999858e-02,1.42357960724870e-05
9.00300000000000e-08,7.50000000000000e-01,2.24999999999957e-01,1.39989471474034e-05
9.00700000000000e-08,7.50000000000000e-01,5.24999999999900e-01,8.91273061276454e-06
9.01000000000000e-08,7.50000000000000e-01,7.49999999999957e-01,7.16230779790328e-06
9.01080000000000e-08,7.50000000000000e-01,7.50000000000000e-01,6.61011944864953e-06
9.01240000000000e-08,7.50000000000000e-01,7.50000000000000e-01,7.84658886304745e-06
9.01560000000000e-08,7.50000000000000e-01,7.50000000000000e-01,1.13610245275064e-05
9.02200000000000e-08,7.50000000000000e-01,7.50000000000000e-01,1.23294152938741e-05
9.03480000000000e-08,7.50000000000000e-01,7.50000000000000e-01,9.23537104986077e-06
9.06040000000000e-08,7.50000000000000e-01,7.50000000000000e-01,9.03315534884347e-06
9.10819429445491e-08,7.50000000000000e-01,7.50000000000000e-01,9.06664134900023e-06
9.20378288336475e-08,7.50000000000000e-01,7.50000000000000e-01,8.82289692852659e-06
9.39496006118443e-08,7.50000000000000e-01,7.50000000000000e-01,8.54636990865569e-06
9.51000000000000e-08,7.50000000000000e-01,7.50000000000000e-01,8.36255508825622e-06
9.51100000000000e-08,6.75000000000076e-01,7.50000000000000e-01,-8.64035713200040e-05
9.51300000000000e-08,5.25000000000105e-01,7.50000000000000e-01,-2.11381100188993e-04
9.51700000000000e-08,2.25000000000162e-01,7.50000000000000e-01,3.73257721856673e-05
9.52000000000000e-08,1.05027098129540e-13,7.50000000000000e-01,6.15240981456544e-04
9.52080000000000e-08,0.00000000000000e+00,7.50000000000000e-01,7.94870276472792e-04
9.52240000000000e-08,0.00000000000000e+00,7.50000000000000e-01,8.92109008487268e-04
9.52560000000000e-08,0.00000000000000e+00,7.50000000000000e-01,2.12135592209159e-04
9.53200000000000e-08,0.00000000000000e+00,7.50000000000000e-01,-5.54320038667830e-04
9.54480000000000e-08,0.00000000000000e+00,7.50000000000000e-01,-2.02524323783745e-05
9.56443382150283e-08,0.00000000000000e+00,7.50000000000000e-01,-2.16141204315304e-04
9.59928473746109e-08,0.00000000000000e+00,7.50000000000000e-01,8.53342757990844e-05
9.63939366148547e-08,0.00000000000000e+00,7.50000000000000e-01,2.05653226902750e-04
9.71746226949964e-08,0.00000000000000e+00,7.50000000000000e-01,-2.42592996699514e-04
9.81961767482670e-08,0.00000000000000e+00,7.50000000000000e-01,2.72499546384501e-04
1.00222794644812e-07,0.00000000000000e+00,7.50000000000000e-01,-2.62214292175190e-04
1.03355749184854e-07,0.00000000000000e+00,7.50000000000000e-01,2.75466047821071e-04
1.05000000000000e-07,0.00000000000000e+00,7.50000000000000e-01,-2.61181951356104e-04
1.05010000000000e-07,7.49999999999858e-02,7.50000000000000e-01,-1.92741180610051e-05
1.05030000000000e-07,2.24999999999957e-01,7.50000000000000e-01,3.44854672527858e-04
1.05070000000000e-07,5.24999999999900e-01,7.50000000000000e-01,7.84170390844205e-04
1.05100000000000e-07,7.49999999999957e-01,7.50000000000000e-01,5.86360606152844e-04
1.05108000000000e-07,7.50000000000000e-01,7.50000000000000e-01,2.02684247800899e-04
1.05124000000000e-07,7.50000000000000e-01,7.50000000000000e-01,-7.18285694617168e-04
1.05156000000000e-07,7.50000000000000e-01,7.50000000000000e-01,-2.86784409243657e-03
1.05220000000000e-07,7.50000000000000e-01,7.50000000000000e-01,-5.94383418893590e-03
1.05348000000000e-07,7.50000000000000e-01,7.50000000000000e-01,4.00321920837199e-02
1.05604000000000e-07,7.50000000000000e-01,7.50000000000000e-01,6.53878113454704e-01
1.06050826548636e-07,7.50000000000000e-01,7.50000000000000e-01,7.69825252329010e-01
1.06507569389935e-07,7.50000000000000e-01,7.50000000000000e-01,7.31938330850631e-01
1.07421055072533e-07,7.50000000000000e-01,7.50000000000000e-01,7.67085534744629e-01
1.08862544106374e-07,7.50000000000000e-01,7.50000000000000e-01,7.32731419994648e-01
1.11206005463898e-07,7.50000000000000e-01,7.50000000000000e-01,7.66509045555685e-01
1.15006005463898e-07,7.50000000000000e-01,7.50000000000000e-01,7.33072987669575e-01
1.15100000000000e-07,7.50000000000000e-01,7.50000000000000e-01,7.61860845160551e-01
1.15110000000000e-07,6.75000000000076e-01,7.50000000000000e-01,7.54739477097682e-01
1.15130000000000e-07,5.25000000000105e-01,7.50000000000000e-01,7.49044667036788e-01
1.15170000000000e-07,2.25000000000162e-01,7.50000000000000e-01,7.51958378267739e-01
1.15200000000000e-07,1.05027098129540e-13,7.50000000000000e-01,7.53862064299397e-01
1.15208000000000e-07,0.00000000000000e+00,7.50000000000000e-01,7.53487401612365e-01
1.15224000000000e-07,0.00000000000000e+00,7.50000000000000e-01,7.49686269674251e-01
1.15256000000000e-07,0.00000000000000e+00,7.50000000000000e-01,7.35687021751629e-01
1.15320000000000e-07,0.00000000000000e+00,7.50000000000000e-01,7.33274514115181e-01
1.15448000000000e-07,0.00000000000000e+00,7.50000000000000e-01,7.50968426245954e-01
1.15657148599903e-07,0.00000000000000e+00,7.50000000000000e-01,7.48035429633155e-01
1.15965769395071e-07,0.00000000000000e+00,7.50000000000000e-01,7.50915927826870e-01
1.16583010985408e-07,0.00000000000000e+00,7.50000000000000e-01,7.48750510187340e-01
1.17817494166082e-07,0.00000000000000e+00,7.50000000000000e-01,7.50964490521387e-01
1.20286460527429e-07,0.00000000000000e+00,7.50000000000000e-01,7.48934794977377e-01
1.24086460527429e-07,0.00000000000000e+00,7.50000000000000e-01,7.50977292526504e-01
1.25000000000000e-07,0.00000000000000e+00,7.50000000000000e-01,7.49025386024815e-01
1.25010000000000e-07,7.49999999998865e-02,7.50000000000000e-01,7.49513347116846e-01
1.25030000000000e-07,2.24999999999858e-01,7.50000000000000e-01,7.50040669308389e-01
1.25070000000000e-07,5.24999999999801e-01,7.50000000000000e-01,7.50157291572753e-01
1.25100000000000e-07,7.49999999999858e-01,7.50000000000000e-01,7.49920525521964e-01
1.25108000000000e-07,7.50000000000000e-01,6.89999999999932e-01,7.49721306837918e-01
1.25124000000000e-07,7.50000000000000e-01,5.69999999999994e-01,7.49376277385309e-01
1.25156000000000e-07,7.50000000000000e-01,3.29999999999921e-01,7.48979555601263e-01
1.25200000000000e-07,7.50000000000000e-01,0.00000000000000e+00,7.48824175643947e-01
1.25206400000000e-07,7.50000000000000e-01,0.00000000000000e+00,7.48809663319376e-01
1.25219200000000e-07,7.50000000000000e-01,0.00000000000000e+00,7.48777462425402e-01
1.25244800000000e-07,7.50000000000000e-01,0.00000000000000e+00,7.48770887788951e-01
1.25296000000000e-07,7.50000000000000e-01,0.00000000000000e+00,7.49023491905961e-01
1.25398400000000e-07,7.50000000000000e-01,0.00000000000000e+00,7.50386837741195e-01
1.25589887868637e-07,7.50000000000000e-01,0.00000000000000e+00,7.51522137425633e-01
1.25845112388400e-07,7.50000000000000e-01,0.00000000000000e+00,6.04286779857511e-01
1.26233169873186e-07,7.50000000000000e-01,0.00000000000000e+00,6.55605212065566e-02
1.26730768000669e-07,7.50000000000000e-01,0.00000000000000e+00,-3.26146182832493e-02
1.27655629072018e-07,7.50000000000000e-01,0.00000000000000e+00,2.67065444095264e-02
1.28711844515226e-07,7.50000000000000e-01,0.00000000000000e+00,-1.96937110448909e-02
1.30824275401644e-07,7.50000000000000e-01,0.00000000000000e+00,1.89053725056807e-02
1.34624275401644e-07,7.50000000000000e-01,0.00000000000000e+00,-1.65736975810615e-02
1.35100000000000e-07,7.49999999999864e-01,0.00000000000000e+00,1.12703774697859e-02
1.35110000000000e-07,6.74999999999778e-01,0.00000000000000e+00,7.89551152085434e-03
1.35130000000000e-07,5.24999999999807e-01,0.00000000000000e+00,4.21104199757752e-03
