Time,v(clk),v(data),v(out)
1.00000000000000e-08,7.50000000000000e-01,0.00000000000000e+00,2.82944872915802e-05
1.00100000000000e-08,7.50000000000000e-01,7.49999999999982e-02,3.33741148463990e-05
1.00300000000000e-08,7.50000000000000e-01,2.24999999999995e-01,3.67804268123079e-05
1.00700000000000e-08,7.50000000000000e-01,5.24999999999987e-01,3.37394002487834e-05
1.01000000000000e-08,7.50000000000000e-01,7.49999999999994e-01,3.32888898496031e-05
1.01080000000000e-08,7.50000000000000e-01,7.50000000000000e-01,3.24624464168172e-05
1.01240000000000e-08,7.50000000000000e-01,7.50000000000000e-01,3.32694736520645e-05
1.01560000000000e-08,7.50000000000000e-01,7.50000000000000e-01,3.66060533602414e-05
1.02200000000000e-08,7.50000000000000e-01,7.50000000000000e-01,3.62509317754778e-05
1.03480000000000e-08,7.50000000000000e-01,7.50000000000000e-01,3.75533264699440e-05
1.06040000000000e-08,7.50000000000000e-01,7.50000000000000e-01,3.63738616616788e-05
1.10887120005737e-08,7.50000000000000e-01,7.50000000000000e-01,3.67953602219070e-05
1.20410338996813e-08,7.50000000000000e-01,7.50000000000000e-01,3.60553762110017e-05
1.39456776978965e-08,7.50000000000000e-01,7.50000000000000e-01,3.55874023366259e-05
1.51000000000000e-08,7.50000000000000e-01,7.50000000000000e-01,3.50670692867792e-05
1.51100000000000e-08,6.74999999999989e-01,7.50000000000000e-01,-6.41959942908471e-05
1.51300000000000e-08,5.24999999999993e-01,7.50000000000000e-01,-2.06503075542999e-04
1.51700000000000e-08,2.25000000000000e-01,7.50000000000000e-01,2.62407481319282e-05
1.52000000000000e-08,0.00000000000000e+00,7.50000000000000e-01,6.14115113847458e-04
1.52080000000000e-08,0.00000000000000e+00,7.50000000000000e-01,8.08613224121207e-04
1.52240000000000e-08,0.00000000000000e+00,7.50000000000000e-01,9.67392178787413e-04
1.52560000000000e-08,0.00000000000000e+00,7.50000000000000e-01,4.32010721195447e-04
1.53200000000000e-08,0.00000000000000e+00,7.50000000000000e-01,-5.11671580501222e-04
1.54480000000000e-08,0.00000000000000e+00,7.50000000000000e-01,-1.96220807634866e-04
1.56570388811044e-08,0.00000000000000e+00,7.50000000000000e-01,-3.75727623635747e-05
1.59841830791521e-08,0.00000000000000e+00,7.50000000000000e-01,-6.70725447487336e-05
1.64470280475311e-08,0.00000000000000e+00,7.50000000000000e-01,2.87670238350326e-04
1.73727179842891e-08,0.00000000000000e+00,7.50000000000000e-01,-2.19733968974376e-04
1.82968449688252e-08,0.00000000000000e+00,7.50000000000000e-01,2.73551839421439e-04
2.01450989378974e-08,0.00000000000000e+00,7.50000000000000e-01,-1.98918840871467e-04
2.37318643846025e-08,0.00000000000000e+00,7.50000000000000e-01,2.58212423986622e-04
2.50000000000000e-08,0.00000000000000e+00,7.50000000000000e-01,-1.77832226932845e-04
2.50100000000000e-08,7.49999999999858e-02,7.50000000000000e-01,3.25693124573895e-05
2.50300000000000e-08,2.25000000000007e-01,7.50000000000000e-01,3.65826986689771e-04
2.50700000000000e-08,5.25000000000000e-01,7.50000000000000e-01,8.17186006341314e-04
2.51000000000000e-08,7.50000000000000e-01,7.50000000000000e-01,7.24072283786820e-04
2.51080000000000e-08,7.50000000000000e-01,7.50000000000000e-01,4.13400399748604e-04
2.51240000000000e-08,7.50000000000000e-01,7.50000000000000e-01,-3.10597536751653e-04
2.51560000000000e-08,7.50000000000000e-01,7.50000000000000e-01,-2.01757188863727e-03
2.52200000000000e-08,7.50000000000000e-01,7.50000000000000e-01,-4.87602213527809e-03
2.53480000000000e-08,7.50000000000000e-01,7.50000000000000e-01,7.93560372747184e-03
2.56040000000000e-08,7.50000000000000e-01,7.50000000000000e-01,5.06953329383830e-01
2.61160000000000e-08,7.50000000000000e-01,7.50000000000000e-01,7.69548678577656e-01
2.66179746853718e-08,7.50000000000000e-01,7.50000000000000e-01,7.34505676067467e-01
2.76219240561155e-08,7.50000000000000e-01,7.50000000000000e-01,7.64587071289715e-01
2.89917096973055e-08,7.50000000000000e-01,7.50000000000000e-01,7.35377875250361e-01
3.01000000000000e-08,7.50000000000000e-01,7.50000000000000e-01,7.63817111512325e-01
3.01100000000000e-08,7.50000000000000e-01,6.75000000000039e-01,7.56058870191123e-01
3.01300000000000e-08,7.50000000000000e-01,5.25000000000018e-01,7.49284294028959e-01
3.01700000000000e-08,7.50000000000000e-01,2.25000000000025e-01,7.50297724112071e-01
3.02000000000000e-08,7.50000000000000e-01,1.80966353013901e-14,7.49906151681442e-01
3.02080000000000e-08,7.50000000000000e-01,0.00000000000000e+00,7.49941631478082e-01
3.02240000000000e-08,7.50000000000000e-01,0.00000000000000e+00,7.49969658215793e-01
3.02560000000000e-08,7.50000000000000e-01,0.00000000000000e+00,7.49958722422930e-01
3.03200000000000e-08,7.50000000000000e-01,0.00000000000000e+00,7.49984341821928e-01
3.04480000000000e-08,7.50000000000000e-01,0.00000000000000e+00,7.49992541558930e-01
3.06560745094614e-08,7.50000000000000e-01,0.00000000000000e+00,7.49979504487389e-01
3.09796520395352e-08,7.50000000000000e-01,0.00000000000000e+00,7.49991179213494e-01
3.15823304270880e-08,7.50000000000000e-01,0.00000000000000e+00,7.49981429217308e-01
3.27876872021934e-08,7.50000000000000e-01,0.00000000000000e+00,7.49993566272637e-01
3.51000000000000e-08,7.49999999999963e-01,0.00000000000000e+00,7.49984030044760e-01
3.51100000000000e-08,6.74999999999977e-01,0.00000000000000e+00,7.49914555089254e-01
3.51300000000000e-08,5.24999999999956e-01,0.00000000000000e+00,7.49884031146619e-01
3.51700000000000e-08,2.24999999999963e-01,0.00000000000000e+00,7.51577975452974e-01
3.52000000000000e-08,0.00000000000000e+00,0.00000000000000e+00,7.54387068461024e-01
3.52080000000000e-08,0.00000000000000e+00,0.00000000000000e+00,7.54409074251164e-01
3.52240000000000e-08,0.00000000000000e+00,0.00000000000000e+00,7.52102908111120e-01
3.52560000000000e-08,0.00000000000000e+00,0.00000000000000e+00,7.40088215560972e-01
3.53200000000000e-08,0.00000000000000e+00,0.00000000000000e+00,7.31478652989892e-01
3.54480000000000e-08,0.00000000000000e+00,0.00000000000000e+00,7.48474181912813e-01
3.56705135789389e-08,0.00000000000000e+00,0.00000000000000e+00,7.49211487356541e-01
3.59733526774091e-08,0.00000000000000e+00,0.00000000000000e+00,7.49666551168532e-01
3.65790308743495e-08,0.00000000000000e+00,0.00000000000000e+00,7.49717241331064e-01
3.74136523068569e-08,0.00000000000000e+00,0.00000000000000e+00,7.49938172444242e-01
3.90828951718717e-08,0.00000000000000e+00,0.00000000000000e+00,7.49852171415836e-01
3.91000000000000e-08,0.00000000000000e+00,0.00000000000000e+00,7.50347186571002e-01
3.91342096562565e-08,0.00000000000000e+00,0.00000000000000e+00,7.49997517658124e-01
3.92026289687696e-08,0.00000000000000e+00,0.00000000000000e+00,7.49836647322491e-01
3.93394675937958e-08,0.00000000000000e+00,0.00000000000000e+00,7.49945687643291e-01
3.96131448438481e-08,0.00000000000000e+00,0.00000000000000e+00,7.49894284017744e-01
4.01604993439527e-08,0.00000000000000e+00,0.00000000000000e+00,7.49963097321135e-01
4.12552083441620e-08,0.00000000000000e+00,0.00000000000000e+00,7.49915719609495e-01
4.34446263445805e-08,0.00000000000000e+00,0.00000000000000e+00,7.49979947078497e-01
4.50000000000000e-08,0.00000000000000e+00,0.00000000000000e+00,7.49931809703573e-01
4.50100000000000e-08,7.49999999999858e-02,0.00000000000000e+00,7.50020794114047e-01
4.50300000000000e-08,2.25000000000007e-01,0.00000000000000e+00,7.50071291741549e-01
4.50700000000000e-08,5.25000000000000e-01,0.00000000000000e+00,7.49986266753587e-01
4.51000000000000e-08,7.50000000000000e-01,0.00000000000000e+00,7.49904532654177e-01
4.51080000000000e-08,7.50000000000000e-01,0.00000000000000e+00,7.49843119372839e-01
4.51240000000000e-08,7.50000000000000e-01,0.00000000000000e+00,7.49795667744201e-01
4.51560000000000e-08,7.50000000000000e-01,0.00000000000000e+00,7.49853039294445e-01
4.52200000000000e-08,7.50000000000000e-01,0.00000000000000e+00,7.49873340155308e-01
4.53480000000000e-08,7.50000000000000e-01,0.00000000000000e+00,7.50522652054885e-01
4.56040000000000e-08,7.50000000000000e-01,0.00000000000000e+00,7.30076854291972e-01
4.60512459640166e-08,7.50000000000000e-01,0.00000000000000e+00,1.76018090688398e-01
4.65101762829796e-08,7.50000000000000e-01,0.00000000000000e+00,-5.24173816552101e-02
4.74280369209056e-08,7.50000000000000e-01,0.00000000000000e+00,3.86670526406142e-02
4.84635428121079e-08,7.50000000000000e-01,0.00000000000000e+00,-2.65051829447872e-02
5.00000000000000e-08,7.50000000000000e-01,0.00000000000000e+00,2.26914014897372e-02
5.00100000000000e-08,7.50000000000000e-01,7.49999999999858e-02,1.83846137450513e-02
5.00300000000000e-08,7.50000000000000e-01,2.24999999999957e-01,1.27449290441544e-02
5.00700000000000e-08,7.50000000000000e-01,5.25000000000000e-01,8.34345470453923e-03
5.01000000000000e-08,7.50000000000000e-01,7.50000000000000e-01,6.13013987056793e-03
5.01080000000000e-08,7.50000000000000e-01,7.50000000000000e-01,5.66226213418194e-03
5.01240000000000e-08,7.50000000000000e-01,7.50000000000000e-01,4.79588251695555e-03
5.01560000000000e-08,7.50000000000000e-01,7.50000000000000e-01,3.42014466910730e-03
5.02200000000000e-08,7.50000000000000e-01,7.50000000000000e-01,1.55607966556506e-03
5.03480000000000e-08,7.50000000000000e-01,7.50000000000000e-01,3.43258777177835e-04
5.06040000000000e-08,7.50000000000000e-01,7.50000000000000e-01,-2.15354677966517e-05
5.11034877807169e-08,7.50000000000000e-01,7.50000000000000e-01,5.11385027291249e-05
5.20953285631163e-08,7.50000000000000e-01,7.50000000000000e-01,1.04667747660697e-05
5.40790101279151e-08,7.50000000000000e-01,7.50000000000000e-01,4.38011515250126e-05
5.51000000000000e-08,7.50000000000000e-01,7.50000000000000e-01,1.58795096267487e-05
5.51100000000000e-08,6.75000000000027e-01,7.50000000000000e-01,-8.10389948111695e-05
5.51300000000000e-08,5.25000000000005e-01,7.50000000000000e-01,-2.18143937396428e-04
5.51700000000000e-08,2.25000000000013e-01,7.50000000000000e-01,2.32652276552503e-05
5.52000000000000e-08,0.00000000000000e+00,7.50000000000000e-01,5.38317368427965e-04
5.52080000000000e-08,0.00000000000000e+00,7.50000000000000e-01,6.62079989436418e-04
5.52240000000000e-08,0.00000000000000e+00,7.50000000000000e-01,5.77852094238024e-04
5.52560000000000e-08,0.00000000000000e+00,7.50000000000000e-01,-8.17607363365544e-04
5.53200000000000e-08,0.00000000000000e+00,7.50000000000000e-01,-2.84655387952132e-03
5.54480000000000e-08,0.00000000000000e+00,7.50000000000000e-01,-1.76585002625830e-03
5.56562137380351e-08,0.00000000000000e+00,7.50000000000000e-01,-6.46378032993916e-05
5.59838800105444e-08,0.00000000000000e+00,7.50000000000000e-01,-5.54367352411517e-05
5.64467189839042e-08,0.00000000000000e+00,7.50000000000000e-01,2.85598114277547e-04
5.73723969306239e-08,0.00000000000000e+00,7.50000000000000e-01,-2.20945903290633e-04
5.82961322772624e-08,0.00000000000000e+00,7.50000000000000e-01,2.77657101973066e-04
6.01436029705394e-08,0.00000000000000e+00,7.50000000000000e-01,-2.04384329737385e-04
6.37442535196710e-08,0.00000000000000e+00,7.50000000000000e-01,2.64364480762492e-04
6.50000000000000e-08,0.00000000000000e+00,7.50000000000000e-01,-1.85536861241113e-04
6.50100000000000e-08,7.49999999999858e-02,7.50000000000000e-01,3.50907880481977e-05
6.50300000000000e-08,2.24999999999957e-01,7.50000000000000e-01,3.75577716469483e-04
6.50700000000000e-08,5.24999999999900e-01,7.50000000000000e-01,8.20670282471944e-04
6.51000000000000e-08,7.49999999999957e-01,7.50000000000000e-01,7.26314129793668e-04
6.51080000000000e-08,7.50000000000000e-01,7.50000000000000e-01,4.15385960232204e-04
6.51240000000000e-08,7.50000000000000e-01,7.50000000000000e-01,-3.09038121307878e-04
6.51560000000000e-08,7.50000000000000e-01,7.50000000000000e-01,-2.01653343663817e-03
6.52200000000000e-08,7.50000000000000e-01,7.50000000000000e-01,-4.87580858239910e-03
6.53480000000000e-08,7.50000000000000e-01,7.50000000000000e-01,7.92967174098592e-03
6.56040000000000e-08,7.50000000000000e-01,7.50000000000000e-01,5.06917325037542e-01
6.61159999999999e-08,7.50000000000000e-01,7.50000000000000e-01,7.69547243887413e-01
6.66179875903202e-08,7.50000000000000e-01,7.50000000000000e-01,7.34507332755860e-01
6.76219627709607e-08,7.50000000000000e-01,7.50000000000000e-01,7.64585599586612e-01
6.89917254762010e-08,7.50000000000000e-01,7.50000000000000e-01,7.35379420824232e-01
7.01000000000000e-08,7.50000000000000e-01,7.50000000000000e-01,7.63815708029398e-01
7.01100000000000e-08,7.50000000000000e-01,6.75000000000014e-01,7.56058262072199e-01
7.01300000000000e-08,7.50000000000000e-01,5.25000000000043e-01,7.49284353416139e-01
7.01700000000000e-08,7.50000000000000e-01,2.25000000000100e-01,7.50297688084721e-01
7.02000000000000e-08,7.50000000000000e-01,4.29656310529936e-14,7.49906162046427e-01
7.02080000000000e-08,7.50000000000000e-01,0.00000000000000e+00,7.49941634563070e-01
7.02240000000000e-08,7.50000000000000e-01,0.00000000000000e+00,7.49969653867188e-01
7.02560000000000e-08,7.50000000000000e-01,0.00000000000000e+00,7.49958719179007e-01
7.03200000000000e-08,7.50000000000000e-01,0.00000000000000e+00,7.49984340466437e-01
7.04480000000000e-08,7.50000000000000e-01,0.00000000000000e+00,7.49992544689092e-01
7.06560740655050e-08,7.50000000000000e-01,0.00000000000000e+00,7.49979503401979e-01
7.09796485474841e-08,7.50000000000000e-01,0.00000000000000e+00,7.49991181423592e-01
7.15823168951453e-08,7.50000000000000e-01,0.00000000000000e+00,7.49981428054036e-01
7.27876535904676e-08,7.50000000000000e-01,0.00000000000000e+00,7.49993567979905e-01
7.51000000000000e-08,7.50000000000000e-01,0.00000000000000e+00,7.49984028876752e-01
7.51100000000000e-08,6.75000000000076e-01,0.00000000000000e+00,7.49914553672982e-01
7.51300000000000e-08,5.25000000000105e-01,0.00000000000000e+00,7.49884029984066e-01
7.51700000000000e-08,2.25000000000162e-01,0.00000000000000e+00,7.51577975878215e-01
7.52000000000000e-08,1.05027098129540e-13,0.00000000000000e+00,7.54387077431244e-01
7.52080000000000e-08,0.00000000000000e+00,0.00000000000000e+00,7.54409092075694e-01
7.52240000000000e-08,0.00000000000000e+00,0.00000000000000e+00,7.52102949610098e-01
7.52560000000000e-08,0.00000000000000e+00,0.00000000000000e+00,7.40088278881363e-01
7.53200000000000e-08,0.00000000000000e+00,0.00000000000000e+00,7.31478676957776e-01
7.54480000000000e-08,0.00000000000000e+00,0.00000000000000e+00,7.48474174104934e-01
7.56705135843117e-08,0.00000000000000e+00,0.00000000000000e+00,7.49211493269632e-01
7.59733526831843e-08,0.00000000000000e+00,0.00000000000000e+00,7.49666546422918e-01
7.65790308809296e-08,0.00000000000000e+00,0.00000000000000e+00,7.49717245610566e-01
7.74136523247295e-08,0.00000000000000e+00,0.00000000000000e+00,7.49938168469884e-01
7.81000000000000e-08,0.00000000000000e+00,0.00000000000000e+00,7.49827686194069e-01
7.82669242887600e-08,0.00000000000000e+00,0.00000000000000e+00,7.49897896380290e-01
7.86007728662800e-08,0.00000000000000e+00,0.00000000000000e+00,7.49912072705502e-01
7.92684700213199e-08,0.00000000000000e+00,0.00000000000000e+00,7.49919579610289e-01
8.06038643313997e-08,0.00000000000000e+00,0.00000000000000e+00,7.49940521378358e-01
8.32746529515593e-08,0.00000000000000e+00,0.00000000000000e+00,7.49949607464890e-01
8.50000000000000e-08,0.00000000000000e+00,0.00000000000000e+00,7.49960483722739e-01
8.50100000000000e-08,7.49999999999858e-02,0.00000000000000e+00,7.50038977886779e-01
8.50300000000000e-08,2.24999999999957e-01,0.00000000000000e+00,7.50076012294141e-01
8.50700000000000e-08,5.24999999999900e-01,0.00000000000000e+00,7.49986579090052e-01
8.51000000000000e-08,7.49999999999957e-01,0.00000000000000e+00,7.49904628396489e-01
8.51080000000000e-08,7.50000000000000e-01,0.00000000000000e+00,7.49843698511207e-01
8.51240000000000e-08,7.50000000000000e-01,0.00000000000000e+00,7.49796630114664e-01
8.51560000000000e-08,7.50000000000000e-01,0.00000000000000e+00,7.49853015900023e-01
8.52200000000000e-08,7.50000000000000e-01,0.00000000000000e+00,7.49871662156403e-01
8.53480000000000e-08,7.50000000000000e-01,0.00000000000000e+00,7.50522704101347e-01
8.56040000000000e-08,7.50000000000000e-01,0.00000000000000e+00,7.30007864793817e-01
8.60511977594784e-08,7.50000000000000e-01,0.00000000000000e+00,1.75961171102205e-01
8.65100879594610e-08,7.50000000000000e-01,0.00000000000000e+00,-5.24036832615110e-02
8.74278683594261e-08,7.50000000000000e-01,0.00000000000000e+00,3.86554431416779e-02
8.84633775324376e-08,7.50000000000000e-01,0.00000000000000e+00,-2.64980533833784e-02
9.00000000000000e-08,7.50000000000000e-01,0.00000000000000e+00,2.26858956457589e-02
9.00100000000000e-08,7.50000000000000e-01,7.49999999999858e-02,1.83796863319882e-02
9.00300000000000e-08,7.50000000000000e-01,2.24999999999957e-01,1.27409738780651e-02
9.00700000000000e-08,7.50000000000000e-01,5.24999999999900e-01,8.34086481006252e-03
9.01000000000000e-08,7.50000000000000e-01,7.49999999999957e-01,6.12823453719639e-03
9.01080000000000e-08,7.50000000000000e-01,7.50000000000000e-01,5.66050267778728e-03
9.01240000000000e-08,7.50000000000000e-01,7.50000000000000e-01,4.79439362197490e-03
9.01560000000000e-08,7.50000000000000e-01,7.50000000000000e-01,3.41908250451477e-03
9.02200000000000e-08,7.50000000000000e-01,7.50000000000000e-01,1.55559910219456e-03
9.03480000000000e-08,7.50000000000000e-01,7.50000000000000e-01,3.43158577662372e-04
9.06040000000000e-08,7.50000000000000e-01,7.50000000000000e-01,-2.15187421618995e-05
9.11040257600304e-08,7.50000000000000e-01,7.50000000000000e-01,5.11537727940353e-05
9.20972704573307e-08,7.50000000000000e-01,7.50000000000000e-01,1.04513777335301e-05
9.40837598519312e-08,7.50000000000000e-01,7.50000000000000e-01,4.38192350585703e-05
9.51000000000000e-08,7.50000000000000e-01,7.50000000000000e-01,1.58850932906220e-05
9.51100000000000e-08,6.75000000000076e-01,7.50000000000000e-01,-8.10328295233476e-05
9.51300000000000e-08,5.25000000000105e-01,7.50000000000000e-01,-2.18139895185723e-04
9.51700000000000e-08,2.25000000000162e-01,7.50000000000000e-01,2.32691272660929e-05
9.52000000000000e-08,1.05027098129540e-13,7.50000000000000e-01,5.38334490383138e-04
9.52080000000000e-08,0.00000000000000e+00,7.50000000000000e-01,6.62108555936097e-04
9.52240000000000e-08,0.00000000000000e+00,7.50000000000000e-01,5.77908270989858e-04
9.52560000000000e-08,0.00000000000000e+00,7.50000000000000e-01,-8.17487978988063e-04
9.53200000000000e-08,0.00000000000000e+00,7.50000000000000e-01,-2.84623156710324e-03
9.54480000000000e-08,0.00000000000000e+00,7.50000000000000e-01,-1.76554580412987e-03
9.56562137052652e-08,0.00000000000000e+00,7.50000000000000e-01,-6.46085625499240e-05
9.59838805396204e-08,0.00000000000000e+00,7.50000000000000e-01,-5.54461729857306e-05
9.64467192325592e-08,0.00000000000000e+00,7.50000000000000e-01,2.85598779624033e-04
9.73723966184368e-08,0.00000000000000e+00,7.50000000000000e-01,-2.20943843174812e-04
9.82961325654616e-08,0.00000000000000e+00,7.50000000000000e-01,2.77652993998342e-04
1.00143604459511e-07,0.00000000000000e+00,7.50000000000000e-01,-2.04379373218244e-04
1.03744252624251e-07,0.00000000000000e+00,7.50000000000000e-01,2.64359144572607e-04
1.05000000000000e-07,0.00000000000000e+00,7.50000000000000e-01,-1.85530553229842e-04
1.05010000000000e-07,7.49999999999858e-02,7.50000000000000e-01,3.50907190719146e-05
1.05030000000000e-07,2.24999999999957e-01,7.50000000000000e-01,3.75572738520458e-04
1.05070000000000e-07,5.24999999999900e-01,7.50000000000000e-01,8.20668342058475e-04
1.05100000000000e-07,7.49999999999957e-01,7.50000000000000e-01,7.26312889211073e-04
1.05108000000000e-07,7.50000000000000e-01,7.50000000000000e-01,4.15384876168323e-04
1.05124000000000e-07,7.50000000000000e-01,7.50000000000000e-01,-3.09038945716072e-04
1.05156000000000e-07,7.50000000000000e-01,7.50000000000000e-01,-2.01653391444748e-03
1.05220000000000e-07,7.50000000000000e-01,7.50000000000000e-01,-4.87580869944673e-03
1.05348000000000e-07,7.50000000000000e-01,7.50000000000000e-01,7.92967288527557e-03
1.05604000000000e-07,7.50000000000000e-01,7.50000000000000e-01,5.06917331162771e-01
1.06116000000000e-07,7.50000000000000e-01,7.50000000000000e-01,7.69547244071041e-01
1.06617987588401e-07,7.50000000000000e-01,7.50000000000000e-01,7.34507332536306e-01
