Time,v(clk),v(data),v(out),v(reset)
1.00000000000000e-08,7.50000000000000e-01,0.00000000000000e+00,7.25977122535693e-07,0.00000000000000e+00
1.00100000000000e-08,7.50000000000000e-01,7.49999999999982e-02,4.50379227136255e-06,0.00000000000000e+00
1.00300000000000e-08,7.50000000000000e-01,2.24999999999995e-01,6.26174194244544e-06,0.00000000000000e+00
1.00700000000000e-08,7.50000000000000e-01,5.24999999999987e-01,3.17610235445187e-06,0.00000000000000e+00
1.01000000000000e-08,7.50000000000000e-01,7.49999999999994e-01,2.62271961870564e-06,0.00000000000000e+00
1.01080000000000e-08,7.50000000000000e-01,7.50000000000000e-01,2.89513916379436e-06,0.00000000000000e+00
1.01240000000000e-08,7.50000000000000e-01,7.50000000000000e-01,4.77830530863643e-06,0.00000000000000e+00
1.01560000000000e-08,7.50000000000000e-01,7.50000000000000e-01,8.19256258216550e-06,0.00000000000000e+00
1.02200000000000e-08,7.50000000000000e-01,7.50000000000000e-01,7.91287406287644e-06,0.00000000000000e+00
1.03480000000000e-08,7.50000000000000e-01,7.50000000000000e-01,5.67878586515969e-06,0.00000000000000e+00
1.06040000000000e-08,7.50000000000000e-01,7.50000000000000e-01,6.48912036827626e-06,0.00000000000000e+00
1.11160000000000e-08,7.50000000000000e-01,7.50000000000000e-01,5.09844339427815e-06,0.00000000000000e+00
1.21400000000000e-08,7.50000000000000e-01,7.50000000000000e-01,5.79360562921044e-06,0.00000000000000e+00
1.41880000000000e-08,7.50000000000000e-01,7.50000000000000e-01,4.08027268020399e-06,0.00000000000000e+00
1.51000000000000e-08,7.50000000000000e-01,7.50000000000000e-01,4.98049299404134e-06,0.00000000000000e+00
1.51100000000000e-08,6.74999999999989e-01,7.50000000000000e-01,3.33713605242286e-04,7.50000000000106e-02
1.51300000000000e-08,5.24999999999993e-01,7.50000000000000e-01,6.46591117466608e-04,2.25000000000007e-01
1.51700000000000e-08,2.25000000000000e-01,7.50000000000000e-01,5.75292750469067e-04,5.25000000000000e-01
1.52000000000000e-08,0.00000000000000e+00,7.50000000000000e-01,5.21910674644147e-04,7.50000000000000e-01
1.52080000000000e-08,0.00000000000000e+00,7.50000000000000e-01,4.52142055247670e-04,7.50000000000000e-01
1.52240000000000e-08,0.00000000000000e+00,7.50000000000000e-01,3.52032261940152e-04,7.50000000000000e-01
1.52560000000000e-08,0.00000000000000e+00,7.50000000000000e-01,2.57901668591687e-04,7.50000000000000e-01
1.53200000000000e-08,0.00000000000000e+00,7.50000000000000e-01,-9.94395542747301e-05,7.50000000000000e-01
1.54480000000000e-08,0.00000000000000e+00,7.50000000000000e-01,-5.38991859346069e-04,7.50000000000000e-01
1.56882772171655e-08,0.00000000000000e+00,7.50000000000000e-01,1.38202481514339e-04,7.50000000000000e-01
1.60584217526218e-08,0.00000000000000e+00,7.50000000000000e-01,-3.19911812237825e-04,7.50000000000000e-01
1.66554181746527e-08,0.00000000000000e+00,7.50000000000000e-01,3.44989490862879e-04,7.50000000000000e-01
1.76692451790525e-08,0.00000000000000e+00,7.50000000000000e-01,-2.23284274982756e-04,7.50000000000000e-01
1.87180894460365e-08,0.00000000000000e+00,7.50000000000000e-01,1.48375348938719e-04,7.50000000000000e-01
2.08157779800045e-08,0.00000000000000e+00,7.50000000000000e-01,-1.11880716605269e-04,7.50000000000000e-01
2.46157779800045e-08,0.00000000000000e+00,7.50000000000000e-01,1.01035291764858e-04,7.50000000000000e-01
2.50000000000000e-08,0.00000000000000e+00,7.50000000000000e-01,7.51535573879566e-06,7.50000000000000e-01
2.50100000000000e-08,7.49999999999858e-02,7.50000000000000e-01,1.87048981912505e-04,7.50000000000000e-01
2.50300000000000e-08,2.25000000000007e-01,7.50000000000000e-01,4.76661384965896e-04,7.50000000000000e-01
2.50700000000000e-08,5.25000000000000e-01,7.50000000000000e-01,8.63461479937516e-04,7.50000000000000e-01
2.51000000000000e-08,7.50000000000000e-01,7.50000000000000e-01,5.98835928633148e-04,7.50000000000000e-01
2.51080000000000e-08,7.50000000000000e-01,7.50000000000000e-01,1.97430433736642e-04,7.50000000000000e-01
2.51240000000000e-08,7.50000000000000e-01,7.50000000000000e-01,-7.63524335881810e-04,7.50000000000000e-01
2.51560000000000e-08,7.50000000000000e-01,7.50000000000000e-01,-2.96234952981571e-03,7.50000000000000e-01
2.52200000000000e-08,7.50000000000000e-01,7.50000000000000e-01,-6.23739241382158e-03,7.50000000000000e-01
2.53480000000000e-08,7.50000000000000e-01,7.50000000000000e-01,1.22303831105330e-02,7.50000000000000e-01
2.56040000000000e-08,7.50000000000000e-01,7.50000000000000e-01,4.93841885639732e-01,7.50000000000000e-01
2.61160000000000e-08,7.50000000000000e-01,7.50000000000000e-01,7.78516890217378e-01,7.50000000000000e-01
2.66406312580823e-08,7.50000000000000e-01,7.50000000000000e-01,7.26281803846122e-01,7.50000000000000e-01
2.76898937742468e-08,7.50000000000000e-01,7.50000000000000e-01,7.72285054331854e-01,7.50000000000000e-01
2.90041034501856e-08,7.50000000000000e-01,7.50000000000000e-01,7.28181287650344e-01,7.50000000000000e-01
3.12473193181880e-08,7.50000000000000e-01,7.50000000000000e-01,7.70686900078251e-01,7.50000000000000e-01
3.50473193181880e-08,7.50000000000000e-01,7.50000000000000e-01,7.29039595280383e-01,7.50000000000000e-01
3.51000000000000e-08,7.49999999999963e-01,7.50000000000000e-01,7.55193744482675e-01,7.50000000000000e-01
3.51100000000000e-08,6.74999999999977e-01,7.50000000000000e-01,7.52950697845481e-01,7.50000000000000e-01
3.51300000000000e-08,5.24999999999956e-01,7.50000000000000e-01,7.50337285055152e-01,7.50000000000000e-01
3.51700000000000e-08,2.24999999999963e-01,7.50000000000000e-01,7.50907495909219e-01,7.50000000000000e-01
3.52000000000000e-08,0.00000000000000e+00,7.50000000000000e-01,7.53697129287437e-01,7.50000000000000e-01
3.52080000000000e-08,0.00000000000000e+00,7.50000000000000e-01,7.54304872896858e-01,7.50000000000000e-01
3.52240000000000e-08,0.00000000000000e+00,7.50000000000000e-01,7.54702727804415e-01,7.50000000000000e-01
3.52560000000000e-08,0.00000000000000e+00,7.50000000000000e-01,7.50470677150624e-01,7.50000000000000e-01
3.53200000000000e-08,0.00000000000000e+00,7.50000000000000e-01,7.32372924014407e-01,7.50000000000000e-01
3.54480000000000e-08,0.00000000000000e+00,7.50000000000000e-01,7.28395543970840e-01,7.50000000000000e-01
3.57040000000000e-08,0.00000000000000e+00,7.50000000000000e-01,7.52923969987195e-01,7.50000000000000e-01
3.60986378877834e-08,0.00000000000000e+00,7.50000000000000e-01,7.46778899999336e-01,7.50000000000000e-01
3.66827561029073e-08,0.00000000000000e+00,7.50000000000000e-01,7.52008671008982e-01,7.50000000000000e-01
3.78509925331550e-08,0.00000000000000e+00,7.50000000000000e-01,7.47734657876879e-01,7.50000000000000e-01
4.01874653936504e-08,0.00000000000000e+00,7.50000000000000e-01,7.51899797604265e-01,7.50000000000000e-01
4.39874653936504e-08,0.00000000000000e+00,7.50000000000000e-01,7.47993104026716e-01,7.50000000000000e-01
4.50000000000000e-08,0.00000000000000e+00,7.50000000000000e-01,7.51681922874324e-01,7.50000000000000e-01
4.50100000000000e-08,7.49999999999858e-02,7.50000000000000e-01,7.51009041505497e-01,6.75000000000014e-01
4.50300000000000e-08,2.25000000000007e-01,7.50000000000000e-01,7.50069290886688e-01,5.24999999999993e-01
4.50700000000000e-08,5.25000000000000e-01,7.50000000000000e-01,7.53003733026525e-01,2.25000000000000e-01
4.51000000000000e-08,7.50000000000000e-01,7.50000000000000e-01,7.61846397987085e-01,0.00000000000000e+00
4.51080000000000e-08,7.50000000000000e-01,7.50000000000000e-01,7.64855348947024e-01,0.00000000000000e+00
4.51240000000000e-08,7.50000000000000e-01,7.50000000000000e-01,7.70217547916103e-01,0.00000000000000e+00
4.51560000000000e-08,7.50000000000000e-01,7.50000000000000e-01,7.80978373850219e-01,0.00000000000000e+00
4.52200000000000e-08,7.50000000000000e-01,7.50000000000000e-01,7.61175883273264e-01,0.00000000000000e+00
4.53480000000000e-08,7.50000000000000e-01,7.50000000000000e-01,4.33884487817312e-01,0.00000000000000e+00
4.55837923653260e-08,7.50000000000000e-01,7.50000000000000e-01,1.51177020687906e-02,0.00000000000000e+00
4.59213312018506e-08,7.50000000000000e-01,7.50000000000000e-01,-2.81574604963261e-03,0.00000000000000e+00
4.64633118426228e-08,7.50000000000000e-01,7.50000000000000e-01,-9.15931008059903e-05,0.00000000000000e+00
4.72677049115564e-08,7.50000000000000e-01,7.50000000000000e-01,1.28392770142591e-03,0.00000000000000e+00
4.87840809093249e-08,7.50000000000000e-01,7.50000000000000e-01,-1.68818253647203e-03,0.00000000000000e+00
5.01000000000000e-08,7.50000000000000e-01,7.49999999999957e-01,2.10212722688108e-03,0.00000000000000e+00
5.03860185871034e-08,7.50000000000000e-01,7.50000000000000e-01,-2.11383015503309e-04,0.00000000000000e+00
5.09580557613103e-08,7.50000000000000e-01,7.50000000000000e-01,8.79884924292820e-05,0.00000000000000e+00
5.21021301097241e-08,7.50000000000000e-01,7.50000000000000e-01,-4.12806852941976e-05,0.00000000000000e+00
5.43902788065517e-08,7.50000000000000e-01,7.50000000000000e-01,2.93492719164352e-05,0.00000000000000e+00
5.51000000000000e-08,7.50000000000000e-01,7.50000000000000e-01,1.52883335554840e-05,0.00000000000000e+00
5.51100000000000e-08,6.75000000000027e-01,7.50000000000000e-01,3.05902872793057e-04,7.49999999999734e-02
5.51300000000000e-08,5.25000000000005e-01,7.50000000000000e-01,5.90963782244810e-04,2.24999999999995e-01
5.51700000000000e-08,2.25000000000013e-01,7.50000000000000e-01,5.43058640965779e-04,5.24999999999987e-01
5.52000000000000e-08,0.00000000000000e+00,7.50000000000000e-01,4.89991563398157e-04,7.50000000000000e-01
5.52080000000000e-08,0.00000000000000e+00,7.50000000000000e-01,4.19048736508387e-04,7.50000000000000e-01
5.52240000000000e-08,0.00000000000000e+00,7.50000000000000e-01,3.10045192144878e-04,7.50000000000000e-01
5.52560000000000e-08,0.00000000000000e+00,7.50000000000000e-01,3.95293415734604e-05,7.50000000000000e-01
5.53200000000000e-08,0.00000000000000e+00,7.50000000000000e-01,-1.14838892771392e-03,7.50000000000000e-01
5.54480000000000e-08,0.00000000000000e+00,7.50000000000000e-01,-1.44031511647219e-03,7.50000000000000e-01
5.56784423487271e-08,0.00000000000000e+00,7.50000000000000e-01,4.62904300161257e-04,7.50000000000000e-01
5.60529116884980e-08,0.00000000000000e+00,7.50000000000000e-01,-4.14381619520173e-04,7.50000000000000e-01
5.66431519796718e-08,0.00000000000000e+00,7.50000000000000e-01,2.94245132998208e-04,7.50000000000000e-01
5.76612298816370e-08,0.00000000000000e+00,7.50000000000000e-01,-1.86247679203092e-04,7.50000000000000e-01
5.87125175024917e-08,0.00000000000000e+00,7.50000000000000e-01,1.21450904355934e-04,7.50000000000000e-01
6.08150927442011e-08,0.00000000000000e+00,7.50000000000000e-01,-8.96462098564010e-05,7.50000000000000e-01
6.46150927442011e-08,0.00000000000000e+00,7.50000000000000e-01,8.14219268524090e-05,7.50000000000000e-01
6.50000000000000e-08,0.00000000000000e+00,7.50000000000000e-01,5.42412303257064e-06,7.50000000000000e-01
6.50100000000000e-08,7.49999999999858e-02,7.50000000000000e-01,2.07796823857825e-04,7.50000000000000e-01
6.50300000000000e-08,2.24999999999957e-01,7.50000000000000e-01,5.09597220343327e-04,7.50000000000000e-01
6.50700000000000e-08,5.24999999999900e-01,7.50000000000000e-01,8.59924608702045e-04,7.50000000000000e-01
6.51000000000000e-08,7.49999999999957e-01,7.50000000000000e-01,4.04923887770872e-04,7.50000000000000e-01
6.51080000000000e-08,7.50000000000000e-01,7.50000000000000e-01,-8.18766897207335e-05,7.50000000000000e-01
6.51240000000000e-08,7.50000000000000e-01,7.50000000000000e-01,-1.16081771739478e-03,7.50000000000000e-01
6.51560000000000e-08,7.50000000000000e-01,7.50000000000000e-01,-3.38635651307960e-03,7.50000000000000e-01
6.52200000000000e-08,7.50000000000000e-01,7.50000000000000e-01,-6.43495345154149e-03,7.50000000000000e-01
6.53480000000000e-08,7.50000000000000e-01,7.50000000000000e-01,1.60996288232391e-02,7.50000000000000e-01
6.56040000000000e-08,7.50000000000000e-01,7.50000000000000e-01,5.08358493309936e-01,7.50000000000000e-01
6.61159999999999e-08,7.50000000000000e-01,7.50000000000000e-01,7.79223129527110e-01,7.50000000000000e-01
6.66341147036949e-08,7.50000000000000e-01,7.50000000000000e-01,7.25453567779734e-01,7.50000000000000e-01
6.76703441110848e-08,7.50000000000000e-01,7.50000000000000e-01,7.72920980732332e-01,7.50000000000000e-01
6.89916516191986e-08,7.50000000000000e-01,7.50000000000000e-01,7.27478718618255e-01,7.50000000000000e-01
7.12583693605964e-08,7.50000000000000e-01,7.50000000000000e-01,7.71288775667053e-01,7.50000000000000e-01
7.50583693605964e-08,7.50000000000000e-01,7.50000000000000e-01,7.28374973306907e-01,7.50000000000000e-01
7.51000000000000e-08,7.50000000000000e-01,7.50000000000000e-01,7.52845331249445e-01,7.50000000000000e-01
7.51100000000000e-08,6.75000000000076e-01,7.50000000000000e-01,7.51570985706279e-01,7.50000000000000e-01
7.51300000000000e-08,5.25000000000105e-01,7.50000000000000e-01,7.50092809396444e-01,7.50000000000000e-01
7.51700000000000e-08,2.25000000000162e-01,7.50000000000000e-01,7.50955448244613e-01,7.50000000000000e-01
7.52000000000000e-08,1.05027098129540e-13,7.50000000000000e-01,7.53693176416118e-01,7.50000000000000e-01
7.52080000000000e-08,0.00000000000000e+00,7.50000000000000e-01,7.54299427216018e-01,7.50000000000000e-01
7.52240000000000e-08,0.00000000000000e+00,7.50000000000000e-01,7.54689667820864e-01,7.50000000000000e-01
7.52560000000000e-08,0.00000000000000e+00,7.50000000000000e-01,7.50425874699265e-01,7.50000000000000e-01
7.53200000000000e-08,0.00000000000000e+00,7.50000000000000e-01,7.32315245594782e-01,7.50000000000000e-01
7.54480000000000e-08,0.00000000000000e+00,7.50000000000000e-01,7.28399493684359e-01,7.50000000000000e-01
7.57040000000000e-08,0.00000000000000e+00,7.50000000000000e-01,7.52925108749224e-01,7.50000000000000e-01
7.60986751388922e-08,0.00000000000000e+00,7.50000000000000e-01,7.46777561011081e-01,7.50000000000000e-01
7.66827642337269e-08,0.00000000000000e+00,7.50000000000000e-01,7.52009655371766e-01,7.50000000000000e-01
7.78509424233964e-08,0.00000000000000e+00,7.50000000000000e-01,7.47733703142630e-01,7.50000000000000e-01
8.01872988027353e-08,0.00000000000000e+00,7.50000000000000e-01,7.51900661724713e-01,7.50000000000000e-01
8.39872988027353e-08,0.00000000000000e+00,7.50000000000000e-01,7.47992239705049e-01,7.50000000000000e-01
8.50000000000000e-08,0.00000000000000e+00,7.50000000000000e-01,7.51682694655715e-01,7.50000000000000e-01
8.50100000000000e-08,7.49999999999858e-02,7.50000000000000e-01,7.51009684239205e-01,6.75000000000014e-01
8.50300000000000e-08,2.24999999999957e-01,7.50000000000000e-01,7.50069696704369e-01,5.25000000000043e-01
8.50700000000000e-08,5.24999999999900e-01,7.50000000000000e-01,7.53003791587506e-01,2.25000000000100e-01
8.51000000000000e-08,7.49999999999957e-01,7.50000000000000e-01,7.61846194571685e-01,4.29656310529936e-14
8.51080000000000e-08,7.50000000000000e-01,7.50000000000000e-01,7.64855093229871e-01,0.00000000000000e+00
8.51240000000000e-08,7.50000000000000e-01,7.50000000000000e-01,7.70217245996673e-01,0.00000000000000e+00
8.51560000000000e-08,7.50000000000000e-01,7.50000000000000e-01,7.80978160374266e-01,0.00000000000000e+00
8.52200000000000e-08,7.50000000000000e-01,7.50000000000000e-01,7.61178351148779e-01,0.00000000000000e+00
8.53480000000000e-08,7.50000000000000e-01,7.50000000000000e-01,4.33888752300888e-01,0.00000000000000e+00
8.55837892937699e-08,7.50000000000000e-01,7.50000000000000e-01,1.51198152208773e-02,0.00000000000000e+00
8.59213256478924e-08,7.50000000000000e-01,7.50000000000000e-01,-2.81634794594629e-03,0.00000000000000e+00
8.64647974586182e-08,7.50000000000000e-01,7.50000000000000e-01,-8.52451097107304e-05,0.00000000000000e+00
8.72686029044925e-08,7.50000000000000e-01,7.50000000000000e-01,1.28065063963164e-03,0.00000000000000e+00
8.87860291757715e-08,7.50000000000000e-01,7.50000000000000e-01,-1.68538749218202e-03,0.00000000000000e+00
9.01000000000000e-08,7.50000000000000e-01,7.49999999999957e-01,2.10063553937557e-03,0.00000000000000e+00
9.03866644633491e-08,7.50000000000000e-01,7.50000000000000e-01,-2.20558349642366e-04,0.00000000000000e+00
9.09599933900472e-08,7.50000000000000e-01,7.50000000000000e-01,9.38056025295009e-05,0.00000000000000e+00
9.21066512434434e-08,7.50000000000000e-01,7.50000000000000e-01,-4.59367116347059e-05,0.00000000000000e+00
9.43999669502359e-08,7.50000000000000e-01,7.50000000000000e-01,3.35046967099269e-05,0.00000000000000e+00
9.51000000000000e-08,7.50000000000000e-01,7.50000000000000e-01,1.29202956968485e-05,0.00000000000000e+00
9.51100000000000e-08,6.75000000000076e-01,7.50000000000000e-01,3.04162153175427e-04,7.49999999999237e-02
9.51300000000000e-08,5.25000000000105e-01,7.50000000000000e-01,5.89776230425804e-04,2.24999999999895e-01
9.51700000000000e-08,2.25000000000162e-01,7.50000000000000e-01,5.42368946389968e-04,5.24999999999838e-01
9.52000000000000e-08,1.05027098129540e-13,7.50000000000000e-01,4.89544290497551e-04,7.49999999999895e-01
9.52080000000000e-08,0.00000000000000e+00,7.50000000000000e-01,4.18644067031571e-04,7.50000000000000e-01
9.52240000000000e-08,0.00000000000000e+00,7.50000000000000e-01,3.09706087497391e-04,7.50000000000000e-01
9.52560000000000e-08,0.00000000000000e+00,7.50000000000000e-01,3.92687232578098e-05,7.50000000000000e-01
9.53200000000000e-08,0.00000000000000e+00,7.50000000000000e-01,-1.14855574972619e-03,7.50000000000000e-01
9.54480000000000e-08,0.00000000000000e+00,7.50000000000000e-01,-1.44037671382707e-03,7.50000000000000e-01
9.56784623449331e-08,0.00000000000000e+00,7.50000000000000e-01,4.63012493898976e-04,7.50000000000000e-01
9.60529181288530e-08,0.00000000000000e+00,7.50000000000000e-01,-4.14501248174902e-04,7.50000000000000e-01
9.66431898426630e-08,0.00000000000000e+00,7.50000000000000e-01,2.94358293955580e-04,7.50000000000000e-01
9.76612592876458e-08,0.00000000000000e+00,7.50000000000000e-01,-1.86347239362856e-04,7.50000000000000e-01
9.87125484454156e-08,0.00000000000000e+00,7.50000000000000e-01,1.21531748034606e-04,7.50000000000000e-01
1.00815126760955e-07,0.00000000000000e+00,7.50000000000000e-01,-8.97182100070490e-05,7.50000000000000e-01
1.04615126760955e-07,0.00000000000000e+00,7.50000000000000e-01,8.14893559222501e-05,7.50000000000000e-01
1.05000000000000e-07,0.00000000000000e+00,7.50000000000000e-01,5.39978732173180e-06,7.50000000000000e-01
1.05010000000000e-07,7.49999999999858e-02,7.50000000000000e-01,2.07765452566108e-04,7.50000000000000e-01
1.05030000000000e-07,2.24999999999957e-01,7.50000000000000e-01,5.09561206968018e-04,7.50000000000000e-01
1.05070000000000e-07,5.24999999999900e-01,7.50000000000000e-01,8.59901577438871e-04,7.50000000000000e-01
1.05100000000000e-07,7.49999999999957e-01,7.50000000000000e-01,4.04926045055876e-04,7.50000000000000e-01
1.05108000000000e-07,7.50000000000000e-01,7.50000000000000e-01,-8.18658443117459e-05,7.50000000000000e-01
1.05124000000000e-07,7.50000000000000e-01,7.50000000000000e-01,-1.16079475585144e-03,7.50000000000000e-01
1.05156000000000e-07,7.50000000000000e-01,7.50000000000000e-01,-3.38632867582139e-03,7.50000000000000e-01
1.05220000000000e-07,7.50000000000000e-01,7.50000000000000e-01,-6.43494002265452e-03,7.50000000000000e-01
1.05348000000000e-07,7.50000000000000e-01,7.50000000000000e-01,1.60993827304536e-02,7.50000000000000e-01
1.05604000000000e-07,7.50000000000000e-01,7.50000000000000e-01,5.08357650280921e-01,7.50000000000000e-01
1.06116000000000e-07,7.50000000000000e-01,7.50000000000000e-01,7.79223093074417e-01,7.50000000000000e-01
1.06634115045369e-07,7.50000000000000e-01,7.50000000000000e-01,7.25453612036164e-01,7.50000000000000e-01
1.07670345136108e-07,7.50000000000000e-01,7.50000000000000e-01,7.72920947113443e-01,7.50000000000000e-01
1.08991652181774e-07,7.50000000000000e-01,7.50000000000000e-01,7.27478755995710e-01,7.50000000000000e-01
1.11258368403051e-07,7.50000000000000e-01,7.50000000000000e-01,7.71288743781829e-01,7.50000000000000e-01
1.15058368403051e-07,7.50000000000000e-01,7.50000000000000e-01,7.28375008539887e-01,7.50000000000000e-01
1.15100000000000e-07,7.50000000000000e-01,7.50000000000000e-01,7.52845576547034e-01,7.50000000000000e-01
