Time,v(clk),v(data),v(out)
1.00000000000000e-08,7.50000000000000e-01,0.00000000000000e+00,1.18241638250687e-05
1.00100000000000e-08,7.50000000000000e-01,7.49999999999982e-02,5.79762444700982e-06
1.00300000000000e-08,7.50000000000000e-01,2.24999999999995e-01,-4.89408580883754e-08
1.00700000000000e-08,7.50000000000000e-01,5.24999999999987e-01,-3.52949912334199e-06
1.01000000000000e-08,7.50000000000000e-01,7.49999999999994e-01,-4.30076380189548e-06
1.01080000000000e-08,7.50000000000000e-01,7.50000000000000e-01,-2.64393905523297e-06
1.01240000000000e-08,7.50000000000000e-01,7.50000000000000e-01,1.66883860786005e-06
1.01560000000000e-08,7.50000000000000e-01,7.50000000000000e-01,5.79635653533139e-06
1.02200000000000e-08,7.50000000000000e-01,7.50000000000000e-01,2.46198852095481e-06
1.03480000000000e-08,7.50000000000000e-01,7.50000000000000e-01,1.38443853815728e-06
1.06040000000000e-08,7.50000000000000e-01,7.50000000000000e-01,1.90729462940312e-06
1.11160000000000e-08,7.50000000000000e-01,7.50000000000000e-01,2.38824489413175e-06
1.21400000000000e-08,7.50000000000000e-01,7.50000000000000e-01,1.42076567942635e-06
1.41880000000000e-08,7.50000000000000e-01,7.50000000000000e-01,2.16241399522482e-06
1.51000000000000e-08,7.50000000000000e-01,7.50000000000000e-01,1.07624857541896e-06
1.51100000000000e-08,6.74999999999989e-01,7.50000000000000e-01,-9.29511591995086e-05
1.51300000000000e-08,5.24999999999993e-01,7.50000000000000e-01,-2.05732573131570e-04
1.51700000000000e-08,2.25000000000000e-01,7.50000000000000e-01,-1.69032698765781e-06
1.52000000000000e-08,0.00000000000000e+00,7.50000000000000e-01,4.67285096408768e-04
1.52080000000000e-08,0.00000000000000e+00,7.50000000000000e-01,6.14531499884732e-04
1.52240000000000e-08,0.00000000000000e+00,7.50000000000000e-01,6.88014818119934e-04
1.52560000000000e-08,0.00000000000000e+00,7.50000000000000e-01,2.08867493943582e-04
1.53200000000000e-08,0.00000000000000e+00,7.50000000000000e-01,-5.21015327045522e-04
1.54480000000000e-08,0.00000000000000e+00,7.50000000000000e-01,3.39693359465154e-05
1.56783209848699e-08,0.00000000000000e+00,7.50000000000000e-01,-2.20707360072372e-04
1.59824615339979e-08,0.00000000000000e+00,7.50000000000000e-01,2.65436329805399e-04
1.65907426322539e-08,0.00000000000000e+00,7.50000000000000e-01,-1.73958590251926e-04
1.71779903206089e-08,0.00000000000000e+00,7.50000000000000e-01,9.94152714379245e-05
1.83524856973189e-08,0.00000000000000e+00,7.50000000000000e-01,-6.83238523119540e-05
2.07014764507388e-08,0.00000000000000e+00,7.50000000000000e-01,5.71214036553516e-05
2.45014764507388e-08,0.00000000000000e+00,7.50000000000000e-01,-4.80474055811748e-05
2.50000000000000e-08,0.00000000000000e+00,7.50000000000000e-01,4.35009246766913e-06
2.50100000000000e-08,7.49999999999858e-02,7.50000000000000e-01,2.02893878671145e-04
2.50300000000000e-08,2.25000000000007e-01,7.50000000000000e-01,4.50868825388570e-04
2.50700000000000e-08,5.25000000000000e-01,7.50000000000000e-01,5.40687010292605e-04
2.51000000000000e-08,7.50000000000000e-01,7.50000000000000e-01,-1.14977031376462e-03
2.51080000000000e-08,7.50000000000000e-01,7.50000000000000e-01,-2.14294051340999e-03
2.51240000000000e-08,7.50000000000000e-01,7.50000000000000e-01,-4.00469934789889e-03
2.51560000000000e-08,7.50000000000000e-01,7.50000000000000e-01,-6.53406458378623e-03
2.52200000000000e-08,7.50000000000000e-01,7.50000000000000e-01,8.92880001815437e-03
2.53480000000000e-08,7.50000000000000e-01,7.50000000000000e-01,4.08124273313740e-01
2.56040000000000e-08,7.50000000000000e-01,7.50000000000000e-01,7.70949633422474e-01
2.59076828334354e-08,7.50000000000000e-01,7.50000000000000e-01,7.33817989201895e-01
2.65117363881168e-08,7.50000000000000e-01,7.50000000000000e-01,7.65856791574003e-01
2.71777702940975e-08,7.50000000000000e-01,7.50000000000000e-01,7.34943637409678e-01
2.83233460642539e-08,7.50000000000000e-01,7.50000000000000e-01,7.64592510022257e-01
3.06144976045666e-08,7.50000000000000e-01,7.50000000000000e-01,7.35522358083480e-01
3.44144976045666e-08,7.50000000000000e-01,7.50000000000000e-01,7.64247779123183e-01
3.51000000000000e-08,7.49999999999963e-01,7.50000000000000e-01,7.36299048969221e-01
3.51100000000000e-08,6.74999999999977e-01,7.50000000000000e-01,7.43402509363567e-01
3.51300000000000e-08,5.24999999999956e-01,7.50000000000000e-01,7.50182737896524e-01
3.51700000000000e-08,2.24999999999963e-01,7.50000000000000e-01,7.51158719664717e-01
3.52000000000000e-08,0.00000000000000e+00,7.50000000000000e-01,7.53882391126266e-01
3.52080000000000e-08,0.00000000000000e+00,7.50000000000000e-01,7.53822454808401e-01
3.52240000000000e-08,0.00000000000000e+00,7.50000000000000e-01,7.51062210454068e-01
3.52560000000000e-08,0.00000000000000e+00,7.50000000000000e-01,7.37110344277817e-01
3.53200000000000e-08,0.00000000000000e+00,7.50000000000000e-01,7.26617364927905e-01
3.54480000000000e-08,0.00000000000000e+00,7.50000000000000e-01,7.48589610668651e-01
3.57040000000000e-08,0.00000000000000e+00,7.50000000000000e-01,7.49801515135942e-01
3.60070413988824e-08,0.00000000000000e+00,7.50000000000000e-01,7.49680634382056e-01
3.66131241966473e-08,0.00000000000000e+00,7.50000000000000e-01,7.49847127415983e-01
3.78252897921770e-08,0.00000000000000e+00,7.50000000000000e-01,7.49929340149338e-01
4.02496209832364e-08,0.00000000000000e+00,7.50000000000000e-01,7.49921502957617e-01
4.40496209832364e-08,0.00000000000000e+00,7.50000000000000e-01,7.49998509491689e-01
4.50000000000000e-08,0.00000000000000e+00,7.50000000000000e-01,7.49921982233968e-01
4.50100000000000e-08,7.49999999999858e-02,7.50000000000000e-01,7.50080721476764e-01
4.50300000000000e-08,2.25000000000007e-01,7.50000000000000e-01,7.50222806268689e-01
4.50700000000000e-08,5.25000000000000e-01,7.50000000000000e-01,7.50122278195361e-01
4.51000000000000e-08,7.50000000000000e-01,7.50000000000000e-01,7.49187561053437e-01
4.51080000000000e-08,7.50000000000000e-01,6.90000000000031e-01,7.48724710407557e-01
4.51240000000000e-08,7.50000000000000e-01,5.69999999999994e-01,7.47980236539709e-01
4.51560000000000e-08,7.50000000000000e-01,3.30000000000020e-01,7.47269299345879e-01
4.52000000000000e-08,7.50000000000000e-01,4.29656310529936e-14,7.46860144126287e-01
4.52064000000000e-08,7.50000000000000e-01,0.00000000000000e+00,7.46853938892103e-01
4.52192000000000e-08,7.50000000000000e-01,0.00000000000000e+00,7.46860523690249e-01
4.52448000000000e-08,7.50000000000000e-01,0.00000000000000e+00,7.47145129642866e-01
4.52960000000000e-08,7.50000000000000e-01,0.00000000000000e+00,7.48066877837300e-01
4.53984000000000e-08,7.50000000000000e-01,0.00000000000000e+00,7.49259460975487e-01
4.55453291423192e-08,7.50000000000000e-01,0.00000000000000e+00,7.49795148062959e-01
4.58307076576734e-08,7.50000000000000e-01,0.00000000000000e+00,7.50048511834177e-01
4.61446613130016e-08,7.50000000000000e-01,0.00000000000000e+00,7.49978892521833e-01
4.67725686236578e-08,7.50000000000000e-01,0.00000000000000e+00,7.50015767776549e-01
4.80283832449702e-08,7.50000000000000e-01,0.00000000000000e+00,7.49986356793364e-01
5.05400124875951e-08,7.50000000000000e-01,0.00000000000000e+00,7.50012784231408e-01
5.43400124875951e-08,7.50000000000000e-01,0.00000000000000e+00,7.49987740403680e-01
5.51000000000000e-08,7.50000000000000e-01,0.00000000000000e+00,7.50010004291660e-01
5.51100000000000e-08,6.75000000000027e-01,0.00000000000000e+00,7.49916140589450e-01
5.51300000000000e-08,5.25000000000005e-01,0.00000000000000e+00,7.49849260527471e-01
5.51700000000000e-08,2.25000000000013e-01,0.00000000000000e+00,7.51245505663704e-01
5.52000000000000e-08,0.00000000000000e+00,0.00000000000000e+00,7.54301631325587e-01
5.52080000000000e-08,0.00000000000000e+00,0.00000000000000e+00,7.55006453159088e-01
5.52240000000000e-08,0.00000000000000e+00,0.00000000000000e+00,7.56079564160413e-01
5.52560000000000e-08,0.00000000000000e+00,0.00000000000000e+00,7.56601651915099e-01
5.53200000000000e-08,0.00000000000000e+00,0.00000000000000e+00,7.51912033073011e-01
5.54480000000000e-08,0.00000000000000e+00,0.00000000000000e+00,7.49205889760793e-01
5.56522472346741e-08,0.00000000000000e+00,0.00000000000000e+00,7.50387683633975e-01
5.59642703794019e-08,0.00000000000000e+00,0.00000000000000e+00,7.49565143829892e-01
5.64139947054326e-08,0.00000000000000e+00,0.00000000000000e+00,7.50226588974119e-01
5.73134433574940e-08,0.00000000000000e+00,0.00000000000000e+00,7.49676086990505e-01
5.91123406616169e-08,0.00000000000000e+00,0.00000000000000e+00,7.50207289923525e-01
6.27101352698626e-08,0.00000000000000e+00,0.00000000000000e+00,7.49720469772760e-01
6.50000000000000e-08,0.00000000000000e+00,0.00000000000000e+00,7.50204995128794e-01
6.50100000000000e-08,7.49999999999858e-02,0.00000000000000e+00,7.50223433101033e-01
6.50300000000000e-08,2.24999999999957e-01,0.00000000000000e+00,7.50167785715957e-01
6.50700000000000e-08,5.24999999999900e-01,0.00000000000000e+00,7.49974459743667e-01
6.51000000000000e-08,7.49999999999957e-01,0.00000000000000e+00,7.49773292725387e-01
6.51080000000000e-08,7.50000000000000e-01,0.00000000000000e+00,7.49697917557208e-01
6.51240000000000e-08,7.50000000000000e-01,0.00000000000000e+00,7.49649204506786e-01
6.51560000000000e-08,7.50000000000000e-01,0.00000000000000e+00,7.49725991003992e-01
6.52200000000000e-08,7.50000000000000e-01,0.00000000000000e+00,7.51327407641291e-01
6.53480000000000e-08,7.50000000000000e-01,0.00000000000000e+00,7.64644045347173e-01
6.56040000000000e-08,7.50000000000000e-01,0.00000000000000e+00,1.86640729940132e-01
6.58713488638840e-08,7.50000000000000e-01,0.00000000000000e+00,-6.95626180683491e-02
6.63716838763318e-08,7.50000000000000e-01,0.00000000000000e+00,5.67381732233641e-02
6.69510192012737e-08,7.50000000000000e-01,0.00000000000000e+00,-4.03201431920255e-02
6.78580491141325e-08,7.50000000000000e-01,0.00000000000000e+00,3.64637848702115e-02
6.95244748468480e-08,7.50000000000000e-01,0.00000000000000e+00,-3.17398500998398e-02
7.20264058028461e-08,7.50000000000000e-01,0.00000000000000e+00,3.14645680479565e-02
7.51000000000000e-08,7.50000000000000e-01,0.00000000000000e+00,-2.87067638653705e-02
7.51100000000000e-08,6.75000000000076e-01,0.00000000000000e+00,-2.13372696329872e-02
7.51300000000000e-08,5.25000000000105e-01,0.00000000000000e+00,-1.15153847778255e-02
7.51700000000000e-08,2.25000000000162e-01,0.00000000000000e+00,-3.64771999753688e-03
7.52000000000000e-08,1.05027098129540e-13,0.00000000000000e+00,-1.00707297768413e-03
7.52080000000000e-08,0.00000000000000e+00,0.00000000000000e+00,-7.12286898169989e-04
7.52240000000000e-08,0.00000000000000e+00,0.00000000000000e+00,-4.94818113364479e-04
7.52560000000000e-08,0.00000000000000e+00,0.00000000000000e+00,-1.51580705919391e-03
7.53200000000000e-08,0.00000000000000e+00,0.00000000000000e+00,-2.41828238853220e-03
7.54480000000000e-08,0.00000000000000e+00,0.00000000000000e+00,9.08168711557869e-05
7.56653829814899e-08,0.00000000000000e+00,0.00000000000000e+00,1.48251545813875e-04
7.59549867415743e-08,0.00000000000000e+00,0.00000000000000e+00,-1.76338579265165e-04
7.65341942617431e-08,0.00000000000000e+00,0.00000000000000e+00,1.75939341901752e-04
7.76926093020807e-08,0.00000000000000e+00,0.00000000000000e+00,-1.69950380388240e-04
7.99291326621757e-08,0.00000000000000e+00,0.00000000000000e+00,1.69576291414755e-04
8.37291326621757e-08,0.00000000000000e+00,0.00000000000000e+00,-1.66753316718121e-04
8.50000000000000e-08,0.00000000000000e+00,0.00000000000000e+00,1.64142424216312e-04
8.50100000000000e-08,7.49999999999858e-02,0.00000000000000e+00,2.35218851823676e-04
8.50300000000000e-08,2.24999999999957e-01,0.00000000000000e+00,2.68586343817809e-04
8.50700000000000e-08,5.24999999999900e-01,0.00000000000000e+00,1.09484893612469e-04
8.51000000000000e-08,7.49999999999957e-01,0.00000000000000e+00,-1.96921151538229e-04
8.51080000000000e-08,7.50000000000000e-01,0.00000000000000e+00,-3.07391912824820e-04
8.51240000000000e-08,7.50000000000000e-01,0.00000000000000e+00,-4.13728086064893e-04
8.51560000000000e-08,7.50000000000000e-01,0.00000000000000e+00,-3.20766865641420e-04
8.52200000000000e-08,7.50000000000000e-01,0.00000000000000e+00,-8.29477042545296e-05
8.53480000000000e-08,7.50000000000000e-01,0.00000000000000e+00,1.22673810532388e-04
8.56040000000000e-08,7.50000000000000e-01,0.00000000000000e+00,1.84966631429362e-06
8.61159999999999e-08,7.50000000000000e-01,0.00000000000000e+00,-2.45714503370985e-06
8.68371354039372e-08,7.50000000000000e-01,0.00000000000000e+00,1.14594921062170e-05
8.80935660455008e-08,7.50000000000000e-01,0.00000000000000e+00,-6.61744361828316e-06
9.00000000000000e-08,7.50000000000000e-01,0.00000000000000e+00,1.17810773255008e-05
9.00100000000000e-08,7.50000000000000e-01,7.49999999999858e-02,5.77234982343522e-06
9.00300000000000e-08,7.50000000000000e-01,2.24999999999957e-01,-9.61913911579071e-08
9.00700000000000e-08,7.50000000000000e-01,5.24999999999900e-01,-3.53786670946599e-06
9.01000000000000e-08,7.50000000000000e-01,7.49999999999957e-01,-4.09717449097180e-06
9.01080000000000e-08,7.50000000000000e-01,7.50000000000000e-01,-2.53710965737730e-06
9.01240000000000e-08,7.50000000000000e-01,7.50000000000000e-01,1.51120927757709e-06
9.01560000000000e-08,7.50000000000000e-01,7.50000000000000e-01,5.56480645241830e-06
9.02200000000000e-08,7.50000000000000e-01,7.50000000000000e-01,2.49087329082937e-06
9.03480000000000e-08,7.50000000000000e-01,7.50000000000000e-01,1.41618431127172e-06
9.06040000000000e-08,7.50000000000000e-01,7.50000000000000e-01,1.92905518640873e-06
9.11159999999999e-08,7.50000000000000e-01,7.50000000000000e-01,2.35292997769788e-06
9.21399999999999e-08,7.50000000000000e-01,7.50000000000000e-01,1.46029021098545e-06
9.41879999999998e-08,7.50000000000000e-01,7.50000000000000e-01,2.12083475227987e-06
9.51000000000000e-08,7.50000000000000e-01,7.50000000000000e-01,1.12076864682356e-06
9.51100000000000e-08,6.75000000000076e-01,7.50000000000000e-01,-9.29752529087169e-05
9.51300000000000e-08,5.25000000000105e-01,7.50000000000000e-01,-2.05729794849868e-04
9.51700000000000e-08,2.25000000000162e-01,7.50000000000000e-01,-1.69185223096446e-06
9.52000000000000e-08,1.05027098129540e-13,7.50000000000000e-01,4.67282191297991e-04
9.52080000000000e-08,0.00000000000000e+00,7.50000000000000e-01,6.14527939539103e-04
9.52240000000000e-08,0.00000000000000e+00,7.50000000000000e-01,6.88009669338130e-04
9.52560000000000e-08,0.00000000000000e+00,7.50000000000000e-01,2.08863839062157e-04
9.53200000000000e-08,0.00000000000000e+00,7.50000000000000e-01,-5.21021174397784e-04
9.54480000000000e-08,0.00000000000000e+00,7.50000000000000e-01,3.39682652924223e-05
9.56783214140443e-08,0.00000000000000e+00,7.50000000000000e-01,-2.20706261688935e-04
9.59824609588250e-08,0.00000000000000e+00,7.50000000000000e-01,2.65433917385857e-04
9.65907400483864e-08,0.00000000000000e+00,7.50000000000000e-01,-1.73954692658167e-04
9.71779884856777e-08,0.00000000000000e+00,7.50000000000000e-01,9.94110764464436e-05
9.83524853602603e-08,0.00000000000000e+00,7.50000000000000e-01,-6.83196483626716e-05
1.00701479109426e-07,0.00000000000000e+00,7.50000000000000e-01,5.71172113703541e-05
1.04501479109426e-07,0.00000000000000e+00,7.50000000000000e-01,-4.80432268756634e-05
1.05000000000000e-07,0.00000000000000e+00,7.50000000000000e-01,4.34592864108699e-06
1.05010000000000e-07,7.49999999999858e-02,7.50000000000000e-01,2.02890539307304e-04
1.05030000000000e-07,2.24999999999957e-01,7.50000000000000e-01,4.50867277975484e-04
1.05070000000000e-07,5.24999999999900e-01,7.50000000000000e-01,5.40687961236519e-04
1.05100000000000e-07,7.49999999999957e-01,7.50000000000000e-01,-1.14976741196104e-03
1.05108000000000e-07,7.50000000000000e-01,7.50000000000000e-01,-2.14293736625407e-03
1.05124000000000e-07,7.50000000000000e-01,7.50000000000000e-01,-4.00469631105031e-03
1.05156000000000e-07,7.50000000000000e-01,7.50000000000000e-01,-6.53406313669892e-03
1.05220000000000e-07,7.50000000000000e-01,7.50000000000000e-01,8.92877815709951e-03
1.05348000000000e-07,7.50000000000000e-01,7.50000000000000e-01,4.08124168411988e-01
1.05604000000000e-07,7.50000000000000e-01,7.50000000000000e-01,7.70949623929374e-01
1.05907682858668e-07,7.50000000000000e-01,7.50000000000000e-01,7.33817997502329e-01
1.06511736363059e-07,7.50000000000000e-01,7.50000000000000e-01,7.65856784079379e-01
1.07177770278196e-07,7.50000000000000e-01,7.50000000000000e-01,7.34943644796480e-01
1.08323345894375e-07,7.50000000000000e-01,7.50000000000000e-01,7.64592503183748e-01
1.10614497126733e-07,7.50000000000000e-01,7.50000000000000e-01,7.35522365152342e-01
1.14414497126732e-07,7.50000000000000e-01,7.50000000000000e-01,7.64247772426751e-01
1.15100000000000e-07,7.50000000000000e-01,7.50000000000000e-01,7.36299055141525e-01
1.15110000000000e-07,6.75000000000076e-01,7.50000000000000e-01,7.43402512427788e-01
1.15130000000000e-07,5.25000000000105e-01,7.50000000000000e-01,7.50182737902311e-01
1.15170000000000e-07,2.25000000000162e-01,7.50000000000000e-01,7.51158719687678e-01
1.15200000000000e-07,1.05027098129540e-13,7.50000000000000e-01,7.53882391218132e-01
1.15208000000000e-07,0.00000000000000e+00,7.50000000000000e-01,7.53822455008136e-01
1.15224000000000e-07,0.00000000000000e+00,7.50000000000000e-01,7.51062210875402e-01
1.15256000000000e-07,0.00000000000000e+00,7.50000000000000e-01,7.37110344845576e-01
1.15320000000000e-07,0.00000000000000e+00,7.50000000000000e-01,7.26617365065607e-01
1.15448000000000e-07,0.00000000000000e+00,7.50000000000000e-01,7.48589610618980e-01
1.15704000000000e-07,0.00000000000000e+00,7.50000000000000e-01,7.49801515182225e-01
1.16007041398852e-07,0.00000000000000e+00,7.50000000000000e-01,7.49680634343948e-01
1.16613124196556e-07,0.00000000000000e+00,7.50000000000000e-01,7.49847127451494e-01
1.17825289791963e-07,0.00000000000000e+00,7.50000000000000e-01,7.49929340116011e-01
1.20249620982778e-07,0.00000000000000e+00,7.50000000000000e-01,7.49921502990350e-01
1.24049620982778e-07,0.00000000000000e+00,7.50000000000000e-01,7.49998509459140e-01
1.25000000000000e-07,0.00000000000000e+00,7.50000000000000e-01,7.49921982264192e-01
1.25010000000000e-07,7.49999999998865e-02,7.50000000000000e-01,7.50080721496046e-01
1.25030000000000e-07,2.24999999999858e-01,7.50000000000000e-01,7.50222806272223e-01
1.25070000000000e-07,5.24999999999801e-01,7.50000000000000e-01,7.50122278194855e-01
1.25100000000000e-07,7.49999999999858e-01,7.50000000000000e-01,7.49187561055491e-01
1.25108000000000e-07,7.50000000000000e-01,6.89999999999932e-01,7.48724710409654e-01
1.25124000000000e-07,7.50000000000000e-01,5.69999999999994e-01,7.47980236541358e-01
1.25156000000000e-07,7.50000000000000e-01,3.29999999999921e-01,7.47269299346764e-01
1.25200000000000e-07,7.50000000000000e-01,0.00000000000000e+00,7.46860144126598e-01
1.25206400000000e-07,7.50000000000000e-01,0.00000000000000e+00,7.46853938892018e-01
1.25219200000000e-07,7.50000000000000e-01,0.00000000000000e+00,7.46860523691329e-01
1.25244800000000e-07,7.50000000000000e-01,0.00000000000000e+00,7.47145129644674e-01
1.25296000000000e-07,7.50000000000000e-01,0.00000000000000e+00,7.48066877835661e-01
1.25398400000000e-07,7.50000000000000e-01,0.00000000000000e+00,7.49259460975118e-01
1.25545329140916e-07,7.50000000000000e-01,0.00000000000000e+00,7.49795148059620e-01
1.25830707657018e-07,7.50000000000000e-01,0.00000000000000e+00,7.50048511834915e-01
1.26144661306278e-07,7.50000000000000e-01,0.00000000000000e+00,7.49978892521992e-01
1.26772568604797e-07,7.50000000000000e-01,0.00000000000000e+00,7.50015767776407e-01
1.28028383201836e-07,7.50000000000000e-01,0.00000000000000e+00,7.49986356793596e-01
1.30540012395913e-07,7.50000000000000e-01,0.00000000000000e+00,7.50012784231152e-01
1.34340012395913e-07,7.50000000000000e-01,0.00000000000000e+00,7.49987740403864e-01
1.35100000000000e-07,7.49999999999864e-01,0.00000000000000e+00,7.50010004291893e-01
1.35110000000000e-07,6.74999999999778e-01,0.00000000000000e+00,7.49916140589507e-01
1.35130000000000e-07,5.24999999999807e-01,0.00000000000000e+00,7.49849260527490e-01
1.35170000000000e-07,2.24999999999864e-01,0.00000000000000e+00,7.51245505663646e-01
