Time,v(clk),v(data),v(out),v(reset)
1.00000000000000e-08,6.00000000000000e-01,0.00000000000000e+00,2.38475934081633e-05,0.00000000000000e+00
1.00100000000000e-08,6.00000000000000e-01,5.99999999999985e-02,2.27193112612017e-05,0.00000000000000e+00
1.00300000000000e-08,6.00000000000000e-01,1.79999999999996e-01,1.92391420017271e-05,0.00000000000000e+00
1.00700000000000e-08,6.00000000000000e-01,4.19999999999990e-01,1.37927595385973e-05,0.00000000000000e+00
1.01000000000000e-08,6.00000000000000e-01,5.99999999999995e-01,1.22461788221034e-05,0.00000000000000e+00
1.01080000000000e-08,6.00000000000000e-01,6.00000000000000e-01,1.22145808393176e-05,0.00000000000000e+00
1.01240000000000e-08,6.00000000000000e-01,6.00000000000000e-01,1.23144302440134e-05,0.00000000000000e+00
1.01560000000000e-08,6.00000000000000e-01,6.00000000000000e-01,1.31038954793300e-05,0.00000000000000e+00
1.02200000000000e-08,6.00000000000000e-01,6.00000000000000e-01,1.23074719520291e-05,0.00000000000000e+00
1.03480000000000e-08,6.00000000000000e-01,6.00000000000000e-01,1.15085614738643e-05,0.00000000000000e+00
1.06040000000000e-08,6.00000000000000e-01,6.00000000000000e-01,1.05868373674912e-05,0.00000000000000e+00
1.11160000000000e-08,6.00000000000000e-01,6.00000000000000e-01,1.03821303066420e-05,0.00000000000000e+00
1.21400000000000e-08,6.00000000000000e-01,6.00000000000000e-01,1.04407121779967e-05,0.00000000000000e+00
1.41880000000000e-08,6.00000000000000e-01,6.00000000000000e-01,9.43678877351377e-06,0.00000000000000e+00
1.51000000000000e-08,6.00000000000000e-01,6.00000000000000e-01,9.66700533153349e-06,0.00000000000000e+00
1.51100000000000e-08,5.39999999999991e-01,6.00000000000000e-01,1.57980620803237e-04,6.00000000000085e-02
1.51300000000000e-08,4.19999999999994e-01,6.00000000000000e-01,2.87994852589936e-04,1.80000000000006e-01
1.51700000000000e-08,1.80000000000000e-01,6.00000000000000e-01,1.86783154878932e-04,4.20000000000000e-01
1.52000000000000e-08,0.00000000000000e+00,6.00000000000000e-01,1.57747498590065e-04,6.00000000000000e-01
1.52080000000000e-08,0.00000000000000e+00,6.00000000000000e-01,1.37729120312888e-04,6.00000000000000e-01
1.52240000000000e-08,0.00000000000000e+00,6.00000000000000e-01,1.06986291413799e-04,6.00000000000000e-01
1.52560000000000e-08,0.00000000000000e+00,6.00000000000000e-01,4.42080102686163e-05,6.00000000000000e-01
1.53200000000000e-08,0.00000000000000e+00,6.00000000000000e-01,-1.72687432803860e-04,6.00000000000000e-01
1.54480000000000e-08,0.00000000000000e+00,6.00000000000000e-01,-2.61840116373101e-04,6.00000000000000e-01
1.57040000000000e-08,0.00000000000000e+00,6.00000000000000e-01,2.20229276967649e-05,6.00000000000000e-01
1.61516979342519e-08,0.00000000000000e+00,6.00000000000000e-01,-4.27375598193499e-05,6.00000000000000e-01
1.67037003998972e-08,0.00000000000000e+00,6.00000000000000e-01,1.56433080721476e-04,6.00000000000000e-01
1.78077053311877e-08,0.00000000000000e+00,6.00000000000000e-01,-1.64760090698387e-04,6.00000000000000e-01
1.90363798406424e-08,0.00000000000000e+00,6.00000000000000e-01,1.78334884671502e-04,6.00000000000000e-01
2.14937288595516e-08,0.00000000000000e+00,6.00000000000000e-01,-1.59695610166838e-04,6.00000000000000e-01
2.50000000000000e-08,0.00000000000000e+00,6.00000000000000e-01,1.72017946445491e-04,6.00000000000000e-01
2.50100000000000e-08,5.99999999999886e-02,6.00000000000000e-01,2.46900394411345e-04,6.00000000000000e-01
2.50300000000000e-08,1.80000000000006e-01,6.00000000000000e-01,3.56811573257697e-04,6.00000000000000e-01
2.50700000000000e-08,4.20000000000000e-01,6.00000000000000e-01,4.14608303433053e-04,6.00000000000000e-01
2.51000000000000e-08,6.00000000000000e-01,6.00000000000000e-01,-1.28946956991748e-04,6.00000000000000e-01
2.51080000000000e-08,6.00000000000000e-01,6.00000000000000e-01,-5.56661665613467e-04,6.00000000000000e-01
2.51240000000000e-08,6.00000000000000e-01,6.00000000000000e-01,-1.51951578766631e-03,6.00000000000000e-01
2.51560000000000e-08,6.00000000000000e-01,6.00000000000000e-01,-3.36920544011419e-03,6.00000000000000e-01
2.52200000000000e-08,6.00000000000000e-01,6.00000000000000e-01,-4.83206464341263e-03,6.00000000000000e-01
2.53480000000000e-08,6.00000000000000e-01,6.00000000000000e-01,7.53293223494278e-02,6.00000000000000e-01
2.56040000000000e-08,6.00000000000000e-01,6.00000000000000e-01,5.17750683183730e-01,6.00000000000000e-01
2.61160000000000e-08,6.00000000000000e-01,6.00000000000000e-01,6.20898932828261e-01,6.00000000000000e-01
2.66866142339845e-08,6.00000000000000e-01,6.00000000000000e-01,5.79118842792591e-01,6.00000000000000e-01
2.78175889232081e-08,6.00000000000000e-01,6.00000000000000e-01,6.17903032122559e-01,6.00000000000000e-01
2.93120212273679e-08,6.00000000000000e-01,6.00000000000000e-01,5.81379820180780e-01,6.00000000000000e-01
3.23008858356876e-08,6.00000000000000e-01,6.00000000000000e-01,6.16855141174397e-01,6.00000000000000e-01
3.51000000000000e-08,5.99999999999970e-01,6.00000000000000e-01,5.82276480037639e-01,6.00000000000000e-01
3.51100000000000e-08,5.39999999999982e-01,6.00000000000000e-01,5.88875871793623e-01,6.00000000000000e-01
3.51300000000000e-08,4.19999999999965e-01,6.00000000000000e-01,5.97100640533589e-01,6.00000000000000e-01
3.51700000000000e-08,1.79999999999970e-01,6.00000000000000e-01,6.00668911143704e-01,6.00000000000000e-01
3.52000000000000e-08,0.00000000000000e+00,6.00000000000000e-01,6.01982265777454e-01,6.00000000000000e-01
3.52080000000000e-08,0.00000000000000e+00,6.00000000000000e-01,6.02369418112498e-01,6.00000000000000e-01
3.52240000000000e-08,0.00000000000000e+00,6.00000000000000e-01,6.02773674345459e-01,6.00000000000000e-01
3.52560000000000e-08,0.00000000000000e+00,6.00000000000000e-01,6.01518838905210e-01,6.00000000000000e-01
3.53200000000000e-08,0.00000000000000e+00,6.00000000000000e-01,5.89691702461231e-01,6.00000000000000e-01
3.54480000000000e-08,0.00000000000000e+00,6.00000000000000e-01,5.79942196562011e-01,6.00000000000000e-01
3.57040000000000e-08,0.00000000000000e+00,6.00000000000000e-01,5.99496262092744e-01,6.00000000000000e-01
3.61960288619985e-08,0.00000000000000e+00,6.00000000000000e-01,5.99060714935413e-01,6.00000000000000e-01
3.68426421609217e-08,0.00000000000000e+00,6.00000000000000e-01,6.00048441960546e-01,6.00000000000000e-01
3.81358687587681e-08,0.00000000000000e+00,6.00000000000000e-01,5.99383332706911e-01,6.00000000000000e-01
4.07223219544608e-08,0.00000000000000e+00,6.00000000000000e-01,6.00217749386227e-01,6.00000000000000e-01
4.45223219544608e-08,0.00000000000000e+00,6.00000000000000e-01,5.99488082784665e-01,6.00000000000000e-01
4.50000000000000e-08,0.00000000000000e+00,6.00000000000000e-01,6.00176072907993e-01,6.00000000000000e-01
4.50100000000000e-08,5.99999999999886e-02,6.00000000000000e-01,5.99997145349461e-01,5.40000000000011e-01
4.50300000000000e-08,1.80000000000006e-01,6.00000000000000e-01,5.99758159431205e-01,4.19999999999994e-01
4.50700000000000e-08,4.20000000000000e-01,6.00000000000000e-01,6.01212803153175e-01,1.80000000000000e-01
4.51000000000000e-08,6.00000000000000e-01,6.00000000000000e-01,6.05977283769611e-01,0.00000000000000e+00
4.51080000000000e-08,6.00000000000000e-01,6.00000000000000e-01,6.07641382599985e-01,0.00000000000000e+00
4.51240000000000e-08,6.00000000000000e-01,6.00000000000000e-01,6.10566848981140e-01,0.00000000000000e+00
4.51560000000000e-08,6.00000000000000e-01,6.00000000000000e-01,6.16055158535171e-01,0.00000000000000e+00
4.52200000000000e-08,6.00000000000000e-01,6.00000000000000e-01,6.12453155198974e-01,0.00000000000000e+00
4.53480000000000e-08,6.00000000000000e-01,6.00000000000000e-01,3.25277599461019e-01,0.00000000000000e+00
4.56001386562713e-08,6.00000000000000e-01,6.00000000000000e-01,-3.06604639618608e-02,0.00000000000000e+00
4.59384020313514e-08,6.00000000000000e-01,6.00000000000000e-01,1.94027640447110e-02,0.00000000000000e+00
4.66070115906283e-08,6.00000000000000e-01,6.00000000000000e-01,-1.45684073824315e-02,0.00000000000000e+00
4.73247071178399e-08,6.00000000000000e-01,6.00000000000000e-01,1.20993956586746e-02,0.00000000000000e+00
4.87600981722630e-08,6.00000000000000e-01,6.00000000000000e-01,-1.06576286343154e-02,0.00000000000000e+00
5.01000000000000e-08,6.00000000000000e-01,5.99999999999966e-01,9.77746357144285e-03,0.00000000000000e+00
5.03870782108846e-08,6.00000000000000e-01,6.00000000000000e-01,1.03842131365474e-03,0.00000000000000e+00
5.09612346326538e-08,6.00000000000000e-01,6.00000000000000e-01,-7.35673260736019e-04,0.00000000000000e+00
5.21095474761923e-08,6.00000000000000e-01,6.00000000000000e-01,6.45930510298460e-04,0.00000000000000e+00
5.44061731632692e-08,6.00000000000000e-01,6.00000000000000e-01,-5.82218115347309e-04,0.00000000000000e+00
5.51000000000000e-08,6.00000000000000e-01,6.00000000000000e-01,4.64878462572568e-04,0.00000000000000e+00
5.51100000000000e-08,5.40000000000021e-01,6.00000000000000e-01,5.10217049311312e-04,5.99999999999787e-02
5.51300000000000e-08,4.20000000000004e-01,6.00000000000000e-01,5.01412590543621e-04,1.79999999999996e-01
5.51700000000000e-08,1.80000000000010e-01,6.00000000000000e-01,2.78815579351235e-04,4.19999999999990e-01
5.52000000000000e-08,0.00000000000000e+00,6.00000000000000e-01,1.99047556403022e-04,6.00000000000000e-01
5.52080000000000e-08,0.00000000000000e+00,6.00000000000000e-01,1.71630993173452e-04,6.00000000000000e-01
5.52240000000000e-08,0.00000000000000e+00,6.00000000000000e-01,1.24547391790117e-04,6.00000000000000e-01
5.52560000000000e-08,0.00000000000000e+00,6.00000000000000e-01,-6.82648174160638e-06,6.00000000000000e-01
5.53200000000000e-08,0.00000000000000e+00,6.00000000000000e-01,-7.39317499778770e-04,6.00000000000000e-01
5.54480000000000e-08,0.00000000000000e+00,6.00000000000000e-01,-7.89273020421304e-04,6.00000000000000e-01
5.56885933028218e-08,0.00000000000000e+00,6.00000000000000e-01,4.00642338323385e-04,6.00000000000000e-01
5.61449921315925e-08,0.00000000000000e+00,6.00000000000000e-01,-3.83109246719230e-04,6.00000000000000e-01
5.66812648344837e-08,0.00000000000000e+00,6.00000000000000e-01,3.36913732819763e-04,6.00000000000000e-01
5.68153330102065e-08,0.00000000000000e+00,6.00000000000000e-01,1.07785261952324e-04,6.00000000000000e-01
5.70834693616521e-08,0.00000000000000e+00,6.00000000000000e-01,-4.19421823561281e-05,6.00000000000000e-01
5.76197420645433e-08,0.00000000000000e+00,6.00000000000000e-01,4.14099862738517e-05,6.00000000000000e-01
5.86922874703257e-08,0.00000000000000e+00,6.00000000000000e-01,-1.91107984735322e-05,6.00000000000000e-01
6.08373782818905e-08,0.00000000000000e+00,6.00000000000000e-01,3.18685523790748e-05,6.00000000000000e-01
6.46373782818905e-08,0.00000000000000e+00,6.00000000000000e-01,-1.46532745080683e-05,6.00000000000000e-01
6.50000000000000e-08,0.00000000000000e+00,6.00000000000000e-01,1.77646358043709e-05,6.00000000000000e-01
6.50100000000000e-08,5.99999999999886e-02,6.00000000000000e-01,1.17890733836161e-04,6.00000000000000e-01
6.50300000000000e-08,1.79999999999966e-01,6.00000000000000e-01,2.69361840609814e-04,6.00000000000000e-01
6.50700000000000e-08,4.19999999999920e-01,6.00000000000000e-01,3.65817984544971e-04,6.00000000000000e-01
6.51000000000000e-08,5.99999999999966e-01,6.00000000000000e-01,-1.84149632163851e-04,6.00000000000000e-01
6.51080000000000e-08,6.00000000000000e-01,6.00000000000000e-01,-6.13248636477805e-04,6.00000000000000e-01
6.51240000000000e-08,6.00000000000000e-01,6.00000000000000e-01,-1.58060836363774e-03,6.00000000000000e-01
6.51560000000000e-08,6.00000000000000e-01,6.00000000000000e-01,-3.41210515453046e-03,6.00000000000000e-01
6.52200000000000e-08,6.00000000000000e-01,6.00000000000000e-01,-4.77037918274895e-03,6.00000000000000e-01
6.53480000000000e-08,6.00000000000000e-01,6.00000000000000e-01,7.80274283160639e-02,6.00000000000000e-01
6.56040000000000e-08,6.00000000000000e-01,6.00000000000000e-01,5.19876384904969e-01,6.00000000000000e-01
6.61159999999999e-08,6.00000000000000e-01,6.00000000000000e-01,6.20522876173529e-01,6.00000000000000e-01
6.66891311246892e-08,6.00000000000000e-01,6.00000000000000e-01,5.79476917378709e-01,6.00000000000000e-01
6.78161202582669e-08,6.00000000000000e-01,6.00000000000000e-01,6.17585014165597e-01,6.00000000000000e-01
6.93074934969907e-08,6.00000000000000e-01,6.00000000000000e-01,5.81713769726250e-01,6.00000000000000e-01
7.22902399744384e-08,6.00000000000000e-01,6.00000000000000e-01,6.16553300523705e-01,6.00000000000000e-01
7.51000000000000e-08,6.00000000000000e-01,6.00000000000000e-01,5.82595903235886e-01,6.00000000000000e-01
7.51100000000000e-08,5.40000000000061e-01,6.00000000000000e-01,5.89072180913320e-01,6.00000000000000e-01
7.51300000000000e-08,4.20000000000084e-01,6.00000000000000e-01,5.97146025827676e-01,6.00000000000000e-01
7.51700000000000e-08,1.80000000000129e-01,6.00000000000000e-01,6.00662361209882e-01,6.00000000000000e-01
7.52000000000000e-08,8.40438829641244e-14,6.00000000000000e-01,6.01981148795399e-01,6.00000000000000e-01
7.52080000000000e-08,0.00000000000000e+00,6.00000000000000e-01,6.02368354211528e-01,6.00000000000000e-01
7.52240000000000e-08,0.00000000000000e+00,6.00000000000000e-01,6.02773010074217e-01,6.00000000000000e-01
7.52560000000000e-08,0.00000000000000e+00,6.00000000000000e-01,6.01521614337621e-01,6.00000000000000e-01
7.53200000000000e-08,0.00000000000000e+00,6.00000000000000e-01,5.89701872605663e-01,6.00000000000000e-01
7.54480000000000e-08,0.00000000000000e+00,6.00000000000000e-01,5.79945282236381e-01,6.00000000000000e-01
7.57040000000000e-08,0.00000000000000e+00,6.00000000000000e-01,5.99493576390871e-01,6.00000000000000e-01
7.61960529757279e-08,0.00000000000000e+00,6.00000000000000e-01,5.99063276325333e-01,6.00000000000000e-01
7.68426535714915e-08,0.00000000000000e+00,6.00000000000000e-01,6.00046285433337e-01,6.00000000000000e-01
7.81358547630188e-08,0.00000000000000e+00,6.00000000000000e-01,5.99385384408972e-01,6.00000000000000e-01
8.07222571460734e-08,0.00000000000000e+00,6.00000000000000e-01,6.00216324107555e-01,6.00000000000000e-01
8.45222571460734e-08,0.00000000000000e+00,6.00000000000000e-01,5.99489861159129e-01,6.00000000000000e-01
8.50000000000000e-08,0.00000000000000e+00,6.00000000000000e-01,6.00174396404757e-01,6.00000000000000e-01
8.50100000000000e-08,5.99999999999886e-02,6.00000000000000e-01,5.99995925707572e-01,5.40000000000011e-01
8.50300000000000e-08,1.79999999999966e-01,6.00000000000000e-01,5.99757425053355e-01,4.20000000000034e-01
8.50700000000000e-08,4.19999999999920e-01,6.00000000000000e-01,6.01212539687105e-01,1.80000000000080e-01
8.51000000000000e-08,5.99999999999966e-01,6.00000000000000e-01,6.05977036067487e-01,3.44169137633799e-14
8.51080000000000e-08,6.00000000000000e-01,6.00000000000000e-01,6.07641132570267e-01,0.00000000000000e+00
8.51240000000000e-08,6.00000000000000e-01,6.00000000000000e-01,6.10566596784186e-01,0.00000000000000e+00
8.51560000000000e-08,6.00000000000000e-01,6.00000000000000e-01,6.16054867577921e-01,0.00000000000000e+00
8.52200000000000e-08,6.00000000000000e-01,6.00000000000000e-01,6.12448435269999e-01,0.00000000000000e+00
8.53480000000000e-08,6.00000000000000e-01,6.00000000000000e-01,3.25266927898391e-01,0.00000000000000e+00
8.56001498767733e-08,6.00000000000000e-01,6.00000000000000e-01,-3.06661130963655e-02,0.00000000000000e+00
8.59384089300344e-08,6.00000000000000e-01,6.00000000000000e-01,1.94061530476511e-02,0.00000000000000e+00
8.66074734634255e-08,6.00000000000000e-01,6.00000000000000e-01,-1.45730589323265e-02,0.00000000000000e+00
8.73250719911533e-08,6.00000000000000e-01,6.00000000000000e-01,1.21028518758656e-02,0.00000000000000e+00
8.87602690466087e-08,6.00000000000000e-01,6.00000000000000e-01,-1.06525351205640e-02,0.00000000000000e+00
9.01000000000000e-08,6.00000000000000e-01,5.99999999999966e-01,9.78042116877272e-03,0.00000000000000e+00
9.03870394110911e-08,6.00000000000000e-01,6.00000000000000e-01,1.03897410732951e-03,0.00000000000000e+00
9.09611182332733e-08,6.00000000000000e-01,6.00000000000000e-01,-7.36029252701081e-04,0.00000000000000e+00
9.21092758776376e-08,6.00000000000000e-01,6.00000000000000e-01,6.46220395182918e-04,0.00000000000000e+00
9.44055911663663e-08,6.00000000000000e-01,6.00000000000000e-01,-5.82478099564132e-04,0.00000000000000e+00
9.51000000000000e-08,6.00000000000000e-01,6.00000000000000e-01,4.65172739387559e-04,0.00000000000000e+00
9.51100000000000e-08,5.40000000000061e-01,6.00000000000000e-01,5.10455847218733e-04,5.99999999999390e-02
9.51300000000000e-08,4.20000000000084e-01,6.00000000000000e-01,5.01568458098109e-04,1.79999999999916e-01
9.51700000000000e-08,1.80000000000129e-01,6.00000000000000e-01,2.78882782168553e-04,4.19999999999871e-01
9.52000000000000e-08,8.40438829641244e-14,6.00000000000000e-01,1.99083048246743e-04,5.99999999999916e-01
9.52080000000000e-08,0.00000000000000e+00,6.00000000000000e-01,1.71661552954012e-04,6.00000000000000e-01
9.52240000000000e-08,0.00000000000000e+00,6.00000000000000e-01,1.24569002828902e-04,6.00000000000000e-01
9.52560000000000e-08,0.00000000000000e+00,6.00000000000000e-01,-6.81782860614127e-06,6.00000000000000e-01
9.53200000000000e-08,0.00000000000000e+00,6.00000000000000e-01,-7.39332219162371e-04,6.00000000000000e-01
9.54480000000000e-08,0.00000000000000e+00,6.00000000000000e-01,-7.89296093895813e-04,6.00000000000000e-01
9.56886057424839e-08,0.00000000000000e+00,6.00000000000000e-01,4.00657845555869e-04,6.00000000000000e-01
9.61449950842841e-08,0.00000000000000e+00,6.00000000000000e-01,-3.83118460370591e-04,6.00000000000000e-01
9.66812788107518e-08,0.00000000000000e+00,6.00000000000000e-01,3.36925120082104e-04,6.00000000000000e-01
9.68153497423688e-08,0.00000000000000e+00,6.00000000000000e-01,1.07785657240138e-04,6.00000000000000e-01
9.70834916056027e-08,0.00000000000000e+00,6.00000000000000e-01,-4.19442561872645e-05,6.00000000000000e-01
9.76197753320704e-08,0.00000000000000e+00,6.00000000000000e-01,4.14120239087910e-05,6.00000000000000e-01
9.86923427850060e-08,0.00000000000000e+00,6.00000000000000e-01,-1.91127625099796e-05,6.00000000000000e-01
1.00837477690877e-07,0.00000000000000e+00,6.00000000000000e-01,3.18704414027479e-05,6.00000000000000e-01
1.04637477690877e-07,0.00000000000000e+00,6.00000000000000e-01,-1.46551028425567e-05,6.00000000000000e-01
1.05000000000000e-07,0.00000000000000e+00,6.00000000000000e-01,1.77631237534143e-05,6.00000000000000e-01
1.05010000000000e-07,5.99999999999886e-02,6.00000000000000e-01,1.17889426477495e-04,6.00000000000000e-01
1.05030000000000e-07,1.79999999999966e-01,6.00000000000000e-01,2.69360890356757e-04,6.00000000000000e-01
1.05070000000000e-07,4.19999999999920e-01,6.00000000000000e-01,3.65817773711606e-04,6.00000000000000e-01
1.05100000000000e-07,5.99999999999966e-01,6.00000000000000e-01,-1.84148517921978e-04,6.00000000000000e-01
1.05108000000000e-07,6.00000000000000e-01,6.00000000000000e-01,-6.13247143456640e-04,6.00000000000000e-01
1.05124000000000e-07,6.00000000000000e-01,6.00000000000000e-01,-1.58060640923580e-03,6.00000000000000e-01
1.05156000000000e-07,6.00000000000000e-01,6.00000000000000e-01,-3.41210356522655e-03,6.00000000000000e-01
1.05220000000000e-07,6.00000000000000e-01,6.00000000000000e-01,-4.77038020972889e-03,6.00000000000000e-01
1.05348000000000e-07,6.00000000000000e-01,6.00000000000000e-01,7.80273771631666e-02,6.00000000000000e-01
1.05604000000000e-07,6.00000000000000e-01,6.00000000000000e-01,5.19876345072757e-01,6.00000000000000e-01
1.06116000000000e-07,6.00000000000000e-01,6.00000000000000e-01,6.20522883293694e-01,6.00000000000000e-01
1.06689131075929e-07,6.00000000000000e-01,6.00000000000000e-01,5.79476910577275e-01,6.00000000000000e-01
1.07816120284002e-07,6.00000000000000e-01,6.00000000000000e-01,6.17585020207444e-01,6.00000000000000e-01
1.09307493577521e-07,6.00000000000000e-01,6.00000000000000e-01,5.81713763381195e-01,6.00000000000000e-01
1.12290240164561e-07,6.00000000000000e-01,6.00000000000000e-01,6.16553306265728e-01,6.00000000000000e-01
1.15100000000000e-07,6.00000000000000e-01,6.00000000000000e-01,5.82595897179632e-01,6.00000000000000e-01
