Time,v(clk),v(data),v(out)
1.00000000000000e-08,6.00000000000000e-01,0.00000000000000e+00,4.66431129035904e-05
1.00100000000000e-08,6.00000000000000e-01,5.99999999999985e-02,3.47534173105110e-05
1.00300000000000e-08,6.00000000000000e-01,1.79999999999996e-01,1.79019978626682e-05
1.00700000000000e-08,6.00000000000000e-01,4.19999999999990e-01,1.30569164404071e-06
1.01000000000000e-08,6.00000000000000e-01,5.99999999999995e-01,-2.27577600871165e-06
1.01080000000000e-08,6.00000000000000e-01,6.00000000000000e-01,-2.11151148776095e-06
1.01240000000000e-08,6.00000000000000e-01,6.00000000000000e-01,-6.17825281629125e-07
1.01560000000000e-08,6.00000000000000e-01,6.00000000000000e-01,2.69082809997018e-06
1.02200000000000e-08,6.00000000000000e-01,6.00000000000000e-01,4.96163789015860e-06
1.03480000000000e-08,6.00000000000000e-01,6.00000000000000e-01,-4.58899426063197e-07
1.06040000000000e-08,6.00000000000000e-01,6.00000000000000e-01,1.67308404787694e-06
1.11160000000000e-08,6.00000000000000e-01,6.00000000000000e-01,9.62103828869298e-07
1.21400000000000e-08,6.00000000000000e-01,6.00000000000000e-01,1.21280038078682e-06
1.41880000000000e-08,6.00000000000000e-01,6.00000000000000e-01,7.78108269674583e-07
1.51000000000000e-08,6.00000000000000e-01,6.00000000000000e-01,9.12186115443418e-07
1.51100000000000e-08,5.39999999999991e-01,6.00000000000000e-01,-5.70227826780928e-05
1.51300000000000e-08,4.19999999999994e-01,6.00000000000000e-01,-1.39297699266641e-04
1.51700000000000e-08,1.80000000000000e-01,6.00000000000000e-01,-1.61827097346384e-04
1.52000000000000e-08,0.00000000000000e+00,6.00000000000000e-01,3.69305790313967e-06
1.52080000000000e-08,0.00000000000000e+00,6.00000000000000e-01,1.23231577446356e-04
1.52240000000000e-08,0.00000000000000e+00,6.00000000000000e-01,2.74612824112841e-04
1.52560000000000e-08,0.00000000000000e+00,6.00000000000000e-01,2.85032550426903e-04
1.53200000000000e-08,0.00000000000000e+00,6.00000000000000e-01,8.26022569195249e-05
1.54480000000000e-08,0.00000000000000e+00,6.00000000000000e-01,-1.19162680679821e-04
1.57040000000000e-08,0.00000000000000e+00,6.00000000000000e-01,-4.46440187067652e-05
1.62160000000000e-08,0.00000000000000e+00,6.00000000000000e-01,-7.87815102628805e-05
1.69164202212953e-08,0.00000000000000e+00,6.00000000000000e-01,1.32437671946681e-04
1.81414553307277e-08,0.00000000000000e+00,6.00000000000000e-01,-9.50152946591269e-05
1.96751258351196e-08,0.00000000000000e+00,6.00000000000000e-01,7.15881044859369e-05
2.27424668439036e-08,0.00000000000000e+00,6.00000000000000e-01,-6.06609168190013e-05
2.50000000000000e-08,0.00000000000000e+00,6.00000000000000e-01,4.87251861424128e-05
2.50100000000000e-08,5.99999999999886e-02,6.00000000000000e-01,1.53945379577122e-04
2.50300000000000e-08,1.80000000000006e-01,6.00000000000000e-01,3.00597448899341e-04
2.50700000000000e-08,4.20000000000000e-01,6.00000000000000e-01,3.26842488382120e-04
2.51000000000000e-08,6.00000000000000e-01,6.00000000000000e-01,-6.46525174828640e-04
2.51080000000000e-08,6.00000000000000e-01,6.00000000000000e-01,-1.30263515516101e-03
2.51240000000000e-08,6.00000000000000e-01,6.00000000000000e-01,-2.65264988190075e-03
2.51560000000000e-08,6.00000000000000e-01,6.00000000000000e-01,-4.78450017728944e-03
2.52200000000000e-08,6.00000000000000e-01,6.00000000000000e-01,-4.91923550044775e-03
2.53480000000000e-08,6.00000000000000e-01,6.00000000000000e-01,1.21559493815158e-01
2.56040000000000e-08,6.00000000000000e-01,6.00000000000000e-01,5.27337698739685e-01
2.61160000000000e-08,6.00000000000000e-01,6.00000000000000e-01,6.18821515219141e-01
2.67042260965033e-08,6.00000000000000e-01,6.00000000000000e-01,5.81786951591280e-01
2.78806782895099e-08,6.00000000000000e-01,6.00000000000000e-01,6.13830159262392e-01
2.91921183034590e-08,6.00000000000000e-01,6.00000000000000e-01,5.85691736811837e-01
3.01000000000000e-08,6.00000000000000e-01,6.00000000000000e-01,6.11055127889061e-01
3.01100000000000e-08,6.00000000000000e-01,5.40000000000031e-01,6.08167630488984e-01
3.01300000000000e-08,6.00000000000000e-01,4.20000000000014e-01,6.03890024694445e-01
3.01700000000000e-08,6.00000000000000e-01,1.80000000000020e-01,6.00705992668907e-01
3.02000000000000e-08,6.00000000000000e-01,1.44328993201270e-14,6.00319201999222e-01
3.02080000000000e-08,6.00000000000000e-01,0.00000000000000e+00,6.00272851301578e-01
3.02240000000000e-08,6.00000000000000e-01,0.00000000000000e+00,6.00205259033674e-01
3.02560000000000e-08,6.00000000000000e-01,0.00000000000000e+00,6.00081857015647e-01
3.03200000000000e-08,6.00000000000000e-01,0.00000000000000e+00,5.99992362211021e-01
3.04480000000000e-08,6.00000000000000e-01,0.00000000000000e+00,5.99956308152198e-01
3.07040000000000e-08,6.00000000000000e-01,0.00000000000000e+00,5.99997106315109e-01
3.10398460194228e-08,6.00000000000000e-01,0.00000000000000e+00,5.99956922409877e-01
3.17115380582685e-08,6.00000000000000e-01,0.00000000000000e+00,5.99983325437678e-01
3.26019930664148e-08,6.00000000000000e-01,0.00000000000000e+00,5.99970522089067e-01
3.43829030827076e-08,6.00000000000000e-01,0.00000000000000e+00,5.99980448609874e-01
3.51000000000000e-08,5.99999999999970e-01,0.00000000000000e+00,5.99978864665738e-01
3.51100000000000e-08,5.39999999999982e-01,0.00000000000000e+00,5.99906865001341e-01
3.51300000000000e-08,4.19999999999965e-01,0.00000000000000e+00,5.99806745585430e-01
3.51700000000000e-08,1.79999999999970e-01,0.00000000000000e+00,6.00091762432199e-01
3.52000000000000e-08,0.00000000000000e+00,0.00000000000000e+00,6.01279966836951e-01
3.52080000000000e-08,0.00000000000000e+00,0.00000000000000e+00,6.01685567499124e-01
3.52240000000000e-08,0.00000000000000e+00,0.00000000000000e+00,6.02282292495247e-01
3.52560000000000e-08,0.00000000000000e+00,0.00000000000000e+00,6.02667677130745e-01
3.53200000000000e-08,0.00000000000000e+00,0.00000000000000e+00,6.00035421577285e-01
3.54480000000000e-08,0.00000000000000e+00,0.00000000000000e+00,5.81652396356573e-01
3.57040000000000e-08,0.00000000000000e+00,0.00000000000000e+00,5.80493328073820e-01
3.60955103308460e-08,0.00000000000000e+00,0.00000000000000e+00,6.03748047948678e-01
3.67276692248630e-08,0.00000000000000e+00,0.00000000000000e+00,5.95775913793915e-01
3.75115476202362e-08,0.00000000000000e+00,0.00000000000000e+00,6.02416649400022e-01
3.90793044109826e-08,0.00000000000000e+00,0.00000000000000e+00,5.97284044604750e-01
3.91000000000000e-08,0.00000000000000e+00,0.00000000000000e+00,5.98471398472446e-01
3.91413911780349e-08,0.00000000000000e+00,0.00000000000000e+00,5.98982646206515e-01
3.92241735341046e-08,0.00000000000000e+00,0.00000000000000e+00,5.99609586212286e-01
3.93897382462440e-08,0.00000000000000e+00,0.00000000000000e+00,5.99797283346483e-01
3.97208676705229e-08,0.00000000000000e+00,0.00000000000000e+00,5.99792280999551e-01
4.03831265190807e-08,0.00000000000000e+00,0.00000000000000e+00,5.99820938922700e-01
4.17076442161962e-08,0.00000000000000e+00,0.00000000000000e+00,5.99844168269371e-01
4.43566796104272e-08,0.00000000000000e+00,0.00000000000000e+00,5.99878839762229e-01
4.50000000000000e-08,0.00000000000000e+00,0.00000000000000e+00,5.99880677271128e-01
4.50100000000000e-08,5.99999999999886e-02,0.00000000000000e+00,5.99941124208676e-01
4.50300000000000e-08,1.80000000000006e-01,0.00000000000000e+00,6.00023406817013e-01
4.50700000000000e-08,4.20000000000000e-01,0.00000000000000e+00,6.00002489054731e-01
4.51000000000000e-08,6.00000000000000e-01,0.00000000000000e+00,5.99765569564188e-01
4.51080000000000e-08,6.00000000000000e-01,0.00000000000000e+00,5.99677667221436e-01
4.51240000000000e-08,6.00000000000000e-01,0.00000000000000e+00,5.99530044628098e-01
4.51560000000000e-08,6.00000000000000e-01,0.00000000000000e+00,5.99404290805777e-01
4.52200000000000e-08,6.00000000000000e-01,0.00000000000000e+00,5.99868236780365e-01
4.53480000000000e-08,6.00000000000000e-01,0.00000000000000e+00,6.06529185810392e-01
4.56040000000000e-08,6.00000000000000e-01,0.00000000000000e+00,2.63372385904552e-01
4.60593210967446e-08,6.00000000000000e-01,0.00000000000000e+00,-4.87092287538226e-02
4.65262534649234e-08,6.00000000000000e-01,0.00000000000000e+00,4.36443167098351e-02
4.74601182012812e-08,6.00000000000000e-01,0.00000000000000e+00,-3.16905594961396e-02
4.85002160253693e-08,6.00000000000000e-01,0.00000000000000e+00,3.16096815248944e-02
5.00000000000000e-08,6.00000000000000e-01,0.00000000000000e+00,-2.54681597145424e-02
5.00100000000000e-08,6.00000000000000e-01,5.99999999999886e-02,-1.97281011151071e-02
5.00300000000000e-08,6.00000000000000e-01,1.79999999999966e-01,-1.05041685074263e-02
5.00700000000000e-08,6.00000000000000e-01,4.20000000000000e-01,-2.38218004989667e-03
5.01000000000000e-08,6.00000000000000e-01,6.00000000000000e-01,-9.68349034794681e-04
5.01080000000000e-08,6.00000000000000e-01,6.00000000000000e-01,-7.64515176243895e-04
5.01240000000000e-08,6.00000000000000e-01,6.00000000000000e-01,-4.51887520273059e-04
5.01560000000000e-08,6.00000000000000e-01,6.00000000000000e-01,-1.62984192786923e-04
5.02200000000000e-08,6.00000000000000e-01,6.00000000000000e-01,-1.38825676006607e-06
5.03480000000000e-08,6.00000000000000e-01,6.00000000000000e-01,-2.03675985357282e-06
5.06040000000000e-08,6.00000000000000e-01,6.00000000000000e-01,1.16921121952850e-06
5.11160000000001e-08,6.00000000000000e-01,6.00000000000000e-01,-1.51756643873915e-06
5.21400000000002e-08,6.00000000000000e-01,6.00000000000000e-01,1.31280964376940e-06
5.41880000000003e-08,6.00000000000000e-01,6.00000000000000e-01,-1.65766179207032e-06
5.51000000000000e-08,6.00000000000000e-01,6.00000000000000e-01,1.34379697564434e-06
5.51100000000000e-08,5.40000000000021e-01,6.00000000000000e-01,-5.75919251451021e-05
5.51300000000000e-08,4.20000000000004e-01,6.00000000000000e-01,-1.39092869287274e-04
5.51700000000000e-08,1.80000000000010e-01,6.00000000000000e-01,-1.57766550436707e-04
5.52000000000000e-08,0.00000000000000e+00,6.00000000000000e-01,-2.60989618229568e-07
5.52080000000000e-08,0.00000000000000e+00,6.00000000000000e-01,1.19129099007256e-04
5.52240000000000e-08,0.00000000000000e+00,6.00000000000000e-01,2.66904299561492e-04
5.52560000000000e-08,0.00000000000000e+00,6.00000000000000e-01,2.71254296759373e-04
5.53200000000000e-08,0.00000000000000e+00,6.00000000000000e-01,2.13283771565258e-05
5.54480000000000e-08,0.00000000000000e+00,6.00000000000000e-01,-5.44383854789207e-04
5.57040000000000e-08,0.00000000000000e+00,6.00000000000000e-01,8.36982717229637e-05
5.61886557747147e-08,0.00000000000000e+00,6.00000000000000e-01,-1.48170912112251e-04
5.68954458483639e-08,0.00000000000000e+00,6.00000000000000e-01,1.62323046064654e-04
5.80905795829032e-08,0.00000000000000e+00,6.00000000000000e-01,-1.00871310435876e-04
5.96017701035240e-08,0.00000000000000e+00,6.00000000000000e-01,6.42877467709473e-05
6.26241511447656e-08,0.00000000000000e+00,6.00000000000000e-01,-4.72190464357704e-05
6.50000000000000e-08,0.00000000000000e+00,6.00000000000000e-01,2.94791569177815e-05
6.50100000000000e-08,5.99999999999886e-02,6.00000000000000e-01,1.76937863876514e-04
6.50300000000000e-08,1.79999999999966e-01,6.00000000000000e-01,3.52760928915084e-04
6.50700000000000e-08,4.19999999999920e-01,6.00000000000000e-01,3.53891271918642e-04
6.51000000000000e-08,5.99999999999966e-01,6.00000000000000e-01,-5.87900267395823e-04
6.51080000000000e-08,6.00000000000000e-01,6.00000000000000e-01,-1.23546428438631e-03
6.51240000000000e-08,6.00000000000000e-01,6.00000000000000e-01,-2.58465084827898e-03
6.51560000000000e-08,6.00000000000000e-01,6.00000000000000e-01,-4.74475221015860e-03
6.52200000000000e-08,6.00000000000000e-01,6.00000000000000e-01,-5.01421488495992e-03
6.53480000000000e-08,6.00000000000000e-01,6.00000000000000e-01,1.20546348078171e-01
6.56040000000000e-08,6.00000000000000e-01,6.00000000000000e-01,5.26559751984629e-01
6.61159999999999e-08,6.00000000000000e-01,6.00000000000000e-01,6.18982629164456e-01
6.67046272595683e-08,6.00000000000000e-01,6.00000000000000e-01,5.81622054872292e-01
6.78818817787051e-08,6.00000000000000e-01,6.00000000000000e-01,6.13963199982990e-01
6.91948658159638e-08,6.00000000000000e-01,6.00000000000000e-01,5.85550066135493e-01
7.01000000000000e-08,6.00000000000000e-01,6.00000000000000e-01,6.11163883435826e-01
7.01100000000000e-08,6.00000000000000e-01,5.40000000000011e-01,6.08243473075709e-01
7.01300000000000e-08,6.00000000000000e-01,4.20000000000034e-01,6.03920653969369e-01
7.01700000000000e-08,6.00000000000000e-01,1.80000000000080e-01,6.00708006415954e-01
7.02000000000000e-08,6.00000000000000e-01,3.44169137633799e-14,6.00318731208779e-01
7.02080000000000e-08,6.00000000000000e-01,0.00000000000000e+00,6.00272271198251e-01
7.02240000000000e-08,6.00000000000000e-01,0.00000000000000e+00,6.00204489683530e-01
7.02560000000000e-08,6.00000000000000e-01,0.00000000000000e+00,6.00081506294322e-01
7.03200000000000e-08,6.00000000000000e-01,0.00000000000000e+00,5.99992546640679e-01
7.04480000000000e-08,6.00000000000000e-01,0.00000000000000e+00,5.99956122998273e-01
7.07040000000000e-08,6.00000000000000e-01,0.00000000000000e+00,5.99997000141881e-01
7.10396673260671e-08,6.00000000000000e-01,0.00000000000000e+00,5.99957095193997e-01
7.17110019782014e-08,6.00000000000000e-01,0.00000000000000e+00,5.99983066237034e-01
7.26007126419782e-08,6.00000000000000e-01,0.00000000000000e+00,5.99970743713739e-01
7.43801339695318e-08,6.00000000000000e-01,0.00000000000000e+00,5.99980260989649e-01
7.51000000000000e-08,6.00000000000000e-01,0.00000000000000e+00,5.99978927436448e-01
7.51100000000000e-08,5.40000000000061e-01,0.00000000000000e+00,5.99904606970122e-01
7.51300000000000e-08,4.20000000000084e-01,0.00000000000000e+00,5.99802346761215e-01
7.51700000000000e-08,1.80000000000129e-01,0.00000000000000e+00,6.00089466579469e-01
7.52000000000000e-08,8.40438829641244e-14,0.00000000000000e+00,6.01278861994933e-01
7.52080000000000e-08,0.00000000000000e+00,0.00000000000000e+00,6.01682895554864e-01
7.52240000000000e-08,0.00000000000000e+00,0.00000000000000e+00,6.02277897109022e-01
7.52560000000000e-08,0.00000000000000e+00,0.00000000000000e+00,6.02664979299571e-01
7.53200000000000e-08,0.00000000000000e+00,0.00000000000000e+00,6.00035684424518e-01
7.54480000000000e-08,0.00000000000000e+00,0.00000000000000e+00,5.81654509912149e-01
7.57040000000000e-08,0.00000000000000e+00,0.00000000000000e+00,5.80497390702895e-01
7.60955102355174e-08,0.00000000000000e+00,0.00000000000000e+00,6.03740277443285e-01
7.67276700329281e-08,0.00000000000000e+00,0.00000000000000e+00,5.95781888689856e-01
7.75115478058940e-08,0.00000000000000e+00,0.00000000000000e+00,6.02411165173062e-01
7.81000000000000e-08,0.00000000000000e+00,0.00000000000000e+00,5.97685608322957e-01
7.82567755545932e-08,0.00000000000000e+00,0.00000000000000e+00,5.99225079142633e-01
7.85703266637796e-08,0.00000000000000e+00,0.00000000000000e+00,5.99982262740498e-01
7.91974288821523e-08,0.00000000000000e+00,0.00000000000000e+00,5.99590933189478e-01
8.04516333188978e-08,0.00000000000000e+00,0.00000000000000e+00,5.99970178119527e-01
8.29600421923889e-08,0.00000000000000e+00,0.00000000000000e+00,5.99722662430254e-01
8.50000000000000e-08,0.00000000000000e+00,0.00000000000000e+00,6.00008105984433e-01
8.50100000000000e-08,5.99999999999886e-02,0.00000000000000e+00,6.00056628783436e-01
8.50300000000000e-08,1.79999999999966e-01,0.00000000000000e+00,6.00111392706299e-01
8.50700000000000e-08,4.19999999999920e-01,0.00000000000000e+00,6.00040968710988e-01
8.51000000000000e-08,5.99999999999966e-01,0.00000000000000e+00,5.99784291716088e-01
8.51080000000000e-08,6.00000000000000e-01,0.00000000000000e+00,5.99695935000017e-01
8.51240000000000e-08,6.00000000000000e-01,0.00000000000000e+00,5.99538696837196e-01
8.51560000000000e-08,6.00000000000000e-01,0.00000000000000e+00,5.99424346360337e-01
8.52200000000000e-08,6.00000000000000e-01,0.00000000000000e+00,5.99852603831054e-01
8.53480000000000e-08,6.00000000000000e-01,0.00000000000000e+00,6.06530877005349e-01
8.56040000000000e-08,6.00000000000000e-01,0.00000000000000e+00,2.63579109306485e-01
8.60595072341888e-08,6.00000000000000e-01,0.00000000000000e+00,-4.86493819176961e-02
8.65265978097329e-08,6.00000000000000e-01,0.00000000000000e+00,4.35907737846818e-02
8.74607789608211e-08,6.00000000000000e-01,0.00000000000000e+00,-3.16557054913369e-02
8.85013577802040e-08,6.00000000000000e-01,0.00000000000000e+00,3.15754183892147e-02
9.00000000000000e-08,6.00000000000000e-01,0.00000000000000e+00,-2.54396053678256e-02
9.00100000000000e-08,6.00000000000000e-01,5.99999999999886e-02,-1.97063420065671e-02
9.00300000000000e-08,6.00000000000000e-01,1.79999999999966e-01,-1.04932165477020e-02
9.00700000000000e-08,6.00000000000000e-01,4.19999999999920e-01,-2.38020115826546e-03
9.01000000000000e-08,6.00000000000000e-01,5.99999999999966e-01,-9.67597502166219e-04
9.01080000000000e-08,6.00000000000000e-01,6.00000000000000e-01,-7.63943486411428e-04
9.01240000000000e-08,6.00000000000000e-01,6.00000000000000e-01,-4.51577926891586e-04
9.01560000000000e-08,6.00000000000000e-01,6.00000000000000e-01,-1.62881281489703e-04
9.02200000000000e-08,6.00000000000000e-01,6.00000000000000e-01,-1.39227314487761e-06
9.03480000000000e-08,6.00000000000000e-01,6.00000000000000e-01,-2.03414065669261e-06
9.06040000000000e-08,6.00000000000000e-01,6.00000000000000e-01,1.16485716170067e-06
9.11159999999999e-08,6.00000000000000e-01,6.00000000000000e-01,-1.51589420447577e-06
9.21399999999999e-08,6.00000000000000e-01,6.00000000000000e-01,1.30872497538029e-06
9.41879999999998e-08,6.00000000000000e-01,6.00000000000000e-01,-1.65572390051975e-06
9.51000000000000e-08,6.00000000000000e-01,6.00000000000000e-01,1.33945041130238e-06
9.51100000000000e-08,5.40000000000061e-01,6.00000000000000e-01,-5.75952197980900e-05
9.51300000000000e-08,4.20000000000084e-01,6.00000000000000e-01,-1.39095884802695e-04
9.51700000000000e-08,1.80000000000129e-01,6.00000000000000e-01,-1.57769798177568e-04
9.52000000000000e-08,8.40438829641244e-14,6.00000000000000e-01,-2.62475885991209e-07
9.52080000000000e-08,0.00000000000000e+00,6.00000000000000e-01,1.19126774026750e-04
9.52240000000000e-08,0.00000000000000e+00,6.00000000000000e-01,2.66898794866327e-04
9.52560000000000e-08,0.00000000000000e+00,6.00000000000000e-01,2.71228964256284e-04
9.53200000000000e-08,0.00000000000000e+00,6.00000000000000e-01,2.10866668795689e-05
9.54480000000000e-08,0.00000000000000e+00,6.00000000000000e-01,-5.46340953728332e-04
9.57040000000000e-08,0.00000000000000e+00,6.00000000000000e-01,8.41981401716700e-05
9.61877261051405e-08,0.00000000000000e+00,6.00000000000000e-01,-1.48597900014340e-04
9.68947388943852e-08,0.00000000000000e+00,6.00000000000000e-01,1.62524464026224e-04
9.80888429698219e-08,0.00000000000000e+00,6.00000000000000e-01,-1.00812773770608e-04
9.95992436395895e-08,0.00000000000000e+00,6.00000000000000e-01,6.41076523769826e-05
1.02620044979125e-07,0.00000000000000e+00,6.00000000000000e-01,-4.69866822542758e-05
1.05000000000000e-07,0.00000000000000e+00,6.00000000000000e-01,2.92328442138448e-05
1.05010000000000e-07,5.99999999999886e-02,6.00000000000000e-01,1.76938703397696e-04
1.05030000000000e-07,1.79999999999966e-01,6.00000000000000e-01,3.52951037094311e-04
1.05070000000000e-07,4.19999999999920e-01,6.00000000000000e-01,3.54075518808401e-04
1.05100000000000e-07,5.99999999999966e-01,6.00000000000000e-01,-5.86135493993653e-04
1.05108000000000e-07,6.00000000000000e-01,6.00000000000000e-01,-1.23328816547289e-03
1.05124000000000e-07,6.00000000000000e-01,6.00000000000000e-01,-2.58232236187918e-03
1.05156000000000e-07,6.00000000000000e-01,6.00000000000000e-01,-4.74336201162637e-03
1.05220000000000e-07,6.00000000000000e-01,6.00000000000000e-01,-5.01758622276711e-03
1.05348000000000e-07,6.00000000000000e-01,6.00000000000000e-01,1.20509716994182e-01
1.05604000000000e-07,6.00000000000000e-01,6.00000000000000e-01,5.26531458532534e-01
1.06116000000000e-07,6.00000000000000e-01,6.00000000000000e-01,6.18988466745885e-01
1.06704642227815e-07,6.00000000000000e-01,6.00000000000000e-01,5.81616079775450e-01
