Time,v(clk),v(data),v(out),v(reset)
1.00000000000000e-08,6.00000000000000e-01,0.00000000000000e+00,1.14317344682875e-05,0.00000000000000e+00
1.00100000000000e-08,6.00000000000000e-01,5.99999999999985e-02,1.45108075502859e-05,0.00000000000000e+00
1.00300000000000e-08,6.00000000000000e-01,1.79999999999996e-01,1.64115675463580e-05,0.00000000000000e+00
1.00700000000000e-08,6.00000000000000e-01,4.19999999999990e-01,1.31958837109800e-05,0.00000000000000e+00
1.01000000000000e-08,6.00000000000000e-01,5.99999999999995e-01,1.07974886769738e-05,0.00000000000000e+00
1.01080000000000e-08,6.00000000000000e-01,6.00000000000000e-01,1.04080785953975e-05,0.00000000000000e+00
1.01240000000000e-08,6.00000000000000e-01,6.00000000000000e-01,1.01072933840485e-05,0.00000000000000e+00
1.01560000000000e-08,6.00000000000000e-01,6.00000000000000e-01,8.84498544315854e-06,0.00000000000000e+00
1.02200000000000e-08,6.00000000000000e-01,6.00000000000000e-01,5.93428019877995e-06,0.00000000000000e+00
1.03480000000000e-08,6.00000000000000e-01,6.00000000000000e-01,6.37076855580440e-06,0.00000000000000e+00
1.06040000000000e-08,6.00000000000000e-01,6.00000000000000e-01,6.03338703483378e-06,0.00000000000000e+00
1.11160000000000e-08,6.00000000000000e-01,6.00000000000000e-01,5.69777757551682e-06,0.00000000000000e+00
1.21400000000000e-08,6.00000000000000e-01,6.00000000000000e-01,5.14036979263645e-06,0.00000000000000e+00
1.41880000000000e-08,6.00000000000000e-01,6.00000000000000e-01,4.82841052276434e-06,0.00000000000000e+00
1.51000000000000e-08,6.00000000000000e-01,6.00000000000000e-01,4.28604820096237e-06,0.00000000000000e+00
1.51100000000000e-08,5.39999999999991e-01,6.00000000000000e-01,1.75731021557220e-04,6.00000000000085e-02
1.51300000000000e-08,4.19999999999994e-01,6.00000000000000e-01,3.77525997370579e-04,1.80000000000006e-01
1.51700000000000e-08,1.80000000000000e-01,6.00000000000000e-01,3.23198435497975e-04,4.20000000000000e-01
1.52000000000000e-08,0.00000000000000e+00,6.00000000000000e-01,1.72956483160396e-04,6.00000000000000e-01
1.52080000000000e-08,0.00000000000000e+00,6.00000000000000e-01,1.16816764234147e-04,6.00000000000000e-01
1.52240000000000e-08,0.00000000000000e+00,6.00000000000000e-01,3.51955809847065e-05,6.00000000000000e-01
1.52560000000000e-08,0.00000000000000e+00,6.00000000000000e-01,-1.94334036883043e-05,6.00000000000000e-01
1.53200000000000e-08,0.00000000000000e+00,6.00000000000000e-01,-4.01928530656959e-05,6.00000000000000e-01
1.54480000000000e-08,0.00000000000000e+00,6.00000000000000e-01,-1.43720452253644e-04,6.00000000000000e-01
1.57040000000000e-08,0.00000000000000e+00,6.00000000000000e-01,-8.25410725292450e-05,6.00000000000000e-01
1.62126941736136e-08,0.00000000000000e+00,6.00000000000000e-01,-1.12723518956470e-04,6.00000000000000e-01
1.69979401195302e-08,0.00000000000000e+00,6.00000000000000e-01,1.08943694460031e-04,6.00000000000000e-01
1.81339380181619e-08,0.00000000000000e+00,6.00000000000000e-01,1.48855937779722e-05,6.00000000000000e-01
1.98456807691205e-08,0.00000000000000e+00,6.00000000000000e-01,-5.38744356057990e-05,6.00000000000000e-01
2.28057778428618e-08,0.00000000000000e+00,6.00000000000000e-01,7.70143217665655e-05,6.00000000000000e-01
2.50000000000000e-08,0.00000000000000e+00,6.00000000000000e-01,-8.97828491687310e-05,6.00000000000000e-01
2.50100000000000e-08,5.99999999999886e-02,6.00000000000000e-01,4.04539602951240e-05,6.00000000000000e-01
2.50300000000000e-08,1.80000000000006e-01,6.00000000000000e-01,2.38271701734197e-04,6.00000000000000e-01
2.50700000000000e-08,4.20000000000000e-01,6.00000000000000e-01,3.61273477009164e-04,6.00000000000000e-01
2.51000000000000e-08,6.00000000000000e-01,6.00000000000000e-01,-1.67729031484327e-04,6.00000000000000e-01
2.51080000000000e-08,6.00000000000000e-01,6.00000000000000e-01,-5.87617781127203e-04,6.00000000000000e-01
2.51240000000000e-08,6.00000000000000e-01,6.00000000000000e-01,-1.54630188268074e-03,6.00000000000000e-01
2.51560000000000e-08,6.00000000000000e-01,6.00000000000000e-01,-3.41371871854993e-03,6.00000000000000e-01
2.52200000000000e-08,6.00000000000000e-01,6.00000000000000e-01,-5.42069874697408e-03,6.00000000000000e-01
2.53480000000000e-08,6.00000000000000e-01,6.00000000000000e-01,3.04165535531197e-02,6.00000000000000e-01
2.56040000000000e-08,6.00000000000000e-01,6.00000000000000e-01,3.63443384253846e-01,6.00000000000000e-01
2.61160000000000e-08,6.00000000000000e-01,6.00000000000000e-01,6.25496510015195e-01,6.00000000000000e-01
2.67996480111966e-08,6.00000000000000e-01,6.00000000000000e-01,5.79392435358057e-01,6.00000000000000e-01
2.80771083069717e-08,6.00000000000000e-01,6.00000000000000e-01,6.18780182492158e-01,6.00000000000000e-01
2.97105399421104e-08,6.00000000000000e-01,6.00000000000000e-01,5.82400824492810e-01,6.00000000000000e-01
3.28299618431097e-08,6.00000000000000e-01,6.00000000000000e-01,6.16693857655741e-01,6.00000000000000e-01
3.51000000000000e-08,5.99999999999970e-01,6.00000000000000e-01,5.83959464295521e-01,6.00000000000000e-01
3.51100000000000e-08,5.39999999999982e-01,6.00000000000000e-01,5.87550587025273e-01,6.00000000000000e-01
3.51300000000000e-08,4.19999999999965e-01,6.00000000000000e-01,5.93109215844946e-01,6.00000000000000e-01
3.51700000000000e-08,1.79999999999970e-01,6.00000000000000e-01,5.98437640660913e-01,6.00000000000000e-01
3.52000000000000e-08,0.00000000000000e+00,6.00000000000000e-01,6.00572178343061e-01,6.00000000000000e-01
3.52080000000000e-08,0.00000000000000e+00,6.00000000000000e-01,6.01083936732791e-01,6.00000000000000e-01
3.52240000000000e-08,0.00000000000000e+00,6.00000000000000e-01,6.01871959124988e-01,6.00000000000000e-01
3.52560000000000e-08,0.00000000000000e+00,6.00000000000000e-01,6.02535705178483e-01,6.00000000000000e-01
3.53200000000000e-08,0.00000000000000e+00,6.00000000000000e-01,6.01343368979231e-01,6.00000000000000e-01
3.54480000000000e-08,0.00000000000000e+00,6.00000000000000e-01,5.88220443153853e-01,6.00000000000000e-01
3.57040000000000e-08,0.00000000000000e+00,6.00000000000000e-01,5.75697684126524e-01,6.00000000000000e-01
3.62160000000000e-08,0.00000000000000e+00,6.00000000000000e-01,5.98202193699012e-01,6.00000000000000e-01
3.72400000000000e-08,0.00000000000000e+00,6.00000000000000e-01,5.99774530669038e-01,6.00000000000000e-01
3.84497798346710e-08,0.00000000000000e+00,6.00000000000000e-01,5.99342349636916e-01,6.00000000000000e-01
4.08693395040130e-08,0.00000000000000e+00,6.00000000000000e-01,5.99761402150352e-01,6.00000000000000e-01
4.46693395040130e-08,0.00000000000000e+00,6.00000000000000e-01,5.99596173261306e-01,6.00000000000000e-01
4.50000000000000e-08,0.00000000000000e+00,6.00000000000000e-01,5.99626459989515e-01,6.00000000000000e-01
4.50100000000000e-08,5.99999999999886e-02,6.00000000000000e-01,5.99549543419062e-01,5.40000000000011e-01
4.50300000000000e-08,1.80000000000006e-01,6.00000000000000e-01,5.99400054341084e-01,4.19999999999994e-01
4.50700000000000e-08,4.20000000000000e-01,6.00000000000000e-01,6.00048908254001e-01,1.80000000000000e-01
4.51000000000000e-08,6.00000000000000e-01,6.00000000000000e-01,6.02681971881694e-01,0.00000000000000e+00
4.51080000000000e-08,6.00000000000000e-01,6.00000000000000e-01,6.03702982815446e-01,0.00000000000000e+00
4.51240000000000e-08,6.00000000000000e-01,6.00000000000000e-01,6.05457196607009e-01,0.00000000000000e+00
4.51560000000000e-08,6.00000000000000e-01,6.00000000000000e-01,6.08083366704391e-01,0.00000000000000e+00
4.52200000000000e-08,6.00000000000000e-01,6.00000000000000e-01,6.12691399541504e-01,0.00000000000000e+00
4.53480000000000e-08,6.00000000000000e-01,6.00000000000000e-01,5.98276336974568e-01,0.00000000000000e+00
4.56040000000000e-08,6.00000000000000e-01,6.00000000000000e-01,1.77034600399312e-01,0.00000000000000e+00
4.61014468099756e-08,6.00000000000000e-01,6.00000000000000e-01,-6.59247534958055e-02,0.00000000000000e+00
4.66447354800820e-08,6.00000000000000e-01,6.00000000000000e-01,5.41193300595645e-02,0.00000000000000e+00
4.77313128202948e-08,6.00000000000000e-01,6.00000000000000e-01,-3.96410467296314e-02,0.00000000000000e+00
4.89661544398504e-08,6.00000000000000e-01,6.00000000000000e-01,3.76661418256430e-02,0.00000000000000e+00
5.01000000000000e-08,6.00000000000000e-01,5.99999999999966e-01,-2.92182407084116e-02,0.00000000000000e+00
5.03469683239111e-08,6.00000000000000e-01,6.00000000000000e-01,-4.38099910220012e-03,0.00000000000000e+00
5.08409049717334e-08,6.00000000000000e-01,6.00000000000000e-01,2.98444874460800e-03,0.00000000000000e+00
5.18287782673779e-08,6.00000000000000e-01,6.00000000000000e-01,-2.43142524892864e-03,0.00000000000000e+00
5.38045248586668e-08,6.00000000000000e-01,6.00000000000000e-01,2.22596585068950e-03,0.00000000000000e+00
5.51000000000000e-08,6.00000000000000e-01,6.00000000000000e-01,-1.90517906247829e-03,0.00000000000000e+00
5.51100000000000e-08,5.40000000000021e-01,6.00000000000000e-01,-1.37648100966246e-03,5.99999999999787e-02
5.51300000000000e-08,4.20000000000004e-01,6.00000000000000e-01,-6.14385668430258e-04,1.79999999999996e-01
5.51700000000000e-08,1.80000000000010e-01,6.00000000000000e-01,-8.80356908920868e-05,4.19999999999990e-01
5.52000000000000e-08,0.00000000000000e+00,6.00000000000000e-01,-4.67272749649708e-05,6.00000000000000e-01
5.52080000000000e-08,0.00000000000000e+00,6.00000000000000e-01,-7.45134187242549e-05,6.00000000000000e-01
5.52240000000000e-08,0.00000000000000e+00,6.00000000000000e-01,-1.06895552186417e-04,6.00000000000000e-01
5.52560000000000e-08,0.00000000000000e+00,6.00000000000000e-01,-1.00961560663200e-04,6.00000000000000e-01
5.53200000000000e-08,0.00000000000000e+00,6.00000000000000e-01,-1.02254464729973e-04,6.00000000000000e-01
5.54480000000000e-08,0.00000000000000e+00,6.00000000000000e-01,-6.71323107420373e-04,6.00000000000000e-01
5.57040000000000e-08,0.00000000000000e+00,6.00000000000000e-01,-2.77838996239583e-04,6.00000000000000e-01
5.61560901157081e-08,0.00000000000000e+00,6.00000000000000e-01,2.25384633760669e-04,6.00000000000000e-01
5.62559332743834e-08,0.00000000000000e+00,6.00000000000000e-01,-3.05924496918734e-05,6.00000000000000e-01
5.64556195917341e-08,0.00000000000000e+00,6.00000000000000e-01,-9.22314739042057e-05,6.00000000000000e-01
5.68549922264354e-08,0.00000000000000e+00,6.00000000000000e-01,9.24415153686076e-05,6.00000000000000e-01
5.76537374958381e-08,0.00000000000000e+00,6.00000000000000e-01,-4.54038100285419e-05,6.00000000000000e-01
5.92512280346435e-08,0.00000000000000e+00,6.00000000000000e-01,4.16373650376899e-05,6.00000000000000e-01
6.24462091122542e-08,0.00000000000000e+00,6.00000000000000e-01,-3.08855107355979e-05,6.00000000000000e-01
6.50000000000000e-08,0.00000000000000e+00,6.00000000000000e-01,3.15786549769184e-05,6.00000000000000e-01
6.50100000000000e-08,5.99999999999886e-02,6.00000000000000e-01,1.31521503138068e-04,6.00000000000000e-01
6.50300000000000e-08,1.79999999999966e-01,6.00000000000000e-01,2.90151183693452e-04,6.00000000000000e-01
6.50700000000000e-08,4.19999999999920e-01,6.00000000000000e-01,3.81518253961648e-04,6.00000000000000e-01
6.51000000000000e-08,5.99999999999966e-01,6.00000000000000e-01,-2.01340328843329e-04,6.00000000000000e-01
6.51080000000000e-08,6.00000000000000e-01,6.00000000000000e-01,-6.40253663943081e-04,6.00000000000000e-01
6.51240000000000e-08,6.00000000000000e-01,6.00000000000000e-01,-1.62169808845754e-03,6.00000000000000e-01
6.51560000000000e-08,6.00000000000000e-01,6.00000000000000e-01,-3.47478347112447e-03,6.00000000000000e-01
6.52200000000000e-08,6.00000000000000e-01,6.00000000000000e-01,-5.43880402406016e-03,6.00000000000000e-01
6.53480000000000e-08,6.00000000000000e-01,6.00000000000000e-01,3.01374277281274e-02,6.00000000000000e-01
6.56040000000000e-08,6.00000000000000e-01,6.00000000000000e-01,3.62761614828649e-01,6.00000000000000e-01
6.61159999999999e-08,6.00000000000000e-01,6.00000000000000e-01,6.25454849009597e-01,6.00000000000000e-01
6.68000365649136e-08,6.00000000000000e-01,6.00000000000000e-01,5.79429385417331e-01,6.00000000000000e-01
6.80777800587747e-08,6.00000000000000e-01,6.00000000000000e-01,6.18758451816247e-01,6.00000000000000e-01
6.97109812209307e-08,6.00000000000000e-01,6.00000000000000e-01,5.82427543141650e-01,6.00000000000000e-01
7.28246698080969e-08,6.00000000000000e-01,6.00000000000000e-01,6.16673816025092e-01,6.00000000000000e-01
7.51000000000000e-08,6.00000000000000e-01,6.00000000000000e-01,5.83981068973476e-01,6.00000000000000e-01
7.51100000000000e-08,5.40000000000061e-01,6.00000000000000e-01,5.87568852902035e-01,6.00000000000000e-01
7.51300000000000e-08,4.20000000000084e-01,6.00000000000000e-01,5.93121381629671e-01,6.00000000000000e-01
7.51700000000000e-08,1.80000000000129e-01,6.00000000000000e-01,5.98436001053532e-01,6.00000000000000e-01
7.52000000000000e-08,8.40438829641244e-14,6.00000000000000e-01,6.00573427036798e-01,6.00000000000000e-01
7.52080000000000e-08,0.00000000000000e+00,6.00000000000000e-01,6.01085081931689e-01,6.00000000000000e-01
7.52240000000000e-08,0.00000000000000e+00,6.00000000000000e-01,6.01873103377747e-01,6.00000000000000e-01
7.52560000000000e-08,0.00000000000000e+00,6.00000000000000e-01,6.02537309581740e-01,6.00000000000000e-01
7.53200000000000e-08,0.00000000000000e+00,6.00000000000000e-01,6.01348236150706e-01,6.00000000000000e-01
7.54480000000000e-08,0.00000000000000e+00,6.00000000000000e-01,5.88232691830082e-01,6.00000000000000e-01
7.57040000000000e-08,0.00000000000000e+00,6.00000000000000e-01,5.75694840882277e-01,6.00000000000000e-01
7.62159999999999e-08,0.00000000000000e+00,6.00000000000000e-01,5.98194012739197e-01,6.00000000000000e-01
7.72399999999999e-08,0.00000000000000e+00,6.00000000000000e-01,5.99781365513692e-01,6.00000000000000e-01
7.84495444838456e-08,0.00000000000000e+00,6.00000000000000e-01,5.99337223880645e-01,6.00000000000000e-01
8.08686334515369e-08,0.00000000000000e+00,6.00000000000000e-01,5.99766003973964e-01,6.00000000000000e-01
8.46686334515369e-08,0.00000000000000e+00,6.00000000000000e-01,5.99591902596494e-01,6.00000000000000e-01
8.50000000000000e-08,0.00000000000000e+00,6.00000000000000e-01,5.99628330950086e-01,6.00000000000000e-01
8.50100000000000e-08,5.99999999999886e-02,6.00000000000000e-01,5.99551199009539e-01,5.40000000000011e-01
8.50300000000000e-08,1.79999999999966e-01,6.00000000000000e-01,5.99401308046394e-01,4.20000000000034e-01
8.50700000000000e-08,4.19999999999920e-01,6.00000000000000e-01,6.00049646481164e-01,1.80000000000080e-01
8.51000000000000e-08,5.99999999999966e-01,6.00000000000000e-01,6.02682496523881e-01,3.44169137633799e-14
8.51080000000000e-08,6.00000000000000e-01,6.00000000000000e-01,6.03703473482871e-01,0.00000000000000e+00
8.51240000000000e-08,6.00000000000000e-01,6.00000000000000e-01,6.05457624199494e-01,0.00000000000000e+00
8.51560000000000e-08,6.00000000000000e-01,6.00000000000000e-01,6.08083693732771e-01,0.00000000000000e+00
8.52200000000000e-08,6.00000000000000e-01,6.00000000000000e-01,6.12691609049804e-01,0.00000000000000e+00
8.53480000000000e-08,6.00000000000000e-01,6.00000000000000e-01,5.98276488419676e-01,0.00000000000000e+00
8.56040000000000e-08,6.00000000000000e-01,6.00000000000000e-01,1.77034781084472e-01,0.00000000000000e+00
8.61014464620928e-08,6.00000000000000e-01,6.00000000000000e-01,-6.59246944447535e-02,0.00000000000000e+00
8.66447353792442e-08,6.00000000000000e-01,6.00000000000000e-01,5.41192681657456e-02,0.00000000000000e+00
8.77313132135468e-08,6.00000000000000e-01,6.00000000000000e-01,-3.96410167589403e-02,0.00000000000000e+00
8.89661549145199e-08,6.00000000000000e-01,6.00000000000000e-01,3.76661030284067e-02,0.00000000000000e+00
9.01000000000000e-08,6.00000000000000e-01,5.99999999999966e-01,-2.92182101414798e-02,0.00000000000000e+00
9.03469683401946e-08,6.00000000000000e-01,6.00000000000000e-01,-4.38099427839081e-03,0.00000000000000e+00
9.08409050205839e-08,6.00000000000000e-01,6.00000000000000e-01,2.98444559348236e-03,0.00000000000000e+00
9.18287783813623e-08,6.00000000000000e-01,6.00000000000000e-01,-2.43142270977674e-03,0.00000000000000e+00
9.38045251029193e-08,6.00000000000000e-01,6.00000000000000e-01,2.22596354492962e-03,0.00000000000000e+00
9.51000000000000e-08,6.00000000000000e-01,6.00000000000000e-01,-1.90517701919193e-03,0.00000000000000e+00
9.51100000000000e-08,5.40000000000061e-01,6.00000000000000e-01,-1.37647959908004e-03,5.99999999999390e-02
9.51300000000000e-08,4.20000000000084e-01,6.00000000000000e-01,-6.14384636131213e-04,1.79999999999916e-01
9.51700000000000e-08,1.80000000000129e-01,6.00000000000000e-01,-8.80352220369932e-05,4.19999999999871e-01
9.52000000000000e-08,8.40438829641244e-14,6.00000000000000e-01,-4.67270436760592e-05,5.99999999999916e-01
9.52080000000000e-08,0.00000000000000e+00,6.00000000000000e-01,-7.45132355211495e-05,6.00000000000000e-01
9.52240000000000e-08,0.00000000000000e+00,6.00000000000000e-01,-1.06895424153444e-04,6.00000000000000e-01
9.52560000000000e-08,0.00000000000000e+00,6.00000000000000e-01,-1.00961392683896e-04,6.00000000000000e-01
9.53200000000000e-08,0.00000000000000e+00,6.00000000000000e-01,-1.02253605179452e-04,6.00000000000000e-01
9.54480000000000e-08,0.00000000000000e+00,6.00000000000000e-01,-6.71318937862504e-04,6.00000000000000e-01
9.57040000000000e-08,0.00000000000000e+00,6.00000000000000e-01,-2.77835853058961e-04,6.00000000000000e-01
9.61560840356330e-08,0.00000000000000e+00,6.00000000000000e-01,2.25384204900723e-04,6.00000000000000e-01
9.62559274368276e-08,0.00000000000000e+00,6.00000000000000e-01,-3.05932820275252e-05,6.00000000000000e-01
9.64556142392168e-08,0.00000000000000e+00,6.00000000000000e-01,-9.22333779352358e-05,6.00000000000000e-01
9.68549878439953e-08,0.00000000000000e+00,6.00000000000000e-01,9.24418892098919e-05,6.00000000000000e-01
9.76537350535523e-08,0.00000000000000e+00,6.00000000000000e-01,-4.54038128064665e-05,6.00000000000000e-01
9.92512294726663e-08,0.00000000000000e+00,6.00000000000000e-01,4.16372274780860e-05,6.00000000000000e-01
1.02446218310894e-07,0.00000000000000e+00,6.00000000000000e-01,-3.08853211634617e-05,6.00000000000000e-01
1.05000000000000e-07,0.00000000000000e+00,6.00000000000000e-01,3.15783825607350e-05,6.00000000000000e-01
1.05010000000000e-07,5.99999999999886e-02,6.00000000000000e-01,1.31521330867718e-04,6.00000000000000e-01
1.05030000000000e-07,1.79999999999966e-01,6.00000000000000e-01,2.90151192101643e-04,6.00000000000000e-01
1.05070000000000e-07,4.19999999999920e-01,6.00000000000000e-01,3.81518328150622e-04,6.00000000000000e-01
1.05100000000000e-07,5.99999999999966e-01,6.00000000000000e-01,-2.01340234541887e-04,6.00000000000000e-01
1.05108000000000e-07,6.00000000000000e-01,6.00000000000000e-01,-6.40253556331370e-04,6.00000000000000e-01
1.05124000000000e-07,6.00000000000000e-01,6.00000000000000e-01,-1.62169797599302e-03,6.00000000000000e-01
1.05156000000000e-07,6.00000000000000e-01,6.00000000000000e-01,-3.47478338634389e-03,6.00000000000000e-01
1.05220000000000e-07,6.00000000000000e-01,6.00000000000000e-01,-5.43880394396588e-03,6.00000000000000e-01
1.05348000000000e-07,6.00000000000000e-01,6.00000000000000e-01,3.01374308086302e-02,6.00000000000000e-01
1.05604000000000e-07,6.00000000000000e-01,6.00000000000000e-01,3.62761621970402e-01,6.00000000000000e-01
1.06116000000000e-07,6.00000000000000e-01,6.00000000000000e-01,6.25454849392166e-01,6.00000000000000e-01
1.06800036561501e-07,6.00000000000000e-01,6.00000000000000e-01,5.79429385053361e-01,6.00000000000000e-01
1.08077780051993e-07,6.00000000000000e-01,6.00000000000000e-01,6.18758452008506e-01,6.00000000000000e-01
1.09710981217864e-07,6.00000000000000e-01,6.00000000000000e-01,5.82427542877784e-01,6.00000000000000e-01
1.12824669864751e-07,6.00000000000000e-01,6.00000000000000e-01,6.16673816244641e-01,6.00000000000000e-01
1.15100000000000e-07,6.00000000000000e-01,6.00000000000000e-01,5.83981068742626e-01,6.00000000000000e-01
1.15110000000000e-07,5.40000000000061e-01,6.00000000000000e-01,5.87568852708693e-01,6.00000000000000e-01
1.15130000000000e-07,4.20000000000084e-01,6.00000000000000e-01,5.93121381503156e-01,6.00000000000000e-01
