Time,v(clk),v(data),v(out)
1.00000000000000e-08,6.50000000000000e-01,0.00000000000000e+00,1.09945791785561e-06
1.00100000000000e-08,6.50000000000000e-01,6.49999999999984e-02,-2.04155074474272e-06
1.00300000000000e-08,6.50000000000000e-01,1.94999999999995e-01,-4.48403572159140e-06
1.00700000000000e-08,6.50000000000000e-01,4.54999999999989e-01,-3.65534464576850e-06
1.01000000000000e-08,6.50000000000000e-01,6.49999999999995e-01,-3.79569083703429e-06
1.01080000000000e-08,6.50000000000000e-01,6.50000000000000e-01,-2.75215780527055e-06
1.01240000000000e-08,6.50000000000000e-01,6.50000000000000e-01,-3.93231207838907e-07
1.01560000000000e-08,6.50000000000000e-01,6.50000000000000e-01,3.55741996341946e-06
1.02200000000000e-08,6.50000000000000e-01,6.50000000000000e-01,2.77035357261826e-06
1.03480000000000e-08,6.50000000000000e-01,6.50000000000000e-01,6.47246313247030e-08
1.06040000000000e-08,6.50000000000000e-01,6.50000000000000e-01,2.61168384632637e-06
1.11160000000000e-08,6.50000000000000e-01,6.50000000000000e-01,5.89276483544017e-07
1.21400000000000e-08,6.50000000000000e-01,6.50000000000000e-01,2.18682302719148e-06
1.41880000000000e-08,6.50000000000000e-01,6.50000000000000e-01,4.09424209947377e-07
1.51000000000000e-08,6.50000000000000e-01,6.50000000000000e-01,1.85301871089135e-06
1.51100000000000e-08,5.84999999999991e-01,6.50000000000000e-01,-5.02498394874609e-05
1.51300000000000e-08,4.54999999999994e-01,6.50000000000000e-01,-1.11722335333207e-04
1.51700000000000e-08,1.95000000000000e-01,6.50000000000000e-01,-3.41019970916817e-05
1.52000000000000e-08,0.00000000000000e+00,6.50000000000000e-01,1.97568855556440e-04
1.52080000000000e-08,0.00000000000000e+00,6.50000000000000e-01,2.88412013600033e-04
1.52240000000000e-08,0.00000000000000e+00,6.50000000000000e-01,3.45003904413256e-04
1.52560000000000e-08,0.00000000000000e+00,6.50000000000000e-01,1.12473254964281e-04
1.53200000000000e-08,0.00000000000000e+00,6.50000000000000e-01,-2.22338464543295e-04
1.54480000000000e-08,0.00000000000000e+00,6.50000000000000e-01,-4.96598952474184e-05
1.57040000000000e-08,0.00000000000000e+00,6.50000000000000e-01,-1.26714795011420e-04
1.60455028977532e-08,0.00000000000000e+00,6.50000000000000e-01,1.74924165883543e-04
1.67285086932595e-08,0.00000000000000e+00,6.50000000000000e-01,-1.00835127952541e-04
1.74605663915629e-08,0.00000000000000e+00,6.50000000000000e-01,5.18584460239098e-05
1.89246817881697e-08,0.00000000000000e+00,6.50000000000000e-01,-3.08348339464401e-05
2.18529125813834e-08,0.00000000000000e+00,6.50000000000000e-01,2.29291395533922e-05
2.50000000000000e-08,0.00000000000000e+00,6.50000000000000e-01,-1.42812449837630e-05
2.50100000000000e-08,6.49999999999877e-02,6.50000000000000e-01,6.29024309773407e-05
2.50300000000000e-08,1.95000000000006e-01,6.50000000000000e-01,1.73285511309941e-04
2.50700000000000e-08,4.55000000000000e-01,6.50000000000000e-01,2.18951439146103e-04
2.51000000000000e-08,6.50000000000000e-01,6.50000000000000e-01,-1.26815844094374e-03
2.51080000000000e-08,6.50000000000000e-01,6.50000000000000e-01,-2.11681124122467e-03
2.51240000000000e-08,6.50000000000000e-01,6.50000000000000e-01,-3.69591977229922e-03
2.51560000000000e-08,6.50000000000000e-01,6.50000000000000e-01,-5.66273308052808e-03
2.52200000000000e-08,6.50000000000000e-01,6.50000000000000e-01,2.53930190682943e-02
2.53480000000000e-08,6.50000000000000e-01,6.50000000000000e-01,4.16348415941057e-01
2.56040000000000e-08,6.50000000000000e-01,6.50000000000000e-01,6.75968596709863e-01
2.59158405704826e-08,6.50000000000000e-01,6.50000000000000e-01,6.28316944333768e-01
2.65395217114478e-08,6.50000000000000e-01,6.50000000000000e-01,6.70391930668859e-01
2.73203541696563e-08,6.50000000000000e-01,6.50000000000000e-01,6.30387542692252e-01
2.87644328853836e-08,6.50000000000000e-01,6.50000000000000e-01,6.68716524863437e-01
3.16525903168382e-08,6.50000000000000e-01,6.50000000000000e-01,6.31167683765897e-01
3.51000000000000e-08,6.49999999999968e-01,6.50000000000000e-01,6.68220893457593e-01
3.51100000000000e-08,5.84999999999980e-01,6.50000000000000e-01,6.59100290271942e-01
3.51300000000000e-08,4.54999999999962e-01,6.50000000000000e-01,6.49882419545116e-01
3.51700000000000e-08,1.94999999999968e-01,6.50000000000000e-01,6.50478805949577e-01
3.52000000000000e-08,0.00000000000000e+00,6.50000000000000e-01,6.52264553806042e-01
3.52080000000000e-08,0.00000000000000e+00,6.50000000000000e-01,6.52564229550600e-01
3.52240000000000e-08,0.00000000000000e+00,6.50000000000000e-01,6.52229494496564e-01
3.52560000000000e-08,0.00000000000000e+00,6.50000000000000e-01,6.44951908132363e-01
3.53200000000000e-08,0.00000000000000e+00,6.50000000000000e-01,6.26846176747695e-01
3.54480000000000e-08,0.00000000000000e+00,6.50000000000000e-01,6.39140095578357e-01
3.57040000000000e-08,0.00000000000000e+00,6.50000000000000e-01,6.54464617722724e-01
3.60587493769001e-08,0.00000000000000e+00,6.50000000000000e-01,6.45735562878697e-01
3.67433357196675e-08,0.00000000000000e+00,6.50000000000000e-01,6.53176807458797e-01
3.81125084052023e-08,0.00000000000000e+00,6.50000000000000e-01,6.46710996042108e-01
4.08508537762720e-08,0.00000000000000e+00,6.50000000000000e-01,6.52981853953832e-01
4.46508537762720e-08,0.00000000000000e+00,6.50000000000000e-01,6.46953322384628e-01
4.50000000000000e-08,0.00000000000000e+00,6.50000000000000e-01,6.52275423595170e-01
4.50100000000000e-08,6.49999999999877e-02,6.50000000000000e-01,6.51560163855430e-01
4.50300000000000e-08,1.95000000000006e-01,6.50000000000000e-01,6.50595420945388e-01
4.50700000000000e-08,4.55000000000000e-01,6.50000000000000e-01,6.50025779450153e-01
4.51000000000000e-08,6.50000000000000e-01,6.50000000000000e-01,6.49103932666114e-01
4.51080000000000e-08,6.50000000000000e-01,5.98000000000027e-01,6.48651820120721e-01
4.51240000000000e-08,6.50000000000000e-01,4.93999999999995e-01,6.47884163710507e-01
4.51560000000000e-08,6.50000000000000e-01,2.86000000000017e-01,6.47024367228296e-01
4.52000000000000e-08,6.50000000000000e-01,3.71924713249427e-14,6.46666560827510e-01
4.52064000000000e-08,6.50000000000000e-01,0.00000000000000e+00,6.46725920909200e-01
4.52192000000000e-08,6.50000000000000e-01,0.00000000000000e+00,6.46908733839152e-01
4.52448000000000e-08,6.50000000000000e-01,0.00000000000000e+00,6.47522099786044e-01
4.52960000000000e-08,6.50000000000000e-01,0.00000000000000e+00,6.48673401975298e-01
4.53984000000000e-08,6.50000000000000e-01,0.00000000000000e+00,6.49730273547058e-01
4.55551092411957e-08,6.50000000000000e-01,0.00000000000000e+00,6.49988800311971e-01
4.58685277235870e-08,6.50000000000000e-01,0.00000000000000e+00,6.50006041428191e-01
4.61887937296162e-08,6.50000000000000e-01,0.00000000000000e+00,6.49997143327221e-01
4.68293257416746e-08,6.50000000000000e-01,0.00000000000000e+00,6.50001591558315e-01
4.81103897657914e-08,6.50000000000000e-01,0.00000000000000e+00,6.49998928682653e-01
5.06725178140249e-08,6.50000000000000e-01,0.00000000000000e+00,6.50000816914051e-01
5.44725178140249e-08,6.50000000000000e-01,0.00000000000000e+00,6.49999338224514e-01
5.51000000000000e-08,6.50000000000000e-01,0.00000000000000e+00,6.49999809010708e-01
5.51100000000000e-08,5.85000000000023e-01,0.00000000000000e+00,6.49954983188774e-01
5.51300000000000e-08,4.55000000000005e-01,0.00000000000000e+00,6.49901673366563e-01
5.51700000000000e-08,1.95000000000011e-01,0.00000000000000e+00,6.50601129355360e-01
5.52000000000000e-08,0.00000000000000e+00,0.00000000000000e+00,6.52461321311483e-01
5.52080000000000e-08,0.00000000000000e+00,0.00000000000000e+00,6.52921454587706e-01
5.52240000000000e-08,0.00000000000000e+00,0.00000000000000e+00,6.53589332164057e-01
5.52560000000000e-08,0.00000000000000e+00,0.00000000000000e+00,6.54264490749383e-01
5.53200000000000e-08,0.00000000000000e+00,0.00000000000000e+00,6.53156870971616e-01
5.54480000000000e-08,0.00000000000000e+00,0.00000000000000e+00,6.49334124030905e-01
5.56525905411618e-08,0.00000000000000e+00,0.00000000000000e+00,6.50078179317018e-01
5.59746847531402e-08,0.00000000000000e+00,0.00000000000000e+00,6.49743796408630e-01
5.64070941841149e-08,0.00000000000000e+00,0.00000000000000e+00,6.49950005957677e-01
5.72719130460644e-08,0.00000000000000e+00,0.00000000000000e+00,6.49866692898691e-01
5.90015507699633e-08,0.00000000000000e+00,0.00000000000000e+00,6.49958590584813e-01
6.23815390351900e-08,0.00000000000000e+00,0.00000000000000e+00,6.49927019677670e-01
6.50000000000000e-08,0.00000000000000e+00,0.00000000000000e+00,6.49968426372269e-01
6.50100000000000e-08,6.49999999999877e-02,0.00000000000000e+00,6.50061844680669e-01
6.50300000000000e-08,1.94999999999963e-01,0.00000000000000e+00,6.50119628927514e-01
6.50700000000000e-08,4.54999999999914e-01,0.00000000000000e+00,6.49966820666179e-01
6.51000000000000e-08,6.49999999999963e-01,0.00000000000000e+00,6.49785034246041e-01
6.51080000000000e-08,6.50000000000000e-01,0.00000000000000e+00,6.49734116983553e-01
6.51240000000000e-08,6.50000000000000e-01,0.00000000000000e+00,6.49695845919203e-01
6.51560000000000e-08,6.50000000000000e-01,0.00000000000000e+00,6.49765641709628e-01
6.52200000000000e-08,6.50000000000000e-01,0.00000000000000e+00,6.51897153029464e-01
6.53480000000000e-08,6.50000000000000e-01,0.00000000000000e+00,6.48966412086619e-01
6.56040000000000e-08,6.50000000000000e-01,0.00000000000000e+00,1.08680145835454e-01
6.58928518841589e-08,6.50000000000000e-01,0.00000000000000e+00,-5.68069391118873e-02
6.64071935661667e-08,6.50000000000000e-01,0.00000000000000e+00,5.05160037016527e-02
6.70746471628885e-08,6.50000000000000e-01,0.00000000000000e+00,-3.88583620521648e-02
6.81769948028837e-08,6.50000000000000e-01,0.00000000000000e+00,3.78408416395222e-02
7.00815697341608e-08,6.50000000000000e-01,0.00000000000000e+00,-3.33022201414030e-02
7.31171784419113e-08,6.50000000000000e-01,0.00000000000000e+00,3.42941583785088e-02
7.51000000000000e-08,6.50000000000000e-01,0.00000000000000e+00,-3.04938508339748e-02
7.51100000000000e-08,5.85000000000066e-01,0.00000000000000e+00,-2.12558086096431e-02
7.51300000000000e-08,4.55000000000091e-01,0.00000000000000e+00,-9.40079179851775e-03
7.51700000000000e-08,1.95000000000140e-01,0.00000000000000e+00,-1.80869916684408e-03
7.52000000000000e-08,9.09272657168003e-14,0.00000000000000e+00,-2.89059999203693e-04
7.52080000000000e-08,0.00000000000000e+00,0.00000000000000e+00,-1.53692038410681e-04
7.52240000000000e-08,0.00000000000000e+00,0.00000000000000e+00,-5.92485508457002e-06
7.52560000000000e-08,0.00000000000000e+00,0.00000000000000e+00,-4.81945655648415e-04
7.53200000000000e-08,0.00000000000000e+00,0.00000000000000e+00,-1.72307609023351e-03
7.54480000000000e-08,0.00000000000000e+00,0.00000000000000e+00,-2.67183356804784e-05
7.56379349978655e-08,0.00000000000000e+00,0.00000000000000e+00,2.26414868269747e-04
7.60114982393217e-08,0.00000000000000e+00,0.00000000000000e+00,-2.39944186889043e-04
7.64827713134338e-08,0.00000000000000e+00,0.00000000000000e+00,2.63255301152352e-04
7.74253174616579e-08,0.00000000000000e+00,0.00000000000000e+00,-2.58384978354726e-04
7.93104097581061e-08,0.00000000000000e+00,0.00000000000000e+00,2.57238153815127e-04
8.28459702247068e-08,0.00000000000000e+00,0.00000000000000e+00,-2.54394555998568e-04
8.50000000000000e-08,0.00000000000000e+00,0.00000000000000e+00,2.52833092695383e-04
8.50100000000000e-08,6.49999999999877e-02,0.00000000000000e+00,2.06181322099638e-04
8.50300000000000e-08,1.94999999999963e-01,0.00000000000000e+00,1.48174231699598e-04
8.50700000000000e-08,4.54999999999914e-01,0.00000000000000e+00,2.41373361332051e-05
8.51000000000000e-08,6.49999999999963e-01,0.00000000000000e+00,-1.83623666758642e-04
8.51080000000000e-08,6.50000000000000e-01,0.00000000000000e+00,-2.29012793298733e-04
8.51240000000000e-08,6.50000000000000e-01,0.00000000000000e+00,-2.58910941668425e-04
8.51560000000000e-08,6.50000000000000e-01,0.00000000000000e+00,-1.79807690410601e-04
8.52200000000000e-08,6.50000000000000e-01,0.00000000000000e+00,-2.81548522066966e-05
8.53480000000000e-08,6.50000000000000e-01,0.00000000000000e+00,9.28002489335375e-05
8.56040000000000e-08,6.50000000000000e-01,0.00000000000000e+00,-1.91480746827895e-05
8.61159999999999e-08,6.50000000000000e-01,0.00000000000000e+00,1.30438959716475e-05
8.67372898493992e-08,6.50000000000000e-01,0.00000000000000e+00,-1.47639968607182e-06
8.79798695481978e-08,6.50000000000000e-01,0.00000000000000e+00,4.00296641512752e-06
9.00000000000000e-08,6.50000000000000e-01,0.00000000000000e+00,7.96068781080180e-07
9.00100000000000e-08,6.50000000000000e-01,6.49999999999877e-02,-2.12669141463895e-06
9.00300000000000e-08,6.50000000000000e-01,1.94999999999963e-01,-4.36159500562944e-06
9.00700000000000e-08,6.50000000000000e-01,4.54999999999914e-01,-3.54405907074945e-06
9.01000000000000e-08,6.50000000000000e-01,6.49999999999963e-01,-3.54627453875295e-06
9.01080000000000e-08,6.50000000000000e-01,6.50000000000000e-01,-2.60515062557032e-06
9.01240000000000e-08,6.50000000000000e-01,6.50000000000000e-01,-2.71287413408650e-07
9.01560000000000e-08,6.50000000000000e-01,6.50000000000000e-01,3.61771521268511e-06
9.02200000000000e-08,6.50000000000000e-01,6.50000000000000e-01,2.66304946709706e-06
9.03480000000000e-08,6.50000000000000e-01,6.50000000000000e-01,1.76551341990461e-07
9.06040000000000e-08,6.50000000000000e-01,6.50000000000000e-01,2.53674362262965e-06
9.11159999999999e-08,6.50000000000000e-01,6.50000000000000e-01,6.51293287252941e-07
9.21399999999999e-08,6.50000000000000e-01,6.50000000000000e-01,2.13148694365190e-06
9.41879999999998e-08,6.50000000000000e-01,6.50000000000000e-01,4.62517112142288e-07
9.51000000000000e-08,6.50000000000000e-01,6.50000000000000e-01,1.80616613339049e-06
9.51100000000000e-08,5.85000000000066e-01,6.50000000000000e-01,-5.01595774888702e-05
9.51300000000000e-08,4.55000000000091e-01,6.50000000000000e-01,-1.11806535366687e-04
9.51700000000000e-08,1.95000000000140e-01,6.50000000000000e-01,-3.41178386862387e-05
9.52000000000000e-08,9.09272657168003e-14,6.50000000000000e-01,1.97567913207741e-04
9.52080000000000e-08,0.00000000000000e+00,6.50000000000000e-01,2.88414241869948e-04
9.52240000000000e-08,0.00000000000000e+00,6.50000000000000e-01,3.45007283351864e-04
9.52560000000000e-08,0.00000000000000e+00,6.50000000000000e-01,1.12478807696353e-04
9.53200000000000e-08,0.00000000000000e+00,6.50000000000000e-01,-2.22327011136787e-04
9.54480000000000e-08,0.00000000000000e+00,6.50000000000000e-01,-4.96556837918972e-05
9.57040000000000e-08,0.00000000000000e+00,6.50000000000000e-01,-1.26715939281043e-04
9.60455071736425e-08,0.00000000000000e+00,6.50000000000000e-01,1.74929209639244e-04
9.67285215209276e-08,0.00000000000000e+00,6.50000000000000e-01,-1.00845139141635e-04
9.74605761391260e-08,0.00000000000000e+00,6.50000000000000e-01,5.18703762314747e-05
9.89246853755230e-08,0.00000000000000e+00,6.50000000000000e-01,-3.08472950338590e-05
1.01852903848317e-07,0.00000000000000e+00,6.50000000000000e-01,2.29418575930470e-05
1.05000000000000e-07,0.00000000000000e+00,6.50000000000000e-01,-1.42941241594167e-05
1.05010000000000e-07,6.49999999999877e-02,6.50000000000000e-01,6.28943756883008e-05
1.05030000000000e-07,1.94999999999963e-01,6.50000000000000e-01,1.73283879917087e-04
1.05070000000000e-07,4.54999999999914e-01,6.50000000000000e-01,2.18949971236726e-04
1.05100000000000e-07,6.49999999999963e-01,6.50000000000000e-01,-1.26817071278443e-03
1.05108000000000e-07,6.50000000000000e-01,6.50000000000000e-01,-2.11682491550000e-03
1.05124000000000e-07,6.50000000000000e-01,6.50000000000000e-01,-3.69593286628662e-03
1.05156000000000e-07,6.50000000000000e-01,6.50000000000000e-01,-5.66273611225612e-03
1.05220000000000e-07,6.50000000000000e-01,6.50000000000000e-01,2.53933120357657e-02
1.05348000000000e-07,6.50000000000000e-01,6.50000000000000e-01,4.16349216973472e-01
1.05604000000000e-07,6.50000000000000e-01,6.50000000000000e-01,6.75968631180131e-01
1.05915840383278e-07,6.50000000000000e-01,6.50000000000000e-01,6.28316901493871e-01
1.06539521149835e-07,6.50000000000000e-01,6.50000000000000e-01,6.70391960170948e-01
1.07320354017868e-07,6.50000000000000e-01,6.50000000000000e-01,6.30387507971453e-01
1.08764434474749e-07,6.50000000000000e-01,6.50000000000000e-01,6.68716552955980e-01
1.11652595388510e-07,6.50000000000000e-01,6.50000000000000e-01,6.31167650391078e-01
1.15100000000000e-07,6.50000000000000e-01,6.50000000000000e-01,6.68220920675966e-01
1.15110000000000e-07,5.85000000000066e-01,6.50000000000000e-01,6.59100304634120e-01
1.15130000000000e-07,4.55000000000091e-01,6.50000000000000e-01,6.49882420478918e-01
1.15170000000000e-07,1.95000000000140e-01,6.50000000000000e-01,6.50478806351998e-01
1.15200000000000e-07,9.09272657168003e-14,6.50000000000000e-01,6.52264554115951e-01
1.15208000000000e-07,0.00000000000000e+00,6.50000000000000e-01,6.52564229874714e-01
1.15224000000000e-07,0.00000000000000e+00,6.50000000000000e-01,6.52229495049720e-01
1.15256000000000e-07,0.00000000000000e+00,6.50000000000000e-01,6.44951909483096e-01
1.15320000000000e-07,0.00000000000000e+00,6.50000000000000e-01,6.26846177768389e-01
1.15448000000000e-07,0.00000000000000e+00,6.50000000000000e-01,6.39140095260527e-01
1.15704000000000e-07,0.00000000000000e+00,6.50000000000000e-01,6.54464617916460e-01
1.16058749379340e-07,0.00000000000000e+00,6.50000000000000e-01,6.45735562719434e-01
1.16743335718277e-07,0.00000000000000e+00,6.50000000000000e-01,6.53176807593172e-01
1.18112508396152e-07,0.00000000000000e+00,6.50000000000000e-01,6.46710995914565e-01
1.20850853751902e-07,0.00000000000000e+00,6.50000000000000e-01,6.52981854074627e-01
1.24650853751902e-07,0.00000000000000e+00,6.50000000000000e-01,6.46953322268668e-01
1.25000000000000e-07,0.00000000000000e+00,6.50000000000000e-01,6.52275423729988e-01
1.25010000000000e-07,6.49999999999017e-02,6.50000000000000e-01,6.51560163944495e-01
1.25030000000000e-07,1.94999999999877e-01,6.50000000000000e-01,6.50595420973821e-01
1.25070000000000e-07,4.54999999999828e-01,6.50000000000000e-01,6.50025779448022e-01
1.25100000000000e-07,6.49999999999877e-01,6.50000000000000e-01,6.49103932657305e-01
1.25108000000000e-07,6.50000000000000e-01,5.97999999999941e-01,6.48651820110968e-01
1.25124000000000e-07,6.50000000000000e-01,4.93999999999995e-01,6.47884163701750e-01
1.25156000000000e-07,6.50000000000000e-01,2.85999999999931e-01,6.47024367225746e-01
1.25200000000000e-07,6.50000000000000e-01,0.00000000000000e+00,6.46666560832890e-01
1.25206400000000e-07,6.50000000000000e-01,0.00000000000000e+00,6.46725920914101e-01
1.25219200000000e-07,6.50000000000000e-01,0.00000000000000e+00,6.46908733844962e-01
1.25244800000000e-07,6.50000000000000e-01,0.00000000000000e+00,6.47522099791550e-01
1.25296000000000e-07,6.50000000000000e-01,0.00000000000000e+00,6.48673401981760e-01
1.25398400000000e-07,6.50000000000000e-01,0.00000000000000e+00,6.49730273548253e-01
1.25555109242607e-07,6.50000000000000e-01,0.00000000000000e+00,6.49988800311541e-01
1.25868527727821e-07,6.50000000000000e-01,0.00000000000000e+00,6.50006041428904e-01
1.26188793751776e-07,6.50000000000000e-01,0.00000000000000e+00,6.49997143326649e-01
1.26829325799687e-07,6.50000000000000e-01,0.00000000000000e+00,6.50001591558797e-01
1.28110389895508e-07,6.50000000000000e-01,0.00000000000000e+00,6.49998928682109e-01
1.30672518087150e-07,6.50000000000000e-01,0.00000000000000e+00,6.50000816914570e-01
1.34472518087150e-07,6.50000000000000e-01,0.00000000000000e+00,6.49999338223996e-01
1.35100000000000e-07,6.49999999999882e-01,0.00000000000000e+00,6.49999809010692e-01
1.35110000000000e-07,5.84999999999808e-01,0.00000000000000e+00,6.49954983192925e-01
1.35130000000000e-07,4.54999999999833e-01,0.00000000000000e+00,6.49901673372156e-01
1.35170000000000e-07,1.94999999999882e-01,0.00000000000000e+00,6.50601129351350e-01
1.35200000000000e-07,0.00000000000000e+00,0.00000000000000e+00,6.52461321309957e-01
1.35208000000000e-07,0.00000000000000e+00,0.00000000000000e+00,6.52921454596904e-01
1.35224000000000e-07,0.00000000000000e+00,0.00000000000000e+00,6.53589332171729e-01
1.35256000000000e-07,0.00000000000000e+00,0.00000000000000e+00,6.54264490760301e-01
