Time,v(clk),v(data),v(out)
1.00000000000000e-08,6.50000000000000e-01,0.00000000000000e+00,1.67666083045704e-05
1.00100000000000e-08,6.50000000000000e-01,6.49999999999984e-02,1.01154781068022e-05
1.00300000000000e-08,6.50000000000000e-01,1.94999999999995e-01,3.15466074520682e-06
1.00700000000000e-08,6.50000000000000e-01,4.54999999999989e-01,1.05734719660355e-08
1.01000000000000e-08,6.50000000000000e-01,6.49999999999995e-01,-1.80383313498622e-06
1.01080000000000e-08,6.50000000000000e-01,6.50000000000000e-01,-1.49688231931150e-06
1.01240000000000e-08,6.50000000000000e-01,6.50000000000000e-01,-2.47851836034096e-07
1.01560000000000e-08,6.50000000000000e-01,6.50000000000000e-01,2.19826722163557e-06
1.02200000000000e-08,6.50000000000000e-01,6.50000000000000e-01,6.55442052439892e-06
1.03480000000000e-08,6.50000000000000e-01,6.50000000000000e-01,6.26462886451490e-07
1.06040000000000e-08,6.50000000000000e-01,6.50000000000000e-01,4.83121897601989e-06
1.11160000000000e-08,6.50000000000000e-01,6.50000000000000e-01,1.69452724796404e-06
1.21400000000000e-08,6.50000000000000e-01,6.50000000000000e-01,4.11457167778361e-06
1.41880000000000e-08,6.50000000000000e-01,6.50000000000000e-01,1.41148347155336e-06
1.51000000000000e-08,6.50000000000000e-01,6.50000000000000e-01,3.59162624019669e-06
1.51100000000000e-08,5.84999999999991e-01,6.50000000000000e-01,-5.13284713654361e-05
1.51300000000000e-08,4.54999999999994e-01,6.50000000000000e-01,-1.23239497126525e-04
1.51700000000000e-08,1.95000000000000e-01,6.50000000000000e-01,-5.27276321613257e-05
1.52000000000000e-08,0.00000000000000e+00,6.50000000000000e-01,1.92863936475232e-04
1.52080000000000e-08,0.00000000000000e+00,6.50000000000000e-01,2.92778532470041e-04
1.52240000000000e-08,0.00000000000000e+00,6.50000000000000e-01,3.70974739763996e-04
1.52560000000000e-08,0.00000000000000e+00,6.50000000000000e-01,1.58377652163685e-04
1.53200000000000e-08,0.00000000000000e+00,6.50000000000000e-01,-2.33962562129174e-04
1.54480000000000e-08,0.00000000000000e+00,6.50000000000000e-01,-9.75110883101385e-05
1.57040000000000e-08,0.00000000000000e+00,6.50000000000000e-01,-1.37721190147096e-04
1.60557202750197e-08,0.00000000000000e+00,6.50000000000000e-01,1.59531087377679e-04
1.66700682503848e-08,0.00000000000000e+00,6.50000000000000e-01,-2.87768530366104e-05
1.74927672123288e-08,0.00000000000000e+00,6.50000000000000e-01,-2.99199011487778e-05
1.89290824094656e-08,0.00000000000000e+00,6.50000000000000e-01,5.89863190770964e-05
2.18017128037392e-08,0.00000000000000e+00,6.50000000000000e-01,-6.69972799853501e-05
2.50000000000000e-08,0.00000000000000e+00,6.50000000000000e-01,7.85885410985664e-05
2.50100000000000e-08,6.49999999999877e-02,6.50000000000000e-01,1.34526729888056e-04
2.50300000000000e-08,1.95000000000006e-01,6.50000000000000e-01,2.15308986848628e-04
2.50700000000000e-08,4.55000000000000e-01,6.50000000000000e-01,2.76543345629258e-04
2.51000000000000e-08,6.50000000000000e-01,6.50000000000000e-01,-8.99676908763462e-04
2.51080000000000e-08,6.50000000000000e-01,6.50000000000000e-01,-1.63931352761648e-03
2.51240000000000e-08,6.50000000000000e-01,6.50000000000000e-01,-3.09300886393622e-03
2.51560000000000e-08,6.50000000000000e-01,6.50000000000000e-01,-5.17969409100993e-03
2.52200000000000e-08,6.50000000000000e-01,6.50000000000000e-01,6.25466641820520e-03
2.53480000000000e-08,6.50000000000000e-01,6.50000000000000e-01,3.07450930024835e-01
2.56040000000000e-08,6.50000000000000e-01,6.50000000000000e-01,6.64423274228841e-01
2.59615566049568e-08,6.50000000000000e-01,6.50000000000000e-01,6.39290794872148e-01
2.65729929604640e-08,6.50000000000000e-01,6.50000000000000e-01,6.60873564741676e-01
2.73610853315136e-08,6.50000000000000e-01,6.50000000000000e-01,6.39953552000075e-01
2.85595458422144e-08,6.50000000000000e-01,6.50000000000000e-01,6.59944869799864e-01
3.01000000000000e-08,6.50000000000000e-01,6.50000000000000e-01,6.40446756930982e-01
3.01100000000000e-08,6.50000000000000e-01,5.85000000000034e-01,6.44920084306385e-01
3.01300000000000e-08,6.50000000000000e-01,4.55000000000016e-01,6.49705214361693e-01
3.01700000000000e-08,6.50000000000000e-01,1.95000000000022e-01,6.50189725975107e-01
3.02000000000000e-08,6.50000000000000e-01,1.57651669496772e-14,6.50045554343531e-01
3.02080000000000e-08,6.50000000000000e-01,0.00000000000000e+00,6.50044872252392e-01
3.02240000000000e-08,6.50000000000000e-01,0.00000000000000e+00,6.50021749211600e-01
3.02560000000000e-08,6.50000000000000e-01,0.00000000000000e+00,6.49995203344630e-01
3.03200000000000e-08,6.50000000000000e-01,0.00000000000000e+00,6.49978870475942e-01
3.04480000000000e-08,6.50000000000000e-01,0.00000000000000e+00,6.49988681933402e-01
3.06405791152456e-08,6.50000000000000e-01,0.00000000000000e+00,6.49972569027282e-01
3.10246804809620e-08,6.50000000000000e-01,0.00000000000000e+00,6.49974068185297e-01
3.14740601808952e-08,6.50000000000000e-01,0.00000000000000e+00,6.49983425689983e-01
3.23728195807616e-08,6.50000000000000e-01,0.00000000000000e+00,6.49973254514093e-01
3.41703383804946e-08,6.50000000000000e-01,0.00000000000000e+00,6.49989505690348e-01
3.51000000000000e-08,6.49999999999968e-01,0.00000000000000e+00,6.49976123413233e-01
3.51100000000000e-08,5.84999999999980e-01,0.00000000000000e+00,6.49930651732866e-01
3.51300000000000e-08,4.54999999999962e-01,0.00000000000000e+00,6.49884689417377e-01
3.51700000000000e-08,1.94999999999968e-01,0.00000000000000e+00,6.50604359019961e-01
3.52000000000000e-08,0.00000000000000e+00,0.00000000000000e+00,6.52330290696051e-01
3.52080000000000e-08,0.00000000000000e+00,0.00000000000000e+00,6.52660673634613e-01
3.52240000000000e-08,0.00000000000000e+00,0.00000000000000e+00,6.52617457826785e-01
3.52560000000000e-08,0.00000000000000e+00,0.00000000000000e+00,6.47308375322188e-01
3.53200000000000e-08,0.00000000000000e+00,0.00000000000000e+00,6.29061836166639e-01
3.54480000000000e-08,0.00000000000000e+00,0.00000000000000e+00,6.35748485789722e-01
3.56706884291881e-08,0.00000000000000e+00,0.00000000000000e+00,6.54484738199721e-01
3.59806437067712e-08,0.00000000000000e+00,0.00000000000000e+00,6.45386516917849e-01
3.64919662778603e-08,0.00000000000000e+00,0.00000000000000e+00,6.53023904346192e-01
3.72974347350290e-08,0.00000000000000e+00,0.00000000000000e+00,6.46812263024200e-01
3.89083716493662e-08,0.00000000000000e+00,0.00000000000000e+00,6.52673318476287e-01
3.91000000000000e-08,0.00000000000000e+00,0.00000000000000e+00,6.48164877841426e-01
3.94021198628898e-08,0.00000000000000e+00,0.00000000000000e+00,6.49761660738158e-01
4.00063595886693e-08,0.00000000000000e+00,0.00000000000000e+00,6.50004622422760e-01
4.12148390402285e-08,0.00000000000000e+00,0.00000000000000e+00,6.49808783496862e-01
4.36317979433467e-08,0.00000000000000e+00,0.00000000000000e+00,6.50017346851466e-01
4.50000000000000e-08,0.00000000000000e+00,0.00000000000000e+00,6.49835874591254e-01
4.50100000000000e-08,6.49999999999877e-02,0.00000000000000e+00,6.49911754456205e-01
4.50300000000000e-08,1.95000000000006e-01,0.00000000000000e+00,6.49987282327725e-01
4.50700000000000e-08,4.55000000000000e-01,0.00000000000000e+00,6.49935996186040e-01
4.51000000000000e-08,6.50000000000000e-01,0.00000000000000e+00,6.49779462353960e-01
4.51080000000000e-08,6.50000000000000e-01,0.00000000000000e+00,6.49728229718209e-01
4.51240000000000e-08,6.50000000000000e-01,0.00000000000000e+00,6.49683735476884e-01
4.51560000000000e-08,6.50000000000000e-01,0.00000000000000e+00,6.49713696506605e-01
4.52200000000000e-08,6.50000000000000e-01,0.00000000000000e+00,6.50851744609528e-01
4.53480000000000e-08,6.50000000000000e-01,0.00000000000000e+00,6.64156261205505e-01
4.56040000000000e-08,6.50000000000000e-01,0.00000000000000e+00,1.77695718846195e-01
4.59265065354766e-08,6.50000000000000e-01,0.00000000000000e+00,-7.13785278487749e-02
4.63806036609906e-08,6.50000000000000e-01,0.00000000000000e+00,6.00890903936104e-02
4.70861941559029e-08,6.50000000000000e-01,0.00000000000000e+00,-4.31871660770017e-02
4.79657595689815e-08,6.50000000000000e-01,0.00000000000000e+00,4.03782692268342e-02
4.96349312236998e-08,6.50000000000000e-01,0.00000000000000e+00,-3.40939394953853e-02
5.00000000000000e-08,6.50000000000000e-01,0.00000000000000e+00,2.48065491369640e-02
5.00100000000000e-08,6.50000000000000e-01,6.49999999999877e-02,1.91033649711926e-02
5.00300000000000e-08,6.50000000000000e-01,1.94999999999963e-01,1.04602596748297e-02
5.00700000000000e-08,6.50000000000000e-01,4.55000000000000e-01,2.83885064333052e-03
5.01000000000000e-08,6.50000000000000e-01,6.50000000000000e-01,1.09189390084505e-03
5.01080000000000e-08,6.50000000000000e-01,6.50000000000000e-01,8.96344648699927e-04
5.01240000000000e-08,6.50000000000000e-01,6.50000000000000e-01,5.54170946696304e-04
5.01560000000000e-08,6.50000000000000e-01,6.50000000000000e-01,2.04227783801879e-04
5.02200000000000e-08,6.50000000000000e-01,6.50000000000000e-01,1.65743592573167e-05
5.03480000000000e-08,6.50000000000000e-01,6.50000000000000e-01,-5.07577872722875e-06
5.06040000000000e-08,6.50000000000000e-01,6.50000000000000e-01,2.55000154783872e-06
5.11160000000001e-08,6.50000000000000e-01,6.50000000000000e-01,-2.12827483764798e-06
5.21400000000002e-08,6.50000000000000e-01,6.50000000000000e-01,1.83029945113617e-06
5.41880000000003e-08,6.50000000000000e-01,6.50000000000000e-01,-1.57189303805422e-06
5.51000000000000e-08,6.50000000000000e-01,6.50000000000000e-01,1.34460027299659e-06
5.51100000000000e-08,5.85000000000023e-01,6.50000000000000e-01,-5.34756125102273e-05
5.51300000000000e-08,4.55000000000005e-01,6.50000000000000e-01,-1.23749125731820e-04
5.51700000000000e-08,1.95000000000011e-01,6.50000000000000e-01,-4.97515579296892e-05
5.52000000000000e-08,0.00000000000000e+00,6.50000000000000e-01,1.81120844816508e-04
5.52080000000000e-08,0.00000000000000e+00,6.50000000000000e-01,2.72860221214380e-04
5.52240000000000e-08,0.00000000000000e+00,6.50000000000000e-01,3.11898708750959e-04
5.52560000000000e-08,0.00000000000000e+00,6.50000000000000e-01,-2.02253985114864e-04
5.53200000000000e-08,0.00000000000000e+00,6.50000000000000e-01,-1.52198644086950e-03
5.54480000000000e-08,0.00000000000000e+00,6.50000000000000e-01,-3.36399790385824e-04
5.56540952056001e-08,0.00000000000000e+00,6.50000000000000e-01,9.85234314436981e-05
5.60292287809652e-08,0.00000000000000e+00,6.50000000000000e-01,-9.21929534297480e-05
5.65281411508839e-08,0.00000000000000e+00,6.50000000000000e-01,2.58449148183690e-04
5.73441475418310e-08,0.00000000000000e+00,6.50000000000000e-01,-3.13491924935992e-04
5.85820164871943e-08,0.00000000000000e+00,6.50000000000000e-01,3.37494069424316e-04
6.10577543779210e-08,0.00000000000000e+00,6.50000000000000e-01,-3.45121308266585e-04
6.48577543779210e-08,0.00000000000000e+00,6.50000000000000e-01,3.50465734460587e-04
6.50000000000000e-08,0.00000000000000e+00,6.50000000000000e-01,-3.27701442874969e-04
6.50100000000000e-08,6.49999999999877e-02,6.50000000000000e-01,-1.07907548740856e-04
6.50300000000000e-08,1.94999999999963e-01,6.50000000000000e-01,1.63894508502099e-04
6.50700000000000e-08,4.54999999999914e-01,6.50000000000000e-01,3.02530065051383e-04
6.51000000000000e-08,6.49999999999963e-01,6.50000000000000e-01,-7.06316099626784e-04
6.51080000000000e-08,6.50000000000000e-01,6.50000000000000e-01,-1.41244268915428e-03
6.51240000000000e-08,6.50000000000000e-01,6.50000000000000e-01,-2.85722982577823e-03
6.51560000000000e-08,6.50000000000000e-01,6.50000000000000e-01,-5.05653704744425e-03
6.52200000000000e-08,6.50000000000000e-01,6.50000000000000e-01,5.10062262434340e-03
6.53480000000000e-08,6.50000000000000e-01,6.50000000000000e-01,3.01602504608719e-01
6.56040000000000e-08,6.50000000000000e-01,6.50000000000000e-01,6.63589125100620e-01
6.59640339574883e-08,6.50000000000000e-01,6.50000000000000e-01,6.39889694349256e-01
6.65725424271022e-08,6.50000000000000e-01,6.50000000000000e-01,6.60315368210335e-01
6.73624415334642e-08,6.50000000000000e-01,6.50000000000000e-01,6.40477711478305e-01
6.85536721398441e-08,6.50000000000000e-01,6.50000000000000e-01,6.59449030942364e-01
7.01000000000000e-08,6.50000000000000e-01,6.50000000000000e-01,6.40935104369775e-01
7.01100000000000e-08,6.50000000000000e-01,5.85000000000012e-01,6.45199351746647e-01
7.01300000000000e-08,6.50000000000000e-01,4.55000000000037e-01,6.49739185593751e-01
7.01700000000000e-08,6.50000000000000e-01,1.95000000000086e-01,6.50184374575583e-01
7.02000000000000e-08,6.50000000000000e-01,3.71924713249427e-14,6.50047569953980e-01
7.02080000000000e-08,6.50000000000000e-01,0.00000000000000e+00,6.50046434209407e-01
7.02240000000000e-08,6.50000000000000e-01,0.00000000000000e+00,6.50022949836976e-01
7.02560000000000e-08,6.50000000000000e-01,0.00000000000000e+00,6.49995816876821e-01
7.03200000000000e-08,6.50000000000000e-01,0.00000000000000e+00,6.49979208257664e-01
7.04480000000000e-08,6.50000000000000e-01,0.00000000000000e+00,6.49988771803771e-01
7.06404447110906e-08,6.50000000000000e-01,0.00000000000000e+00,6.49973298349952e-01
7.10246373086840e-08,6.50000000000000e-01,0.00000000000000e+00,6.49973924497242e-01
7.14732571823907e-08,6.50000000000000e-01,0.00000000000000e+00,6.49983645975046e-01
7.23704969298043e-08,6.50000000000000e-01,0.00000000000000e+00,6.49973417912600e-01
7.41649764246313e-08,6.50000000000000e-01,0.00000000000000e+00,6.49989674531405e-01
7.51000000000000e-08,6.50000000000000e-01,0.00000000000000e+00,6.49976013711888e-01
7.51100000000000e-08,5.85000000000066e-01,0.00000000000000e+00,6.49928611100318e-01
7.51300000000000e-08,4.55000000000091e-01,0.00000000000000e+00,6.49881694067009e-01
7.51700000000000e-08,1.95000000000140e-01,0.00000000000000e+00,6.50604418135451e-01
7.52000000000000e-08,9.09272657168003e-14,0.00000000000000e+00,6.52330912763736e-01
7.52080000000000e-08,0.00000000000000e+00,0.00000000000000e+00,6.52660663399832e-01
7.52240000000000e-08,0.00000000000000e+00,0.00000000000000e+00,6.52619266924962e-01
7.52560000000000e-08,0.00000000000000e+00,0.00000000000000e+00,6.47324741898878e-01
7.53200000000000e-08,0.00000000000000e+00,0.00000000000000e+00,6.29086709650408e-01
7.54480000000000e-08,0.00000000000000e+00,0.00000000000000e+00,6.35748886310181e-01
7.56706897621813e-08,0.00000000000000e+00,0.00000000000000e+00,6.54484340307546e-01
7.59806455662753e-08,0.00000000000000e+00,0.00000000000000e+00,6.45386838269539e-01
7.64919695902943e-08,0.00000000000000e+00,0.00000000000000e+00,6.53023648624759e-01
7.72974405817255e-08,0.00000000000000e+00,0.00000000000000e+00,6.46812487887713e-01
7.81000000000000e-08,0.00000000000000e+00,0.00000000000000e+00,6.52487966277464e-01
7.82610941982863e-08,0.00000000000000e+00,0.00000000000000e+00,6.50180043112620e-01
7.85832825948588e-08,0.00000000000000e+00,0.00000000000000e+00,6.49621926455999e-01
7.92276593880038e-08,0.00000000000000e+00,0.00000000000000e+00,6.50091554783068e-01
8.05164129742938e-08,0.00000000000000e+00,0.00000000000000e+00,6.49705799639550e-01
8.30939201468738e-08,0.00000000000000e+00,0.00000000000000e+00,6.50107138056868e-01
8.50000000000000e-08,0.00000000000000e+00,0.00000000000000e+00,6.49746000666819e-01
8.50100000000000e-08,6.49999999999877e-02,0.00000000000000e+00,6.49846205449674e-01
8.50300000000000e-08,1.94999999999963e-01,0.00000000000000e+00,6.49957510473367e-01
8.50700000000000e-08,4.54999999999914e-01,0.00000000000000e+00,6.49932674348158e-01
8.51000000000000e-08,6.49999999999963e-01,0.00000000000000e+00,6.49778793772920e-01
8.51080000000000e-08,6.50000000000000e-01,0.00000000000000e+00,6.49736366408106e-01
8.51240000000000e-08,6.50000000000000e-01,0.00000000000000e+00,6.49675850356798e-01
8.51560000000000e-08,6.50000000000000e-01,0.00000000000000e+00,6.49715327631409e-01
8.52200000000000e-08,6.50000000000000e-01,0.00000000000000e+00,6.50843167305285e-01
8.53480000000000e-08,6.50000000000000e-01,0.00000000000000e+00,6.64167307579273e-01
8.56040000000000e-08,6.50000000000000e-01,0.00000000000000e+00,1.77716017929846e-01
8.59263222272138e-08,6.50000000000000e-01,0.00000000000000e+00,-7.13504550252819e-02
8.63804571136976e-08,6.50000000000000e-01,0.00000000000000e+00,6.00659648274010e-02
8.70854540120396e-08,6.50000000000000e-01,0.00000000000000e+00,-4.31629627657997e-02
8.79649738264014e-08,6.50000000000000e-01,0.00000000000000e+00,4.03544456776640e-02
8.96336273956372e-08,6.50000000000000e-01,0.00000000000000e+00,-3.40731656313838e-02
9.00000000000000e-08,6.50000000000000e-01,0.00000000000000e+00,2.48256079984423e-02
9.00100000000000e-08,6.50000000000000e-01,6.49999999999877e-02,1.91193606845460e-02
9.00300000000000e-08,6.50000000000000e-01,1.94999999999963e-01,1.04702601426113e-02
9.00700000000000e-08,6.50000000000000e-01,4.54999999999914e-01,2.84066433401236e-03
9.01000000000000e-08,6.50000000000000e-01,6.49999999999963e-01,1.09272217180322e-03
9.01080000000000e-08,6.50000000000000e-01,6.50000000000000e-01,8.95670567963885e-04
9.01240000000000e-08,6.50000000000000e-01,6.50000000000000e-01,5.53861678032480e-04
9.01560000000000e-08,6.50000000000000e-01,6.50000000000000e-01,2.04151835595058e-04
9.02200000000000e-08,6.50000000000000e-01,6.50000000000000e-01,1.65311022763057e-05
9.03480000000000e-08,6.50000000000000e-01,6.50000000000000e-01,-5.25090276099274e-06
9.06040000000000e-08,6.50000000000000e-01,6.50000000000000e-01,2.60879806828970e-06
9.11159999999999e-08,6.50000000000000e-01,6.50000000000000e-01,-2.16430445948435e-06
9.21399999999999e-08,6.50000000000000e-01,6.50000000000000e-01,1.85812778613842e-06
9.41879999999998e-08,6.50000000000000e-01,6.50000000000000e-01,-1.58696890203893e-06
9.51000000000000e-08,6.50000000000000e-01,6.50000000000000e-01,1.34269710955464e-06
9.51100000000000e-08,5.85000000000066e-01,6.50000000000000e-01,-5.34637176605041e-05
9.51300000000000e-08,4.55000000000091e-01,6.50000000000000e-01,-1.23724770521354e-04
9.51700000000000e-08,1.95000000000140e-01,6.50000000000000e-01,-4.97373741582749e-05
9.52000000000000e-08,9.09272657168003e-14,6.50000000000000e-01,1.81113540470214e-04
9.52080000000000e-08,0.00000000000000e+00,6.50000000000000e-01,2.72832857768954e-04
9.52240000000000e-08,0.00000000000000e+00,6.50000000000000e-01,3.11791420893992e-04
9.52560000000000e-08,0.00000000000000e+00,6.50000000000000e-01,-2.02683942494605e-04
9.53200000000000e-08,0.00000000000000e+00,6.50000000000000e-01,-1.52355558962006e-03
9.54480000000000e-08,0.00000000000000e+00,6.50000000000000e-01,-3.36870112110560e-04
9.56539947090241e-08,0.00000000000000e+00,6.50000000000000e-01,9.87803262533071e-05
9.60291859654439e-08,0.00000000000000e+00,6.50000000000000e-01,-9.24553108707041e-05
9.65278814678375e-08,0.00000000000000e+00,6.50000000000000e-01,2.58796244081654e-04
9.73438924551633e-08,0.00000000000000e+00,6.50000000000000e-01,-3.13831204318181e-04
9.85813998521417e-08,0.00000000000000e+00,6.50000000000000e-01,3.37823109124235e-04
1.01056414646098e-07,0.00000000000000e+00,6.50000000000000e-01,-3.45447697390365e-04
1.04856414646098e-07,0.00000000000000e+00,6.50000000000000e-01,3.50784179969511e-04
1.05000000000000e-07,0.00000000000000e+00,6.50000000000000e-01,-3.28617627434795e-04
1.05010000000000e-07,6.49999999999877e-02,6.50000000000000e-01,-1.08322476698855e-04
1.05030000000000e-07,1.94999999999963e-01,6.50000000000000e-01,1.64084244935588e-04
1.05070000000000e-07,4.54999999999914e-01,6.50000000000000e-01,3.02780125096012e-04
1.05100000000000e-07,6.49999999999963e-01,6.50000000000000e-01,-7.05789802766414e-04
1.05108000000000e-07,6.50000000000000e-01,6.50000000000000e-01,-1.41184110834856e-03
1.05124000000000e-07,6.50000000000000e-01,6.50000000000000e-01,-2.85661960837427e-03
1.05156000000000e-07,6.50000000000000e-01,6.50000000000000e-01,-5.05621196250842e-03
1.05220000000000e-07,6.50000000000000e-01,6.50000000000000e-01,5.09887445143225e-03
1.05348000000000e-07,6.50000000000000e-01,6.50000000000000e-01,3.01593548744017e-01
1.05604000000000e-07,6.50000000000000e-01,6.50000000000000e-01,6.63587805808703e-01
1.05964037644343e-07,6.50000000000000e-01,6.50000000000000e-01,6.39890629963296e-01
1.06572541798913e-07,6.50000000000000e-01,6.50000000000000e-01,6.60314492035698e-01
