Time,v(clk),v(data),v(out)
1.00000000000000e-08,6.50000000000000e-01,0.00000000000000e+00,3.45359383945591e-05
1.00100000000000e-08,6.50000000000000e-01,6.49999999999984e-02,3.15362702162439e-05
1.00300000000000e-08,6.50000000000000e-01,1.94999999999995e-01,2.54439076471935e-05
1.00700000000000e-08,6.50000000000000e-01,4.54999999999989e-01,1.43624905546147e-05
1.01000000000000e-08,6.50000000000000e-01,6.49999999999995e-01,9.05596308384965e-06
1.01080000000000e-08,6.50000000000000e-01,6.50000000000000e-01,7.23370789789540e-06
1.01240000000000e-08,6.50000000000000e-01,6.50000000000000e-01,6.26694843263581e-06
1.01560000000000e-08,6.50000000000000e-01,6.50000000000000e-01,6.97683630649509e-06
1.02200000000000e-08,6.50000000000000e-01,6.50000000000000e-01,1.08672349232938e-05
1.03480000000000e-08,6.50000000000000e-01,6.50000000000000e-01,5.93917825142745e-06
1.06040000000000e-08,6.50000000000000e-01,6.50000000000000e-01,4.30109468369140e-06
1.11160000000000e-08,6.50000000000000e-01,6.50000000000000e-01,4.78519743748497e-06
1.21400000000000e-08,6.50000000000000e-01,6.50000000000000e-01,5.22428224042706e-06
1.41880000000000e-08,6.50000000000000e-01,6.50000000000000e-01,3.84718613689796e-06
1.51000000000000e-08,6.50000000000000e-01,6.50000000000000e-01,4.65846669997754e-06
1.51100000000000e-08,5.84999999999991e-01,6.50000000000000e-01,-6.06257473882987e-05
1.51300000000000e-08,4.54999999999994e-01,6.50000000000000e-01,-1.63807372630310e-04
1.51700000000000e-08,1.95000000000000e-01,6.50000000000000e-01,-2.05988753918598e-04
1.52000000000000e-08,0.00000000000000e+00,6.50000000000000e-01,-2.63552891515556e-05
1.52080000000000e-08,0.00000000000000e+00,6.50000000000000e-01,1.03923813562751e-04
1.52240000000000e-08,0.00000000000000e+00,6.50000000000000e-01,2.85241452459666e-04
1.52560000000000e-08,0.00000000000000e+00,6.50000000000000e-01,3.53506578905823e-04
1.53200000000000e-08,0.00000000000000e+00,6.50000000000000e-01,1.25498094604298e-04
1.54480000000000e-08,0.00000000000000e+00,6.50000000000000e-01,-2.10169871760497e-04
1.57040000000000e-08,0.00000000000000e+00,6.50000000000000e-01,-7.15106519159833e-05
1.62160000000000e-08,0.00000000000000e+00,6.50000000000000e-01,-1.14618294825166e-04
1.69174957450639e-08,0.00000000000000e+00,6.50000000000000e-01,1.75941068351915e-04
1.82150785814536e-08,0.00000000000000e+00,6.50000000000000e-01,-8.93580074079413e-05
1.96907331913475e-08,0.00000000000000e+00,6.50000000000000e-01,4.77534504039717e-05
2.26420424111353e-08,0.00000000000000e+00,6.50000000000000e-01,-2.28125501179036e-05
2.50000000000000e-08,0.00000000000000e+00,6.50000000000000e-01,9.01574143866244e-06
2.50100000000000e-08,6.49999999999877e-02,6.50000000000000e-01,1.35425603288497e-04
2.50300000000000e-08,1.95000000000006e-01,6.50000000000000e-01,3.22031163779400e-04
2.50700000000000e-08,4.55000000000000e-01,6.50000000000000e-01,3.94180366264991e-04
2.51000000000000e-08,6.50000000000000e-01,6.50000000000000e-01,-4.71896961252737e-04
2.51080000000000e-08,6.50000000000000e-01,6.50000000000000e-01,-1.05869252052122e-03
2.51240000000000e-08,6.50000000000000e-01,6.50000000000000e-01,-2.29217514782597e-03
2.51560000000000e-08,6.50000000000000e-01,6.50000000000000e-01,-4.38608312694046e-03
2.52200000000000e-08,6.50000000000000e-01,6.50000000000000e-01,-5.08021259899306e-03
2.53480000000000e-08,6.50000000000000e-01,6.50000000000000e-01,8.35541357343676e-02
2.56040000000000e-08,6.50000000000000e-01,6.50000000000000e-01,5.08001833086679e-01
2.61160000000000e-08,6.50000000000000e-01,6.50000000000000e-01,6.78397922378557e-01
2.67282627698648e-08,6.50000000000000e-01,6.50000000000000e-01,6.24151431768361e-01
2.79301412918001e-08,6.50000000000000e-01,6.50000000000000e-01,6.71245310330645e-01
2.94076656639396e-08,6.50000000000000e-01,6.50000000000000e-01,6.28818961366026e-01
3.01000000000000e-08,6.50000000000000e-01,6.50000000000000e-01,6.66481638368784e-01
3.01100000000000e-08,6.50000000000000e-01,5.85000000000034e-01,6.62254288290124e-01
3.01300000000000e-08,6.50000000000000e-01,4.55000000000016e-01,6.55940468371765e-01
3.01700000000000e-08,6.50000000000000e-01,1.95000000000022e-01,6.51025988782233e-01
3.02000000000000e-08,6.50000000000000e-01,1.57651669496772e-14,6.50290704463503e-01
3.02080000000000e-08,6.50000000000000e-01,0.00000000000000e+00,6.50204719287292e-01
3.02240000000000e-08,6.50000000000000e-01,0.00000000000000e+00,6.50025459465935e-01
3.02560000000000e-08,6.50000000000000e-01,0.00000000000000e+00,6.49960068702612e-01
3.03200000000000e-08,6.50000000000000e-01,0.00000000000000e+00,6.49900018806443e-01
3.04480000000000e-08,6.50000000000000e-01,0.00000000000000e+00,6.49909917111018e-01
3.07040000000000e-08,6.50000000000000e-01,0.00000000000000e+00,6.49931380569333e-01
3.10434936635015e-08,6.50000000000000e-01,0.00000000000000e+00,6.49920694528226e-01
3.17224809905046e-08,6.50000000000000e-01,0.00000000000000e+00,6.49919448278933e-01
3.25453686424248e-08,6.50000000000000e-01,0.00000000000000e+00,6.49941487408105e-01
3.41911439462653e-08,6.50000000000000e-01,0.00000000000000e+00,6.49927510419866e-01
3.51000000000000e-08,6.49999999999968e-01,0.00000000000000e+00,6.49955592615616e-01
3.51100000000000e-08,5.84999999999980e-01,0.00000000000000e+00,6.49877918610595e-01
3.51300000000000e-08,4.54999999999962e-01,0.00000000000000e+00,6.49767407456598e-01
3.51700000000000e-08,1.94999999999968e-01,0.00000000000000e+00,6.50174839957590e-01
3.52000000000000e-08,0.00000000000000e+00,0.00000000000000e+00,6.51472613770369e-01
3.52080000000000e-08,0.00000000000000e+00,0.00000000000000e+00,6.51885531342924e-01
3.52240000000000e-08,0.00000000000000e+00,0.00000000000000e+00,6.52484262798033e-01
3.52560000000000e-08,0.00000000000000e+00,0.00000000000000e+00,6.52752911324977e-01
3.53200000000000e-08,0.00000000000000e+00,0.00000000000000e+00,6.49526696551388e-01
3.54480000000000e-08,0.00000000000000e+00,0.00000000000000e+00,6.30135417277560e-01
3.57040000000000e-08,0.00000000000000e+00,0.00000000000000e+00,6.26785446415567e-01
3.61019560499625e-08,0.00000000000000e+00,0.00000000000000e+00,6.52666153691804e-01
3.67044731675368e-08,0.00000000000000e+00,0.00000000000000e+00,6.46014274391150e-01
3.75095910960628e-08,0.00000000000000e+00,0.00000000000000e+00,6.51699384592035e-01
3.91000000000000e-08,0.00000000000000e+00,0.00000000000000e+00,6.47538339596218e-01
3.92610235857052e-08,0.00000000000000e+00,0.00000000000000e+00,6.49059569620229e-01
3.95830707571156e-08,0.00000000000000e+00,0.00000000000000e+00,6.49856406745315e-01
4.02271650999364e-08,0.00000000000000e+00,0.00000000000000e+00,6.49446009340685e-01
4.15153537855779e-08,0.00000000000000e+00,0.00000000000000e+00,6.49807546756958e-01
4.40917311568610e-08,0.00000000000000e+00,0.00000000000000e+00,6.49549501153871e-01
4.50000000000000e-08,0.00000000000000e+00,0.00000000000000e+00,6.49798117656956e-01
4.50100000000000e-08,6.49999999999877e-02,0.00000000000000e+00,6.49849590515313e-01
4.50300000000000e-08,1.95000000000006e-01,0.00000000000000e+00,6.49911669437907e-01
4.50700000000000e-08,4.55000000000000e-01,0.00000000000000e+00,6.49863296334798e-01
4.51000000000000e-08,6.50000000000000e-01,0.00000000000000e+00,6.49646649820749e-01
4.51080000000000e-08,6.50000000000000e-01,0.00000000000000e+00,6.49557276220538e-01
4.51240000000000e-08,6.50000000000000e-01,0.00000000000000e+00,6.49424109863595e-01
4.51560000000000e-08,6.50000000000000e-01,0.00000000000000e+00,6.49271412553717e-01
4.52200000000000e-08,6.50000000000000e-01,0.00000000000000e+00,6.49489382473913e-01
4.53480000000000e-08,6.50000000000000e-01,0.00000000000000e+00,6.54043804833801e-01
4.56040000000000e-08,6.50000000000000e-01,0.00000000000000e+00,4.54822091784827e-01
4.61160000000000e-08,6.50000000000000e-01,0.00000000000000e+00,-9.63299296005866e-03
4.66890113957120e-08,6.50000000000000e-01,0.00000000000000e+00,7.08485636100549e-03
4.78350341871360e-08,6.50000000000000e-01,0.00000000000000e+00,-4.93538202217378e-03
4.89981152417593e-08,6.50000000000000e-01,0.00000000000000e+00,4.36457639479196e-03
5.00000000000000e-08,6.50000000000000e-01,0.00000000000000e+00,-2.82807260076287e-03
5.00100000000000e-08,6.50000000000000e-01,6.49999999999877e-02,-3.13981384189448e-03
5.00300000000000e-08,6.50000000000000e-01,1.94999999999963e-01,-2.75076868029893e-03
5.00700000000000e-08,6.50000000000000e-01,4.55000000000000e-01,-1.11333060320769e-03
5.01000000000000e-08,6.50000000000000e-01,6.50000000000000e-01,-7.02904246986560e-04
5.01080000000000e-08,6.50000000000000e-01,6.50000000000000e-01,-5.84804976092215e-04
5.01240000000000e-08,6.50000000000000e-01,6.50000000000000e-01,-4.05081477943464e-04
5.01560000000000e-08,6.50000000000000e-01,6.50000000000000e-01,-2.01768947135098e-04
5.02200000000000e-08,6.50000000000000e-01,6.50000000000000e-01,-2.56285112282054e-05
5.03480000000000e-08,6.50000000000000e-01,6.50000000000000e-01,5.99921441768805e-06
5.06040000000000e-08,6.50000000000000e-01,6.50000000000000e-01,-6.88834994693605e-07
5.11160000000001e-08,6.50000000000000e-01,6.50000000000000e-01,2.56210909155632e-06
5.21400000000002e-08,6.50000000000000e-01,6.50000000000000e-01,-5.26454352801735e-07
5.41880000000003e-08,6.50000000000000e-01,6.50000000000000e-01,2.39421453304125e-06
5.51000000000000e-08,6.50000000000000e-01,6.50000000000000e-01,-1.87425118744478e-07
5.51100000000000e-08,5.85000000000023e-01,6.50000000000000e-01,-6.48017222207517e-05
5.51300000000000e-08,4.55000000000005e-01,6.50000000000000e-01,-1.67190690241355e-04
5.51700000000000e-08,1.95000000000011e-01,6.50000000000000e-01,-2.00207574766548e-04
5.52000000000000e-08,0.00000000000000e+00,6.50000000000000e-01,-2.87092377486420e-05
5.52080000000000e-08,0.00000000000000e+00,6.50000000000000e-01,1.00253196835029e-04
5.52240000000000e-08,0.00000000000000e+00,6.50000000000000e-01,2.75205499477772e-04
5.52560000000000e-08,0.00000000000000e+00,6.50000000000000e-01,3.27837056349187e-04
5.53200000000000e-08,0.00000000000000e+00,6.50000000000000e-01,2.77297478751340e-05
5.54480000000000e-08,0.00000000000000e+00,6.50000000000000e-01,-7.63581100486934e-04
5.57040000000000e-08,0.00000000000000e+00,6.50000000000000e-01,-4.91989804406977e-05
5.61681520495188e-08,0.00000000000000e+00,6.50000000000000e-01,-7.58924261124658e-05
5.68844097573335e-08,0.00000000000000e+00,6.50000000000000e-01,9.80704993121719e-05
5.81292640812631e-08,0.00000000000000e+00,6.50000000000000e-01,1.28066748960837e-05
5.95699771516077e-08,0.00000000000000e+00,6.50000000000000e-01,-6.79155098057670e-05
6.24514032922968e-08,0.00000000000000e+00,6.50000000000000e-01,9.69972433563344e-05
6.50000000000000e-08,0.00000000000000e+00,6.50000000000000e-01,-1.13783253876154e-04
6.50100000000000e-08,6.49999999999877e-02,6.50000000000000e-01,7.92005286257350e-05
6.50300000000000e-08,1.94999999999963e-01,6.50000000000000e-01,3.34361055995977e-04
6.50700000000000e-08,4.54999999999914e-01,6.50000000000000e-01,4.26278451246279e-04
6.51000000000000e-08,6.49999999999963e-01,6.50000000000000e-01,-4.05988790683764e-04
6.51080000000000e-08,6.50000000000000e-01,6.50000000000000e-01,-9.84099779592101e-04
6.51240000000000e-08,6.50000000000000e-01,6.50000000000000e-01,-2.21336370164808e-03
6.51560000000000e-08,6.50000000000000e-01,6.50000000000000e-01,-4.33237751615485e-03
6.52200000000000e-08,6.50000000000000e-01,6.50000000000000e-01,-5.12872695921168e-03
6.53480000000000e-08,6.50000000000000e-01,6.50000000000000e-01,8.25825819978771e-02
6.56040000000000e-08,6.50000000000000e-01,6.50000000000000e-01,5.06894598478057e-01
6.61159999999999e-08,6.50000000000000e-01,6.50000000000000e-01,6.78517290875541e-01
6.67276436663086e-08,6.50000000000000e-01,6.50000000000000e-01,6.24048564857407e-01
6.79297040607595e-08,6.50000000000000e-01,6.50000000000000e-01,6.71342072898653e-01
6.94100652142035e-08,6.50000000000000e-01,6.50000000000000e-01,6.28723433123610e-01
7.01000000000000e-08,6.50000000000000e-01,6.50000000000000e-01,6.66551945222379e-01
7.01100000000000e-08,6.50000000000000e-01,5.85000000000012e-01,6.62304673948166e-01
7.01300000000000e-08,6.50000000000000e-01,4.55000000000037e-01,6.55962770273537e-01
7.01700000000000e-08,6.50000000000000e-01,1.95000000000086e-01,6.51028615177121e-01
7.02000000000000e-08,6.50000000000000e-01,3.71924713249427e-14,6.50290443618336e-01
7.02080000000000e-08,6.50000000000000e-01,0.00000000000000e+00,6.50204305104401e-01
7.02240000000000e-08,6.50000000000000e-01,0.00000000000000e+00,6.50024433191483e-01
7.02560000000000e-08,6.50000000000000e-01,0.00000000000000e+00,6.49959137988969e-01
7.03200000000000e-08,6.50000000000000e-01,0.00000000000000e+00,6.49899088036315e-01
7.04480000000000e-08,6.50000000000000e-01,0.00000000000000e+00,6.49909580723809e-01
7.07040000000000e-08,6.50000000000000e-01,0.00000000000000e+00,6.49931132189112e-01
7.10433456011069e-08,6.50000000000000e-01,0.00000000000000e+00,6.49920548633299e-01
7.17220368033207e-08,6.50000000000000e-01,0.00000000000000e+00,6.49919247672067e-01
7.25443731336419e-08,6.50000000000000e-01,0.00000000000000e+00,6.49941413197645e-01
7.41890457942843e-08,6.50000000000000e-01,0.00000000000000e+00,6.49927344117038e-01
7.51000000000000e-08,6.50000000000000e-01,0.00000000000000e+00,6.49955584022271e-01
7.51100000000000e-08,5.85000000000066e-01,0.00000000000000e+00,6.49877874093643e-01
7.51300000000000e-08,4.55000000000091e-01,0.00000000000000e+00,6.49767323761083e-01
7.51700000000000e-08,1.95000000000140e-01,0.00000000000000e+00,6.50174741726239e-01
7.52000000000000e-08,9.09272657168003e-14,0.00000000000000e+00,6.51472491802976e-01
7.52080000000000e-08,0.00000000000000e+00,0.00000000000000e+00,6.51885378184408e-01
7.52240000000000e-08,0.00000000000000e+00,0.00000000000000e+00,6.52484015397020e-01
7.52560000000000e-08,0.00000000000000e+00,0.00000000000000e+00,6.52752189278579e-01
7.53200000000000e-08,0.00000000000000e+00,0.00000000000000e+00,6.49523202753319e-01
7.54480000000000e-08,0.00000000000000e+00,0.00000000000000e+00,6.30129207180338e-01
7.57040000000000e-08,0.00000000000000e+00,0.00000000000000e+00,6.26785697808835e-01
7.61019555917035e-08,0.00000000000000e+00,0.00000000000000e+00,6.52666894526018e-01
7.67044734618547e-08,0.00000000000000e+00,0.00000000000000e+00,6.46013636622793e-01
7.75095899304044e-08,0.00000000000000e+00,0.00000000000000e+00,6.51699822207325e-01
7.81000000000000e-08,0.00000000000000e+00,0.00000000000000e+00,6.47866022839317e-01
7.82610232937100e-08,0.00000000000000e+00,0.00000000000000e+00,6.49076844630828e-01
7.85830698811299e-08,0.00000000000000e+00,0.00000000000000e+00,6.49727560509908e-01
7.92271630559696e-08,0.00000000000000e+00,0.00000000000000e+00,6.49432903857643e-01
8.05153494056492e-08,0.00000000000000e+00,0.00000000000000e+00,6.49748595166306e-01
8.30917221050083e-08,0.00000000000000e+00,0.00000000000000e+00,6.49571087835265e-01
8.50000000000000e-08,0.00000000000000e+00,0.00000000000000e+00,6.49786055682820e-01
8.50100000000000e-08,6.49999999999877e-02,0.00000000000000e+00,6.49844485367631e-01
8.50300000000000e-08,1.94999999999963e-01,0.00000000000000e+00,6.49915062328132e-01
8.50700000000000e-08,4.54999999999914e-01,0.00000000000000e+00,6.49867228394161e-01
8.51000000000000e-08,6.49999999999963e-01,0.00000000000000e+00,6.49648445019196e-01
8.51080000000000e-08,6.50000000000000e-01,0.00000000000000e+00,6.49560283524320e-01
8.51240000000000e-08,6.50000000000000e-01,0.00000000000000e+00,6.49403358573458e-01
8.51560000000000e-08,6.50000000000000e-01,0.00000000000000e+00,6.49236613853182e-01
8.52200000000000e-08,6.50000000000000e-01,0.00000000000000e+00,6.49491218508490e-01
8.53480000000000e-08,6.50000000000000e-01,0.00000000000000e+00,6.54047146585485e-01
8.56040000000000e-08,6.50000000000000e-01,0.00000000000000e+00,4.54812301520898e-01
8.61159999999999e-08,6.50000000000000e-01,0.00000000000000e+00,-9.63334515064757e-03
8.66890259902408e-08,6.50000000000000e-01,0.00000000000000e+00,7.08515459285389e-03
8.78350779707226e-08,6.50000000000000e-01,0.00000000000000e+00,-4.93645379816363e-03
8.89981769957476e-08,6.50000000000000e-01,0.00000000000000e+00,4.36535143208949e-03
9.00000000000000e-08,6.50000000000000e-01,0.00000000000000e+00,-2.82919152494192e-03
9.00100000000000e-08,6.50000000000000e-01,6.49999999999877e-02,-3.14037780084520e-03
9.00300000000000e-08,6.50000000000000e-01,1.94999999999963e-01,-2.75075981332918e-03
9.00700000000000e-08,6.50000000000000e-01,4.54999999999914e-01,-1.11316463021190e-03
9.01000000000000e-08,6.50000000000000e-01,6.49999999999963e-01,-7.02746513108733e-04
9.01080000000000e-08,6.50000000000000e-01,6.50000000000000e-01,-5.84668870854288e-04
9.01240000000000e-08,6.50000000000000e-01,6.50000000000000e-01,-4.04978255085099e-04
9.01560000000000e-08,6.50000000000000e-01,6.50000000000000e-01,-2.01711406411349e-04
9.02200000000000e-08,6.50000000000000e-01,6.50000000000000e-01,-2.56195564267217e-05
9.03480000000000e-08,6.50000000000000e-01,6.50000000000000e-01,5.99589281813709e-06
9.06040000000000e-08,6.50000000000000e-01,6.50000000000000e-01,-6.89473032311136e-07
9.11159999999999e-08,6.50000000000000e-01,6.50000000000000e-01,2.55968069531182e-06
9.21399999999999e-08,6.50000000000000e-01,6.50000000000000e-01,-5.26816524322807e-07
9.41879999999998e-08,6.50000000000000e-01,6.50000000000000e-01,2.39203330046735e-06
9.51000000000000e-08,6.50000000000000e-01,6.50000000000000e-01,-1.87795571812005e-07
9.51100000000000e-08,5.85000000000066e-01,6.50000000000000e-01,-6.48017585545349e-05
9.51300000000000e-08,4.55000000000091e-01,6.50000000000000e-01,-1.67190862768021e-04
9.51700000000000e-08,1.95000000000140e-01,6.50000000000000e-01,-2.00208932200040e-04
9.52000000000000e-08,9.09272657168003e-14,6.50000000000000e-01,-2.87115736739285e-05
9.52080000000000e-08,0.00000000000000e+00,6.50000000000000e-01,1.00250403405666e-04
9.52240000000000e-08,0.00000000000000e+00,6.50000000000000e-01,2.75200758251146e-04
9.52560000000000e-08,0.00000000000000e+00,6.50000000000000e-01,3.27822349821212e-04
9.53200000000000e-08,0.00000000000000e+00,6.50000000000000e-01,2.76523458470831e-05
9.54480000000000e-08,0.00000000000000e+00,6.50000000000000e-01,-7.64046986318968e-04
9.57040000000000e-08,0.00000000000000e+00,6.50000000000000e-01,-4.92181070294827e-05
9.61679891435101e-08,0.00000000000000e+00,6.50000000000000e-01,-7.58737956019009e-05
9.68843024247918e-08,0.00000000000000e+00,6.50000000000000e-01,9.80047459282181e-05
9.81289830503488e-08,0.00000000000000e+00,6.50000000000000e-01,1.29302334348339e-05
9.95695859758139e-08,0.00000000000000e+00,6.50000000000000e-01,-6.80631691078568e-05
1.02450791826744e-07,0.00000000000000e+00,6.50000000000000e-01,9.71515364984697e-05
1.05000000000000e-07,0.00000000000000e+00,6.50000000000000e-01,-1.13938110442599e-04
1.05010000000000e-07,6.49999999999877e-02,6.50000000000000e-01,7.91161507501664e-05
1.05030000000000e-07,1.94999999999963e-01,6.50000000000000e-01,3.34349648806326e-04
1.05070000000000e-07,4.54999999999914e-01,6.50000000000000e-01,4.26316992644823e-04
1.05100000000000e-07,6.49999999999963e-01,6.50000000000000e-01,-4.05792924935061e-04
1.05108000000000e-07,6.50000000000000e-01,6.50000000000000e-01,-9.83859052637238e-04
1.05124000000000e-07,6.50000000000000e-01,6.50000000000000e-01,-2.21309020291167e-03
1.05156000000000e-07,6.50000000000000e-01,6.50000000000000e-01,-4.33218428932945e-03
1.05220000000000e-07,6.50000000000000e-01,6.50000000000000e-01,-5.12892453848054e-03
1.05348000000000e-07,6.50000000000000e-01,6.50000000000000e-01,8.25786569802821e-02
1.05604000000000e-07,6.50000000000000e-01,6.50000000000000e-01,5.06890105276843e-01
1.06116000000000e-07,6.50000000000000e-01,6.50000000000000e-01,6.78517779733099e-01
1.06727641201340e-07,6.50000000000000e-01,6.50000000000000e-01,6.24048152092750e-01
1.07929702291678e-07,6.50000000000000e-01,6.50000000000000e-01,6.71342463077637e-01
1.09410075009912e-07,6.50000000000000e-01,6.50000000000000e-01,6.28723048746754e-01
1.10100000000000e-07,6.50000000000000e-01,6.50000000000000e-01,6.66552228026032e-01
