Time,v(clk),v(data),v(out)
1.00000000000000e-08,6.50000000000000e-01,0.00000000000000e+00,3.45109750815534e-05
1.00100000000000e-08,6.50000000000000e-01,6.49999999999984e-02,3.15221789289125e-05
1.00300000000000e-08,6.50000000000000e-01,1.94999999999995e-01,2.54389067481792e-05
1.00700000000000e-08,6.50000000000000e-01,4.54999999999989e-01,1.43603826826891e-05
1.01000000000000e-08,6.50000000000000e-01,6.49999999999995e-01,9.05951630452567e-06
1.01080000000000e-08,6.50000000000000e-01,6.50000000000000e-01,7.23752856733595e-06
1.01240000000000e-08,6.50000000000000e-01,6.50000000000000e-01,6.27107828802403e-06
1.01560000000000e-08,6.50000000000000e-01,6.50000000000000e-01,6.97941803920465e-06
1.02200000000000e-08,6.50000000000000e-01,6.50000000000000e-01,1.08629649582803e-05
1.03480000000000e-08,6.50000000000000e-01,6.50000000000000e-01,5.93922819633330e-06
1.06040000000000e-08,6.50000000000000e-01,6.50000000000000e-01,4.30242891495333e-06
1.11160000000000e-08,6.50000000000000e-01,6.50000000000000e-01,4.78539062773696e-06
1.21400000000000e-08,6.50000000000000e-01,6.50000000000000e-01,5.22376738041133e-06
1.41880000000000e-08,6.50000000000000e-01,6.50000000000000e-01,3.84770727145231e-06
1.51000000000000e-08,6.50000000000000e-01,6.50000000000000e-01,4.65778969347720e-06
1.51100000000000e-08,5.84999999999991e-01,6.50000000000000e-01,-6.06261753926945e-05
1.51300000000000e-08,4.54999999999994e-01,6.50000000000000e-01,-1.63807401896421e-04
1.51700000000000e-08,1.95000000000000e-01,6.50000000000000e-01,-2.05988568111902e-04
1.52000000000000e-08,0.00000000000000e+00,6.50000000000000e-01,-2.63551110866456e-05
1.52080000000000e-08,0.00000000000000e+00,6.50000000000000e-01,1.03923970316153e-04
1.52240000000000e-08,0.00000000000000e+00,6.50000000000000e-01,2.85241570678857e-04
1.52560000000000e-08,0.00000000000000e+00,6.50000000000000e-01,3.53506613956445e-04
1.53200000000000e-08,0.00000000000000e+00,6.50000000000000e-01,1.25497733593584e-04
1.54480000000000e-08,0.00000000000000e+00,6.50000000000000e-01,-2.10170756186841e-04
1.57040000000000e-08,0.00000000000000e+00,6.50000000000000e-01,-7.15104660959608e-05
1.62160000000000e-08,0.00000000000000e+00,6.50000000000000e-01,-1.14618348652010e-04
1.69174957441611e-08,0.00000000000000e+00,6.50000000000000e-01,1.75941066145245e-04
1.82150785760441e-08,0.00000000000000e+00,6.50000000000000e-01,-8.93579861778997e-05
1.96907331684306e-08,0.00000000000000e+00,6.50000000000000e-01,4.77534148661776e-05
2.26420423532036e-08,0.00000000000000e+00,6.50000000000000e-01,-2.28125082305177e-05
2.50000000000000e-08,0.00000000000000e+00,6.50000000000000e-01,9.01569314358183e-06
2.50100000000000e-08,6.49999999999877e-02,6.50000000000000e-01,1.35425602090219e-04
2.50300000000000e-08,1.95000000000006e-01,6.50000000000000e-01,3.22031210632803e-04
2.50700000000000e-08,4.55000000000000e-01,6.50000000000000e-01,3.94180406608026e-04
2.51000000000000e-08,6.50000000000000e-01,6.50000000000000e-01,-4.71896942613056e-04
2.51080000000000e-08,6.50000000000000e-01,6.50000000000000e-01,-1.05869250779679e-03
2.51240000000000e-08,6.50000000000000e-01,6.50000000000000e-01,-2.29217514291662e-03
2.51560000000000e-08,6.50000000000000e-01,6.50000000000000e-01,-4.38608312604667e-03
2.52200000000000e-08,6.50000000000000e-01,6.50000000000000e-01,-5.08021259363505e-03
2.53480000000000e-08,6.50000000000000e-01,6.50000000000000e-01,8.35541358065616e-02
2.56040000000000e-08,6.50000000000000e-01,6.50000000000000e-01,5.08001833167132e-01
2.61160000000000e-08,6.50000000000000e-01,6.50000000000000e-01,6.78397922376706e-01
2.67282627699132e-08,6.50000000000000e-01,6.50000000000000e-01,6.24151431769065e-01
2.79301412918307e-08,6.50000000000000e-01,6.50000000000000e-01,6.71245310328664e-01
2.94076656636268e-08,6.50000000000000e-01,6.50000000000000e-01,6.28818961367363e-01
3.23627144072191e-08,6.50000000000000e-01,6.50000000000000e-01,6.68869221310606e-01
3.51000000000000e-08,6.49999999999968e-01,6.50000000000000e-01,6.30677797079292e-01
3.51100000000000e-08,5.84999999999980e-01,6.50000000000000e-01,6.35240787506795e-01
3.51300000000000e-08,4.54999999999962e-01,6.50000000000000e-01,6.42164545938945e-01
3.51700000000000e-08,1.94999999999968e-01,6.50000000000000e-01,6.48489997128109e-01
3.52000000000000e-08,0.00000000000000e+00,6.50000000000000e-01,6.50854195777345e-01
3.52080000000000e-08,0.00000000000000e+00,6.50000000000000e-01,6.51394220789762e-01
3.52240000000000e-08,0.00000000000000e+00,6.50000000000000e-01,6.52194474102339e-01
3.52560000000000e-08,0.00000000000000e+00,6.50000000000000e-01,6.52656939839557e-01
3.53200000000000e-08,0.00000000000000e+00,6.50000000000000e-01,6.49466994522405e-01
3.54480000000000e-08,0.00000000000000e+00,6.50000000000000e-01,6.30306102823393e-01
3.57040000000000e-08,0.00000000000000e+00,6.50000000000000e-01,6.27058655856763e-01
3.62160000000000e-08,0.00000000000000e+00,6.50000000000000e-01,6.54180378232880e-01
3.70328051304703e-08,0.00000000000000e+00,6.50000000000000e-01,6.45342127048116e-01
3.82799379863945e-08,0.00000000000000e+00,6.50000000000000e-01,6.52871147112182e-01
4.07742036982429e-08,0.00000000000000e+00,6.50000000000000e-01,6.46572229091544e-01
4.45742036982429e-08,0.00000000000000e+00,6.50000000000000e-01,6.52584515988906e-01
4.50000000000000e-08,0.00000000000000e+00,6.50000000000000e-01,6.47978425480778e-01
4.50100000000000e-08,6.49999999999877e-02,6.50000000000000e-01,6.48315475570596e-01
4.50300000000000e-08,1.95000000000006e-01,6.50000000000000e-01,6.48870334402947e-01
4.50700000000000e-08,4.55000000000000e-01,6.50000000000000e-01,6.49450913675156e-01
4.51000000000000e-08,6.50000000000000e-01,6.50000000000000e-01,6.49032162983479e-01
4.51080000000000e-08,6.50000000000000e-01,5.98000000000027e-01,6.48649312592370e-01
4.51240000000000e-08,6.50000000000000e-01,4.93999999999995e-01,6.47839341822079e-01
4.51560000000000e-08,6.50000000000000e-01,2.86000000000017e-01,6.46400661108018e-01
4.52000000000000e-08,6.50000000000000e-01,3.71924713249427e-14,6.45082760923618e-01
4.52064000000000e-08,6.50000000000000e-01,0.00000000000000e+00,6.44953754261954e-01
4.52192000000000e-08,6.50000000000000e-01,0.00000000000000e+00,6.44709527974192e-01
4.52448000000000e-08,6.50000000000000e-01,0.00000000000000e+00,6.44419042176159e-01
4.52960000000000e-08,6.50000000000000e-01,0.00000000000000e+00,6.44780856423053e-01
4.53984000000000e-08,6.50000000000000e-01,0.00000000000000e+00,6.47148776189632e-01
4.56032000000000e-08,6.50000000000000e-01,0.00000000000000e+00,6.49834940019345e-01
4.59562116781493e-08,6.50000000000000e-01,0.00000000000000e+00,6.49991614768911e-01
4.65993575743878e-08,6.50000000000000e-01,0.00000000000000e+00,6.50020059312085e-01
4.72647864216365e-08,6.50000000000000e-01,0.00000000000000e+00,6.49976670583647e-01
4.85956441161341e-08,6.50000000000000e-01,0.00000000000000e+00,6.50023287694676e-01
5.12573595051292e-08,6.50000000000000e-01,0.00000000000000e+00,6.49976985145052e-01
5.50573595051292e-08,6.50000000000000e-01,0.00000000000000e+00,6.50022776343794e-01
5.51000000000000e-08,6.50000000000000e-01,0.00000000000000e+00,6.49999066874840e-01
5.51100000000000e-08,5.85000000000023e-01,0.00000000000000e+00,6.49934038965847e-01
5.51300000000000e-08,4.55000000000005e-01,0.00000000000000e+00,6.49828726878743e-01
5.51700000000000e-08,1.95000000000011e-01,0.00000000000000e+00,6.50210704932819e-01
5.52000000000000e-08,0.00000000000000e+00,0.00000000000000e+00,6.51555581141545e-01
5.52080000000000e-08,0.00000000000000e+00,0.00000000000000e+00,6.51992233786095e-01
5.52240000000000e-08,0.00000000000000e+00,0.00000000000000e+00,6.52671535181113e-01
5.52560000000000e-08,0.00000000000000e+00,0.00000000000000e+00,6.53376487200829e-01
5.53200000000000e-08,0.00000000000000e+00,0.00000000000000e+00,6.54072916454685e-01
5.54480000000000e-08,0.00000000000000e+00,0.00000000000000e+00,6.54420760919565e-01
5.57040000000000e-08,0.00000000000000e+00,0.00000000000000e+00,6.49072538106818e-01
5.60986260047803e-08,0.00000000000000e+00,0.00000000000000e+00,6.47530156950178e-01
5.67008063693973e-08,0.00000000000000e+00,0.00000000000000e+00,6.49700336717309e-01
5.75016586884335e-08,0.00000000000000e+00,0.00000000000000e+00,6.48973840523399e-01
5.91033633265059e-08,0.00000000000000e+00,0.00000000000000e+00,6.49932833800217e-01
6.21711898132377e-08,0.00000000000000e+00,0.00000000000000e+00,6.49350604950383e-01
6.50000000000000e-08,0.00000000000000e+00,0.00000000000000e+00,6.49990807755627e-01
6.50100000000000e-08,6.49999999999877e-02,0.00000000000000e+00,6.50018695131050e-01
6.50300000000000e-08,1.94999999999963e-01,0.00000000000000e+00,6.50039909441149e-01
6.50700000000000e-08,4.54999999999914e-01,0.00000000000000e+00,6.49932657514196e-01
6.51000000000000e-08,6.49999999999963e-01,0.00000000000000e+00,6.49692865196052e-01
6.51080000000000e-08,6.50000000000000e-01,0.00000000000000e+00,6.49601584377386e-01
6.51240000000000e-08,6.50000000000000e-01,0.00000000000000e+00,6.49436504328713e-01
6.51560000000000e-08,6.50000000000000e-01,0.00000000000000e+00,6.49284569943590e-01
6.52200000000000e-08,6.50000000000000e-01,0.00000000000000e+00,6.49498153279757e-01
6.53480000000000e-08,6.50000000000000e-01,0.00000000000000e+00,6.54053828409792e-01
6.56040000000000e-08,6.50000000000000e-01,0.00000000000000e+00,4.54683775285682e-01
6.61159999999999e-08,6.50000000000000e-01,0.00000000000000e+00,-9.70323499105875e-03
6.66886687623420e-08,6.50000000000000e-01,0.00000000000000e+00,7.13963881930432e-03
6.78340062870260e-08,6.50000000000000e-01,0.00000000000000e+00,-4.97529550733455e-03
6.89967361116710e-08,6.50000000000000e-01,0.00000000000000e+00,4.40090287108274e-03
7.13221957609610e-08,6.50000000000000e-01,0.00000000000000e+00,-3.42562266896566e-03
7.51000000000000e-08,6.50000000000000e-01,0.00000000000000e+00,3.56792455865758e-03
7.51100000000000e-08,5.85000000000066e-01,0.00000000000000e+00,3.76600257744471e-03
7.51300000000000e-08,4.55000000000091e-01,0.00000000000000e+00,3.07227070693004e-03
7.51700000000000e-08,1.95000000000140e-01,0.00000000000000e+00,1.15343518445375e-03
7.52000000000000e-08,9.09272657168003e-14,0.00000000000000e+00,7.82370990872638e-04
7.52080000000000e-08,0.00000000000000e+00,0.00000000000000e+00,7.87281109108091e-04
7.52240000000000e-08,0.00000000000000e+00,0.00000000000000e+00,7.62507269126925e-04
7.52560000000000e-08,0.00000000000000e+00,0.00000000000000e+00,5.79604603877230e-04
7.53200000000000e-08,0.00000000000000e+00,0.00000000000000e+00,6.70355598924935e-05
7.54480000000000e-08,0.00000000000000e+00,0.00000000000000e+00,-7.72062958124906e-04
7.57040000000000e-08,0.00000000000000e+00,0.00000000000000e+00,-3.11801919971252e-05
7.61670371124380e-08,0.00000000000000e+00,0.00000000000000e+00,1.04615661787636e-04
7.69401919133522e-08,0.00000000000000e+00,0.00000000000000e+00,-1.19407200729783e-04
7.81603903734860e-08,0.00000000000000e+00,0.00000000000000e+00,1.34173374066609e-04
8.06007872937537e-08,0.00000000000000e+00,0.00000000000000e+00,-1.30503657954502e-04
8.44007872937537e-08,0.00000000000000e+00,0.00000000000000e+00,1.38202177832614e-04
8.50000000000000e-08,0.00000000000000e+00,0.00000000000000e+00,-1.37153658668577e-04
8.50100000000000e-08,6.49999999999877e-02,0.00000000000000e+00,3.19116839713543e-05
8.50300000000000e-08,1.94999999999963e-01,0.00000000000000e+00,2.34431285458109e-04
8.50700000000000e-08,4.54999999999914e-01,0.00000000000000e+00,2.34914331089429e-04
8.51000000000000e-08,6.49999999999963e-01,0.00000000000000e+00,-5.19782036744604e-06
8.51080000000000e-08,6.50000000000000e-01,0.00000000000000e+00,-1.08238941326416e-04
8.51240000000000e-08,6.50000000000000e-01,0.00000000000000e+00,-2.55266017747204e-04
8.51560000000000e-08,6.50000000000000e-01,0.00000000000000e+00,-3.38076106881732e-04
8.52200000000000e-08,6.50000000000000e-01,0.00000000000000e+00,-2.56796345823269e-04
8.53480000000000e-08,6.50000000000000e-01,0.00000000000000e+00,1.84587185248983e-05
8.56040000000000e-08,6.50000000000000e-01,0.00000000000000e+00,1.34933309136090e-04
8.61159999999999e-08,6.50000000000000e-01,0.00000000000000e+00,-5.15117630704789e-05
8.69741089499025e-08,6.50000000000000e-01,0.00000000000000e+00,5.28765361367308e-05
8.81666670308861e-08,6.50000000000000e-01,0.00000000000000e+00,-2.66925743113294e-05
9.00000000000000e-08,6.50000000000000e-01,0.00000000000000e+00,3.44416745022137e-05
9.00100000000000e-08,6.50000000000000e-01,6.49999999999877e-02,3.14781238483774e-05
9.00300000000000e-08,6.50000000000000e-01,1.94999999999963e-01,2.54249415542543e-05
9.00700000000000e-08,6.50000000000000e-01,4.54999999999914e-01,1.43828404216631e-05
9.01000000000000e-08,6.50000000000000e-01,6.49999999999963e-01,9.13815164794302e-06
9.01080000000000e-08,6.50000000000000e-01,6.50000000000000e-01,7.89790607973184e-06
9.01240000000000e-08,6.50000000000000e-01,6.50000000000000e-01,6.67382470517092e-06
9.01560000000000e-08,6.50000000000000e-01,6.50000000000000e-01,7.13578959656708e-06
9.02200000000000e-08,6.50000000000000e-01,6.50000000000000e-01,1.07970811687383e-05
9.03480000000000e-08,6.50000000000000e-01,6.50000000000000e-01,5.93993297900997e-06
9.06040000000000e-08,6.50000000000000e-01,6.50000000000000e-01,4.33860877689825e-06
9.11159999999999e-08,6.50000000000000e-01,6.50000000000000e-01,5.61220329232254e-06
9.21399999999999e-08,6.50000000000000e-01,6.50000000000000e-01,4.52117824520717e-06
9.41879999999998e-08,6.50000000000000e-01,6.50000000000000e-01,4.49580236838850e-06
9.51000000000000e-08,6.50000000000000e-01,6.50000000000000e-01,4.11702596108451e-06
9.51100000000000e-08,5.85000000000066e-01,6.50000000000000e-01,-6.10589456438437e-05
9.51300000000000e-08,4.55000000000091e-01,6.50000000000000e-01,-1.64070730323686e-04
9.51700000000000e-08,1.95000000000140e-01,6.50000000000000e-01,-2.06084191180705e-04
9.52000000000000e-08,9.09272657168003e-14,6.50000000000000e-01,-2.63994301698406e-05
9.52080000000000e-08,0.00000000000000e+00,6.50000000000000e-01,1.03886893947025e-04
9.52240000000000e-08,0.00000000000000e+00,6.50000000000000e-01,2.85216182245210e-04
9.52560000000000e-08,0.00000000000000e+00,6.50000000000000e-01,3.53495209216917e-04
9.53200000000000e-08,0.00000000000000e+00,6.50000000000000e-01,1.25497420389205e-04
9.54480000000000e-08,0.00000000000000e+00,6.50000000000000e-01,-2.10166743986870e-04
9.57040000000000e-08,0.00000000000000e+00,6.50000000000000e-01,-7.15113460985593e-05
9.62159999999999e-08,0.00000000000000e+00,6.50000000000000e-01,-1.14617969394423e-04
9.69174957078198e-08,0.00000000000000e+00,6.50000000000000e-01,1.75941053443179e-04
9.82150784407507e-08,0.00000000000000e+00,6.50000000000000e-01,-8.93581590963900e-05
9.96907327198673e-08,0.00000000000000e+00,6.50000000000000e-01,4.77536926643215e-05
1.02642041278100e-07,0.00000000000000e+00,6.50000000000000e-01,-2.28128288680108e-05
1.05000000000000e-07,0.00000000000000e+00,6.50000000000000e-01,9.01607166129987e-06
1.05010000000000e-07,6.49999999999877e-02,6.50000000000000e-01,1.35425720990984e-04
1.05030000000000e-07,1.94999999999963e-01,6.50000000000000e-01,3.22031063373342e-04
1.05070000000000e-07,4.54999999999914e-01,6.50000000000000e-01,3.94180226621375e-04
1.05100000000000e-07,6.49999999999963e-01,6.50000000000000e-01,-4.71897206130792e-04
1.05108000000000e-07,6.50000000000000e-01,6.50000000000000e-01,-1.05869279242789e-03
1.05124000000000e-07,6.50000000000000e-01,6.50000000000000e-01,-2.29217542975322e-03
1.05156000000000e-07,6.50000000000000e-01,6.50000000000000e-01,-4.38608331627285e-03
1.05220000000000e-07,6.50000000000000e-01,6.50000000000000e-01,-5.08021252482949e-03
1.05348000000000e-07,6.50000000000000e-01,6.50000000000000e-01,8.35541375312680e-02
1.05604000000000e-07,6.50000000000000e-01,6.50000000000000e-01,5.08001835107816e-01
1.06116000000000e-07,6.50000000000000e-01,6.50000000000000e-01,6.78397922098575e-01
1.06728262771048e-07,6.50000000000000e-01,6.50000000000000e-01,6.24151431997191e-01
1.07930141292663e-07,6.50000000000000e-01,6.50000000000000e-01,6.71245310108815e-01
1.09407665660571e-07,6.50000000000000e-01,6.50000000000000e-01,6.28818961568528e-01
1.12362714396385e-07,6.50000000000000e-01,6.50000000000000e-01,6.68869221123523e-01
1.15100000000000e-07,6.50000000000000e-01,6.50000000000000e-01,6.30677797244741e-01
1.15110000000000e-07,5.85000000000066e-01,6.50000000000000e-01,6.35240787631585e-01
1.15130000000000e-07,4.55000000000091e-01,6.50000000000000e-01,6.42164545996696e-01
1.15170000000000e-07,1.95000000000140e-01,6.50000000000000e-01,6.48489997142143e-01
1.15200000000000e-07,9.09272657168003e-14,6.50000000000000e-01,6.50854195782085e-01
1.15208000000000e-07,0.00000000000000e+00,6.50000000000000e-01,6.51394220793219e-01
1.15224000000000e-07,0.00000000000000e+00,6.50000000000000e-01,6.52194474104180e-01
1.15256000000000e-07,0.00000000000000e+00,6.50000000000000e-01,6.52656939844034e-01
1.15320000000000e-07,0.00000000000000e+00,6.50000000000000e-01,6.49466994525271e-01
1.15448000000000e-07,0.00000000000000e+00,6.50000000000000e-01,6.30306102888657e-01
1.15704000000000e-07,0.00000000000000e+00,6.50000000000000e-01,6.27058655857415e-01
1.16216000000000e-07,0.00000000000000e+00,6.50000000000000e-01,6.54180378196618e-01
1.17032805133378e-07,0.00000000000000e+00,6.50000000000000e-01,6.45342127072804e-01
1.18279937987401e-07,0.00000000000000e+00,6.50000000000000e-01,6.52871147093430e-01
1.20774203695447e-07,0.00000000000000e+00,6.50000000000000e-01,6.46572229108698e-01
1.24574203695447e-07,0.00000000000000e+00,6.50000000000000e-01,6.52584515977572e-01
1.25000000000000e-07,0.00000000000000e+00,6.50000000000000e-01,6.47978425483972e-01
1.25010000000000e-07,6.49999999999017e-02,6.50000000000000e-01,6.48315475573957e-01
1.25030000000000e-07,1.94999999999877e-01,6.50000000000000e-01,6.48870334405884e-01
1.25070000000000e-07,4.54999999999828e-01,6.50000000000000e-01,6.49450913676767e-01
1.25100000000000e-07,6.49999999999877e-01,6.50000000000000e-01,6.49032162984394e-01
1.25108000000000e-07,6.50000000000000e-01,5.97999999999941e-01,6.48649312593257e-01
1.25124000000000e-07,6.50000000000000e-01,4.93999999999995e-01,6.47839341823013e-01
1.25156000000000e-07,6.50000000000000e-01,2.85999999999931e-01,6.46400661108377e-01
1.25200000000000e-07,6.50000000000000e-01,0.00000000000000e+00,6.45082760922382e-01
1.25206400000000e-07,6.50000000000000e-01,0.00000000000000e+00,6.44953754262461e-01
1.25219200000000e-07,6.50000000000000e-01,0.00000000000000e+00,6.44709527974992e-01
1.25244800000000e-07,6.50000000000000e-01,0.00000000000000e+00,6.44419042176812e-01
1.25296000000000e-07,6.50000000000000e-01,0.00000000000000e+00,6.44780856431118e-01
1.25398400000000e-07,6.50000000000000e-01,0.00000000000000e+00,6.47148776190581e-01
1.25603200000000e-07,6.50000000000000e-01,0.00000000000000e+00,6.49834940018201e-01
1.25956211679089e-07,6.50000000000000e-01,0.00000000000000e+00,6.49991614769956e-01
1.26599357572928e-07,6.50000000000000e-01,0.00000000000000e+00,6.50020059311302e-01
1.27264786421926e-07,6.50000000000000e-01,0.00000000000000e+00,6.49976670584332e-01
1.28595644119923e-07,6.50000000000000e-01,0.00000000000000e+00,6.50023287694022e-01
1.31257359515915e-07,6.50000000000000e-01,0.00000000000000e+00,6.49976985145465e-01
1.35057359515915e-07,6.50000000000000e-01,0.00000000000000e+00,6.50022776343015e-01
1.35100000000000e-07,6.49999999999882e-01,0.00000000000000e+00,6.49999066877210e-01
1.35110000000000e-07,5.84999999999808e-01,0.00000000000000e+00,6.49934038966889e-01
1.35130000000000e-07,4.54999999999833e-01,0.00000000000000e+00,6.49828726879136e-01
1.35170000000000e-07,1.94999999999882e-01,0.00000000000000e+00,6.50210704934786e-01
1.35200000000000e-07,0.00000000000000e+00,0.00000000000000e+00,6.51555581139844e-01
1.35208000000000e-07,0.00000000000000e+00,0.00000000000000e+00,6.51992233784976e-01
1.35224000000000e-07,0.00000000000000e+00,0.00000000000000e+00,6.52671535180427e-01
1.35256000000000e-07,0.00000000000000e+00,0.00000000000000e+00,6.53376487197596e-01
1.35320000000000e-07,0.00000000000000e+00,0.00000000000000e+00,6.54072916463107e-01
