Time,v(clk),v(data),v(out),v(reset)
1.00000000000000e-08,6.50000000000000e-01,0.00000000000000e+00,-1.35873319031888e-05,0.00000000000000e+00
1.00100000000000e-08,6.50000000000000e-01,6.49999999999984e-02,-8.05844426275681e-06,0.00000000000000e+00
1.00300000000000e-08,6.50000000000000e-01,1.94999999999995e-01,-1.80716172400869e-06,0.00000000000000e+00
1.00700000000000e-08,6.50000000000000e-01,4.54999999999989e-01,8.58109421866815e-07,0.00000000000000e+00
1.01000000000000e-08,6.50000000000000e-01,6.49999999999995e-01,3.90025057958598e-07,0.00000000000000e+00
1.01080000000000e-08,6.50000000000000e-01,6.50000000000000e-01,2.58409719434971e-07,0.00000000000000e+00
1.01240000000000e-08,6.50000000000000e-01,6.50000000000000e-01,5.41733280741419e-07,0.00000000000000e+00
1.01560000000000e-08,6.50000000000000e-01,6.50000000000000e-01,2.04985504755756e-06,0.00000000000000e+00
1.02200000000000e-08,6.50000000000000e-01,6.50000000000000e-01,5.06491691129596e-06,0.00000000000000e+00
1.03480000000000e-08,6.50000000000000e-01,6.50000000000000e-01,2.97540223619108e-06,0.00000000000000e+00
1.06040000000000e-08,6.50000000000000e-01,6.50000000000000e-01,2.53345938916807e-06,0.00000000000000e+00
1.11160000000000e-08,6.50000000000000e-01,6.50000000000000e-01,2.14573269957143e-06,0.00000000000000e+00
1.21400000000000e-08,6.50000000000000e-01,6.50000000000000e-01,2.77071631430478e-06,0.00000000000000e+00
1.41880000000000e-08,6.50000000000000e-01,6.50000000000000e-01,1.84488564145945e-06,0.00000000000000e+00
1.51000000000000e-08,6.50000000000000e-01,6.50000000000000e-01,2.22636104301420e-06,0.00000000000000e+00
1.51100000000000e-08,5.84999999999991e-01,6.50000000000000e-01,1.99713886376074e-04,6.50000000000092e-02
1.51300000000000e-08,4.54999999999994e-01,6.50000000000000e-01,4.28435647408951e-04,1.95000000000006e-01
1.51700000000000e-08,1.95000000000000e-01,6.50000000000000e-01,3.58439608272240e-04,4.55000000000000e-01
1.52000000000000e-08,0.00000000000000e+00,6.50000000000000e-01,2.14190825330585e-04,6.50000000000000e-01
1.52080000000000e-08,0.00000000000000e+00,6.50000000000000e-01,1.74031379637153e-04,6.50000000000000e-01
1.52240000000000e-08,0.00000000000000e+00,6.50000000000000e-01,1.15248643577322e-04,6.50000000000000e-01
1.52560000000000e-08,0.00000000000000e+00,6.50000000000000e-01,7.82348593691695e-05,6.50000000000000e-01
1.53200000000000e-08,0.00000000000000e+00,6.50000000000000e-01,6.97289827199035e-05,6.50000000000000e-01
1.54480000000000e-08,0.00000000000000e+00,6.50000000000000e-01,-1.02508622356931e-04,6.50000000000000e-01
1.57040000000000e-08,0.00000000000000e+00,6.50000000000000e-01,-1.07442907970285e-04,6.50000000000000e-01
1.61050455253678e-08,0.00000000000000e+00,6.50000000000000e-01,-1.50583205747037e-04,6.50000000000000e-01
1.68268488479468e-08,0.00000000000000e+00,6.50000000000000e-01,1.22094741282330e-04,6.50000000000000e-01
1.77794723901558e-08,0.00000000000000e+00,6.50000000000000e-01,4.41550898772894e-05,6.50000000000000e-01
1.94465611573452e-08,0.00000000000000e+00,6.50000000000000e-01,-9.80893208660065e-05,6.50000000000000e-01
2.19842965177344e-08,0.00000000000000e+00,6.50000000000000e-01,1.22150228204585e-04,6.50000000000000e-01
2.50000000000000e-08,0.00000000000000e+00,6.50000000000000e-01,-1.37113720359842e-04,6.50000000000000e-01
2.50100000000000e-08,6.49999999999877e-02,6.50000000000000e-01,1.41052701711497e-05,6.50000000000000e-01
2.50300000000000e-08,1.95000000000006e-01,6.50000000000000e-01,2.56701610888657e-04,6.50000000000000e-01
2.50700000000000e-08,4.55000000000000e-01,6.50000000000000e-01,5.00036811855557e-04,6.50000000000000e-01
2.51000000000000e-08,6.50000000000000e-01,6.50000000000000e-01,4.18283096625720e-04,6.50000000000000e-01
2.51080000000000e-08,6.50000000000000e-01,6.50000000000000e-01,2.70048950977625e-04,6.50000000000000e-01
2.51240000000000e-08,6.50000000000000e-01,6.50000000000000e-01,-1.67158093112657e-04,6.50000000000000e-01
2.51560000000000e-08,6.50000000000000e-01,6.50000000000000e-01,-1.59055538513540e-03,6.50000000000000e-01
2.52200000000000e-08,6.50000000000000e-01,6.50000000000000e-01,-4.36707083752855e-03,6.50000000000000e-01
2.53480000000000e-08,6.50000000000000e-01,6.50000000000000e-01,-3.01290391468570e-03,6.50000000000000e-01
2.56040000000000e-08,6.50000000000000e-01,6.50000000000000e-01,2.62074666577995e-01,6.50000000000000e-01
2.61160000000000e-08,6.50000000000000e-01,6.50000000000000e-01,6.57941194527126e-01,6.50000000000000e-01
2.68802110835363e-08,6.50000000000000e-01,6.50000000000000e-01,6.43925359577030e-01,6.50000000000000e-01
2.80688251491064e-08,6.50000000000000e-01,6.50000000000000e-01,6.56575724957992e-01,6.50000000000000e-01
2.97142849349685e-08,6.50000000000000e-01,6.50000000000000e-01,6.43985581975830e-01,6.50000000000000e-01
3.20452731445638e-08,6.50000000000000e-01,6.50000000000000e-01,6.56132863921372e-01,6.50000000000000e-01
3.51000000000000e-08,6.49999999999968e-01,6.50000000000000e-01,6.44185505792496e-01,6.50000000000000e-01
3.51100000000000e-08,5.84999999999980e-01,6.50000000000000e-01,6.46027920103065e-01,6.50000000000000e-01
3.51300000000000e-08,4.54999999999962e-01,6.50000000000000e-01,6.48523176634042e-01,6.50000000000000e-01
3.51700000000000e-08,1.94999999999968e-01,6.50000000000000e-01,6.50392496452711e-01,6.50000000000000e-01
3.52000000000000e-08,0.00000000000000e+00,6.50000000000000e-01,6.51919421596314e-01,6.50000000000000e-01
3.52080000000000e-08,0.00000000000000e+00,6.50000000000000e-01,6.52377354174026e-01,6.50000000000000e-01
3.52240000000000e-08,0.00000000000000e+00,6.50000000000000e-01,6.53012230820520e-01,6.50000000000000e-01
3.52560000000000e-08,0.00000000000000e+00,6.50000000000000e-01,6.53135215941841e-01,6.50000000000000e-01
3.53200000000000e-08,0.00000000000000e+00,6.50000000000000e-01,6.47643974713916e-01,6.50000000000000e-01
3.54480000000000e-08,0.00000000000000e+00,6.50000000000000e-01,6.26786943871796e-01,6.50000000000000e-01
3.57040000000000e-08,0.00000000000000e+00,6.50000000000000e-01,6.35226656558984e-01,6.50000000000000e-01
3.62160000000000e-08,0.00000000000000e+00,6.50000000000000e-01,6.56045452472101e-01,6.50000000000000e-01
3.69172363180905e-08,0.00000000000000e+00,6.50000000000000e-01,6.44417668442231e-01,6.50000000000000e-01
3.82673464774193e-08,0.00000000000000e+00,6.50000000000000e-01,6.54201273504566e-01,6.50000000000000e-01
4.09675667960769e-08,0.00000000000000e+00,6.50000000000000e-01,6.45706322412550e-01,6.50000000000000e-01
4.47675667960769e-08,0.00000000000000e+00,6.50000000000000e-01,6.53850321943063e-01,6.50000000000000e-01
4.50000000000000e-08,0.00000000000000e+00,6.50000000000000e-01,6.48152341487150e-01,6.50000000000000e-01
4.50100000000000e-08,6.49999999999877e-02,6.50000000000000e-01,6.48389606937219e-01,5.85000000000012e-01
4.50300000000000e-08,1.95000000000006e-01,6.50000000000000e-01,6.48748967486953e-01,4.54999999999994e-01
4.50700000000000e-08,4.55000000000000e-01,6.50000000000000e-01,6.50436893525633e-01,1.95000000000000e-01
4.51000000000000e-08,6.50000000000000e-01,6.50000000000000e-01,6.54677350375067e-01,0.00000000000000e+00
4.51080000000000e-08,6.50000000000000e-01,6.50000000000000e-01,6.56196894800936e-01,0.00000000000000e+00
4.51240000000000e-08,6.50000000000000e-01,6.50000000000000e-01,6.58791004910711e-01,0.00000000000000e+00
4.51560000000000e-08,6.50000000000000e-01,6.50000000000000e-01,6.62748653051553e-01,0.00000000000000e+00
4.52200000000000e-08,6.50000000000000e-01,6.50000000000000e-01,6.71655824413991e-01,0.00000000000000e+00
4.53480000000000e-08,6.50000000000000e-01,6.50000000000000e-01,5.89109119705355e-01,0.00000000000000e+00
4.56040000000000e-08,6.50000000000000e-01,6.50000000000000e-01,1.24778562721261e-01,0.00000000000000e+00
4.59975804107144e-08,6.50000000000000e-01,6.50000000000000e-01,-4.40190912311049e-02,0.00000000000000e+00
4.66166242786493e-08,6.50000000000000e-01,6.50000000000000e-01,3.23898349583254e-02,0.00000000000000e+00
4.76126675554266e-08,6.50000000000000e-01,6.50000000000000e-01,-2.36639030389582e-02,0.00000000000000e+00
4.91822658395244e-08,6.50000000000000e-01,6.50000000000000e-01,2.17351483800888e-02,0.00000000000000e+00
5.01000000000000e-08,6.50000000000000e-01,6.49999999999963e-01,-1.62054455658815e-02,0.00000000000000e+00
5.04029020437667e-08,6.50000000000000e-01,6.50000000000000e-01,-2.24652707063039e-03,0.00000000000000e+00
5.10087061313000e-08,6.50000000000000e-01,6.50000000000000e-01,1.45350858533918e-03,0.00000000000000e+00
5.22203143063667e-08,6.50000000000000e-01,6.50000000000000e-01,-1.17414996967734e-03,0.00000000000000e+00
5.46435306565001e-08,6.50000000000000e-01,6.50000000000000e-01,1.06242296987956e-03,0.00000000000000e+00
5.51000000000000e-08,6.50000000000000e-01,6.50000000000000e-01,-6.15052270056409e-04,0.00000000000000e+00
5.51100000000000e-08,5.85000000000023e-01,6.50000000000000e-01,-2.93640839243790e-04,6.49999999999769e-02
5.51300000000000e-08,4.55000000000005e-01,6.50000000000000e-01,1.05630381780512e-04,1.94999999999995e-01
5.51700000000000e-08,1.95000000000011e-01,6.50000000000000e-01,1.80236413272042e-04,4.54999999999989e-01
5.52000000000000e-08,0.00000000000000e+00,6.50000000000000e-01,9.56891807131904e-05,6.50000000000000e-01
5.52080000000000e-08,0.00000000000000e+00,6.50000000000000e-01,6.60312667983692e-05,6.50000000000000e-01
5.52240000000000e-08,0.00000000000000e+00,6.50000000000000e-01,2.53576161137817e-05,6.50000000000000e-01
5.52560000000000e-08,0.00000000000000e+00,6.50000000000000e-01,6.09477324430008e-06,6.50000000000000e-01
5.53200000000000e-08,0.00000000000000e+00,6.50000000000000e-01,-1.64778557131269e-04,6.50000000000000e-01
5.54480000000000e-08,0.00000000000000e+00,6.50000000000000e-01,-9.98472148240809e-04,6.50000000000000e-01
5.57040000000000e-08,0.00000000000000e+00,6.50000000000000e-01,-2.30462844736459e-04,6.50000000000000e-01
5.60674024985240e-08,0.00000000000000e+00,6.50000000000000e-01,2.77192343743897e-04,6.50000000000000e-01
5.67942074955719e-08,0.00000000000000e+00,6.50000000000000e-01,-3.39244713214214e-04,6.50000000000000e-01
5.76707475089639e-08,0.00000000000000e+00,6.50000000000000e-01,3.45554789898010e-04,6.50000000000000e-01
5.93031152165409e-08,0.00000000000000e+00,6.50000000000000e-01,-3.20758830684118e-04,6.50000000000000e-01
6.17463213711088e-08,0.00000000000000e+00,6.50000000000000e-01,3.03926059305616e-04,6.50000000000000e-01
6.50000000000000e-08,0.00000000000000e+00,6.50000000000000e-01,-2.89360439341035e-04,6.50000000000000e-01
6.50100000000000e-08,6.49999999999877e-02,6.50000000000000e-01,-1.20088180258472e-04,6.50000000000000e-01
6.50300000000000e-08,1.94999999999963e-01,6.50000000000000e-01,1.51772699334543e-04,6.50000000000000e-01
6.50700000000000e-08,4.54999999999914e-01,6.50000000000000e-01,4.29097760340391e-04,6.50000000000000e-01
6.51000000000000e-08,6.49999999999963e-01,6.50000000000000e-01,2.16407041901692e-04,6.50000000000000e-01
6.51080000000000e-08,6.50000000000000e-01,6.50000000000000e-01,-4.61617239040646e-05,6.50000000000000e-01
6.51240000000000e-08,6.50000000000000e-01,6.50000000000000e-01,-7.02120647691339e-04,6.50000000000000e-01
6.51560000000000e-08,6.50000000000000e-01,6.50000000000000e-01,-2.29075121120094e-03,6.50000000000000e-01
6.52200000000000e-08,6.50000000000000e-01,6.50000000000000e-01,-4.81617378315264e-03,6.50000000000000e-01
6.53480000000000e-08,6.50000000000000e-01,6.50000000000000e-01,-8.78041233547518e-04,6.50000000000000e-01
6.56040000000000e-08,6.50000000000000e-01,6.50000000000000e-01,2.80058780081464e-01,6.50000000000000e-01
6.61159999999999e-08,6.50000000000000e-01,6.50000000000000e-01,6.61679672115681e-01,6.50000000000000e-01
6.68558924461144e-08,6.50000000000000e-01,6.50000000000000e-01,6.41640498129225e-01,6.50000000000000e-01
6.80571636439927e-08,6.50000000000000e-01,6.50000000000000e-01,6.58807825818659e-01,6.50000000000000e-01
6.96777625801101e-08,6.50000000000000e-01,6.50000000000000e-01,6.41951778300633e-01,6.50000000000000e-01
7.20218861670429e-08,6.50000000000000e-01,6.50000000000000e-01,6.58103570078134e-01,6.50000000000000e-01
7.51000000000000e-08,6.50000000000000e-01,6.50000000000000e-01,6.42278953523434e-01,6.50000000000000e-01
7.51100000000000e-08,5.85000000000066e-01,6.50000000000000e-01,6.44690863254032e-01,6.50000000000000e-01
7.51300000000000e-08,4.55000000000091e-01,6.50000000000000e-01,6.47980298185775e-01,6.50000000000000e-01
7.51700000000000e-08,1.95000000000140e-01,6.50000000000000e-01,6.50342303117943e-01,6.50000000000000e-01
7.52000000000000e-08,9.09272657168003e-14,6.50000000000000e-01,6.51904683066879e-01,6.50000000000000e-01
7.52080000000000e-08,0.00000000000000e+00,6.50000000000000e-01,6.52364579331051e-01,6.50000000000000e-01
7.52240000000000e-08,0.00000000000000e+00,6.50000000000000e-01,6.53000488384076e-01,6.50000000000000e-01
7.52560000000000e-08,0.00000000000000e+00,6.50000000000000e-01,6.53109410995031e-01,6.50000000000000e-01
7.53200000000000e-08,0.00000000000000e+00,6.50000000000000e-01,6.47526151384003e-01,6.50000000000000e-01
7.54480000000000e-08,0.00000000000000e+00,6.50000000000000e-01,6.26655730044041e-01,6.50000000000000e-01
7.57040000000000e-08,0.00000000000000e+00,6.50000000000000e-01,6.35269545685229e-01,6.50000000000000e-01
7.62159999999999e-08,0.00000000000000e+00,6.50000000000000e-01,6.56018299035058e-01,6.50000000000000e-01
7.69173016995860e-08,0.00000000000000e+00,6.50000000000000e-01,6.44439831124393e-01,6.50000000000000e-01
7.82672044583600e-08,0.00000000000000e+00,6.50000000000000e-01,6.54182171982408e-01,6.50000000000000e-01
8.09670099759080e-08,0.00000000000000e+00,6.50000000000000e-01,6.45724734714915e-01,6.50000000000000e-01
8.47670099759080e-08,0.00000000000000e+00,6.50000000000000e-01,6.53833068411467e-01,6.50000000000000e-01
8.50000000000000e-08,0.00000000000000e+00,6.50000000000000e-01,6.48156837804362e-01,6.50000000000000e-01
8.50100000000000e-08,6.49999999999877e-02,6.50000000000000e-01,6.48393215411591e-01,5.85000000000012e-01
8.50300000000000e-08,1.94999999999963e-01,6.50000000000000e-01,6.48751154460803e-01,4.55000000000037e-01
8.50700000000000e-08,4.54999999999914e-01,6.50000000000000e-01,6.50437711493299e-01,1.95000000000086e-01
8.51000000000000e-08,6.49999999999963e-01,6.50000000000000e-01,6.54677462831160e-01,3.71924713249427e-14
8.51080000000000e-08,6.50000000000000e-01,6.50000000000000e-01,6.56190497878211e-01,0.00000000000000e+00
8.51240000000000e-08,6.50000000000000e-01,6.50000000000000e-01,6.58780162710829e-01,0.00000000000000e+00
8.51560000000000e-08,6.50000000000000e-01,6.50000000000000e-01,6.62741767213990e-01,0.00000000000000e+00
8.52200000000000e-08,6.50000000000000e-01,6.50000000000000e-01,6.71649515333725e-01,0.00000000000000e+00
8.53480000000000e-08,6.50000000000000e-01,6.50000000000000e-01,5.89172830686172e-01,0.00000000000000e+00
8.56040000000000e-08,6.50000000000000e-01,6.50000000000000e-01,1.24853698887391e-01,0.00000000000000e+00
8.59989487756276e-08,6.50000000000000e-01,6.50000000000000e-01,-4.41704554638011e-02,0.00000000000000e+00
8.66175702981721e-08,6.50000000000000e-01,6.50000000000000e-01,3.24949259407698e-02,0.00000000000000e+00
8.76150212614436e-08,6.50000000000000e-01,6.50000000000000e-01,-2.37408263105382e-02,0.00000000000000e+00
8.91850122687033e-08,6.50000000000000e-01,6.50000000000000e-01,2.18082797550238e-02,0.00000000000000e+00
9.01000000000000e-08,6.50000000000000e-01,6.49999999999963e-01,-1.62439151873003e-02,0.00000000000000e+00
9.04049752692067e-08,6.50000000000000e-01,6.50000000000000e-01,-2.24041531205645e-03,0.00000000000000e+00
9.10149258076202e-08,6.50000000000000e-01,6.50000000000000e-01,1.45358934868254e-03,0.00000000000000e+00
9.22348268844471e-08,6.50000000000000e-01,6.50000000000000e-01,-1.17576921721548e-03,0.00000000000000e+00
9.46746290381010e-08,6.50000000000000e-01,6.50000000000000e-01,1.06456087285200e-03,0.00000000000000e+00
9.51000000000000e-08,6.50000000000000e-01,6.50000000000000e-01,-5.91166498823608e-04,0.00000000000000e+00
9.51100000000000e-08,5.85000000000066e-01,6.50000000000000e-01,-2.73189595571190e-04,6.49999999999339e-02
9.51300000000000e-08,4.55000000000091e-01,6.50000000000000e-01,1.20210773123693e-04,1.94999999999909e-01
9.51700000000000e-08,1.95000000000140e-01,6.50000000000000e-01,1.88241537024965e-04,4.54999999999860e-01
9.52000000000000e-08,9.09272657168003e-14,6.50000000000000e-01,1.00830005471828e-04,6.49999999999909e-01
9.52080000000000e-08,0.00000000000000e+00,6.50000000000000e-01,7.06375885246510e-05,6.50000000000000e-01
9.52240000000000e-08,0.00000000000000e+00,6.50000000000000e-01,2.90343398859916e-05,6.50000000000000e-01
9.52560000000000e-08,0.00000000000000e+00,6.50000000000000e-01,8.36444357315419e-06,6.50000000000000e-01
9.53200000000000e-08,0.00000000000000e+00,6.50000000000000e-01,-1.63959910755185e-04,6.50000000000000e-01
9.54480000000000e-08,0.00000000000000e+00,6.50000000000000e-01,-9.98623828214709e-04,6.50000000000000e-01
9.57040000000000e-08,0.00000000000000e+00,6.50000000000000e-01,-2.30520939272741e-04,6.50000000000000e-01
9.60675880423415e-08,0.00000000000000e+00,6.50000000000000e-01,2.77157044441385e-04,6.50000000000000e-01
9.67947641270245e-08,0.00000000000000e+00,6.50000000000000e-01,-3.39147750299879e-04,6.50000000000000e-01
9.76716108256455e-08,0.00000000000000e+00,6.50000000000000e-01,3.45504184865702e-04,6.50000000000000e-01
9.93045360163321e-08,0.00000000000000e+00,6.50000000000000e-01,-3.20764208524124e-04,6.50000000000000e-01
1.01749474911393e-07,0.00000000000000e+00,6.50000000000000e-01,3.03965758883049e-04,6.50000000000000e-01
1.05000000000000e-07,0.00000000000000e+00,6.50000000000000e-01,-2.89403103182051e-04,6.50000000000000e-01
1.05010000000000e-07,6.49999999999877e-02,6.50000000000000e-01,-1.20071485143494e-04,6.50000000000000e-01
1.05030000000000e-07,1.94999999999963e-01,6.50000000000000e-01,1.51832778783036e-04,6.50000000000000e-01
1.05070000000000e-07,4.54999999999914e-01,6.50000000000000e-01,4.29157018311636e-04,6.50000000000000e-01
1.05100000000000e-07,6.49999999999963e-01,6.50000000000000e-01,2.16448655952703e-04,6.50000000000000e-01
1.05108000000000e-07,6.50000000000000e-01,6.50000000000000e-01,-4.61254536100464e-05,6.50000000000000e-01
1.05124000000000e-07,6.50000000000000e-01,6.50000000000000e-01,-7.02094097693923e-04,6.50000000000000e-01
1.05156000000000e-07,6.50000000000000e-01,6.50000000000000e-01,-2.29073856017745e-03,6.50000000000000e-01
1.05220000000000e-07,6.50000000000000e-01,6.50000000000000e-01,-4.81617181800516e-03,6.50000000000000e-01
1.05348000000000e-07,6.50000000000000e-01,6.50000000000000e-01,-8.77827973263252e-04,6.50000000000000e-01
1.05604000000000e-07,6.50000000000000e-01,6.50000000000000e-01,2.80060292039688e-01,6.50000000000000e-01
1.06116000000000e-07,6.50000000000000e-01,6.50000000000000e-01,6.61679960304570e-01,6.50000000000000e-01
1.06855890567241e-07,6.50000000000000e-01,6.50000000000000e-01,6.41640315334421e-01,6.50000000000000e-01
1.08057162896284e-07,6.50000000000000e-01,6.50000000000000e-01,6.58808002481125e-01,6.50000000000000e-01
1.09677760024195e-07,6.50000000000000e-01,6.50000000000000e-01,6.41951615804290e-01,6.50000000000000e-01
1.12021885151794e-07,6.50000000000000e-01,6.50000000000000e-01,6.58103727656932e-01,6.50000000000000e-01
1.15100000000000e-07,6.50000000000000e-01,6.50000000000000e-01,6.42278801274351e-01,6.50000000000000e-01
1.15110000000000e-07,5.85000000000066e-01,6.50000000000000e-01,6.44690757143663e-01,6.50000000000000e-01
1.15130000000000e-07,4.55000000000091e-01,6.50000000000000e-01,6.47980255319707e-01,6.50000000000000e-01
1.15170000000000e-07,1.95000000000140e-01,6.50000000000000e-01,6.50342298353468e-01,6.50000000000000e-01
1.15200000000000e-07,9.09272657168003e-14,6.50000000000000e-01,6.51904681421040e-01,6.50000000000000e-01
1.15208000000000e-07,0.00000000000000e+00,6.50000000000000e-01,6.52364578110583e-01,6.50000000000000e-01
1.15224000000000e-07,0.00000000000000e+00,6.50000000000000e-01,6.53000487397030e-01,6.50000000000000e-01
