Time,v(clk),v(data),v(out)
1.00000000000000e-08,6.50000000000000e-01,0.00000000000000e+00,-1.67035817951449e-05
1.00100000000000e-08,6.50000000000000e-01,6.49999999999984e-02,-9.82566936552631e-06
1.00300000000000e-08,6.50000000000000e-01,1.94999999999995e-01,-1.31973103393440e-06
1.00700000000000e-08,6.50000000000000e-01,4.54999999999989e-01,8.75255214097259e-07
1.01000000000000e-08,6.50000000000000e-01,6.49999999999995e-01,-2.42294825597567e-06
1.01080000000000e-08,6.50000000000000e-01,6.50000000000000e-01,-3.09573788095235e-06
1.01240000000000e-08,6.50000000000000e-01,6.50000000000000e-01,-3.12616346596906e-06
1.01560000000000e-08,6.50000000000000e-01,6.50000000000000e-01,7.59975278680214e-08
1.02200000000000e-08,6.50000000000000e-01,6.50000000000000e-01,5.08340560880643e-06
1.03480000000000e-08,6.50000000000000e-01,6.50000000000000e-01,4.49485068605010e-06
1.06040000000000e-08,6.50000000000000e-01,6.50000000000000e-01,6.37368496685803e-07
1.10755899867649e-08,6.50000000000000e-01,6.50000000000000e-01,2.25845252975997e-06
1.20187699602946e-08,6.50000000000000e-01,6.50000000000000e-01,1.51394608443982e-06
1.39051299073541e-08,6.50000000000000e-01,6.50000000000000e-01,1.75769770594837e-06
1.51000000000000e-08,6.50000000000000e-01,6.50000000000000e-01,1.46314784969185e-06
1.51100000000000e-08,5.84999999999991e-01,6.50000000000000e-01,-6.58621754607708e-05
1.51300000000000e-08,4.54999999999994e-01,6.50000000000000e-01,-1.77275731481109e-04
1.51700000000000e-08,1.95000000000000e-01,6.50000000000000e-01,-2.37753152963496e-04
1.52000000000000e-08,0.00000000000000e+00,6.50000000000000e-01,-2.38727308750561e-05
1.52080000000000e-08,0.00000000000000e+00,6.50000000000000e-01,1.26285031537533e-04
1.52240000000000e-08,0.00000000000000e+00,6.50000000000000e-01,3.38916833551237e-04
1.52560000000000e-08,0.00000000000000e+00,6.50000000000000e-01,4.47953294895519e-04
1.53200000000000e-08,0.00000000000000e+00,6.50000000000000e-01,2.82122338402156e-04
1.54480000000000e-08,0.00000000000000e+00,6.50000000000000e-01,-1.35072452670477e-04
1.57040000000000e-08,0.00000000000000e+00,6.50000000000000e-01,-1.12900902035529e-04
1.62160000000000e-08,0.00000000000000e+00,6.50000000000000e-01,-1.25258432800207e-04
1.68858685990603e-08,0.00000000000000e+00,6.50000000000000e-01,1.39254790713117e-04
1.80967386585054e-08,0.00000000000000e+00,6.50000000000000e-01,-1.34243738462653e-05
1.97777807449246e-08,0.00000000000000e+00,6.50000000000000e-01,-4.58374856536084e-05
2.25729594712347e-08,0.00000000000000e+00,6.50000000000000e-01,7.22502457454065e-05
2.50000000000000e-08,0.00000000000000e+00,6.50000000000000e-01,-9.49749304279533e-05
2.50100000000000e-08,6.49999999999877e-02,6.50000000000000e-01,5.22381199976607e-05
2.50300000000000e-08,1.95000000000006e-01,6.50000000000000e-01,2.88968451888541e-04
2.50700000000000e-08,4.55000000000000e-01,6.50000000000000e-01,5.22890355602025e-04
2.51000000000000e-08,6.50000000000000e-01,6.50000000000000e-01,4.28377200701137e-04
2.51080000000000e-08,6.50000000000000e-01,6.50000000000000e-01,2.70629395692022e-04
2.51240000000000e-08,6.50000000000000e-01,6.50000000000000e-01,-1.88552633622684e-04
2.51560000000000e-08,6.50000000000000e-01,6.50000000000000e-01,-1.63874787241366e-03
2.52200000000000e-08,6.50000000000000e-01,6.50000000000000e-01,-4.40436333065256e-03
2.53480000000000e-08,6.50000000000000e-01,6.50000000000000e-01,-2.89098678970606e-03
2.56040000000000e-08,6.50000000000000e-01,6.50000000000000e-01,2.63201990665795e-01
2.61160000000000e-08,6.50000000000000e-01,6.50000000000000e-01,6.58191035023345e-01
2.68785688708811e-08,6.50000000000000e-01,6.50000000000000e-01,6.43777373594876e-01
2.80679335048138e-08,6.50000000000000e-01,6.50000000000000e-01,6.56721749155020e-01
2.97116538096887e-08,6.50000000000000e-01,6.50000000000000e-01,6.43853632614187e-01
3.01000000000000e-08,6.50000000000000e-01,6.50000000000000e-01,6.55330429206554e-01
3.01100000000000e-08,6.50000000000000e-01,5.85000000000034e-01,6.53585244763440e-01
3.01300000000000e-08,6.50000000000000e-01,4.55000000000016e-01,6.51242431524428e-01
3.01700000000000e-08,6.50000000000000e-01,1.95000000000022e-01,6.50000506536683e-01
3.02000000000000e-08,6.50000000000000e-01,1.57651669496772e-14,6.49973093693281e-01
3.02080000000000e-08,6.50000000000000e-01,0.00000000000000e+00,6.49961113707089e-01
3.02240000000000e-08,6.50000000000000e-01,0.00000000000000e+00,6.49941290399604e-01
3.02560000000000e-08,6.50000000000000e-01,0.00000000000000e+00,6.49956556883095e-01
3.03200000000000e-08,6.50000000000000e-01,0.00000000000000e+00,6.49959366847329e-01
3.04480000000000e-08,6.50000000000000e-01,0.00000000000000e+00,6.49963188344588e-01
3.07040000000000e-08,6.50000000000000e-01,0.00000000000000e+00,6.49999970319501e-01
3.10865257428824e-08,6.50000000000000e-01,0.00000000000000e+00,6.49972829085294e-01
3.18196349260280e-08,6.50000000000000e-01,0.00000000000000e+00,6.49985032331393e-01
3.27029607816699e-08,6.50000000000000e-01,0.00000000000000e+00,6.49984293048547e-01
3.44696124929535e-08,6.50000000000000e-01,0.00000000000000e+00,6.49981951657270e-01
3.51000000000000e-08,6.49999999999968e-01,0.00000000000000e+00,6.49990180348231e-01
3.51100000000000e-08,5.84999999999980e-01,0.00000000000000e+00,6.49917294316946e-01
3.51300000000000e-08,4.54999999999962e-01,0.00000000000000e+00,6.49815430659054e-01
3.51700000000000e-08,1.94999999999968e-01,0.00000000000000e+00,6.50276692636144e-01
3.52000000000000e-08,0.00000000000000e+00,0.00000000000000e+00,6.51788526977978e-01
3.52080000000000e-08,0.00000000000000e+00,0.00000000000000e+00,6.52250109241440e-01
3.52240000000000e-08,0.00000000000000e+00,0.00000000000000e+00,6.52888564851506e-01
3.52560000000000e-08,0.00000000000000e+00,0.00000000000000e+00,6.53018368949666e-01
3.53200000000000e-08,0.00000000000000e+00,0.00000000000000e+00,6.47645478240400e-01
3.54480000000000e-08,0.00000000000000e+00,0.00000000000000e+00,6.26818549160058e-01
3.57040000000000e-08,0.00000000000000e+00,0.00000000000000e+00,6.35223368257164e-01
3.61325445802576e-08,0.00000000000000e+00,0.00000000000000e+00,6.55567093880813e-01
3.67447219418216e-08,0.00000000000000e+00,0.00000000000000e+00,6.44595458883801e-01
3.77728065552387e-08,0.00000000000000e+00,0.00000000000000e+00,6.53734954887101e-01
3.91000000000000e-08,0.00000000000000e+00,0.00000000000000e+00,6.46274382556938e-01
3.92567496200312e-08,0.00000000000000e+00,0.00000000000000e+00,6.49016192797049e-01
3.95702488600935e-08,0.00000000000000e+00,0.00000000000000e+00,6.50273304406336e-01
4.01972473402183e-08,0.00000000000000e+00,0.00000000000000e+00,6.49519420717209e-01
4.14512443004677e-08,0.00000000000000e+00,0.00000000000000e+00,6.50164635571469e-01
4.39592382209666e-08,0.00000000000000e+00,0.00000000000000e+00,6.49646234145372e-01
4.50000000000000e-08,0.00000000000000e+00,0.00000000000000e+00,6.50141452172550e-01
4.50100000000000e-08,6.49999999999877e-02,0.00000000000000e+00,6.50172204213784e-01
4.50300000000000e-08,1.95000000000006e-01,0.00000000000000e+00,6.50194993371618e-01
4.50700000000000e-08,4.55000000000000e-01,0.00000000000000e+00,6.50112054457297e-01
4.51000000000000e-08,6.50000000000000e-01,0.00000000000000e+00,6.49939868696419e-01
4.51080000000000e-08,6.50000000000000e-01,0.00000000000000e+00,6.49862526421204e-01
4.51240000000000e-08,6.50000000000000e-01,0.00000000000000e+00,6.49748454575447e-01
4.51560000000000e-08,6.50000000000000e-01,0.00000000000000e+00,6.49669656472575e-01
4.52200000000000e-08,6.50000000000000e-01,0.00000000000000e+00,6.49669028270676e-01
4.53480000000000e-08,6.50000000000000e-01,0.00000000000000e+00,6.50241807079131e-01
4.56040000000000e-08,6.50000000000000e-01,0.00000000000000e+00,6.61940140147227e-01
4.61160000000000e-08,6.50000000000000e-01,0.00000000000000e+00,1.89430175706828e-01
4.67975634132152e-08,6.50000000000000e-01,0.00000000000000e+00,-7.43511180117621e-02
4.76667159137882e-08,6.50000000000000e-01,0.00000000000000e+00,6.41008950347769e-02
4.91355332572257e-08,6.50000000000000e-01,0.00000000000000e+00,-4.49979479683096e-02
5.00000000000000e-08,6.50000000000000e-01,0.00000000000000e+00,3.60197213456722e-02
5.00100000000000e-08,6.50000000000000e-01,6.49999999999877e-02,3.18225538846808e-02
5.00300000000000e-08,6.50000000000000e-01,1.94999999999963e-01,2.42998228843748e-02
5.00700000000000e-08,6.50000000000000e-01,4.55000000000000e-01,1.36502308219039e-02
5.01000000000000e-08,6.50000000000000e-01,6.50000000000000e-01,8.86812152950575e-03
5.01080000000000e-08,6.50000000000000e-01,6.50000000000000e-01,7.95745313318597e-03
5.01240000000000e-08,6.50000000000000e-01,6.50000000000000e-01,6.31211326296308e-03
5.01560000000000e-08,6.50000000000000e-01,6.50000000000000e-01,3.96872566669015e-03
5.02200000000000e-08,6.50000000000000e-01,6.50000000000000e-01,1.46950102503492e-03
5.03480000000000e-08,6.50000000000000e-01,6.50000000000000e-01,6.79131261345362e-05
5.06040000000000e-08,6.50000000000000e-01,6.50000000000000e-01,-2.11143873017905e-05
5.11080707747696e-08,6.50000000000000e-01,6.50000000000000e-01,9.83588964075140e-06
5.21162123243087e-08,6.50000000000000e-01,6.50000000000000e-01,-9.97341467981819e-06
5.41324954233869e-08,6.50000000000000e-01,6.50000000000000e-01,8.15080535403970e-06
5.51000000000000e-08,6.50000000000000e-01,6.50000000000000e-01,-7.60135990706626e-06
5.51100000000000e-08,5.85000000000023e-01,6.50000000000000e-01,-7.36256891059398e-05
5.51300000000000e-08,4.55000000000005e-01,6.50000000000000e-01,-1.80971260581163e-04
5.51700000000000e-08,1.95000000000011e-01,6.50000000000000e-01,-2.33076133557726e-04
5.52000000000000e-08,0.00000000000000e+00,6.50000000000000e-01,-1.74658134461034e-05
5.52080000000000e-08,0.00000000000000e+00,6.50000000000000e-01,1.31031352736594e-04
5.52240000000000e-08,0.00000000000000e+00,6.50000000000000e-01,3.33917413600386e-04
5.52560000000000e-08,0.00000000000000e+00,6.50000000000000e-01,4.05807513991711e-04
5.53200000000000e-08,0.00000000000000e+00,6.50000000000000e-01,-1.86979026522913e-05
5.54480000000000e-08,0.00000000000000e+00,6.50000000000000e-01,-1.57048479637279e-03
5.57040000000000e-08,0.00000000000000e+00,6.50000000000000e-01,-4.02796584323808e-04
5.61010053924911e-08,0.00000000000000e+00,6.50000000000000e-01,1.22681146921273e-04
5.68234049916141e-08,0.00000000000000e+00,6.50000000000000e-01,-1.21154517789950e-04
5.77773212262506e-08,0.00000000000000e+00,6.50000000000000e-01,2.86484106245301e-04
5.94281559838571e-08,0.00000000000000e+00,6.50000000000000e-01,-3.39828114076150e-04
6.18082857630045e-08,0.00000000000000e+00,6.50000000000000e-01,3.58724174663168e-04
6.50000000000000e-08,0.00000000000000e+00,6.50000000000000e-01,-3.71299840063615e-04
6.50100000000000e-08,6.49999999999877e-02,6.50000000000000e-01,-1.43839023024978e-04
6.50300000000000e-08,1.94999999999963e-01,6.50000000000000e-01,1.92949617080593e-04
6.50700000000000e-08,4.54999999999914e-01,6.50000000000000e-01,4.87581354634808e-04
6.51000000000000e-08,6.49999999999963e-01,6.50000000000000e-01,4.47710151978600e-04
6.51080000000000e-08,6.50000000000000e-01,6.50000000000000e-01,3.36616534336379e-04
6.51240000000000e-08,6.50000000000000e-01,6.50000000000000e-01,5.75563177699495e-06
6.51560000000000e-08,6.50000000000000e-01,6.50000000000000e-01,-1.20035547835818e-03
6.52200000000000e-08,6.50000000000000e-01,6.50000000000000e-01,-4.09563898567152e-03
6.53480000000000e-08,6.50000000000000e-01,6.50000000000000e-01,-3.84545086166477e-03
6.56040000000000e-08,6.50000000000000e-01,6.50000000000000e-01,2.52931424269416e-01
6.61159999999999e-08,6.50000000000000e-01,6.50000000000000e-01,6.55836797417861e-01
6.68946434898401e-08,6.50000000000000e-01,6.50000000000000e-01,6.45150038469074e-01
6.80772968987448e-08,6.50000000000000e-01,6.50000000000000e-01,6.55360538941583e-01
6.97383248566387e-08,6.50000000000000e-01,6.50000000000000e-01,6.45078258525725e-01
7.01000000000000e-08,6.50000000000000e-01,6.50000000000000e-01,6.54301845391384e-01
7.01100000000000e-08,6.50000000000000e-01,5.85000000000012e-01,6.52878571696320e-01
7.01300000000000e-08,6.50000000000000e-01,4.55000000000037e-01,6.50982017329873e-01
7.01700000000000e-08,6.50000000000000e-01,1.95000000000086e-01,6.49993918275956e-01
7.02000000000000e-08,6.50000000000000e-01,3.71924713249427e-14,6.49977290691086e-01
7.02080000000000e-08,6.50000000000000e-01,0.00000000000000e+00,6.49965753978529e-01
7.02240000000000e-08,6.50000000000000e-01,0.00000000000000e+00,6.49946909183977e-01
7.02560000000000e-08,6.50000000000000e-01,0.00000000000000e+00,6.49961614281186e-01
7.03200000000000e-08,6.50000000000000e-01,0.00000000000000e+00,6.49963364163696e-01
7.04480000000000e-08,6.50000000000000e-01,0.00000000000000e+00,6.49965162367732e-01
7.07040000000000e-08,6.50000000000000e-01,0.00000000000000e+00,6.50005000985633e-01
7.10851712279268e-08,6.50000000000000e-01,0.00000000000000e+00,6.49967278218679e-01
7.18191931894949e-08,6.50000000000000e-01,0.00000000000000e+00,6.49991423259021e-01
7.26970818603957e-08,6.50000000000000e-01,0.00000000000000e+00,6.49978796767440e-01
7.44528592021973e-08,6.50000000000000e-01,0.00000000000000e+00,6.49988150529266e-01
7.51000000000000e-08,6.50000000000000e-01,0.00000000000000e+00,6.49984813823698e-01
7.51100000000000e-08,5.85000000000066e-01,0.00000000000000e+00,6.49915188901683e-01
7.51300000000000e-08,4.55000000000091e-01,0.00000000000000e+00,6.49816911534646e-01
7.51700000000000e-08,1.95000000000140e-01,0.00000000000000e+00,6.50278194440654e-01
7.52000000000000e-08,9.09272657168003e-14,0.00000000000000e+00,6.51789638474579e-01
7.52080000000000e-08,0.00000000000000e+00,0.00000000000000e+00,6.52251837845999e-01
7.52240000000000e-08,0.00000000000000e+00,0.00000000000000e+00,6.52891865973476e-01
7.52560000000000e-08,0.00000000000000e+00,0.00000000000000e+00,6.53029557329740e-01
7.53200000000000e-08,0.00000000000000e+00,0.00000000000000e+00,6.47702835890215e-01
7.54480000000000e-08,0.00000000000000e+00,0.00000000000000e+00,6.26883729311552e-01
7.57040000000000e-08,0.00000000000000e+00,0.00000000000000e+00,6.35199961085791e-01
7.61325523725694e-08,0.00000000000000e+00,0.00000000000000e+00,6.55579334280218e-01
7.67447337254171e-08,0.00000000000000e+00,0.00000000000000e+00,6.44585942779373e-01
7.77728285872335e-08,0.00000000000000e+00,0.00000000000000e+00,6.53742897772271e-01
7.81000000000000e-08,0.00000000000000e+00,0.00000000000000e+00,6.47430825179574e-01
7.82567506213101e-08,0.00000000000000e+00,0.00000000000000e+00,6.49227417111005e-01
7.85702518639302e-08,0.00000000000000e+00,0.00000000000000e+00,6.50072234340919e-01
7.91972543491705e-08,0.00000000000000e+00,0.00000000000000e+00,6.49597948156027e-01
8.04512593196511e-08,0.00000000000000e+00,0.00000000000000e+00,6.50042943795567e-01
8.29592692606123e-08,0.00000000000000e+00,0.00000000000000e+00,6.49730022279357e-01
8.50000000000000e-08,0.00000000000000e+00,0.00000000000000e+00,6.50075801869583e-01
8.50100000000000e-08,6.49999999999877e-02,0.00000000000000e+00,6.50117303947458e-01
8.50300000000000e-08,1.94999999999963e-01,0.00000000000000e+00,6.50158161792395e-01
8.50700000000000e-08,4.54999999999914e-01,0.00000000000000e+00,6.50097631146022e-01
8.51000000000000e-08,6.49999999999963e-01,0.00000000000000e+00,6.49933177078290e-01
8.51080000000000e-08,6.50000000000000e-01,0.00000000000000e+00,6.49856406934708e-01
8.51240000000000e-08,6.50000000000000e-01,0.00000000000000e+00,6.49743469933748e-01
8.51560000000000e-08,6.50000000000000e-01,0.00000000000000e+00,6.49667193087196e-01
8.52200000000000e-08,6.50000000000000e-01,0.00000000000000e+00,6.49670929291574e-01
8.53480000000000e-08,6.50000000000000e-01,0.00000000000000e+00,6.50244262673256e-01
8.56040000000000e-08,6.50000000000000e-01,0.00000000000000e+00,6.61939662637795e-01
8.61159999999999e-08,6.50000000000000e-01,0.00000000000000e+00,1.89432524632357e-01
8.67976861031826e-08,6.50000000000000e-01,0.00000000000000e+00,-7.43594663747559e-02
8.76667842227751e-08,6.50000000000000e-01,0.00000000000000e+00,6.41076513196329e-02
8.91357585805116e-08,6.50000000000000e-01,0.00000000000000e+00,-4.49980843163145e-02
9.00000000000000e-08,6.50000000000000e-01,0.00000000000000e+00,3.60218533125571e-02
9.00100000000000e-08,6.50000000000000e-01,6.49999999999877e-02,3.18244800422332e-02
9.00300000000000e-08,6.50000000000000e-01,1.94999999999963e-01,2.43012776091965e-02
9.00700000000000e-08,6.50000000000000e-01,4.54999999999914e-01,1.36510021491200e-02
9.01000000000000e-08,6.50000000000000e-01,6.49999999999963e-01,8.86862412072766e-03
9.01080000000000e-08,6.50000000000000e-01,6.50000000000000e-01,7.95790415619293e-03
9.01240000000000e-08,6.50000000000000e-01,6.50000000000000e-01,6.31247150448790e-03
9.01560000000000e-08,6.50000000000000e-01,6.50000000000000e-01,3.96895105679440e-03
9.02200000000000e-08,6.50000000000000e-01,6.50000000000000e-01,1.46958380686051e-03
9.03480000000000e-08,6.50000000000000e-01,6.50000000000000e-01,6.79160252530786e-05
9.06040000000000e-08,6.50000000000000e-01,6.50000000000000e-01,-2.11146822809739e-05
9.11082068197245e-08,6.50000000000000e-01,6.50000000000000e-01,9.83788185075947e-06
9.21166204591737e-08,6.50000000000000e-01,6.50000000000000e-01,-9.97548677620762e-06
9.41334477380719e-08,6.50000000000000e-01,6.50000000000000e-01,8.15290950985283e-06
9.51000000000000e-08,6.50000000000000e-01,6.50000000000000e-01,-7.60154797444998e-06
9.51100000000000e-08,5.85000000000066e-01,6.50000000000000e-01,-7.36261254804665e-05
9.51300000000000e-08,4.55000000000091e-01,6.50000000000000e-01,-1.80971711035427e-04
9.51700000000000e-08,1.95000000000140e-01,6.50000000000000e-01,-2.33077169984858e-04
9.52000000000000e-08,9.09272657168003e-14,6.50000000000000e-01,-1.74676613197700e-05
9.52080000000000e-08,0.00000000000000e+00,6.50000000000000e-01,1.31029749389271e-04
9.52240000000000e-08,0.00000000000000e+00,6.50000000000000e-01,3.33916609825749e-04
9.52560000000000e-08,0.00000000000000e+00,6.50000000000000e-01,4.05809054951495e-04
9.53200000000000e-08,0.00000000000000e+00,6.50000000000000e-01,-1.86929900899135e-05
9.54480000000000e-08,0.00000000000000e+00,6.50000000000000e-01,-1.57046355289420e-03
9.57040000000000e-08,0.00000000000000e+00,6.50000000000000e-01,-4.02789213801245e-04
9.61010077775510e-08,0.00000000000000e+00,6.50000000000000e-01,1.22678068913099e-04
9.68234059678345e-08,0.00000000000000e+00,6.50000000000000e-01,-1.21151643948275e-04
9.77773270742006e-08,0.00000000000000e+00,6.50000000000000e-01,2.86480398220094e-04
9.94281632504436e-08,0.00000000000000e+00,6.50000000000000e-01,-3.39824576443360e-04
1.01808300058941e-07,0.00000000000000e+00,6.50000000000000e-01,3.58720815942238e-04
1.05000000000000e-07,0.00000000000000e+00,6.50000000000000e-01,-3.71296645613691e-04
1.05010000000000e-07,6.49999999999877e-02,6.50000000000000e-01,-1.43836600285843e-04
1.05030000000000e-07,1.94999999999963e-01,6.50000000000000e-01,1.92951144854854e-04
1.05070000000000e-07,4.54999999999914e-01,6.50000000000000e-01,4.87582263916923e-04
1.05100000000000e-07,6.49999999999963e-01,6.50000000000000e-01,4.47710283665442e-04
1.05108000000000e-07,6.50000000000000e-01,6.50000000000000e-01,3.36615842562824e-04
1.05124000000000e-07,6.50000000000000e-01,6.50000000000000e-01,5.75210732500081e-06
1.05156000000000e-07,6.50000000000000e-01,6.50000000000000e-01,-1.20036330232461e-03
1.05220000000000e-07,6.50000000000000e-01,6.50000000000000e-01,-4.09564608881337e-03
1.05348000000000e-07,6.50000000000000e-01,6.50000000000000e-01,-3.84543003971775e-03
1.05604000000000e-07,6.50000000000000e-01,6.50000000000000e-01,2.52931671045054e-01
1.06116000000000e-07,6.50000000000000e-01,6.50000000000000e-01,6.55836856137584e-01
1.06894643080882e-07,6.50000000000000e-01,6.50000000000000e-01,6.45150004834189e-01
1.08077296645748e-07,6.50000000000000e-01,6.50000000000000e-01,6.55360572509640e-01
1.09738324156290e-07,6.50000000000000e-01,6.50000000000000e-01,6.45078228507300e-01
1.10100000000000e-07,6.50000000000000e-01,6.50000000000000e-01,6.54301870524617e-01
1.10110000000000e-07,6.50000000000000e-01,5.85000000000098e-01,6.52878588938463e-01
