Time,v(clk),v(data),v(out)
1.00000000000000e-08,6.50000000000000e-01,0.00000000000000e+00,2.49695328494834e-05
1.00100000000000e-08,6.50000000000000e-01,6.49999999999984e-02,1.95044060156899e-05
1.00300000000000e-08,6.50000000000000e-01,1.94999999999995e-01,1.11227759825236e-05
1.00700000000000e-08,6.50000000000000e-01,4.54999999999989e-01,3.36760157809007e-06
1.01000000000000e-08,6.50000000000000e-01,6.49999999999995e-01,1.32732193670881e-06
1.01080000000000e-08,6.50000000000000e-01,6.50000000000000e-01,1.09466293026633e-06
1.01240000000000e-08,6.50000000000000e-01,6.50000000000000e-01,1.98893332099132e-06
1.01560000000000e-08,6.50000000000000e-01,6.50000000000000e-01,4.49486649614639e-06
1.02200000000000e-08,6.50000000000000e-01,6.50000000000000e-01,5.63884962462985e-06
1.03480000000000e-08,6.50000000000000e-01,6.50000000000000e-01,4.03055099587601e-07
1.06040000000000e-08,6.50000000000000e-01,6.50000000000000e-01,2.03178469752527e-06
1.11160000000000e-08,6.50000000000000e-01,6.50000000000000e-01,1.58824059687430e-06
1.21400000000000e-08,6.50000000000000e-01,6.50000000000000e-01,1.65909332805469e-06
1.41880000000000e-08,6.50000000000000e-01,6.50000000000000e-01,1.35035882115790e-06
1.51000000000000e-08,6.50000000000000e-01,6.50000000000000e-01,1.38203269651246e-06
1.51100000000000e-08,5.84999999999991e-01,6.50000000000000e-01,-5.80188352162503e-05
1.51300000000000e-08,4.54999999999994e-01,6.50000000000000e-01,-1.42371700043754e-04
1.51700000000000e-08,1.95000000000000e-01,6.50000000000000e-01,-1.12864531941821e-04
1.52000000000000e-08,0.00000000000000e+00,6.50000000000000e-01,1.37086409638804e-04
1.52080000000000e-08,0.00000000000000e+00,6.50000000000000e-01,2.61582146561856e-04
1.52240000000000e-08,0.00000000000000e+00,6.50000000000000e-01,3.98038208370748e-04
1.52560000000000e-08,0.00000000000000e+00,6.50000000000000e-01,3.25654698886589e-04
1.53200000000000e-08,0.00000000000000e+00,6.50000000000000e-01,-3.16246994454678e-05
1.54480000000000e-08,0.00000000000000e+00,6.50000000000000e-01,-2.25592202532841e-04
1.57040000000000e-08,0.00000000000000e+00,6.50000000000000e-01,-6.42477141395426e-05
1.61378423575095e-08,0.00000000000000e+00,6.50000000000000e-01,4.31608577830429e-05
1.66616362433833e-08,0.00000000000000e+00,6.50000000000000e-01,1.14726995778606e-04
1.77092240151311e-08,0.00000000000000e+00,6.50000000000000e-01,-1.50937264188477e-04
1.89019729607152e-08,0.00000000000000e+00,6.50000000000000e-01,1.69752100139355e-04
2.12571410015552e-08,0.00000000000000e+00,6.50000000000000e-01,-1.74844915297818e-04
2.47501151551900e-08,0.00000000000000e+00,6.50000000000000e-01,1.77131121227297e-04
2.50000000000000e-08,0.00000000000000e+00,6.50000000000000e-01,-1.57247734809577e-04
2.50100000000000e-08,6.49999999999877e-02,6.50000000000000e-01,-2.17522367777223e-05
2.50300000000000e-08,1.95000000000006e-01,6.50000000000000e-01,1.85649647186002e-04
2.50700000000000e-08,4.55000000000000e-01,6.50000000000000e-01,3.42032696701779e-04
2.51000000000000e-08,6.50000000000000e-01,6.50000000000000e-01,-4.22189479996039e-04
2.51080000000000e-08,6.50000000000000e-01,6.50000000000000e-01,-9.84992984119859e-04
2.51240000000000e-08,6.50000000000000e-01,6.50000000000000e-01,-2.19032982342704e-03
2.51560000000000e-08,6.50000000000000e-01,6.50000000000000e-01,-4.30515819893849e-03
2.52200000000000e-08,6.50000000000000e-01,6.50000000000000e-01,-5.27347620325093e-03
2.53480000000000e-08,6.50000000000000e-01,6.50000000000000e-01,1.38205541955852e-01
2.56040000000000e-08,6.50000000000000e-01,6.50000000000000e-01,6.04654238852892e-01
2.61160000000000e-08,6.50000000000000e-01,6.50000000000000e-01,6.64044643850114e-01
2.67116332679609e-08,6.50000000000000e-01,6.50000000000000e-01,6.35737512170170e-01
2.77315506848674e-08,6.50000000000000e-01,6.50000000000000e-01,6.61870448549741e-01
2.90737367430403e-08,6.50000000000000e-01,6.50000000000000e-01,6.37686775315562e-01
3.01000000000000e-08,6.50000000000000e-01,6.50000000000000e-01,6.60654404288082e-01
3.01100000000000e-08,6.50000000000000e-01,5.85000000000034e-01,6.56411667006252e-01
3.01300000000000e-08,6.50000000000000e-01,4.55000000000016e-01,6.51300338757013e-01
3.01700000000000e-08,6.50000000000000e-01,1.95000000000022e-01,6.49870191323808e-01
3.02000000000000e-08,6.50000000000000e-01,1.57651669496772e-14,6.50082100448286e-01
3.02080000000000e-08,6.50000000000000e-01,0.00000000000000e+00,6.50063762721312e-01
3.02240000000000e-08,6.50000000000000e-01,0.00000000000000e+00,6.50038441050227e-01
3.02560000000000e-08,6.50000000000000e-01,0.00000000000000e+00,6.50016528205160e-01
3.03200000000000e-08,6.50000000000000e-01,0.00000000000000e+00,6.49980983359075e-01
3.04480000000000e-08,6.50000000000000e-01,0.00000000000000e+00,6.50002342210973e-01
3.07013213921128e-08,6.50000000000000e-01,0.00000000000000e+00,6.49983255361964e-01
3.11358055867153e-08,6.50000000000000e-01,0.00000000000000e+00,6.49983312931791e-01
3.16655148898444e-08,6.50000000000000e-01,0.00000000000000e+00,6.49991515615339e-01
3.27249334961025e-08,6.50000000000000e-01,0.00000000000000e+00,6.49982226767656e-01
3.48437707086189e-08,6.50000000000000e-01,0.00000000000000e+00,6.49994024832878e-01
3.51000000000000e-08,6.49999999999968e-01,0.00000000000000e+00,6.49983239104636e-01
3.51100000000000e-08,5.84999999999980e-01,0.00000000000000e+00,6.49928981433541e-01
3.51300000000000e-08,4.54999999999962e-01,0.00000000000000e+00,6.49857253539312e-01
3.51700000000000e-08,1.94999999999968e-01,0.00000000000000e+00,6.50469934051346e-01
3.52000000000000e-08,0.00000000000000e+00,0.00000000000000e+00,6.52169849161944e-01
3.52080000000000e-08,0.00000000000000e+00,0.00000000000000e+00,6.52593977329003e-01
3.52240000000000e-08,0.00000000000000e+00,0.00000000000000e+00,6.53017908699134e-01
3.52560000000000e-08,0.00000000000000e+00,0.00000000000000e+00,6.51087955169541e-01
3.53200000000000e-08,0.00000000000000e+00,0.00000000000000e+00,6.35838984774451e-01
3.54480000000000e-08,0.00000000000000e+00,0.00000000000000e+00,6.27690443761797e-01
3.57017275110291e-08,0.00000000000000e+00,0.00000000000000e+00,6.51565114930392e-01
3.60155355015812e-08,0.00000000000000e+00,0.00000000000000e+00,6.47957023122830e-01
3.66431514826854e-08,0.00000000000000e+00,0.00000000000000e+00,6.51103306530237e-01
3.73078964400505e-08,0.00000000000000e+00,0.00000000000000e+00,6.48624385664553e-01
3.86373863547807e-08,0.00000000000000e+00,0.00000000000000e+00,6.50963629497510e-01
3.91000000000000e-08,0.00000000000000e+00,0.00000000000000e+00,6.49016124072381e-01
3.93658979829461e-08,0.00000000000000e+00,0.00000000000000e+00,6.49811555829227e-01
3.98976939488381e-08,0.00000000000000e+00,0.00000000000000e+00,6.49967773113151e-01
4.09612858806223e-08,0.00000000000000e+00,0.00000000000000e+00,6.49856560601999e-01
4.30884697441907e-08,0.00000000000000e+00,0.00000000000000e+00,6.49991539268135e-01
4.50000000000000e-08,0.00000000000000e+00,0.00000000000000e+00,6.49888982243945e-01
4.50100000000000e-08,6.49999999999877e-02,0.00000000000000e+00,6.49957339550938e-01
4.50300000000000e-08,1.95000000000006e-01,0.00000000000000e+00,6.50032232115804e-01
4.50700000000000e-08,4.55000000000000e-01,0.00000000000000e+00,6.49993914865833e-01
4.51000000000000e-08,6.50000000000000e-01,0.00000000000000e+00,6.49833425323182e-01
4.51080000000000e-08,6.50000000000000e-01,0.00000000000000e+00,6.49774830747672e-01
4.51240000000000e-08,6.50000000000000e-01,0.00000000000000e+00,6.49709592169958e-01
4.51560000000000e-08,6.50000000000000e-01,0.00000000000000e+00,6.49683991441671e-01
4.52200000000000e-08,6.50000000000000e-01,0.00000000000000e+00,6.49916257192582e-01
4.53480000000000e-08,6.50000000000000e-01,0.00000000000000e+00,6.55535383833574e-01
4.56040000000000e-08,6.50000000000000e-01,0.00000000000000e+00,2.90771229849529e-01
4.60458026028382e-08,6.50000000000000e-01,0.00000000000000e+00,-6.59898921876989e-02
4.64985177765042e-08,6.50000000000000e-01,0.00000000000000e+00,5.34281207394106e-02
4.74039481238363e-08,6.50000000000000e-01,0.00000000000000e+00,-3.61646645618970e-02
4.83335461551472e-08,6.50000000000000e-01,0.00000000000000e+00,3.38632342324128e-02
5.00000000000000e-08,6.50000000000000e-01,0.00000000000000e+00,-2.65717295326478e-02
5.00100000000000e-08,6.50000000000000e-01,6.49999999999877e-02,-2.24214500756082e-02
5.00300000000000e-08,6.50000000000000e-01,1.94999999999963e-01,-1.45610035455552e-02
5.00700000000000e-08,6.50000000000000e-01,4.55000000000000e-01,-5.12970825055107e-03
5.01000000000000e-08,6.50000000000000e-01,6.50000000000000e-01,-2.50888447539040e-03
5.01080000000000e-08,6.50000000000000e-01,6.50000000000000e-01,-2.08867588247606e-03
5.01240000000000e-08,6.50000000000000e-01,6.50000000000000e-01,-1.29412956276471e-03
5.01560000000000e-08,6.50000000000000e-01,6.50000000000000e-01,-5.92660896948663e-04
5.02200000000000e-08,6.50000000000000e-01,6.50000000000000e-01,-7.37451940422199e-05
5.03480000000000e-08,6.50000000000000e-01,6.50000000000000e-01,1.09122743238363e-05
5.06040000000000e-08,6.50000000000000e-01,6.50000000000000e-01,-4.17194140812926e-06
5.11160000000001e-08,6.50000000000000e-01,6.50000000000000e-01,4.33857483905613e-06
5.21400000000002e-08,6.50000000000000e-01,6.50000000000000e-01,-4.93880793462666e-06
5.41880000000003e-08,6.50000000000000e-01,6.50000000000000e-01,4.57158653973094e-06
5.51000000000000e-08,6.50000000000000e-01,6.50000000000000e-01,-3.15614010562657e-06
5.51100000000000e-08,5.85000000000023e-01,6.50000000000000e-01,-6.39929489062857e-05
5.51300000000000e-08,4.55000000000005e-01,6.50000000000000e-01,-1.47081056985576e-04
5.51700000000000e-08,1.95000000000011e-01,6.50000000000000e-01,-1.11330333425884e-04
5.52000000000000e-08,0.00000000000000e+00,6.50000000000000e-01,1.32465248974215e-04
5.52080000000000e-08,0.00000000000000e+00,6.50000000000000e-01,2.55678910731694e-04
5.52240000000000e-08,0.00000000000000e+00,6.50000000000000e-01,3.84512176758139e-04
5.52560000000000e-08,0.00000000000000e+00,6.50000000000000e-01,2.46097227911864e-04
5.53200000000000e-08,0.00000000000000e+00,6.50000000000000e-01,-6.98060097928284e-04
5.54480000000000e-08,0.00000000000000e+00,6.50000000000000e-01,-6.07714413564466e-04
5.57040000000000e-08,0.00000000000000e+00,6.50000000000000e-01,1.73091790975764e-04
5.61363844478974e-08,0.00000000000000e+00,6.50000000000000e-01,-1.38508900878739e-04
5.66605823472234e-08,0.00000000000000e+00,6.50000000000000e-01,2.58985582070950e-04
5.77089781458755e-08,0.00000000000000e+00,6.50000000000000e-01,-2.82812941181657e-04
5.89004624899336e-08,0.00000000000000e+00,6.50000000000000e-01,2.89962273475649e-04
6.12598676179853e-08,0.00000000000000e+00,6.50000000000000e-01,-2.91378385083676e-04
6.47529954197163e-08,0.00000000000000e+00,6.50000000000000e-01,2.89803653517690e-04
6.50000000000000e-08,0.00000000000000e+00,6.50000000000000e-01,-2.34214801740119e-04
6.50100000000000e-08,6.49999999999877e-02,6.50000000000000e-01,-6.60310710609083e-05
6.50300000000000e-08,1.94999999999963e-01,6.50000000000000e-01,1.71116018504627e-04
6.50700000000000e-08,4.54999999999914e-01,6.50000000000000e-01,3.34994729884561e-04
6.51000000000000e-08,6.49999999999963e-01,6.50000000000000e-01,-4.24908391938407e-04
6.51080000000000e-08,6.50000000000000e-01,6.50000000000000e-01,-9.88931939716380e-04
6.51240000000000e-08,6.50000000000000e-01,6.50000000000000e-01,-2.19489499077907e-03
6.51560000000000e-08,6.50000000000000e-01,6.50000000000000e-01,-4.30799150828816e-03
6.52200000000000e-08,6.50000000000000e-01,6.50000000000000e-01,-5.27077793746166e-03
6.53480000000000e-08,6.50000000000000e-01,6.50000000000000e-01,1.38280754374917e-01
6.56040000000000e-08,6.50000000000000e-01,6.50000000000000e-01,6.04694539648074e-01
6.61159999999999e-08,6.50000000000000e-01,6.50000000000000e-01,6.64033481221328e-01
6.67116214337630e-08,6.50000000000000e-01,6.50000000000000e-01,6.35749363292867e-01
6.77314827274191e-08,6.50000000000000e-01,6.50000000000000e-01,6.61860474774702e-01
6.90736024483292e-08,6.50000000000000e-01,6.50000000000000e-01,6.37697391505115e-01
7.01000000000000e-08,6.50000000000000e-01,6.50000000000000e-01,6.60645354499655e-01
7.01100000000000e-08,6.50000000000000e-01,5.85000000000012e-01,6.56406408087065e-01
7.01300000000000e-08,6.50000000000000e-01,4.55000000000037e-01,6.51299491540126e-01
7.01700000000000e-08,6.50000000000000e-01,1.95000000000086e-01,6.49870373826332e-01
7.02000000000000e-08,6.50000000000000e-01,3.71924713249427e-14,6.50082103651660e-01
7.02080000000000e-08,6.50000000000000e-01,0.00000000000000e+00,6.50063770376698e-01
7.02240000000000e-08,6.50000000000000e-01,0.00000000000000e+00,6.50038460185305e-01
7.02560000000000e-08,6.50000000000000e-01,0.00000000000000e+00,6.50016552476667e-01
7.03200000000000e-08,6.50000000000000e-01,0.00000000000000e+00,6.49980986692061e-01
7.04480000000000e-08,6.50000000000000e-01,0.00000000000000e+00,6.50002350135424e-01
7.07013323398956e-08,6.50000000000000e-01,0.00000000000000e+00,6.49983255128194e-01
7.11358119453744e-08,6.50000000000000e-01,0.00000000000000e+00,6.49983317547441e-01
7.16655501442295e-08,6.50000000000000e-01,0.00000000000000e+00,6.49991516109994e-01
7.27250265419397e-08,6.50000000000000e-01,0.00000000000000e+00,6.49982230630476e-01
7.48439793373602e-08,6.50000000000000e-01,0.00000000000000e+00,6.49994024841660e-01
7.51000000000000e-08,6.50000000000000e-01,0.00000000000000e+00,6.49983242193540e-01
7.51100000000000e-08,5.85000000000066e-01,0.00000000000000e+00,6.49928982672088e-01
7.51300000000000e-08,4.55000000000091e-01,0.00000000000000e+00,6.49857254850568e-01
7.51700000000000e-08,1.95000000000140e-01,0.00000000000000e+00,6.50469937386751e-01
7.52000000000000e-08,9.09272657168003e-14,0.00000000000000e+00,6.52169856489709e-01
7.52080000000000e-08,0.00000000000000e+00,0.00000000000000e+00,6.52593990814200e-01
7.52240000000000e-08,0.00000000000000e+00,0.00000000000000e+00,6.53017949592218e-01
7.52560000000000e-08,0.00000000000000e+00,0.00000000000000e+00,6.51088192774200e-01
7.53200000000000e-08,0.00000000000000e+00,0.00000000000000e+00,6.35839489615491e-01
7.54480000000000e-08,0.00000000000000e+00,0.00000000000000e+00,6.27690499987762e-01
7.57017273091992e-08,0.00000000000000e+00,0.00000000000000e+00,6.51564994178947e-01
7.60155353342311e-08,0.00000000000000e+00,0.00000000000000e+00,6.47957119443155e-01
7.66431513842949e-08,0.00000000000000e+00,0.00000000000000e+00,6.51103231572210e-01
7.73078961808989e-08,0.00000000000000e+00,0.00000000000000e+00,6.48624451868654e-01
7.81000000000000e-08,0.00000000000000e+00,0.00000000000000e+00,6.50884999163626e-01
7.82329489593208e-08,0.00000000000000e+00,0.00000000000000e+00,6.50025673442256e-01
7.84988468779625e-08,0.00000000000000e+00,0.00000000000000e+00,6.49755071560980e-01
7.90306427152457e-08,0.00000000000000e+00,0.00000000000000e+00,6.49975247699142e-01
8.00942343898122e-08,0.00000000000000e+00,0.00000000000000e+00,6.49821057230526e-01
8.22214177389451e-08,0.00000000000000e+00,0.00000000000000e+00,6.50008132664792e-01
8.50000000000000e-08,0.00000000000000e+00,0.00000000000000e+00,6.49866594394404e-01
8.50100000000000e-08,6.49999999999877e-02,0.00000000000000e+00,6.49938861806614e-01
8.50300000000000e-08,1.94999999999963e-01,0.00000000000000e+00,6.50020268863051e-01
8.50700000000000e-08,4.54999999999914e-01,0.00000000000000e+00,6.49991532839740e-01
8.51000000000000e-08,6.49999999999963e-01,0.00000000000000e+00,6.49833137381735e-01
8.51080000000000e-08,6.50000000000000e-01,0.00000000000000e+00,6.49773976674819e-01
8.51240000000000e-08,6.50000000000000e-01,0.00000000000000e+00,6.49708150001701e-01
8.51560000000000e-08,6.50000000000000e-01,0.00000000000000e+00,6.49685818294622e-01
8.52200000000000e-08,6.50000000000000e-01,0.00000000000000e+00,6.49920305372253e-01
8.53480000000000e-08,6.50000000000000e-01,0.00000000000000e+00,6.55532809340839e-01
8.56040000000000e-08,6.50000000000000e-01,0.00000000000000e+00,2.90782808630870e-01
8.60457938161478e-08,6.50000000000000e-01,0.00000000000000e+00,-6.59887514498418e-02
8.64985046305001e-08,6.50000000000000e-01,0.00000000000000e+00,5.34266225422433e-02
8.74039262592048e-08,6.50000000000000e-01,0.00000000000000e+00,-3.61636812941390e-02
8.83335018669336e-08,6.50000000000000e-01,0.00000000000000e+00,3.38619794248511e-02
9.00000000000000e-08,6.50000000000000e-01,0.00000000000000e+00,-2.65708583177249e-02
9.00100000000000e-08,6.50000000000000e-01,6.49999999999877e-02,-2.24209012129598e-02
9.00300000000000e-08,6.50000000000000e-01,1.94999999999963e-01,-1.45607685679458e-02
9.00700000000000e-08,6.50000000000000e-01,4.54999999999914e-01,-5.12957152609218e-03
9.01000000000000e-08,6.50000000000000e-01,6.49999999999963e-01,-2.50884668097682e-03
9.01080000000000e-08,6.50000000000000e-01,6.50000000000000e-01,-2.08863791241019e-03
9.01240000000000e-08,6.50000000000000e-01,6.50000000000000e-01,-1.29410974287864e-03
9.01560000000000e-08,6.50000000000000e-01,6.50000000000000e-01,-5.92651523848804e-04
9.02200000000000e-08,6.50000000000000e-01,6.50000000000000e-01,-7.37441155313559e-05
9.03480000000000e-08,6.50000000000000e-01,6.50000000000000e-01,1.09123049482143e-05
9.06040000000000e-08,6.50000000000000e-01,6.50000000000000e-01,-4.17160414092205e-06
9.11159999999999e-08,6.50000000000000e-01,6.50000000000000e-01,4.33848701287057e-06
9.21399999999999e-08,6.50000000000000e-01,6.50000000000000e-01,-4.93847213101084e-06
9.41879999999998e-08,6.50000000000000e-01,6.50000000000000e-01,4.57147590504203e-06
9.51000000000000e-08,6.50000000000000e-01,6.50000000000000e-01,-3.15582340673984e-06
9.51100000000000e-08,5.85000000000066e-01,6.50000000000000e-01,-6.39928316462368e-05
9.51300000000000e-08,4.55000000000091e-01,6.50000000000000e-01,-1.47080896119194e-04
9.51700000000000e-08,1.95000000000140e-01,6.50000000000000e-01,-1.11330144353557e-04
9.52000000000000e-08,9.09272657168003e-14,6.50000000000000e-01,1.32465674524337e-04
9.52080000000000e-08,0.00000000000000e+00,6.50000000000000e-01,2.55679746339992e-04
9.52240000000000e-08,0.00000000000000e+00,6.50000000000000e-01,3.84515048242641e-04
9.52560000000000e-08,0.00000000000000e+00,6.50000000000000e-01,2.46117790939013e-04
9.53200000000000e-08,0.00000000000000e+00,6.50000000000000e-01,-6.97873422324351e-04
9.54480000000000e-08,0.00000000000000e+00,6.50000000000000e-01,-6.07566286914354e-04
9.57040000000000e-08,0.00000000000000e+00,6.50000000000000e-01,1.73023557497468e-04
9.61363847983403e-08,0.00000000000000e+00,6.50000000000000e-01,-1.38465887380368e-04
9.66605825962446e-08,0.00000000000000e+00,6.50000000000000e-01,2.58956549591195e-04
9.77089781920532e-08,0.00000000000000e+00,6.50000000000000e-01,-2.82788569830572e-04
9.89004628813878e-08,0.00000000000000e+00,6.50000000000000e-01,2.89941685335380e-04
1.01259866966947e-07,0.00000000000000e+00,6.50000000000000e-01,-2.91359267739750e-04
1.04752994721598e-07,0.00000000000000e+00,6.50000000000000e-01,2.89785639760019e-04
1.05000000000000e-07,0.00000000000000e+00,6.50000000000000e-01,-2.34206567108809e-04
1.05010000000000e-07,6.49999999999877e-02,6.50000000000000e-01,-6.60263348584364e-05
1.05030000000000e-07,1.94999999999963e-01,6.50000000000000e-01,1.71118792419926e-04
1.05070000000000e-07,4.54999999999914e-01,6.50000000000000e-01,3.34997365889218e-04
1.05100000000000e-07,6.49999999999963e-01,6.50000000000000e-01,-4.24906929998345e-04
1.05108000000000e-07,6.50000000000000e-01,6.50000000000000e-01,-9.88930331212709e-04
1.05124000000000e-07,6.50000000000000e-01,6.50000000000000e-01,-2.19489343681005e-03
1.05156000000000e-07,6.50000000000000e-01,6.50000000000000e-01,-4.30799057201530e-03
1.05220000000000e-07,6.50000000000000e-01,6.50000000000000e-01,-5.27077852257059e-03
1.05348000000000e-07,6.50000000000000e-01,6.50000000000000e-01,1.38280736254060e-01
1.05604000000000e-07,6.50000000000000e-01,6.50000000000000e-01,6.04694529993017e-01
1.06116000000000e-07,6.50000000000000e-01,6.50000000000000e-01,6.64033483870633e-01
1.06711621436447e-07,6.50000000000000e-01,6.50000000000000e-01,6.35749360470928e-01
