Time,v(clk),v(data),v(out)
1.00000000000000e-08,8.00000000000000e-01,0.00000000000000e+00,-5.85763555340955e-06
1.00100000000000e-08,8.00000000000000e-01,7.99999999999981e-02,-3.53216754003793e-06
1.00300000000000e-08,8.00000000000000e-01,2.39999999999994e-01,-1.75078619987779e-06
1.00700000000000e-08,8.00000000000000e-01,5.59999999999987e-01,-2.98970187401215e-06
1.01000000000000e-08,8.00000000000000e-01,7.99999999999994e-01,-3.05271478222291e-06
1.01080000000000e-08,8.00000000000000e-01,8.00000000000000e-01,-1.98452149174910e-06
1.01240000000000e-08,8.00000000000000e-01,8.00000000000000e-01,1.39187712903943e-06
1.01560000000000e-08,8.00000000000000e-01,8.00000000000000e-01,5.25811633804441e-06
1.02200000000000e-08,8.00000000000000e-01,8.00000000000000e-01,4.39748387641437e-06
1.03480000000000e-08,8.00000000000000e-01,8.00000000000000e-01,-3.14073560415962e-07
1.06040000000000e-08,8.00000000000000e-01,8.00000000000000e-01,3.89752135030938e-06
1.11160000000000e-08,8.00000000000000e-01,8.00000000000000e-01,6.63822375280426e-07
1.21400000000000e-08,8.00000000000000e-01,8.00000000000000e-01,3.29434355304976e-06
1.41880000000000e-08,8.00000000000000e-01,8.00000000000000e-01,4.85969380483592e-07
1.51000000000000e-08,8.00000000000000e-01,8.00000000000000e-01,2.86220781033249e-06
1.51100000000000e-08,7.19999999999989e-01,8.00000000000000e-01,-9.43779732497096e-05
1.51300000000000e-08,5.59999999999993e-01,8.00000000000000e-01,-2.06775077112531e-04
1.51700000000000e-08,2.40000000000000e-01,8.00000000000000e-01,4.46742203265571e-05
1.52000000000000e-08,0.00000000000000e+00,8.00000000000000e-01,5.15525101757397e-04
1.52080000000000e-08,0.00000000000000e+00,8.00000000000000e-01,6.40989754695065e-04
1.52240000000000e-08,0.00000000000000e+00,8.00000000000000e-01,6.57225064156330e-04
1.52560000000000e-08,0.00000000000000e+00,8.00000000000000e-01,5.79795430267760e-05
1.53200000000000e-08,0.00000000000000e+00,8.00000000000000e-01,-5.54826698625568e-04
1.54480000000000e-08,0.00000000000000e+00,8.00000000000000e-01,2.94411870444058e-05
1.56485427786085e-08,0.00000000000000e+00,8.00000000000000e-01,-1.71074157734891e-04
1.59282581787039e-08,0.00000000000000e+00,8.00000000000000e-01,3.25560816334301e-04
1.64267060696133e-08,0.00000000000000e+00,8.00000000000000e-01,-2.93109659949902e-04
1.69358475661871e-08,0.00000000000000e+00,8.00000000000000e-01,2.58357573532517e-04
1.79541305593348e-08,0.00000000000000e+00,8.00000000000000e-01,-2.36977078734340e-04
1.97603545672305e-08,0.00000000000000e+00,8.00000000000000e-01,2.27423329376077e-04
2.25502987403442e-08,0.00000000000000e+00,8.00000000000000e-01,-2.18967773980886e-04
2.50000000000000e-08,0.00000000000000e+00,8.00000000000000e-01,2.12342458000780e-04
2.50100000000000e-08,7.99999999999848e-02,8.00000000000000e-01,3.52433313398334e-04
2.50300000000000e-08,2.40000000000007e-01,8.00000000000000e-01,4.88343828039806e-04
2.50700000000000e-08,5.60000000000000e-01,8.00000000000000e-01,2.97939100056405e-04
2.51000000000000e-08,8.00000000000000e-01,8.00000000000000e-01,-1.97673266550193e-03
2.51080000000000e-08,8.00000000000000e-01,8.00000000000000e-01,-3.11567754360471e-03
2.51240000000000e-08,8.00000000000000e-01,8.00000000000000e-01,-5.13900469647666e-03
2.51560000000000e-08,8.00000000000000e-01,8.00000000000000e-01,-7.12653285398387e-03
2.52200000000000e-08,8.00000000000000e-01,8.00000000000000e-01,4.04275956268532e-02
2.53480000000000e-08,8.00000000000000e-01,8.00000000000000e-01,5.82363473770099e-01
2.56040000000000e-08,8.00000000000000e-01,8.00000000000000e-01,8.31191542315670e-01
2.58575119304413e-08,8.00000000000000e-01,8.00000000000000e-01,7.73007714939007e-01
2.63645357913240e-08,8.00000000000000e-01,8.00000000000000e-01,8.24798504661182e-01
2.70192087842210e-08,8.00000000000000e-01,8.00000000000000e-01,7.75698467805555e-01
2.82031237572076e-08,8.00000000000000e-01,8.00000000000000e-01,8.22915685239774e-01
3.01000000000000e-08,8.00000000000000e-01,8.00000000000000e-01,7.76750349342672e-01
3.01100000000000e-08,8.00000000000000e-01,7.20000000000042e-01,7.89237038651611e-01
3.01300000000000e-08,8.00000000000000e-01,5.60000000000019e-01,8.00819207204839e-01
3.01700000000000e-08,8.00000000000000e-01,2.40000000000027e-01,7.99687809484553e-01
3.02000000000000e-08,8.00000000000000e-01,1.94289029309402e-14,8.00116269756931e-01
3.02080000000000e-08,8.00000000000000e-01,0.00000000000000e+00,8.00053988515827e-01
3.02240000000000e-08,8.00000000000000e-01,0.00000000000000e+00,7.99985476224822e-01
3.02560000000000e-08,8.00000000000000e-01,0.00000000000000e+00,7.99969052741580e-01
3.03200000000000e-08,8.00000000000000e-01,0.00000000000000e+00,7.99988509553497e-01
3.04435006763744e-08,8.00000000000000e-01,0.00000000000000e+00,7.99999284768962e-01
3.06450357255661e-08,8.00000000000000e-01,0.00000000000000e+00,7.99965825286930e-01
3.09109173029664e-08,8.00000000000000e-01,0.00000000000000e+00,7.99999490775804e-01
3.14426804577670e-08,8.00000000000000e-01,0.00000000000000e+00,7.99970644238098e-01
3.25062067673683e-08,8.00000000000000e-01,0.00000000000000e+00,8.00001629502411e-01
3.46332593865708e-08,8.00000000000000e-01,0.00000000000000e+00,7.99975447399872e-01
3.51000000000000e-08,7.99999999999960e-01,0.00000000000000e+00,8.00003523308731e-01
3.51100000000000e-08,7.19999999999976e-01,0.00000000000000e+00,7.99909782833602e-01
3.51300000000000e-08,5.59999999999953e-01,0.00000000000000e+00,7.99853162137959e-01
3.51700000000000e-08,2.39999999999961e-01,0.00000000000000e+00,8.01489538226958e-01
3.52000000000000e-08,0.00000000000000e+00,0.00000000000000e+00,8.03675753042274e-01
3.52080000000000e-08,0.00000000000000e+00,0.00000000000000e+00,8.02842749968924e-01
3.52240000000000e-08,0.00000000000000e+00,0.00000000000000e+00,7.97943640640977e-01
3.52560000000000e-08,0.00000000000000e+00,0.00000000000000e+00,7.81416855472445e-01
3.53200000000000e-08,0.00000000000000e+00,0.00000000000000e+00,7.78089592235280e-01
3.54480000000000e-08,0.00000000000000e+00,0.00000000000000e+00,8.01298450597398e-01
3.56198390981845e-08,0.00000000000000e+00,0.00000000000000e+00,7.98019269196856e-01
3.59321801325301e-08,0.00000000000000e+00,0.00000000000000e+00,8.00961779001020e-01
3.63120780381677e-08,0.00000000000000e+00,0.00000000000000e+00,7.98742829211810e-01
3.70718738494429e-08,0.00000000000000e+00,0.00000000000000e+00,8.00872807445538e-01
3.85914654719934e-08,0.00000000000000e+00,0.00000000000000e+00,7.98980659910002e-01
3.91000000000000e-08,0.00000000000000e+00,0.00000000000000e+00,8.00787508710360e-01
3.94039183245101e-08,0.00000000000000e+00,0.00000000000000e+00,7.99980472038805e-01
4.00117549735303e-08,0.00000000000000e+00,0.00000000000000e+00,7.99914265297578e-01
4.12274282715706e-08,0.00000000000000e+00,0.00000000000000e+00,7.99988268022725e-01
4.36587748676512e-08,0.00000000000000e+00,0.00000000000000e+00,7.99932380423416e-01
4.50000000000000e-08,0.00000000000000e+00,0.00000000000000e+00,7.99996877519693e-01
4.50100000000000e-08,7.99999999999848e-02,0.00000000000000e+00,8.00071958692959e-01
4.50300000000000e-08,2.40000000000007e-01,0.00000000000000e+00,8.00093012809005e-01
4.50700000000000e-08,5.60000000000000e-01,0.00000000000000e+00,7.99955862452328e-01
4.51000000000000e-08,8.00000000000000e-01,0.00000000000000e+00,7.99748782571013e-01
4.51080000000000e-08,8.00000000000000e-01,0.00000000000000e+00,7.99672275605093e-01
4.51240000000000e-08,8.00000000000000e-01,0.00000000000000e+00,7.99631680330131e-01
4.51560000000000e-08,8.00000000000000e-01,0.00000000000000e+00,7.99792086167811e-01
4.52200000000000e-08,8.00000000000000e-01,0.00000000000000e+00,8.02962259860321e-01
4.53480000000000e-08,8.00000000000000e-01,0.00000000000000e+00,6.95843977816108e-01
4.56040000000000e-08,8.00000000000000e-01,0.00000000000000e+00,6.23313314072254e-02
4.58468937256847e-08,8.00000000000000e-01,0.00000000000000e+00,-3.37874761793355e-02
4.63326811770540e-08,8.00000000000000e-01,0.00000000000000e+00,2.75638997878680e-02
4.69474191875572e-08,8.00000000000000e-01,0.00000000000000e+00,-2.21651632663622e-02
4.81768952085637e-08,8.00000000000000e-01,0.00000000000000e+00,2.09474950973347e-02
5.00000000000000e-08,8.00000000000000e-01,0.00000000000000e+00,-1.91536817127377e-02
5.00100000000000e-08,8.00000000000000e-01,7.99999999999848e-02,-1.24053888872500e-02
5.00300000000000e-08,8.00000000000000e-01,2.39999999999954e-01,-5.07943925571669e-03
5.00700000000000e-08,8.00000000000000e-01,5.60000000000000e-01,-1.71559227771932e-03
5.01000000000000e-08,8.00000000000000e-01,8.00000000000000e-01,-4.52195556460130e-04
5.01080000000000e-08,8.00000000000000e-01,8.00000000000000e-01,-4.29141990945639e-04
5.01240000000000e-08,8.00000000000000e-01,8.00000000000000e-01,-2.97869818537397e-04
5.01560000000000e-08,8.00000000000000e-01,8.00000000000000e-01,-9.12838404672212e-05
5.02200000000000e-08,8.00000000000000e-01,8.00000000000000e-01,-3.57092928155583e-05
5.03480000000000e-08,8.00000000000000e-01,8.00000000000000e-01,1.33118528590631e-05
5.06040000000000e-08,8.00000000000000e-01,8.00000000000000e-01,-1.04240482845241e-05
5.11160000000001e-08,8.00000000000000e-01,8.00000000000000e-01,9.66797551117324e-06
5.21400000000002e-08,8.00000000000000e-01,8.00000000000000e-01,-1.24707094183571e-05
5.41880000000003e-08,8.00000000000000e-01,8.00000000000000e-01,7.94131572708990e-06
5.51000000000000e-08,8.00000000000000e-01,8.00000000000000e-01,-1.58349513033401e-05
5.51100000000000e-08,7.20000000000028e-01,8.00000000000000e-01,-1.76543061239987e-04
5.51300000000000e-08,5.60000000000006e-01,8.00000000000000e-01,-2.37777829708644e-04
5.51700000000000e-08,2.40000000000014e-01,8.00000000000000e-01,4.24463298560607e-05
5.52000000000000e-08,0.00000000000000e+00,8.00000000000000e-01,4.25932104451618e-04
5.52080000000000e-08,0.00000000000000e+00,8.00000000000000e-01,4.46074410579173e-04
5.52240000000000e-08,0.00000000000000e+00,8.00000000000000e-01,9.80981571566536e-05
5.52560000000000e-08,0.00000000000000e+00,8.00000000000000e-01,-1.66770963411211e-03
5.53200000000000e-08,0.00000000000000e+00,8.00000000000000e-01,-1.98532465175755e-03
5.54480000000000e-08,0.00000000000000e+00,8.00000000000000e-01,3.40653075651773e-04
5.56474605922134e-08,0.00000000000000e+00,8.00000000000000e-01,-2.90735250169812e-04
5.59277967974051e-08,0.00000000000000e+00,8.00000000000000e-01,3.84309972628959e-04
5.64254575179728e-08,0.00000000000000e+00,8.00000000000000e-01,-3.33445323364927e-04
5.69341883439110e-08,0.00000000000000e+00,8.00000000000000e-01,2.86906868532765e-04
5.79516499957876e-08,0.00000000000000e+00,8.00000000000000e-01,-2.61573209194526e-04
5.97645260954686e-08,0.00000000000000e+00,8.00000000000000e-01,2.50228575686560e-04
6.25640163150064e-08,0.00000000000000e+00,8.00000000000000e-01,-2.40683832225900e-04
6.50000000000000e-08,0.00000000000000e+00,8.00000000000000e-01,2.32938940120584e-04
6.50100000000000e-08,7.99999999999848e-02,8.00000000000000e-01,3.55131797116659e-04
6.50300000000000e-08,2.39999999999954e-01,8.00000000000000e-01,4.90110551663134e-04
6.50700000000000e-08,5.59999999999894e-01,8.00000000000000e-01,3.09382898220939e-04
6.51000000000000e-08,7.99999999999954e-01,8.00000000000000e-01,-1.97519993068787e-03
6.51080000000000e-08,8.00000000000000e-01,8.00000000000000e-01,-3.11290702323079e-03
6.51240000000000e-08,8.00000000000000e-01,8.00000000000000e-01,-5.13629790472708e-03
6.51560000000000e-08,8.00000000000000e-01,8.00000000000000e-01,-7.12607192957801e-03
6.52200000000000e-08,8.00000000000000e-01,8.00000000000000e-01,4.04176972175696e-02
6.53480000000000e-08,8.00000000000000e-01,8.00000000000000e-01,5.82340838852255e-01
6.56040000000000e-08,8.00000000000000e-01,8.00000000000000e-01,8.31191512332724e-01
6.58575136130657e-08,8.00000000000000e-01,8.00000000000000e-01,7.73007996723289e-01
6.63645408391971e-08,8.00000000000000e-01,8.00000000000000e-01,8.24798462387963e-01
6.70192014501970e-08,8.00000000000000e-01,8.00000000000000e-01,7.75698636439298e-01
6.82030363042807e-08,8.00000000000000e-01,8.00000000000000e-01,8.22915591642772e-01
7.01000000000000e-08,8.00000000000000e-01,8.00000000000000e-01,7.76750510683739e-01
7.01100000000000e-08,8.00000000000000e-01,7.20000000000015e-01,7.89237187598211e-01
7.01300000000000e-08,8.00000000000000e-01,5.60000000000046e-01,8.00819259012744e-01
7.01700000000000e-08,8.00000000000000e-01,2.40000000000106e-01,7.99687788673039e-01
7.02000000000000e-08,8.00000000000000e-01,4.57411886145564e-14,8.00116282071404e-01
7.02080000000000e-08,8.00000000000000e-01,0.00000000000000e+00,8.00053997194938e-01
7.02240000000000e-08,8.00000000000000e-01,0.00000000000000e+00,7.99985479336311e-01
7.02560000000000e-08,8.00000000000000e-01,0.00000000000000e+00,7.99969054821569e-01
7.03200000000000e-08,8.00000000000000e-01,0.00000000000000e+00,7.99988508260382e-01
7.04435003305246e-08,8.00000000000000e-01,0.00000000000000e+00,7.99999285626513e-01
7.06450355716720e-08,8.00000000000000e-01,0.00000000000000e+00,7.99965825243613e-01
7.09109153839372e-08,8.00000000000000e-01,0.00000000000000e+00,7.99999490975225e-01
7.14426750084677e-08,8.00000000000000e-01,0.00000000000000e+00,7.99970644126215e-01
7.25061942575286e-08,8.00000000000000e-01,0.00000000000000e+00,8.00001629699189e-01
7.46332327556504e-08,8.00000000000000e-01,0.00000000000000e+00,7.99975447271767e-01
7.51000000000000e-08,8.00000000000000e-01,0.00000000000000e+00,8.00003523429446e-01
7.51100000000000e-08,7.20000000000081e-01,0.00000000000000e+00,7.99909783253915e-01
7.51300000000000e-08,5.60000000000112e-01,0.00000000000000e+00,7.99853162495961e-01
7.51700000000000e-08,2.40000000000172e-01,0.00000000000000e+00,8.01489538361420e-01
7.52000000000000e-08,1.11910480882216e-13,0.00000000000000e+00,8.03675755506238e-01
7.52080000000000e-08,0.00000000000000e+00,0.00000000000000e+00,8.02842754550365e-01
7.52240000000000e-08,0.00000000000000e+00,0.00000000000000e+00,7.97943648492581e-01
7.52560000000000e-08,0.00000000000000e+00,0.00000000000000e+00,7.81416863427285e-01
7.53200000000000e-08,0.00000000000000e+00,0.00000000000000e+00,7.78089590994136e-01
7.54480000000000e-08,0.00000000000000e+00,0.00000000000000e+00,8.01298450436711e-01
7.56198390995206e-08,0.00000000000000e+00,0.00000000000000e+00,7.98019269362744e-01
7.59321801318325e-08,0.00000000000000e+00,0.00000000000000e+00,8.00961778899985e-01
7.63120780387640e-08,0.00000000000000e+00,0.00000000000000e+00,7.98742829304369e-01
7.70718738526271e-08,0.00000000000000e+00,0.00000000000000e+00,8.00872807367435e-01
7.81000000000000e-08,0.00000000000000e+00,0.00000000000000e+00,7.98987321760335e-01
7.82519591627726e-08,0.00000000000000e+00,0.00000000000000e+00,7.99841587594236e-01
7.85558774883179e-08,0.00000000000000e+00,0.00000000000000e+00,7.99999499195566e-01
7.91637141394083e-08,0.00000000000000e+00,0.00000000000000e+00,7.99877460071438e-01
8.03793874415893e-08,0.00000000000000e+00,0.00000000000000e+00,8.00009733153762e-01
8.28107340459512e-08,0.00000000000000e+00,0.00000000000000e+00,7.99904138685664e-01
8.50000000000000e-08,0.00000000000000e+00,0.00000000000000e+00,8.00022563737318e-01
8.50100000000000e-08,7.99999999999848e-02,0.00000000000000e+00,8.00082021334362e-01
8.50300000000000e-08,2.39999999999954e-01,0.00000000000000e+00,8.00087493062846e-01
8.50700000000000e-08,5.59999999999894e-01,0.00000000000000e+00,7.99954781155718e-01
8.51000000000000e-08,7.99999999999954e-01,0.00000000000000e+00,7.99748768196423e-01
8.51080000000000e-08,8.00000000000000e-01,0.00000000000000e+00,7.99674087663945e-01
8.51240000000000e-08,8.00000000000000e-01,0.00000000000000e+00,7.99636851159906e-01
8.51560000000000e-08,8.00000000000000e-01,0.00000000000000e+00,7.99794513359431e-01
8.52200000000000e-08,8.00000000000000e-01,0.00000000000000e+00,8.02963094624685e-01
8.53480000000000e-08,8.00000000000000e-01,0.00000000000000e+00,6.95848962538733e-01
8.56040000000000e-08,8.00000000000000e-01,0.00000000000000e+00,6.23386135557200e-02
8.58468995881336e-08,8.00000000000000e-01,0.00000000000000e+00,-3.37910953380271e-02
8.63326987644010e-08,8.00000000000000e-01,0.00000000000000e+00,2.75666940499688e-02
8.69474290613840e-08,8.00000000000000e-01,0.00000000000000e+00,-2.21672455502280e-02
8.81768896553501e-08,8.00000000000000e-01,0.00000000000000e+00,2.09492619803786e-02
9.00000000000000e-08,8.00000000000000e-01,0.00000000000000e+00,-1.91553255883203e-02
9.00100000000000e-08,8.00000000000000e-01,7.99999999999848e-02,-1.24068682092049e-02
9.00300000000000e-08,8.00000000000000e-01,2.39999999999954e-01,-5.08037173179908e-03
9.00700000000000e-08,8.00000000000000e-01,5.59999999999894e-01,-1.71578421185464e-03
9.01000000000000e-08,8.00000000000000e-01,7.99999999999954e-01,-4.52306358521004e-04
9.01080000000000e-08,8.00000000000000e-01,8.00000000000000e-01,-4.29224772001066e-04
9.01240000000000e-08,8.00000000000000e-01,8.00000000000000e-01,-2.97915293767492e-04
9.01560000000000e-08,8.00000000000000e-01,8.00000000000000e-01,-9.13035370514459e-05
9.02200000000000e-08,8.00000000000000e-01,8.00000000000000e-01,-3.57058402792113e-05
9.03480000000000e-08,8.00000000000000e-01,8.00000000000000e-01,1.33104070562245e-05
9.06040000000000e-08,8.00000000000000e-01,8.00000000000000e-01,-1.04229246690977e-05
9.11159999999999e-08,8.00000000000000e-01,8.00000000000000e-01,9.66675758412756e-06
9.21399999999999e-08,8.00000000000000e-01,8.00000000000000e-01,-1.24693247184754e-05
9.41879999999998e-08,8.00000000000000e-01,8.00000000000000e-01,7.94027858710749e-06
9.51000000000000e-08,8.00000000000000e-01,8.00000000000000e-01,-1.58332271989513e-05
9.51100000000000e-08,7.20000000000081e-01,8.00000000000000e-01,-1.76534466162115e-04
9.51300000000000e-08,5.60000000000112e-01,8.00000000000000e-01,-2.37775196099757e-04
9.51700000000000e-08,2.40000000000172e-01,8.00000000000000e-01,4.24465607745256e-05
9.52000000000000e-08,1.11910480882216e-13,8.00000000000000e-01,4.25930360763160e-04
9.52080000000000e-08,0.00000000000000e+00,8.00000000000000e-01,4.46071631180628e-04
9.52240000000000e-08,0.00000000000000e+00,8.00000000000000e-01,9.80930261336860e-05
9.52560000000000e-08,0.00000000000000e+00,8.00000000000000e-01,-1.66772065877584e-03
9.53200000000000e-08,0.00000000000000e+00,8.00000000000000e-01,-1.98534062076481e-03
9.54480000000000e-08,0.00000000000000e+00,8.00000000000000e-01,3.40652573969119e-04
9.56474605920261e-08,0.00000000000000e+00,8.00000000000000e-01,-2.90732855304860e-04
9.59277967899839e-08,0.00000000000000e+00,8.00000000000000e-01,3.84307448215951e-04
9.64254575062252e-08,0.00000000000000e+00,8.00000000000000e-01,-3.33442881149589e-04
9.69341883256006e-08,0.00000000000000e+00,8.00000000000000e-01,2.86904567398662e-04
9.79516499643514e-08,0.00000000000000e+00,8.00000000000000e-01,-2.61570989602907e-04
9.97645259158670e-08,0.00000000000000e+00,8.00000000000000e-01,2.50226403097380e-04
1.02564015929445e-07,0.00000000000000e+00,8.00000000000000e-01,-2.40681689188273e-04
1.05000000000000e-07,0.00000000000000e+00,8.00000000000000e-01,2.32936835119085e-04
1.05010000000000e-07,7.99999999999848e-02,8.00000000000000e-01,3.55130645388571e-04
1.05030000000000e-07,2.39999999999954e-01,8.00000000000000e-01,4.90110403998559e-04
1.05070000000000e-07,5.59999999999894e-01,8.00000000000000e-01,3.09382953934803e-04
1.05100000000000e-07,7.99999999999954e-01,8.00000000000000e-01,-1.97519987235847e-03
1.05108000000000e-07,8.00000000000000e-01,8.00000000000000e-01,-3.11290698904679e-03
1.05124000000000e-07,8.00000000000000e-01,8.00000000000000e-01,-5.13629789081492e-03
1.05156000000000e-07,8.00000000000000e-01,8.00000000000000e-01,-7.12607191679744e-03
1.05220000000000e-07,8.00000000000000e-01,8.00000000000000e-01,4.04176976393318e-02
1.05348000000000e-07,8.00000000000000e-01,8.00000000000000e-01,5.82340839958989e-01
1.05604000000000e-07,8.00000000000000e-01,8.00000000000000e-01,8.31191512407557e-01
1.05857513612702e-07,8.00000000000000e-01,8.00000000000000e-01,7.73007996677738e-01
1.06364540838105e-07,8.00000000000000e-01,8.00000000000000e-01,8.24798462438630e-01
