Time,v(clk),v(data),v(out)
1.00000000000000e-08,6.00000000000000e-01,0.00000000000000e+00,2.65167151515672e-05
1.00100000000000e-08,6.00000000000000e-01,5.99999999999985e-02,2.27198342876156e-05
1.00300000000000e-08,6.00000000000000e-01,1.79999999999996e-01,1.41934019667334e-05
1.00700000000000e-08,6.00000000000000e-01,4.19999999999990e-01,4.71259406881197e-06
1.01000000000000e-08,6.00000000000000e-01,5.99999999999995e-01,1.83351531660159e-06
1.01080000000000e-08,6.00000000000000e-01,6.00000000000000e-01,1.41909348058689e-06
1.01240000000000e-08,6.00000000000000e-01,6.00000000000000e-01,4.10184632040900e-06
1.01560000000000e-08,6.00000000000000e-01,6.00000000000000e-01,9.23092210824983e-06
1.02200000000000e-08,6.00000000000000e-01,6.00000000000000e-01,8.48015995939810e-06
1.03480000000000e-08,6.00000000000000e-01,6.00000000000000e-01,2.43601971679219e-06
1.06040000000000e-08,6.00000000000000e-01,6.00000000000000e-01,5.78086122211136e-06
1.11160000000000e-08,6.00000000000000e-01,6.00000000000000e-01,3.45021604032138e-06
1.21400000000000e-08,6.00000000000000e-01,6.00000000000000e-01,5.64147523509501e-06
1.41880000000000e-08,6.00000000000000e-01,6.00000000000000e-01,2.69963416868295e-06
1.51000000000000e-08,6.00000000000000e-01,6.00000000000000e-01,5.02612501752583e-06
1.51100000000000e-08,5.39999999999991e-01,6.00000000000000e-01,-1.04365617700192e-04
1.51300000000000e-08,4.19999999999994e-01,6.00000000000000e-01,-2.31212308784562e-04
1.51700000000000e-08,1.80000000000000e-01,6.00000000000000e-01,-4.01633083038366e-05
1.52000000000000e-08,0.00000000000000e+00,6.00000000000000e-01,5.59224697316937e-04
1.52080000000000e-08,0.00000000000000e+00,6.00000000000000e-01,7.73102685301591e-04
1.52240000000000e-08,0.00000000000000e+00,6.00000000000000e-01,9.06384030404453e-04
1.52560000000000e-08,0.00000000000000e+00,6.00000000000000e-01,2.79558750232278e-04
1.53200000000000e-08,0.00000000000000e+00,6.00000000000000e-01,-6.73196237466360e-04
1.54480000000000e-08,0.00000000000000e+00,6.00000000000000e-01,5.75541319458028e-05
1.56859450759104e-08,0.00000000000000e+00,6.00000000000000e-01,-1.18800732656292e-04
1.59870294799803e-08,0.00000000000000e+00,6.00000000000000e-01,2.43846357854613e-05
1.65012218666553e-08,0.00000000000000e+00,6.00000000000000e-01,1.23496959790291e-04
1.72929485872735e-08,0.00000000000000e+00,6.00000000000000e-01,-1.69703980285535e-04
1.85832835859997e-08,0.00000000000000e+00,6.00000000000000e-01,1.95066871841182e-04
2.10214328433561e-08,0.00000000000000e+00,6.00000000000000e-01,-1.97527018235705e-04
2.48214328433561e-08,0.00000000000000e+00,6.00000000000000e-01,2.06327593415721e-04
2.50000000000000e-08,0.00000000000000e+00,6.00000000000000e-01,-2.00688202640027e-04
2.50100000000000e-08,5.99999999999886e-02,6.00000000000000e-01,4.36547123808251e-05
2.50300000000000e-08,1.80000000000006e-01,6.00000000000000e-01,4.07475992877840e-04
2.50700000000000e-08,4.20000000000000e-01,6.00000000000000e-01,7.26005599749807e-04
2.51000000000000e-08,6.00000000000000e-01,6.00000000000000e-01,-1.17654429197353e-04
2.51080000000000e-08,6.00000000000000e-01,6.00000000000000e-01,-8.20752913938405e-04
2.51240000000000e-08,6.00000000000000e-01,6.00000000000000e-01,-2.24682174231718e-03
2.51560000000000e-08,6.00000000000000e-01,6.00000000000000e-01,-4.59167749270577e-03
2.52200000000000e-08,6.00000000000000e-01,6.00000000000000e-01,-6.19324640246233e-03
2.53480000000000e-08,6.00000000000000e-01,6.00000000000000e-01,1.17421108203299e-01
2.56040000000000e-08,6.00000000000000e-01,6.00000000000000e-01,5.70079952746099e-01
2.61160000000000e-08,6.00000000000000e-01,6.00000000000000e-01,6.08541601585342e-01
2.66618216119426e-08,6.00000000000000e-01,6.00000000000000e-01,5.91061513674160e-01
2.76053850698859e-08,6.00000000000000e-01,6.00000000000000e-01,6.07724934101538e-01
2.89649582745569e-08,6.00000000000000e-01,6.00000000000000e-01,5.91938332517299e-01
3.01000000000000e-08,6.00000000000000e-01,6.00000000000000e-01,6.07279487092009e-01
3.01100000000000e-08,6.00000000000000e-01,5.40000000000031e-01,6.03320576013602e-01
3.01300000000000e-08,6.00000000000000e-01,4.20000000000014e-01,5.99766427564418e-01
3.01700000000000e-08,6.00000000000000e-01,1.80000000000020e-01,6.00171129978724e-01
3.02000000000000e-08,6.00000000000000e-01,1.44328993201270e-14,6.00006227709600e-01
3.02080000000000e-08,6.00000000000000e-01,0.00000000000000e+00,6.00020909008624e-01
3.02240000000000e-08,6.00000000000000e-01,0.00000000000000e+00,6.00019348159661e-01
3.02560000000000e-08,6.00000000000000e-01,0.00000000000000e+00,5.99980762515818e-01
3.03200000000000e-08,6.00000000000000e-01,0.00000000000000e+00,5.99974478797682e-01
3.04480000000000e-08,6.00000000000000e-01,0.00000000000000e+00,6.00027365609158e-01
3.06851326835184e-08,6.00000000000000e-01,0.00000000000000e+00,5.99955014166189e-01
3.09822020012223e-08,6.00000000000000e-01,0.00000000000000e+00,6.00017923774068e-01
3.15763406366302e-08,6.00000000000000e-01,0.00000000000000e+00,5.99963077255733e-01
3.27646179074460e-08,6.00000000000000e-01,0.00000000000000e+00,6.00016517932444e-01
3.51000000000000e-08,5.99999999999970e-01,0.00000000000000e+00,5.99966775489091e-01
3.51100000000000e-08,5.39999999999982e-01,0.00000000000000e+00,5.99887087088346e-01
3.51300000000000e-08,4.19999999999965e-01,0.00000000000000e+00,5.99829772555401e-01
3.51700000000000e-08,1.79999999999970e-01,0.00000000000000e+00,6.00881009341047e-01
3.52000000000000e-08,0.00000000000000e+00,0.00000000000000e+00,6.03870888066456e-01
3.52080000000000e-08,0.00000000000000e+00,0.00000000000000e+00,6.04513186466630e-01
3.52240000000000e-08,0.00000000000000e+00,0.00000000000000e+00,6.04386294582896e-01
3.52560000000000e-08,0.00000000000000e+00,0.00000000000000e+00,5.96444260940763e-01
3.53200000000000e-08,0.00000000000000e+00,0.00000000000000e+00,5.86021280021634e-01
3.54480000000000e-08,0.00000000000000e+00,0.00000000000000e+00,5.98284598497594e-01
3.57037685980420e-08,0.00000000000000e+00,0.00000000000000e+00,6.00269773827003e-01
3.60075443784056e-08,0.00000000000000e+00,0.00000000000000e+00,5.99233895993989e-01
3.65878002926972e-08,0.00000000000000e+00,0.00000000000000e+00,6.00302506912563e-01
3.74745104286671e-08,0.00000000000000e+00,0.00000000000000e+00,5.99495550939554e-01
3.91000000000000e-08,0.00000000000000e+00,0.00000000000000e+00,6.00329690118129e-01
3.92773420271940e-08,0.00000000000000e+00,0.00000000000000e+00,5.99978672335263e-01
3.96320260815820e-08,0.00000000000000e+00,0.00000000000000e+00,5.99914283305078e-01
4.03413941903579e-08,0.00000000000000e+00,0.00000000000000e+00,5.99977253917671e-01
4.17601304079098e-08,0.00000000000000e+00,0.00000000000000e+00,5.99930341736212e-01
4.45976028430136e-08,0.00000000000000e+00,0.00000000000000e+00,5.99988715886154e-01
4.50000000000000e-08,0.00000000000000e+00,0.00000000000000e+00,5.99942760874353e-01
4.50100000000000e-08,5.99999999999886e-02,0.00000000000000e+00,6.00046141237061e-01
4.50300000000000e-08,1.80000000000006e-01,0.00000000000000e+00,6.00106150231934e-01
4.50700000000000e-08,4.20000000000000e-01,0.00000000000000e+00,5.99981136309126e-01
4.51000000000000e-08,6.00000000000000e-01,0.00000000000000e+00,5.99823135704389e-01
4.51080000000000e-08,6.00000000000000e-01,0.00000000000000e+00,5.99746096600742e-01
4.51240000000000e-08,6.00000000000000e-01,0.00000000000000e+00,5.99667279002401e-01
4.51560000000000e-08,6.00000000000000e-01,0.00000000000000e+00,5.99722831765951e-01
4.52200000000000e-08,6.00000000000000e-01,0.00000000000000e+00,5.99968097703365e-01
4.53480000000000e-08,6.00000000000000e-01,0.00000000000000e+00,6.06660081055706e-01
4.56040000000000e-08,6.00000000000000e-01,0.00000000000000e+00,2.60100039504590e-01
4.60612440053205e-08,6.00000000000000e-01,0.00000000000000e+00,-6.97603239669162e-02
4.65122863805996e-08,6.00000000000000e-01,0.00000000000000e+00,5.41932036660363e-02
4.74081377876289e-08,6.00000000000000e-01,0.00000000000000e+00,-3.66965295622300e-02
4.83687954573182e-08,6.00000000000000e-01,0.00000000000000e+00,3.36732450976980e-02
5.00000000000000e-08,6.00000000000000e-01,0.00000000000000e+00,-2.66128599587028e-02
5.00100000000000e-08,6.00000000000000e-01,5.99999999999886e-02,-2.27168710376450e-02
5.00300000000000e-08,6.00000000000000e-01,1.79999999999966e-01,-1.51232407381518e-02
5.00700000000000e-08,6.00000000000000e-01,4.20000000000000e-01,-5.59285891045756e-03
5.01000000000000e-08,6.00000000000000e-01,6.00000000000000e-01,-2.88644005390459e-03
5.01080000000000e-08,6.00000000000000e-01,6.00000000000000e-01,-2.42914822699324e-03
5.01240000000000e-08,6.00000000000000e-01,6.00000000000000e-01,-1.66821059184524e-03
5.01560000000000e-08,6.00000000000000e-01,6.00000000000000e-01,-7.89168710058297e-04
5.02200000000000e-08,6.00000000000000e-01,6.00000000000000e-01,-1.23780594945888e-04
5.03480000000000e-08,6.00000000000000e-01,6.00000000000000e-01,2.05441626049685e-05
5.06040000000000e-08,6.00000000000000e-01,6.00000000000000e-01,-6.20269217238567e-06
5.11160000000001e-08,6.00000000000000e-01,6.00000000000000e-01,1.01907811940125e-05
5.21400000000002e-08,6.00000000000000e-01,6.00000000000000e-01,-4.38083642309399e-06
5.41880000000003e-08,6.00000000000000e-01,6.00000000000000e-01,7.84194437357302e-06
5.51000000000000e-08,6.00000000000000e-01,6.00000000000000e-01,-2.35056365148999e-06
5.51100000000000e-08,5.40000000000021e-01,6.00000000000000e-01,-1.08812561873201e-04
5.51300000000000e-08,4.20000000000004e-01,6.00000000000000e-01,-2.34807421605754e-04
5.51700000000000e-08,1.80000000000010e-01,6.00000000000000e-01,-3.78893940801706e-05
5.52000000000000e-08,0.00000000000000e+00,6.00000000000000e-01,5.47476810884767e-04
5.52080000000000e-08,0.00000000000000e+00,6.00000000000000e-01,7.51862404645434e-04
5.52240000000000e-08,0.00000000000000e+00,6.00000000000000e-01,8.23926634598057e-04
5.52560000000000e-08,0.00000000000000e+00,6.00000000000000e-01,-2.59115027191170e-04
5.53200000000000e-08,0.00000000000000e+00,6.00000000000000e-01,-1.43359785555611e-03
5.54480000000000e-08,0.00000000000000e+00,6.00000000000000e-01,6.83907768526185e-05
5.56848691797320e-08,0.00000000000000e+00,6.00000000000000e-01,-9.08603902835606e-05
5.59875105868414e-08,0.00000000000000e+00,6.00000000000000e-01,-6.74001747353464e-06
5.64991354710755e-08,0.00000000000000e+00,6.00000000000000e-01,1.52779422551350e-04
5.72911390010433e-08,0.00000000000000e+00,6.00000000000000e-01,-1.96804597662015e-04
5.85783271208140e-08,0.00000000000000e+00,6.00000000000000e-01,2.20548447989639e-04
6.10026596155830e-08,0.00000000000000e+00,6.00000000000000e-01,-2.22765356549637e-04
6.48026596155830e-08,0.00000000000000e+00,6.00000000000000e-01,2.30862686798258e-04
6.50000000000000e-08,0.00000000000000e+00,6.00000000000000e-01,-2.16216924264063e-04
6.50100000000000e-08,5.99999999999886e-02,6.00000000000000e-01,2.82620913783366e-05
6.50300000000000e-08,1.79999999999966e-01,6.00000000000000e-01,4.01053751579436e-04
6.50700000000000e-08,4.19999999999920e-01,6.00000000000000e-01,7.30045311677113e-04
6.51000000000000e-08,5.99999999999966e-01,6.00000000000000e-01,-1.13145304383735e-04
6.51080000000000e-08,6.00000000000000e-01,6.00000000000000e-01,-8.15114368733841e-04
6.51240000000000e-08,6.00000000000000e-01,6.00000000000000e-01,-2.24057330239577e-03
6.51560000000000e-08,6.00000000000000e-01,6.00000000000000e-01,-4.58775505268466e-03
6.52200000000000e-08,6.00000000000000e-01,6.00000000000000e-01,-6.19401016878089e-03
6.53480000000000e-08,6.00000000000000e-01,6.00000000000000e-01,1.17339424826965e-01
6.56040000000000e-08,6.00000000000000e-01,6.00000000000000e-01,5.70051638852339e-01
6.61159999999999e-08,6.00000000000000e-01,6.00000000000000e-01,6.08549392315962e-01
6.66617202055351e-08,6.00000000000000e-01,6.00000000000000e-01,5.91053194922336e-01
6.76053827378402e-08,6.00000000000000e-01,6.00000000000000e-01,6.07732357184812e-01
6.89648684061345e-08,6.00000000000000e-01,6.00000000000000e-01,5.91930541968545e-01
7.01000000000000e-08,6.00000000000000e-01,6.00000000000000e-01,6.07286548916260e-01
7.01100000000000e-08,6.00000000000000e-01,5.40000000000011e-01,6.03323628255065e-01
7.01300000000000e-08,6.00000000000000e-01,4.20000000000034e-01,5.99766028490377e-01
7.01700000000000e-08,6.00000000000000e-01,1.80000000000080e-01,6.00171272021760e-01
7.02000000000000e-08,6.00000000000000e-01,3.44169137633799e-14,6.00006155017311e-01
7.02080000000000e-08,6.00000000000000e-01,0.00000000000000e+00,6.00020866063271e-01
7.02240000000000e-08,6.00000000000000e-01,0.00000000000000e+00,6.00019332393202e-01
7.02560000000000e-08,6.00000000000000e-01,0.00000000000000e+00,5.99980747472903e-01
7.03200000000000e-08,6.00000000000000e-01,0.00000000000000e+00,5.99974474617553e-01
7.04480000000000e-08,6.00000000000000e-01,0.00000000000000e+00,6.00027360298284e-01
7.06851327358839e-08,6.00000000000000e-01,0.00000000000000e+00,5.99955015281006e-01
7.09822019371401e-08,6.00000000000000e-01,0.00000000000000e+00,6.00017918805727e-01
7.15763403396523e-08,6.00000000000000e-01,0.00000000000000e+00,5.99963078720007e-01
7.27646171446769e-08,6.00000000000000e-01,0.00000000000000e+00,6.00016513731870e-01
7.51000000000000e-08,6.00000000000000e-01,0.00000000000000e+00,5.99966777527646e-01
7.51100000000000e-08,5.40000000000061e-01,0.00000000000000e+00,5.99887087318915e-01
7.51300000000000e-08,4.20000000000084e-01,0.00000000000000e+00,5.99829771384338e-01
7.51700000000000e-08,1.80000000000129e-01,0.00000000000000e+00,6.00881007905946e-01
7.52000000000000e-08,8.40438829641244e-14,0.00000000000000e+00,6.03870874617320e-01
7.52080000000000e-08,0.00000000000000e+00,0.00000000000000e+00,6.04513156040603e-01
7.52240000000000e-08,0.00000000000000e+00,0.00000000000000e+00,6.04386184165491e-01
7.52560000000000e-08,0.00000000000000e+00,0.00000000000000e+00,5.96443993474685e-01
7.53200000000000e-08,0.00000000000000e+00,0.00000000000000e+00,5.86021171788429e-01
7.54480000000000e-08,0.00000000000000e+00,0.00000000000000e+00,5.98284680609993e-01
7.57037685770291e-08,0.00000000000000e+00,0.00000000000000e+00,6.00269705892423e-01
7.60075443234336e-08,0.00000000000000e+00,0.00000000000000e+00,5.99233951194716e-01
7.65878002372983e-08,0.00000000000000e+00,0.00000000000000e+00,6.00302456728161e-01
7.74745103175515e-08,0.00000000000000e+00,0.00000000000000e+00,5.99495597921578e-01
7.81000000000000e-08,0.00000000000000e+00,0.00000000000000e+00,6.00284877746133e-01
7.82773420160506e-08,0.00000000000000e+00,0.00000000000000e+00,5.99961642815423e-01
7.86320260481519e-08,0.00000000000000e+00,0.00000000000000e+00,5.99902965350231e-01
7.93413941123544e-08,0.00000000000000e+00,0.00000000000000e+00,5.99967832164708e-01
8.07601302407595e-08,0.00000000000000e+00,0.00000000000000e+00,5.99926275494947e-01
8.35976024975696e-08,0.00000000000000e+00,0.00000000000000e+00,5.99986264535912e-01
8.50000000000000e-08,0.00000000000000e+00,0.00000000000000e+00,5.99940118111812e-01
8.50100000000000e-08,5.99999999999886e-02,0.00000000000000e+00,6.00046353758739e-01
8.50300000000000e-08,1.79999999999966e-01,0.00000000000000e+00,6.00108919216682e-01
8.50700000000000e-08,4.19999999999920e-01,0.00000000000000e+00,5.99981401984685e-01
8.51000000000000e-08,5.99999999999966e-01,0.00000000000000e+00,5.99822874582869e-01
8.51080000000000e-08,6.00000000000000e-01,0.00000000000000e+00,5.99746443063925e-01
8.51240000000000e-08,6.00000000000000e-01,0.00000000000000e+00,5.99666168325229e-01
8.51560000000000e-08,6.00000000000000e-01,0.00000000000000e+00,5.99718148397391e-01
8.52200000000000e-08,6.00000000000000e-01,0.00000000000000e+00,5.99970186326449e-01
8.53480000000000e-08,6.00000000000000e-01,0.00000000000000e+00,6.06661216015127e-01
8.56040000000000e-08,6.00000000000000e-01,0.00000000000000e+00,2.60074904339459e-01
8.60611021181398e-08,6.00000000000000e-01,0.00000000000000e+00,-6.97497928383461e-02
8.65121915235721e-08,6.00000000000000e-01,0.00000000000000e+00,5.41862844824896e-02
8.74079014536870e-08,6.00000000000000e-01,0.00000000000000e+00,-3.66921008437721e-02
8.83685232932030e-08,6.00000000000000e-01,0.00000000000000e+00,3.36682468720435e-02
9.00000000000000e-08,6.00000000000000e-01,0.00000000000000e+00,-2.66105122020643e-02
9.00100000000000e-08,6.00000000000000e-01,5.99999999999886e-02,-2.27143187631263e-02
9.00300000000000e-08,6.00000000000000e-01,1.79999999999966e-01,-1.51211358046031e-02
9.00700000000000e-08,6.00000000000000e-01,4.19999999999920e-01,-5.59215943455145e-03
9.01000000000000e-08,6.00000000000000e-01,5.99999999999966e-01,-2.88603480969514e-03
9.01080000000000e-08,6.00000000000000e-01,6.00000000000000e-01,-2.42881566555599e-03
9.01240000000000e-08,6.00000000000000e-01,6.00000000000000e-01,-1.66798726420114e-03
9.01560000000000e-08,6.00000000000000e-01,6.00000000000000e-01,-7.89062614860392e-04
9.02200000000000e-08,6.00000000000000e-01,6.00000000000000e-01,-1.23766892386530e-04
9.03480000000000e-08,6.00000000000000e-01,6.00000000000000e-01,2.05436935558356e-05
9.06040000000000e-08,6.00000000000000e-01,6.00000000000000e-01,-6.20300057959169e-06
9.11159999999999e-08,6.00000000000000e-01,6.00000000000000e-01,1.01911108807782e-05
9.21399999999999e-08,6.00000000000000e-01,6.00000000000000e-01,-4.38129255431706e-06
9.41879999999998e-08,6.00000000000000e-01,6.00000000000000e-01,7.84253126458320e-06
9.51000000000000e-08,6.00000000000000e-01,6.00000000000000e-01,-2.35122534333887e-06
9.51100000000000e-08,5.40000000000061e-01,6.00000000000000e-01,-1.08812646248596e-04
9.51300000000000e-08,4.20000000000084e-01,6.00000000000000e-01,-2.34806458118395e-04
9.51700000000000e-08,1.80000000000129e-01,6.00000000000000e-01,-3.78886685418606e-05
9.52000000000000e-08,8.40438829641244e-14,6.00000000000000e-01,5.47477967366525e-04
9.52080000000000e-08,0.00000000000000e+00,6.00000000000000e-01,7.51863695571411e-04
9.52240000000000e-08,0.00000000000000e+00,6.00000000000000e-01,8.23929226698161e-04
9.52560000000000e-08,0.00000000000000e+00,6.00000000000000e-01,-2.59103795064969e-04
9.53200000000000e-08,0.00000000000000e+00,6.00000000000000e-01,-1.43357445419986e-03
9.54480000000000e-08,0.00000000000000e+00,6.00000000000000e-01,6.83952159498263e-05
9.56848691913736e-08,0.00000000000000e+00,6.00000000000000e-01,-9.08651371651359e-05
9.59875105818173e-08,0.00000000000000e+00,6.00000000000000e-01,-6.73588750661758e-06
9.64991354841452e-08,0.00000000000000e+00,6.00000000000000e-01,1.52775755817576e-04
9.72911390229616e-08,0.00000000000000e+00,6.00000000000000e-01,-1.96801172371473e-04
9.85783271610907e-08,0.00000000000000e+00,6.00000000000000e-01,2.20545198455603e-04
1.01002659689295e-07,0.00000000000000e+00,6.00000000000000e-01,-2.22762173359408e-04
1.04802659689295e-07,0.00000000000000e+00,6.00000000000000e-01,2.30859577143374e-04
1.05000000000000e-07,0.00000000000000e+00,6.00000000000000e-01,-2.16214731979424e-04
1.05010000000000e-07,5.99999999999886e-02,6.00000000000000e-01,2.82633941169619e-05
1.05030000000000e-07,1.79999999999966e-01,6.00000000000000e-01,4.01054115128349e-04
1.05070000000000e-07,4.19999999999920e-01,6.00000000000000e-01,7.30045343848185e-04
1.05100000000000e-07,5.99999999999966e-01,6.00000000000000e-01,-1.13145400382708e-04
1.05108000000000e-07,6.00000000000000e-01,6.00000000000000e-01,-8.15114457065169e-04
1.05124000000000e-07,6.00000000000000e-01,6.00000000000000e-01,-2.24057338881320e-03
1.05156000000000e-07,6.00000000000000e-01,6.00000000000000e-01,-4.58775511508665e-03
1.05220000000000e-07,6.00000000000000e-01,6.00000000000000e-01,-6.19401014104032e-03
1.05348000000000e-07,6.00000000000000e-01,6.00000000000000e-01,1.17339426660723e-01
1.05604000000000e-07,6.00000000000000e-01,6.00000000000000e-01,5.70051639488498e-01
1.06116000000000e-07,6.00000000000000e-01,6.00000000000000e-01,6.08549392139077e-01
1.06661720207843e-07,6.00000000000000e-01,6.00000000000000e-01,5.91053195104363e-01
1.07605382737899e-07,6.00000000000000e-01,6.00000000000000e-01,6.07732357020721e-01
1.08964868407773e-07,6.00000000000000e-01,6.00000000000000e-01,5.91930542146263e-01
