Time,v(clk),v(data),v(out)
1.00000000000000e-08,8.00000000000000e-01,0.00000000000000e+00,-8.44002665971455e-06
1.00100000000000e-08,8.00000000000000e-01,7.99999999999981e-02,-4.05545722834827e-06
1.00300000000000e-08,8.00000000000000e-01,2.39999999999994e-01,-3.36538651224405e-07
1.00700000000000e-08,8.00000000000000e-01,5.59999999999987e-01,3.33706207715501e-07
1.01000000000000e-08,8.00000000000000e-01,7.99999999999994e-01,1.55085195779892e-06
1.01080000000000e-08,8.00000000000000e-01,8.00000000000000e-01,1.90741310637094e-06
1.01240000000000e-08,8.00000000000000e-01,8.00000000000000e-01,2.98510238724847e-06
1.01560000000000e-08,8.00000000000000e-01,8.00000000000000e-01,5.23856398755573e-06
1.02200000000000e-08,8.00000000000000e-01,8.00000000000000e-01,5.67918640793225e-06
1.03480000000000e-08,8.00000000000000e-01,8.00000000000000e-01,1.46970120157991e-06
1.06040000000000e-08,8.00000000000000e-01,8.00000000000000e-01,5.46824534806978e-06
1.11160000000000e-08,8.00000000000000e-01,8.00000000000000e-01,1.83591514319771e-06
1.21400000000000e-08,8.00000000000000e-01,8.00000000000000e-01,4.90220081002680e-06
1.41880000000000e-08,8.00000000000000e-01,8.00000000000000e-01,1.49354752653624e-06
1.51000000000000e-08,8.00000000000000e-01,8.00000000000000e-01,4.42693163486482e-06
1.51100000000000e-08,7.19999999999989e-01,8.00000000000000e-01,-5.55775744643799e-05
1.51300000000000e-08,5.59999999999993e-01,8.00000000000000e-01,-1.23427826582853e-04
1.51700000000000e-08,2.40000000000000e-01,8.00000000000000e-01,3.30718810229794e-05
1.52000000000000e-08,0.00000000000000e+00,8.00000000000000e-01,2.77843404510529e-04
1.52080000000000e-08,0.00000000000000e+00,8.00000000000000e-01,3.28996043943416e-04
1.52240000000000e-08,0.00000000000000e+00,8.00000000000000e-01,2.63541841674542e-04
1.52560000000000e-08,0.00000000000000e+00,8.00000000000000e-01,-1.10136092557424e-04
1.53200000000000e-08,0.00000000000000e+00,8.00000000000000e-01,-3.13420819131473e-04
1.54480000000000e-08,0.00000000000000e+00,8.00000000000000e-01,-2.03269226021634e-04
1.56745360148000e-08,0.00000000000000e+00,8.00000000000000e-01,1.34844249269392e-04
1.59245470567547e-08,0.00000000000000e+00,8.00000000000000e-01,1.72567406142328e-04
1.64245691406642e-08,0.00000000000000e+00,8.00000000000000e-01,-2.25703462094834e-04
1.69460178284965e-08,0.00000000000000e+00,8.00000000000000e-01,2.53030902387032e-04
1.79889152041612e-08,0.00000000000000e+00,8.00000000000000e-01,-2.52941281110503e-04
1.94930242864263e-08,0.00000000000000e+00,8.00000000000000e-01,2.56946206140351e-04
2.19266946214103e-08,0.00000000000000e+00,8.00000000000000e-01,-2.52712995128794e-04
2.50000000000000e-08,0.00000000000000e+00,8.00000000000000e-01,2.55452928251530e-04
2.50100000000000e-08,7.99999999999848e-02,8.00000000000000e-01,2.72492723099364e-04
2.50300000000000e-08,2.40000000000007e-01,8.00000000000000e-01,2.68661781652697e-04
2.50700000000000e-08,5.60000000000000e-01,8.00000000000000e-01,-2.85857586732073e-04
2.51000000000000e-08,8.00000000000000e-01,8.00000000000000e-01,-3.04661051103290e-03
2.51080000000000e-08,8.00000000000000e-01,8.00000000000000e-01,-4.14316078709165e-03
2.51240000000000e-08,8.00000000000000e-01,8.00000000000000e-01,-5.79794644177438e-03
2.51560000000000e-08,8.00000000000000e-01,8.00000000000000e-01,6.74967898253186e-04
2.52200000000000e-08,8.00000000000000e-01,8.00000000000000e-01,1.80775614842049e-01
2.53480000000000e-08,8.00000000000000e-01,8.00000000000000e-01,7.33639750476736e-01
2.56040000000000e-08,8.00000000000000e-01,8.00000000000000e-01,8.19178034933699e-01
2.58891833926971e-08,8.00000000000000e-01,8.00000000000000e-01,7.81978556720517e-01
2.63769760881484e-08,8.00000000000000e-01,8.00000000000000e-01,8.15587407691150e-01
2.70212832804350e-08,8.00000000000000e-01,8.00000000000000e-01,7.84543966255210e-01
2.83098976650081e-08,8.00000000000000e-01,8.00000000000000e-01,8.14311271040862e-01
3.08871264341542e-08,8.00000000000000e-01,8.00000000000000e-01,7.85266195822226e-01
3.46871264341542e-08,8.00000000000000e-01,8.00000000000000e-01,8.13983645460736e-01
3.51000000000000e-08,7.99999999999960e-01,8.00000000000000e-01,7.86744104527422e-01
3.51100000000000e-08,7.19999999999976e-01,8.00000000000000e-01,7.93467400081970e-01
3.51300000000000e-08,5.59999999999953e-01,8.00000000000000e-01,8.00055591710643e-01
3.51700000000000e-08,2.39999999999961e-01,8.00000000000000e-01,8.01088322055837e-01
3.52000000000000e-08,0.00000000000000e+00,8.00000000000000e-01,8.02712446307945e-01
3.52080000000000e-08,0.00000000000000e+00,8.00000000000000e-01,8.02012663146891e-01
3.52240000000000e-08,0.00000000000000e+00,8.00000000000000e-01,7.97542497495773e-01
3.52560000000000e-08,0.00000000000000e+00,8.00000000000000e-01,7.80129796457214e-01
3.53200000000000e-08,0.00000000000000e+00,8.00000000000000e-01,7.72463657430314e-01
3.54480000000000e-08,0.00000000000000e+00,8.00000000000000e-01,7.99435953803648e-01
3.57014814832712e-08,0.00000000000000e+00,8.00000000000000e-01,7.98990962900898e-01
3.59996396583265e-08,0.00000000000000e+00,8.00000000000000e-01,8.00210255794474e-01
3.65959560084371e-08,0.00000000000000e+00,8.00000000000000e-01,7.99266153596346e-01
3.77885887086583e-08,0.00000000000000e+00,8.00000000000000e-01,8.00393218367106e-01
4.01738541091007e-08,0.00000000000000e+00,8.00000000000000e-01,7.99389643605271e-01
4.39738541091007e-08,0.00000000000000e+00,8.00000000000000e-01,8.00437725185075e-01
4.50000000000000e-08,0.00000000000000e+00,8.00000000000000e-01,7.99424957109675e-01
4.50100000000000e-08,7.99999999999848e-02,8.00000000000000e-01,7.99694462265610e-01
4.50300000000000e-08,2.40000000000007e-01,8.00000000000000e-01,7.99994300469226e-01
4.50700000000000e-08,5.60000000000000e-01,8.00000000000000e-01,7.99778164133644e-01
4.51000000000000e-08,8.00000000000000e-01,8.00000000000000e-01,7.98381015136376e-01
4.51080000000000e-08,8.00000000000000e-01,7.36000000000033e-01,7.97839411614766e-01
4.51240000000000e-08,8.00000000000000e-01,6.07999999999994e-01,7.96925638249793e-01
4.51560000000000e-08,8.00000000000000e-01,3.52000000000021e-01,7.96052779632138e-01
4.52000000000000e-08,8.00000000000000e-01,4.57411886145564e-14,7.96818636062839e-01
4.52064000000000e-08,8.00000000000000e-01,0.00000000000000e+00,7.97082007676932e-01
4.52192000000000e-08,8.00000000000000e-01,0.00000000000000e+00,7.97554215675918e-01
4.52448000000000e-08,8.00000000000000e-01,0.00000000000000e+00,7.98267130502804e-01
4.52960000000000e-08,8.00000000000000e-01,0.00000000000000e+00,7.99146868724653e-01
4.53984000000000e-08,8.00000000000000e-01,0.00000000000000e+00,7.99863126460898e-01
4.55420104565676e-08,8.00000000000000e-01,0.00000000000000e+00,7.99997683406808e-01
4.57908604242348e-08,8.00000000000000e-01,0.00000000000000e+00,7.99999866656452e-01
4.61242383065487e-08,8.00000000000000e-01,0.00000000000000e+00,8.00002856538760e-01
4.67909940711766e-08,8.00000000000000e-01,0.00000000000000e+00,7.99996708263377e-01
4.81245056004322e-08,8.00000000000000e-01,0.00000000000000e+00,8.00003706459976e-01
5.06077057516748e-08,8.00000000000000e-01,0.00000000000000e+00,7.99996033143748e-01
5.44077057516748e-08,8.00000000000000e-01,0.00000000000000e+00,8.00004097206235e-01
5.51000000000000e-08,8.00000000000000e-01,0.00000000000000e+00,7.99995229542973e-01
5.51100000000000e-08,7.20000000000028e-01,0.00000000000000e+00,7.99947593889054e-01
5.51300000000000e-08,5.60000000000006e-01,0.00000000000000e+00,7.99916366385680e-01
5.51700000000000e-08,2.40000000000014e-01,0.00000000000000e+00,8.01184730443649e-01
5.52000000000000e-08,0.00000000000000e+00,0.00000000000000e+00,8.03570844949799e-01
5.52080000000000e-08,0.00000000000000e+00,0.00000000000000e+00,8.04073661757186e-01
5.52240000000000e-08,0.00000000000000e+00,0.00000000000000e+00,8.04847940773094e-01
5.52560000000000e-08,0.00000000000000e+00,0.00000000000000e+00,8.05414066653086e-01
5.53200000000000e-08,0.00000000000000e+00,0.00000000000000e+00,8.01526500039030e-01
5.54480000000000e-08,0.00000000000000e+00,0.00000000000000e+00,7.98502580549499e-01
5.56054293202224e-08,0.00000000000000e+00,0.00000000000000e+00,7.99881481646639e-01
5.59202879606673e-08,0.00000000000000e+00,0.00000000000000e+00,7.99404730689437e-01
5.62395113183264e-08,0.00000000000000e+00,0.00000000000000e+00,7.99929534601581e-01
5.68779580336445e-08,0.00000000000000e+00,0.00000000000000e+00,7.99678231231022e-01
5.81548514642806e-08,0.00000000000000e+00,0.00000000000000e+00,8.00013491629123e-01
6.07086383255530e-08,0.00000000000000e+00,0.00000000000000e+00,7.99789099534762e-01
6.45086383255530e-08,0.00000000000000e+00,0.00000000000000e+00,8.00041737033171e-01
6.50000000000000e-08,0.00000000000000e+00,0.00000000000000e+00,7.99829364782204e-01
6.50100000000000e-08,7.99999999999848e-02,0.00000000000000e+00,7.99894613833294e-01
6.50300000000000e-08,2.39999999999954e-01,0.00000000000000e+00,7.99950899893014e-01
6.50700000000000e-08,5.59999999999894e-01,0.00000000000000e+00,7.99877463917091e-01
6.51000000000000e-08,7.99999999999954e-01,0.00000000000000e+00,7.99715435225960e-01
6.51080000000000e-08,8.00000000000000e-01,0.00000000000000e+00,7.99671496322244e-01
6.51240000000000e-08,8.00000000000000e-01,0.00000000000000e+00,7.99673949827751e-01
6.51560000000000e-08,8.00000000000000e-01,0.00000000000000e+00,8.00471058694347e-01
6.52200000000000e-08,8.00000000000000e-01,0.00000000000000e+00,8.07307146544139e-01
6.53480000000000e-08,8.00000000000000e-01,0.00000000000000e+00,4.32836206771779e-01
6.55857182923275e-08,8.00000000000000e-01,0.00000000000000e+00,-7.14638947866513e-02
6.58062079652875e-08,8.00000000000000e-01,0.00000000000000e+00,4.64811195524649e-02
6.62471873112077e-08,8.00000000000000e-01,0.00000000000000e+00,-3.13068452803519e-02
6.66771518778393e-08,8.00000000000000e-01,0.00000000000000e+00,2.54873572156744e-02
6.75370810111025e-08,8.00000000000000e-01,0.00000000000000e+00,-2.03366840056207e-02
6.90253449902784e-08,8.00000000000000e-01,0.00000000000000e+00,2.00542602638480e-02
7.13967231981787e-08,8.00000000000000e-01,0.00000000000000e+00,-1.77203508556115e-02
7.51000000000000e-08,8.00000000000000e-01,0.00000000000000e+00,1.83113359760385e-02
7.51100000000000e-08,7.20000000000081e-01,0.00000000000000e+00,1.48054723602841e-02
7.51300000000000e-08,5.60000000000112e-01,0.00000000000000e+00,7.81047700717791e-03
7.51700000000000e-08,2.40000000000172e-01,0.00000000000000e+00,1.05187724934488e-03
7.52000000000000e-08,1.11910480882216e-13,0.00000000000000e+00,6.80424165219108e-04
7.52080000000000e-08,0.00000000000000e+00,0.00000000000000e+00,5.46381002382898e-04
7.52240000000000e-08,0.00000000000000e+00,0.00000000000000e+00,1.42857450672149e-04
7.52560000000000e-08,0.00000000000000e+00,0.00000000000000e+00,-8.56348990521970e-04
7.53200000000000e-08,0.00000000000000e+00,0.00000000000000e+00,-7.80440415395739e-04
7.54480000000000e-08,0.00000000000000e+00,0.00000000000000e+00,3.24340640339725e-04
7.56687131030982e-08,0.00000000000000e+00,0.00000000000000e+00,-2.05568585646198e-04
7.59815230719884e-08,0.00000000000000e+00,0.00000000000000e+00,1.59303645928425e-04
7.66071430097687e-08,0.00000000000000e+00,0.00000000000000e+00,-1.35719019825766e-04
7.78583828853295e-08,0.00000000000000e+00,0.00000000000000e+00,1.31979428560366e-04
8.03608626364510e-08,0.00000000000000e+00,0.00000000000000e+00,-1.23692306865055e-04
8.41608626364510e-08,0.00000000000000e+00,0.00000000000000e+00,1.25694584282314e-04
8.50000000000000e-08,0.00000000000000e+00,0.00000000000000e+00,-1.11105376945394e-04
8.50100000000000e-08,7.99999999999848e-02,0.00000000000000e+00,2.75387099120672e-05
8.50300000000000e-08,2.39999999999954e-01,0.00000000000000e+00,1.28008538540385e-04
8.50700000000000e-08,5.59999999999894e-01,0.00000000000000e+00,-1.33992435509753e-05
8.51000000000000e-08,7.99999999999954e-01,0.00000000000000e+00,-2.07346731884321e-04
8.51080000000000e-08,8.00000000000000e-01,0.00000000000000e+00,-2.56946403635647e-04
8.51240000000000e-08,8.00000000000000e-01,0.00000000000000e+00,-2.88879318949158e-04
8.51560000000000e-08,8.00000000000000e-01,0.00000000000000e+00,-1.81153866356733e-04
8.52200000000000e-08,8.00000000000000e-01,0.00000000000000e+00,4.70192301915001e-05
8.53480000000000e-08,8.00000000000000e-01,0.00000000000000e+00,8.65346568471002e-05
8.56040000000000e-08,8.00000000000000e-01,0.00000000000000e+00,-2.90011662156670e-05
8.60768136057877e-08,8.00000000000000e-01,0.00000000000000e+00,3.48650661308302e-05
8.66365215854013e-08,8.00000000000000e-01,0.00000000000000e+00,-1.55316047275008e-05
8.77559375446287e-08,8.00000000000000e-01,0.00000000000000e+00,2.44567070149188e-05
8.99947694630834e-08,8.00000000000000e-01,0.00000000000000e+00,-1.47661304405755e-05
9.00000000000000e-08,8.00000000000000e-01,0.00000000000000e+00,-9.36258403437529e-06
9.00100000000000e-08,8.00000000000000e-01,7.99999999999848e-02,-4.53550119330903e-06
9.00300000000000e-08,8.00000000000000e-01,2.39999999999954e-01,-4.04848732406260e-07
9.00700000000000e-08,8.00000000000000e-01,5.59999999999894e-01,2.67023071660877e-07
9.01000000000000e-08,8.00000000000000e-01,7.99999999999954e-01,1.57686356113546e-06
9.01080000000000e-08,8.00000000000000e-01,8.00000000000000e-01,1.89962662858201e-06
9.01240000000000e-08,8.00000000000000e-01,8.00000000000000e-01,2.91741193810674e-06
9.01560000000000e-08,8.00000000000000e-01,8.00000000000000e-01,5.16471433455179e-06
9.02200000000000e-08,8.00000000000000e-01,8.00000000000000e-01,5.67216460164305e-06
9.03480000000000e-08,8.00000000000000e-01,8.00000000000000e-01,1.49555710500168e-06
9.06040000000000e-08,8.00000000000000e-01,8.00000000000000e-01,5.44800517113253e-06
9.11159999999999e-08,8.00000000000000e-01,8.00000000000000e-01,1.85420948227346e-06
9.21399999999999e-08,8.00000000000000e-01,8.00000000000000e-01,4.88548036476841e-06
9.41879999999998e-08,8.00000000000000e-01,8.00000000000000e-01,1.50994781069084e-06
9.51000000000000e-08,8.00000000000000e-01,8.00000000000000e-01,4.41197537171065e-06
9.51100000000000e-08,7.20000000000081e-01,8.00000000000000e-01,-5.55627093218949e-05
9.51300000000000e-08,5.60000000000112e-01,8.00000000000000e-01,-1.23445503982154e-04
9.51700000000000e-08,2.40000000000172e-01,8.00000000000000e-01,3.30723894062107e-05
9.52000000000000e-08,1.11910480882216e-13,8.00000000000000e-01,2.77843418126957e-04
9.52080000000000e-08,0.00000000000000e+00,8.00000000000000e-01,3.28996363810799e-04
9.52240000000000e-08,0.00000000000000e+00,8.00000000000000e-01,2.63545095484416e-04
9.52560000000000e-08,0.00000000000000e+00,8.00000000000000e-01,-1.10127880439924e-04
9.53200000000000e-08,0.00000000000000e+00,8.00000000000000e-01,-3.13415266781615e-04
9.54480000000000e-08,0.00000000000000e+00,8.00000000000000e-01,-2.03273205654601e-04
9.56745356291032e-08,0.00000000000000e+00,8.00000000000000e-01,1.34847334305114e-04
9.59245466488343e-08,0.00000000000000e+00,8.00000000000000e-01,1.72566582109160e-04
9.64245686882965e-08,0.00000000000000e+00,8.00000000000000e-01,-2.25703227355900e-04
9.69460177591612e-08,0.00000000000000e+00,8.00000000000000e-01,2.53031143391219e-04
9.79889159008906e-08,0.00000000000000e+00,8.00000000000000e-01,-2.52941669795169e-04
9.94930258847961e-08,0.00000000000000e+00,8.00000000000000e-01,2.56946657373349e-04
1.01926698543973e-07,0.00000000000000e+00,8.00000000000000e-01,-2.52713490620682e-04
1.05000000000000e-07,0.00000000000000e+00,8.00000000000000e-01,2.55453441248002e-04
1.05010000000000e-07,7.99999999999848e-02,8.00000000000000e-01,2.72493043795355e-04
1.05030000000000e-07,2.39999999999954e-01,8.00000000000000e-01,2.68661631914656e-04
1.05070000000000e-07,5.59999999999894e-01,8.00000000000000e-01,-2.85857061794945e-04
1.05100000000000e-07,7.99999999999954e-01,8.00000000000000e-01,-3.04660938341218e-03
1.05108000000000e-07,8.00000000000000e-01,8.00000000000000e-01,-4.14315988187050e-03
1.05124000000000e-07,8.00000000000000e-01,8.00000000000000e-01,-5.79794617978885e-03
1.05156000000000e-07,8.00000000000000e-01,8.00000000000000e-01,6.74960899616897e-04
1.05220000000000e-07,8.00000000000000e-01,8.00000000000000e-01,1.80775563309142e-01
1.05348000000000e-07,8.00000000000000e-01,8.00000000000000e-01,7.33639722472338e-01
1.05604000000000e-07,8.00000000000000e-01,8.00000000000000e-01,8.19178041451675e-01
1.05889183392199e-07,8.00000000000000e-01,8.00000000000000e-01,7.81978550379589e-01
1.06376976109024e-07,8.00000000000000e-01,8.00000000000000e-01,8.15587413218111e-01
1.07021283316970e-07,8.00000000000000e-01,8.00000000000000e-01,7.84543960640412e-01
1.08309897732863e-07,8.00000000000000e-01,8.00000000000000e-01,8.14311276184003e-01
1.10887126564647e-07,8.00000000000000e-01,8.00000000000000e-01,7.85266190443261e-01
1.14687126564647e-07,8.00000000000000e-01,8.00000000000000e-01,8.13983650496502e-01
1.15100000000000e-07,8.00000000000000e-01,8.00000000000000e-01,7.86744100055092e-01
1.15110000000000e-07,7.20000000000081e-01,8.00000000000000e-01,7.93467397951023e-01
1.15130000000000e-07,5.60000000000112e-01,8.00000000000000e-01,8.00055591812863e-01
1.15170000000000e-07,2.40000000000172e-01,8.00000000000000e-01,8.01088322008621e-01
1.15200000000000e-07,1.11910480882216e-13,8.00000000000000e-01,8.02712446273179e-01
1.15208000000000e-07,0.00000000000000e+00,8.00000000000000e-01,8.02012663051321e-01
1.15224000000000e-07,0.00000000000000e+00,8.00000000000000e-01,7.97542497253147e-01
1.15256000000000e-07,0.00000000000000e+00,8.00000000000000e-01,7.80129796161926e-01
1.15320000000000e-07,0.00000000000000e+00,8.00000000000000e-01,7.72463657443106e-01
1.15448000000000e-07,0.00000000000000e+00,8.00000000000000e-01,7.99435953817186e-01
1.15701481482868e-07,0.00000000000000e+00,8.00000000000000e-01,7.98990962885527e-01
1.15999639657954e-07,0.00000000000000e+00,8.00000000000000e-01,8.00210255804964e-01
1.16595956008125e-07,0.00000000000000e+00,8.00000000000000e-01,7.99266153585906e-01
1.17788588708467e-07,0.00000000000000e+00,8.00000000000000e-01,8.00393218376148e-01
1.20173854109151e-07,0.00000000000000e+00,8.00000000000000e-01,7.99389643596043e-01
1.23973854109151e-07,0.00000000000000e+00,8.00000000000000e-01,8.00437725194233e-01
1.25000000000000e-07,0.00000000000000e+00,8.00000000000000e-01,7.99424957101406e-01
1.25010000000000e-07,7.99999999998790e-02,8.00000000000000e-01,7.99694462257845e-01
1.25030000000000e-07,2.39999999999849e-01,8.00000000000000e-01,7.99994300467266e-01
1.25070000000000e-07,5.59999999999788e-01,8.00000000000000e-01,7.99778164136894e-01
1.25100000000000e-07,7.99999999999848e-01,8.00000000000000e-01,7.98381015135439e-01
1.25108000000000e-07,8.00000000000000e-01,7.35999999999927e-01,7.97839411613324e-01
1.25124000000000e-07,8.00000000000000e-01,6.07999999999994e-01,7.96925638249964e-01
1.25156000000000e-07,8.00000000000000e-01,3.51999999999916e-01,7.96052779630495e-01
1.25200000000000e-07,8.00000000000000e-01,0.00000000000000e+00,7.96818636060516e-01
1.25206400000000e-07,8.00000000000000e-01,0.00000000000000e+00,7.97082007675473e-01
1.25219200000000e-07,8.00000000000000e-01,0.00000000000000e+00,7.97554215676805e-01
1.25244800000000e-07,8.00000000000000e-01,0.00000000000000e+00,7.98267130502877e-01
1.25296000000000e-07,8.00000000000000e-01,0.00000000000000e+00,7.99146868725503e-01
1.25398400000000e-07,8.00000000000000e-01,0.00000000000000e+00,7.99863126460768e-01
1.25542010455752e-07,8.00000000000000e-01,0.00000000000000e+00,7.99997683406780e-01
1.25790860424392e-07,8.00000000000000e-01,0.00000000000000e+00,7.99999866656223e-01
1.26124238303618e-07,8.00000000000000e-01,0.00000000000000e+00,8.00002856539071e-01
1.26790994062070e-07,8.00000000000000e-01,0.00000000000000e+00,7.99996708262968e-01
1.28124505578975e-07,8.00000000000000e-01,0.00000000000000e+00,8.00003706460391e-01
1.30607705701728e-07,8.00000000000000e-01,0.00000000000000e+00,7.99996033143420e-01
1.34407705701728e-07,8.00000000000000e-01,0.00000000000000e+00,8.00004097206654e-01
1.35100000000000e-07,7.99999999999854e-01,0.00000000000000e+00,7.99995229542677e-01
1.35110000000000e-07,7.19999999999764e-01,0.00000000000000e+00,7.99947593889040e-01
