Time,v(clk),v(data),v(out)
1.00000000000000e-08,8.00000000000000e-01,0.00000000000000e+00,-8.34965987955849e-06
1.00100000000000e-08,8.00000000000000e-01,7.99999999999981e-02,-4.00777627631438e-06
1.00300000000000e-08,8.00000000000000e-01,2.39999999999994e-01,-3.28370718803705e-07
1.00700000000000e-08,8.00000000000000e-01,5.59999999999987e-01,3.43278776404610e-07
1.01000000000000e-08,8.00000000000000e-01,7.99999999999994e-01,1.55395776638145e-06
1.01080000000000e-08,8.00000000000000e-01,8.00000000000000e-01,1.91013327131145e-06
1.01240000000000e-08,8.00000000000000e-01,8.00000000000000e-01,2.98703963239055e-06
1.01560000000000e-08,8.00000000000000e-01,8.00000000000000e-01,5.23902604197823e-06
1.02200000000000e-08,8.00000000000000e-01,8.00000000000000e-01,5.67899245970671e-06
1.03480000000000e-08,8.00000000000000e-01,8.00000000000000e-01,1.46979101579847e-06
1.06040000000000e-08,8.00000000000000e-01,8.00000000000000e-01,5.46808769543231e-06
1.11160000000000e-08,8.00000000000000e-01,8.00000000000000e-01,1.83600751779787e-06
1.21400000000000e-08,8.00000000000000e-01,8.00000000000000e-01,4.90206008025955e-06
1.41880000000000e-08,8.00000000000000e-01,8.00000000000000e-01,1.49365174071953e-06
1.51000000000000e-08,8.00000000000000e-01,8.00000000000000e-01,4.42680468757100e-06
1.51100000000000e-08,7.19999999999989e-01,8.00000000000000e-01,-5.55775670866426e-05
1.51300000000000e-08,5.59999999999993e-01,8.00000000000000e-01,-1.23427862420776e-04
1.51700000000000e-08,2.40000000000000e-01,8.00000000000000e-01,3.30718713442563e-05
1.52000000000000e-08,0.00000000000000e+00,8.00000000000000e-01,2.77843302681005e-04
1.52080000000000e-08,0.00000000000000e+00,8.00000000000000e-01,3.28995818929867e-04
1.52240000000000e-08,0.00000000000000e+00,8.00000000000000e-01,2.63541129234976e-04
1.52560000000000e-08,0.00000000000000e+00,8.00000000000000e-01,-1.10137366464841e-04
1.53200000000000e-08,0.00000000000000e+00,8.00000000000000e-01,-3.13421190461252e-04
1.54480000000000e-08,0.00000000000000e+00,8.00000000000000e-01,-2.03269010612395e-04
1.56745360145003e-08,0.00000000000000e+00,8.00000000000000e-01,1.34844091109084e-04
1.59245470562914e-08,0.00000000000000e+00,8.00000000000000e-01,1.72567536355138e-04
1.64245691398735e-08,0.00000000000000e+00,8.00000000000000e-01,-2.25703581032608e-04
1.69460178289468e-08,0.00000000000000e+00,8.00000000000000e-01,2.53031010114215e-04
1.79889152070932e-08,0.00000000000000e+00,8.00000000000000e-01,-2.52941383901356e-04
1.94930242905278e-08,0.00000000000000e+00,8.00000000000000e-01,2.56946304990223e-04
2.19266946312660e-08,0.00000000000000e+00,8.00000000000000e-01,-2.52713092138245e-04
2.50000000000000e-08,0.00000000000000e+00,8.00000000000000e-01,2.55453023247770e-04
2.50100000000000e-08,7.99999999999848e-02,8.00000000000000e-01,2.72492778210988e-04
2.50300000000000e-08,2.40000000000007e-01,8.00000000000000e-01,2.68661792322024e-04
2.50700000000000e-08,5.60000000000000e-01,8.00000000000000e-01,-2.85857583561887e-04
2.51000000000000e-08,8.00000000000000e-01,8.00000000000000e-01,-3.04661050541193e-03
2.51080000000000e-08,8.00000000000000e-01,8.00000000000000e-01,-4.14316078209259e-03
2.51240000000000e-08,8.00000000000000e-01,8.00000000000000e-01,-5.79794644310935e-03
2.51560000000000e-08,8.00000000000000e-01,8.00000000000000e-01,6.74967858280272e-04
2.52200000000000e-08,8.00000000000000e-01,8.00000000000000e-01,1.80775614555816e-01
2.53480000000000e-08,8.00000000000000e-01,8.00000000000000e-01,7.33639750323170e-01
2.56040000000000e-08,8.00000000000000e-01,8.00000000000000e-01,8.19178034975905e-01
2.58891833926917e-08,8.00000000000000e-01,8.00000000000000e-01,7.81978556685151e-01
2.63769760882622e-08,8.00000000000000e-01,8.00000000000000e-01,8.15587407721963e-01
2.70212832806356e-08,8.00000000000000e-01,8.00000000000000e-01,7.84543966223996e-01
2.83098976653824e-08,8.00000000000000e-01,8.00000000000000e-01,8.14311271069720e-01
3.01000000000000e-08,8.00000000000000e-01,8.00000000000000e-01,7.85363853494277e-01
3.01100000000000e-08,8.00000000000000e-01,7.20000000000042e-01,7.92831930089027e-01
3.01300000000000e-08,8.00000000000000e-01,5.60000000000019e-01,8.00105891547512e-01
3.01700000000000e-08,8.00000000000000e-01,2.40000000000027e-01,7.99902385886694e-01
3.02000000000000e-08,8.00000000000000e-01,1.94289029309402e-14,7.99985638341021e-01
3.02080000000000e-08,8.00000000000000e-01,0.00000000000000e+00,7.99978450929576e-01
3.02240000000000e-08,8.00000000000000e-01,0.00000000000000e+00,7.99957172265763e-01
3.02560000000000e-08,8.00000000000000e-01,0.00000000000000e+00,7.99947758973902e-01
3.03200000000000e-08,8.00000000000000e-01,0.00000000000000e+00,7.99996324504748e-01
3.04382097965885e-08,8.00000000000000e-01,0.00000000000000e+00,7.99986207581496e-01
3.06688565400862e-08,8.00000000000000e-01,0.00000000000000e+00,7.99970296852416e-01
3.09101443464233e-08,8.00000000000000e-01,0.00000000000000e+00,7.99991361201054e-01
3.13927199590974e-08,8.00000000000000e-01,0.00000000000000e+00,7.99973495929195e-01
3.23578711844457e-08,8.00000000000000e-01,0.00000000000000e+00,7.99992989274628e-01
3.42881736351422e-08,8.00000000000000e-01,0.00000000000000e+00,7.99977797799888e-01
3.51000000000000e-08,7.99999999999960e-01,0.00000000000000e+00,7.99995602694752e-01
3.51100000000000e-08,7.19999999999976e-01,0.00000000000000e+00,7.99933079227950e-01
3.51300000000000e-08,5.59999999999953e-01,0.00000000000000e+00,7.99906505779160e-01
3.51700000000000e-08,2.39999999999961e-01,0.00000000000000e+00,8.01151957205940e-01
3.52000000000000e-08,0.00000000000000e+00,0.00000000000000e+00,8.02700180804061e-01
3.52080000000000e-08,0.00000000000000e+00,0.00000000000000e+00,8.02029896883576e-01
3.52240000000000e-08,0.00000000000000e+00,0.00000000000000e+00,7.97668019060502e-01
3.52560000000000e-08,0.00000000000000e+00,0.00000000000000e+00,7.80335071885678e-01
3.53200000000000e-08,0.00000000000000e+00,0.00000000000000e+00,7.72215519110716e-01
3.54480000000000e-08,0.00000000000000e+00,0.00000000000000e+00,7.99369351443825e-01
3.56056987833796e-08,0.00000000000000e+00,0.00000000000000e+00,7.99068499173753e-01
3.59210963501389e-08,0.00000000000000e+00,0.00000000000000e+00,7.99979893413059e-01
3.62400480272133e-08,0.00000000000000e+00,0.00000000000000e+00,7.99415764240262e-01
3.68779513813621e-08,0.00000000000000e+00,0.00000000000000e+00,8.00123398700281e-01
3.81537580896598e-08,0.00000000000000e+00,0.00000000000000e+00,7.99581376584353e-01
3.91000000000000e-08,0.00000000000000e+00,0.00000000000000e+00,8.00184889388134e-01
3.93551613416595e-08,0.00000000000000e+00,0.00000000000000e+00,7.99910851942073e-01
3.98654840249786e-08,0.00000000000000e+00,0.00000000000000e+00,7.99894269729471e-01
4.08861293916168e-08,0.00000000000000e+00,0.00000000000000e+00,7.99921497978570e-01
4.29274201248930e-08,0.00000000000000e+00,0.00000000000000e+00,7.99908615317757e-01
4.50000000000000e-08,0.00000000000000e+00,0.00000000000000e+00,7.99931501138874e-01
4.50100000000000e-08,7.99999999999848e-02,0.00000000000000e+00,7.99973829732217e-01
4.50300000000000e-08,2.40000000000007e-01,0.00000000000000e+00,7.99988708900186e-01
4.50700000000000e-08,5.60000000000000e-01,0.00000000000000e+00,7.99876560018039e-01
4.51000000000000e-08,8.00000000000000e-01,0.00000000000000e+00,7.99714358297177e-01
4.51080000000000e-08,8.00000000000000e-01,0.00000000000000e+00,7.99671207376020e-01
4.51240000000000e-08,8.00000000000000e-01,0.00000000000000e+00,7.99674910511369e-01
4.51560000000000e-08,8.00000000000000e-01,0.00000000000000e+00,8.00473662786886e-01
4.52200000000000e-08,8.00000000000000e-01,0.00000000000000e+00,8.07308048390416e-01
4.53480000000000e-08,8.00000000000000e-01,0.00000000000000e+00,4.32691514958509e-01
4.55857339752813e-08,8.00000000000000e-01,0.00000000000000e+00,-7.15113160863037e-02
4.58062440764203e-08,8.00000000000000e-01,0.00000000000000e+00,4.65138698500089e-02
4.62472642786983e-08,8.00000000000000e-01,0.00000000000000e+00,-3.13309473170927e-02
4.66772566518481e-08,8.00000000000000e-01,0.00000000000000e+00,2.55056966291365e-02
4.75372413981475e-08,8.00000000000000e-01,0.00000000000000e+00,-2.03527147535282e-02
4.90253287001547e-08,8.00000000000000e-01,0.00000000000000e+00,2.00697181202664e-02
5.00000000000000e-08,8.00000000000000e-01,0.00000000000000e+00,-1.64051769047050e-02
5.00100000000000e-08,8.00000000000000e-01,7.99999999999848e-02,-1.33352134810090e-02
5.00300000000000e-08,8.00000000000000e-01,2.39999999999954e-01,-6.96873497801394e-03
5.00700000000000e-08,8.00000000000000e-01,5.60000000000000e-01,-7.59604401252320e-04
5.01000000000000e-08,8.00000000000000e-01,8.00000000000000e-01,-3.66860705976253e-04
5.01080000000000e-08,8.00000000000000e-01,8.00000000000000e-01,-2.30476630696530e-04
5.01240000000000e-08,8.00000000000000e-01,8.00000000000000e-01,-9.32530855515604e-05
5.01560000000000e-08,8.00000000000000e-01,8.00000000000000e-01,-2.51834776214127e-05
5.02200000000000e-08,8.00000000000000e-01,8.00000000000000e-01,1.26962216345852e-05
5.03480000000000e-08,8.00000000000000e-01,8.00000000000000e-01,-1.24187656411964e-05
5.06040000000000e-08,8.00000000000000e-01,8.00000000000000e-01,1.22949052892216e-05
5.11160000000001e-08,8.00000000000000e-01,8.00000000000000e-01,-8.05550901837419e-06
5.21400000000002e-08,8.00000000000000e-01,8.00000000000000e-01,1.08953898456622e-05
5.41880000000003e-08,8.00000000000000e-01,8.00000000000000e-01,-7.22465501368100e-06
5.51000000000000e-08,8.00000000000000e-01,8.00000000000000e-01,9.78757361033006e-06
5.51100000000000e-08,7.20000000000028e-01,8.00000000000000e-01,-5.51406239291397e-05
5.51300000000000e-08,5.60000000000006e-01,8.00000000000000e-01,-1.28940127381814e-04
5.51700000000000e-08,2.40000000000014e-01,8.00000000000000e-01,3.00561262378540e-05
5.52000000000000e-08,0.00000000000000e+00,8.00000000000000e-01,2.46792731377315e-04
5.52080000000000e-08,0.00000000000000e+00,8.00000000000000e-01,2.64186348828077e-04
5.52240000000000e-08,0.00000000000000e+00,8.00000000000000e-01,2.63409630525263e-05
5.52560000000000e-08,0.00000000000000e+00,8.00000000000000e-01,-8.91146974334504e-04
5.53200000000000e-08,0.00000000000000e+00,8.00000000000000e-01,-7.56646431737840e-04
5.54480000000000e-08,0.00000000000000e+00,8.00000000000000e-01,3.88250176064052e-05
5.56735976384004e-08,0.00000000000000e+00,8.00000000000000e-01,-4.02292851078810e-05
5.59238470979917e-08,0.00000000000000e+00,8.00000000000000e-01,3.03728247864895e-04
5.64243460171744e-08,0.00000000000000e+00,8.00000000000000e-01,-3.42194930462314e-04
5.69450784733460e-08,0.00000000000000e+00,8.00000000000000e-01,3.56136366354465e-04
5.79865433856891e-08,0.00000000000000e+00,8.00000000000000e-01,-3.51792178004211e-04
5.94918564388749e-08,0.00000000000000e+00,8.00000000000000e-01,3.51636306104359e-04
6.19240867761126e-08,0.00000000000000e+00,8.00000000000000e-01,-3.45772711863564e-04
6.50000000000000e-08,0.00000000000000e+00,8.00000000000000e-01,3.46405116031086e-04
6.50100000000000e-08,7.99999999999848e-02,8.00000000000000e-01,3.17263336721656e-04
6.50300000000000e-08,2.39999999999954e-01,8.00000000000000e-01,2.77502352442983e-04
6.50700000000000e-08,5.59999999999894e-01,8.00000000000000e-01,-2.82025422838186e-04
6.51000000000000e-08,7.99999999999954e-01,8.00000000000000e-01,-3.04820766867612e-03
6.51080000000000e-08,8.00000000000000e-01,8.00000000000000e-01,-4.14323244462733e-03
6.51240000000000e-08,8.00000000000000e-01,8.00000000000000e-01,-5.79747230905175e-03
6.51560000000000e-08,8.00000000000000e-01,8.00000000000000e-01,6.73380283978404e-04
6.52200000000000e-08,8.00000000000000e-01,8.00000000000000e-01,1.80765848389910e-01
6.53480000000000e-08,8.00000000000000e-01,8.00000000000000e-01,7.33634561660808e-01
6.56040000000000e-08,8.00000000000000e-01,8.00000000000000e-01,8.19179562784668e-01
6.58891786702372e-08,8.00000000000000e-01,8.00000000000000e-01,7.81977093558806e-01
6.63769782185087e-08,8.00000000000000e-01,8.00000000000000e-01,8.15588687732877e-01
6.70212945513303e-08,8.00000000000000e-01,8.00000000000000e-01,7.84542653872734e-01
6.83099272169736e-08,8.00000000000000e-01,8.00000000000000e-01,8.14312486801903e-01
7.01000000000000e-08,8.00000000000000e-01,8.00000000000000e-01,7.85362603337546e-01
7.01100000000000e-08,8.00000000000000e-01,7.20000000000015e-01,7.92831400096534e-01
7.01300000000000e-08,8.00000000000000e-01,5.60000000000046e-01,8.00105988729923e-01
7.01700000000000e-08,8.00000000000000e-01,2.40000000000106e-01,7.99902281744272e-01
7.02000000000000e-08,8.00000000000000e-01,4.57411886145564e-14,7.99985723389291e-01
7.02080000000000e-08,8.00000000000000e-01,0.00000000000000e+00,7.99978482434605e-01
7.02240000000000e-08,8.00000000000000e-01,0.00000000000000e+00,7.99957161985425e-01
7.02560000000000e-08,8.00000000000000e-01,0.00000000000000e+00,7.99947758017248e-01
7.03200000000000e-08,8.00000000000000e-01,0.00000000000000e+00,7.99996294843930e-01
7.04382389266021e-08,8.00000000000000e-01,0.00000000000000e+00,7.99986233477315e-01
7.06689055757112e-08,8.00000000000000e-01,0.00000000000000e+00,7.99970277966844e-01
7.09102118586730e-08,8.00000000000000e-01,0.00000000000000e+00,7.99991371377771e-01
7.13928244245967e-08,8.00000000000000e-01,0.00000000000000e+00,7.99973487278811e-01
7.23580495564439e-08,8.00000000000000e-01,0.00000000000000e+00,7.99992995615178e-01
7.42884998201384e-08,8.00000000000000e-01,0.00000000000000e+00,7.99977792113275e-01
7.51000000000000e-08,8.00000000000000e-01,0.00000000000000e+00,7.99995607172543e-01
7.51100000000000e-08,7.20000000000081e-01,0.00000000000000e+00,7.99933172938425e-01
7.51300000000000e-08,5.60000000000112e-01,0.00000000000000e+00,7.99906559775715e-01
7.51700000000000e-08,2.40000000000172e-01,0.00000000000000e+00,8.01151889765749e-01
7.52000000000000e-08,1.11910480882216e-13,0.00000000000000e+00,8.02700215303841e-01
7.52080000000000e-08,0.00000000000000e+00,0.00000000000000e+00,8.02029955573530e-01
7.52240000000000e-08,0.00000000000000e+00,0.00000000000000e+00,7.97668104510143e-01
7.52560000000000e-08,0.00000000000000e+00,0.00000000000000e+00,7.80335075584657e-01
7.53200000000000e-08,0.00000000000000e+00,0.00000000000000e+00,7.72215259546533e-01
7.54480000000000e-08,0.00000000000000e+00,0.00000000000000e+00,7.99369353097882e-01
7.56056988412836e-08,0.00000000000000e+00,0.00000000000000e+00,7.99068497851258e-01
7.59210965238508e-08,0.00000000000000e+00,0.00000000000000e+00,7.99979896039928e-01
7.62400480253781e-08,0.00000000000000e+00,0.00000000000000e+00,7.99415761688101e-01
7.68779510284326e-08,0.00000000000000e+00,0.00000000000000e+00,8.00123401526045e-01
7.81000000000000e-08,0.00000000000000e+00,0.00000000000000e+00,7.99580222510021e-01
7.82275806006109e-08,0.00000000000000e+00,0.00000000000000e+00,7.99859243759246e-01
7.84827418018327e-08,0.00000000000000e+00,0.00000000000000e+00,7.99908521940824e-01
7.89930642042763e-08,0.00000000000000e+00,0.00000000000000e+00,7.99875407840852e-01
8.00137090091635e-08,0.00000000000000e+00,0.00000000000000e+00,7.99925363533047e-01
8.20549986189378e-08,0.00000000000000e+00,0.00000000000000e+00,7.99897390035962e-01
8.50000000000000e-08,0.00000000000000e+00,0.00000000000000e+00,7.99940612268646e-01
8.50100000000000e-08,7.99999999999848e-02,0.00000000000000e+00,7.99971634085009e-01
8.50300000000000e-08,2.39999999999954e-01,0.00000000000000e+00,7.99977861072710e-01
8.50700000000000e-08,5.59999999999894e-01,0.00000000000000e+00,7.99875557474331e-01
8.51000000000000e-08,7.99999999999954e-01,0.00000000000000e+00,7.99715609487166e-01
8.51080000000000e-08,8.00000000000000e-01,0.00000000000000e+00,7.99674464927238e-01
8.51240000000000e-08,8.00000000000000e-01,0.00000000000000e+00,7.99682765276796e-01
8.51560000000000e-08,8.00000000000000e-01,0.00000000000000e+00,8.00461129595990e-01
8.52200000000000e-08,8.00000000000000e-01,0.00000000000000e+00,8.07309054076602e-01
8.53480000000000e-08,8.00000000000000e-01,0.00000000000000e+00,4.32845032673451e-01
8.55854048414612e-08,8.00000000000000e-01,0.00000000000000e+00,-7.13212824282368e-02
8.58060085159823e-08,8.00000000000000e-01,0.00000000000000e+00,4.63862371192644e-02
8.62472158650245e-08,8.00000000000000e-01,0.00000000000000e+00,-3.12505623141287e-02
8.66770625652385e-08,8.00000000000000e-01,0.00000000000000e+00,2.53996843217191e-02
8.75367559656665e-08,8.00000000000000e-01,0.00000000000000e+00,-2.02667011624242e-02
8.90268488566570e-08,8.00000000000000e-01,0.00000000000000e+00,1.99853344204914e-02
9.00000000000000e-08,8.00000000000000e-01,0.00000000000000e+00,-1.63312636194305e-02
9.00100000000000e-08,8.00000000000000e-01,7.99999999999848e-02,-1.32834542799208e-02
9.00300000000000e-08,8.00000000000000e-01,2.39999999999954e-01,-6.94655865580288e-03
9.00700000000000e-08,8.00000000000000e-01,5.59999999999894e-01,-7.56299981163971e-04
9.01000000000000e-08,8.00000000000000e-01,7.99999999999954e-01,-3.66137458299415e-04
9.01080000000000e-08,8.00000000000000e-01,8.00000000000000e-01,-2.29824342271007e-04
9.01240000000000e-08,8.00000000000000e-01,8.00000000000000e-01,-9.28860552593183e-05
9.01560000000000e-08,8.00000000000000e-01,8.00000000000000e-01,-2.52041113298282e-05
9.02200000000000e-08,8.00000000000000e-01,8.00000000000000e-01,1.27103688998612e-05
9.03480000000000e-08,8.00000000000000e-01,8.00000000000000e-01,-1.23602085703792e-05
9.06040000000000e-08,8.00000000000000e-01,8.00000000000000e-01,1.22589531979297e-05
9.11159999999999e-08,8.00000000000000e-01,8.00000000000000e-01,-8.02865702274544e-06
9.21399999999999e-08,8.00000000000000e-01,8.00000000000000e-01,1.08703339015258e-05
9.41879999999998e-08,8.00000000000000e-01,8.00000000000000e-01,-7.20315996281503e-06
9.51000000000000e-08,8.00000000000000e-01,8.00000000000000e-01,9.76863499030714e-06
9.51100000000000e-08,7.20000000000081e-01,8.00000000000000e-01,-5.51533760157694e-05
9.51300000000000e-08,5.60000000000112e-01,8.00000000000000e-01,-1.28935796577662e-04
9.51700000000000e-08,2.40000000000172e-01,8.00000000000000e-01,3.00698802674013e-05
9.52000000000000e-08,1.11910480882216e-13,8.00000000000000e-01,2.46777250798587e-04
9.52080000000000e-08,0.00000000000000e+00,8.00000000000000e-01,2.64150237088617e-04
9.52240000000000e-08,0.00000000000000e+00,8.00000000000000e-01,2.62445472463541e-05
9.52560000000000e-08,0.00000000000000e+00,8.00000000000000e-01,-8.91576087786818e-04
9.53200000000000e-08,0.00000000000000e+00,8.00000000000000e-01,-7.56960702862554e-04
9.54480000000000e-08,0.00000000000000e+00,8.00000000000000e-01,3.89720643740980e-05
9.56735967906422e-08,0.00000000000000e+00,8.00000000000000e-01,-4.03269964330960e-05
9.59238464599224e-08,0.00000000000000e+00,8.00000000000000e-01,3.03797256211862e-04
9.64243457984830e-08,0.00000000000000e+00,8.00000000000000e-01,-3.42254803728962e-04
9.69450775816824e-08,0.00000000000000e+00,8.00000000000000e-01,3.56188408222635e-04
9.79865411480812e-08,0.00000000000000e+00,8.00000000000000e-01,-3.51841227783724e-04
9.94918551841671e-08,0.00000000000000e+00,8.00000000000000e-01,3.51683105237737e-04
1.01924083974860e-07,0.00000000000000e+00,8.00000000000000e-01,-3.45818489273902e-04
1.05000000000000e-07,0.00000000000000e+00,8.00000000000000e-01,3.46449815551696e-04
1.05010000000000e-07,7.99999999999848e-02,8.00000000000000e-01,3.17284957629706e-04
1.05030000000000e-07,2.39999999999954e-01,8.00000000000000e-01,2.77507703119573e-04
1.05070000000000e-07,5.59999999999894e-01,8.00000000000000e-01,-2.82021747268053e-04
1.05100000000000e-07,7.99999999999954e-01,8.00000000000000e-01,-3.04820930997193e-03
1.05108000000000e-07,8.00000000000000e-01,8.00000000000000e-01,-4.14323290388349e-03
1.05124000000000e-07,8.00000000000000e-01,8.00000000000000e-01,-5.79747205647348e-03
1.05156000000000e-07,8.00000000000000e-01,8.00000000000000e-01,6.73383619060164e-04
1.05220000000000e-07,8.00000000000000e-01,8.00000000000000e-01,1.80765874182726e-01
1.05348000000000e-07,8.00000000000000e-01,8.00000000000000e-01,7.33634575768073e-01
1.05604000000000e-07,8.00000000000000e-01,8.00000000000000e-01,8.19179559680741e-01
