Time,v(clk),v(data),v(out),v(reset)
1.00000000000000e-08,8.00000000000000e-01,0.00000000000000e+00,-7.92722856257644e-06,0.00000000000000e+00
1.00100000000000e-08,8.00000000000000e-01,7.99999999999981e-02,-5.90752453964033e-06,0.00000000000000e+00
1.00300000000000e-08,8.00000000000000e-01,2.39999999999994e-01,-3.49833376951658e-06,0.00000000000000e+00
1.00700000000000e-08,8.00000000000000e-01,5.59999999999987e-01,-3.14200017455246e-07,0.00000000000000e+00
1.01000000000000e-08,8.00000000000000e-01,7.99999999999994e-01,2.67174238725854e-07,0.00000000000000e+00
1.01080000000000e-08,8.00000000000000e-01,8.00000000000000e-01,1.16020268301625e-06,0.00000000000000e+00
1.01240000000000e-08,8.00000000000000e-01,8.00000000000000e-01,2.66482510976468e-06,0.00000000000000e+00
1.01560000000000e-08,8.00000000000000e-01,8.00000000000000e-01,3.39094822308234e-06,0.00000000000000e+00
1.02200000000000e-08,8.00000000000000e-01,8.00000000000000e-01,2.91691998305366e-06,0.00000000000000e+00
1.03480000000000e-08,8.00000000000000e-01,8.00000000000000e-01,2.81102478286860e-06,0.00000000000000e+00
1.06040000000000e-08,8.00000000000000e-01,8.00000000000000e-01,2.23897642835300e-06,0.00000000000000e+00
1.11160000000000e-08,8.00000000000000e-01,8.00000000000000e-01,2.39826594768122e-06,0.00000000000000e+00
1.21400000000000e-08,8.00000000000000e-01,8.00000000000000e-01,1.93394019790821e-06,0.00000000000000e+00
1.41880000000000e-08,8.00000000000000e-01,8.00000000000000e-01,1.82816992143320e-06,0.00000000000000e+00
1.51000000000000e-08,8.00000000000000e-01,8.00000000000000e-01,1.56690794224455e-06,0.00000000000000e+00
1.51100000000000e-08,7.19999999999989e-01,8.00000000000000e-01,1.79475413770232e-04,8.00000000000113e-02
1.51300000000000e-08,5.59999999999993e-01,8.00000000000000e-01,3.08223318055190e-04,2.40000000000007e-01
1.51700000000000e-08,2.40000000000000e-01,8.00000000000000e-01,1.67702308235713e-04,5.60000000000000e-01
1.52000000000000e-08,0.00000000000000e+00,8.00000000000000e-01,8.94077472361754e-05,8.00000000000000e-01
1.52080000000000e-08,0.00000000000000e+00,8.00000000000000e-01,5.71654626957407e-05,8.00000000000000e-01
1.52240000000000e-08,0.00000000000000e+00,8.00000000000000e-01,1.35356621397756e-05,8.00000000000000e-01
1.52560000000000e-08,0.00000000000000e+00,8.00000000000000e-01,-6.13721135494169e-05,8.00000000000000e-01
1.53200000000000e-08,0.00000000000000e+00,8.00000000000000e-01,-1.64424564083533e-04,8.00000000000000e-01
1.54480000000000e-08,0.00000000000000e+00,8.00000000000000e-01,-8.80176830840781e-05,8.00000000000000e-01
1.57040000000000e-08,0.00000000000000e+00,8.00000000000000e-01,-2.99786877863060e-04,8.00000000000000e-01
1.60820973195264e-08,0.00000000000000e+00,8.00000000000000e-01,2.85143329516331e-04,8.00000000000000e-01
1.66386500156979e-08,0.00000000000000e+00,8.00000000000000e-01,-5.55572857099075e-05,8.00000000000000e-01
1.74117515260595e-08,0.00000000000000e+00,8.00000000000000e-01,-3.75534027648918e-05,8.00000000000000e-01
1.86859459639379e-08,0.00000000000000e+00,8.00000000000000e-01,7.82245543297518e-05,8.00000000000000e-01
2.10922073179758e-08,0.00000000000000e+00,8.00000000000000e-01,-9.38307624853924e-05,8.00000000000000e-01
2.48922073179758e-08,0.00000000000000e+00,8.00000000000000e-01,1.03848990748443e-04,8.00000000000000e-01
2.50000000000000e-08,0.00000000000000e+00,8.00000000000000e-01,-1.64209390826842e-04,8.00000000000000e-01
2.50100000000000e-08,7.99999999999848e-02,8.00000000000000e-01,3.32510313263285e-06,8.00000000000000e-01
2.50300000000000e-08,2.40000000000007e-01,8.00000000000000e-01,2.20530219424711e-04,8.00000000000000e-01
2.50700000000000e-08,5.60000000000000e-01,8.00000000000000e-01,-2.00415476148200e-05,8.00000000000000e-01
2.51000000000000e-08,8.00000000000000e-01,8.00000000000000e-01,-2.74258860820031e-03,8.00000000000000e-01
2.51080000000000e-08,8.00000000000000e-01,8.00000000000000e-01,-3.91011989163947e-03,8.00000000000000e-01
2.51240000000000e-08,8.00000000000000e-01,8.00000000000000e-01,-5.82358162669289e-03,8.00000000000000e-01
2.51560000000000e-08,8.00000000000000e-01,8.00000000000000e-01,-5.19849030701035e-03,8.00000000000000e-01
2.52200000000000e-08,8.00000000000000e-01,8.00000000000000e-01,7.59186422645180e-02,8.00000000000000e-01
2.53480000000000e-08,8.00000000000000e-01,8.00000000000000e-01,5.35371461417293e-01,8.00000000000000e-01
2.56040000000000e-08,8.00000000000000e-01,8.00000000000000e-01,8.32139187288907e-01,8.00000000000000e-01
2.59121360905237e-08,8.00000000000000e-01,8.00000000000000e-01,7.73820584511451e-01,8.00000000000000e-01
2.64698839331516e-08,8.00000000000000e-01,8.00000000000000e-01,8.22459824511300e-01,8.00000000000000e-01
2.71960300525829e-08,8.00000000000000e-01,8.00000000000000e-01,7.79016675060907e-01,8.00000000000000e-01
2.86483222914457e-08,8.00000000000000e-01,8.00000000000000e-01,8.19410888215025e-01,8.00000000000000e-01
3.14777757869624e-08,8.00000000000000e-01,8.00000000000000e-01,7.80572388796656e-01,8.00000000000000e-01
3.51000000000000e-08,7.99999999999960e-01,8.00000000000000e-01,8.18617509073232e-01,8.00000000000000e-01
3.51100000000000e-08,7.19999999999976e-01,8.00000000000000e-01,8.11783440569320e-01,8.00000000000000e-01
3.51300000000000e-08,5.59999999999953e-01,8.00000000000000e-01,8.03015541725767e-01,8.00000000000000e-01
3.51700000000000e-08,2.39999999999961e-01,8.00000000000000e-01,8.00344232426158e-01,8.00000000000000e-01
3.52000000000000e-08,0.00000000000000e+00,8.00000000000000e-01,8.02478901545659e-01,8.00000000000000e-01
3.52080000000000e-08,0.00000000000000e+00,8.00000000000000e-01,8.02901026561489e-01,8.00000000000000e-01
3.52240000000000e-08,0.00000000000000e+00,8.00000000000000e-01,8.03079460950801e-01,8.00000000000000e-01
3.52560000000000e-08,0.00000000000000e+00,8.00000000000000e-01,7.98541880654713e-01,8.00000000000000e-01
3.53200000000000e-08,0.00000000000000e+00,8.00000000000000e-01,7.77251710609534e-01,8.00000000000000e-01
3.54480000000000e-08,0.00000000000000e+00,8.00000000000000e-01,7.67057203696202e-01,8.00000000000000e-01
3.57040000000000e-08,0.00000000000000e+00,8.00000000000000e-01,8.00153995692991e-01,8.00000000000000e-01
3.62078861848531e-08,0.00000000000000e+00,8.00000000000000e-01,7.98220245461589e-01,8.00000000000000e-01
3.67529550549239e-08,0.00000000000000e+00,8.00000000000000e-01,8.00776916759119e-01,8.00000000000000e-01
3.78430927950653e-08,0.00000000000000e+00,8.00000000000000e-01,7.98635437659717e-01,8.00000000000000e-01
4.00233682753482e-08,0.00000000000000e+00,8.00000000000000e-01,8.00859134366097e-01,8.00000000000000e-01
4.38233682753482e-08,0.00000000000000e+00,8.00000000000000e-01,7.98788555393389e-01,8.00000000000000e-01
4.50000000000000e-08,0.00000000000000e+00,8.00000000000000e-01,8.00790085990647e-01,8.00000000000000e-01
4.50100000000000e-08,7.99999999999848e-02,8.00000000000000e-01,8.00409625618399e-01,7.20000000000015e-01
4.50300000000000e-08,2.40000000000007e-01,8.00000000000000e-01,7.99897724864944e-01,5.59999999999993e-01
4.50700000000000e-08,5.60000000000000e-01,8.00000000000000e-01,8.01882221751679e-01,2.40000000000000e-01
4.51000000000000e-08,8.00000000000000e-01,8.00000000000000e-01,8.07175273424158e-01,0.00000000000000e+00
4.51080000000000e-08,8.00000000000000e-01,8.00000000000000e-01,8.08921062228770e-01,0.00000000000000e+00
4.51240000000000e-08,8.00000000000000e-01,8.00000000000000e-01,8.12054155899009e-01,0.00000000000000e+00
4.51560000000000e-08,8.00000000000000e-01,8.00000000000000e-01,8.17428363984444e-01,0.00000000000000e+00
4.52200000000000e-08,8.00000000000000e-01,8.00000000000000e-01,7.40869678009228e-01,0.00000000000000e+00
4.53480000000000e-08,8.00000000000000e-01,8.00000000000000e-01,1.79437001591437e-01,0.00000000000000e+00
4.55883431220592e-08,8.00000000000000e-01,8.00000000000000e-01,-7.52669881369959e-02,0.00000000000000e+00
4.58526535179736e-08,8.00000000000000e-01,8.00000000000000e-01,5.49008878336184e-02,0.00000000000000e+00
4.63812743098026e-08,8.00000000000000e-01,8.00000000000000e-01,-4.13589163240531e-02,0.00000000000000e+00
4.69653964515076e-08,8.00000000000000e-01,8.00000000000000e-01,3.67211258165008e-02,0.00000000000000e+00
4.81336407349177e-08,8.00000000000000e-01,8.00000000000000e-01,-3.19066682305958e-02,0.00000000000000e+00
5.00366373646090e-08,8.00000000000000e-01,2.93098916871634e-01,3.17014351662844e-02,0.00000000000000e+00
5.01000000000000e-08,8.00000000000000e-01,7.99999999999954e-01,-4.00857238062208e-03,0.00000000000000e+00
5.01878163687222e-08,8.00000000000000e-01,8.00000000000000e-01,-4.67249744359802e-04,0.00000000000000e+00
5.03634491061665e-08,8.00000000000000e-01,8.00000000000000e-01,2.86778581738631e-04,0.00000000000000e+00
5.06780750408685e-08,8.00000000000000e-01,8.00000000000000e-01,-2.24491297059350e-04,0.00000000000000e+00
5.13073269102726e-08,8.00000000000000e-01,8.00000000000000e-01,2.00945499361136e-04,0.00000000000000e+00
5.25658306490808e-08,8.00000000000000e-01,8.00000000000000e-01,-1.88128359621070e-04,0.00000000000000e+00
5.50828381266971e-08,8.00000000000000e-01,8.00000000000000e-01,1.84328343399056e-04,0.00000000000000e+00
5.51000000000000e-08,8.00000000000000e-01,8.00000000000000e-01,2.88237721439363e-05,0.00000000000000e+00
5.51100000000000e-08,7.20000000000028e-01,8.00000000000000e-01,2.17307888582909e-04,7.99999999999716e-02
5.51300000000000e-08,5.60000000000006e-01,8.00000000000000e-01,3.34358695648664e-04,2.39999999999994e-01
5.51700000000000e-08,2.40000000000014e-01,8.00000000000000e-01,1.65297269442026e-04,5.59999999999987e-01
5.52000000000000e-08,0.00000000000000e+00,8.00000000000000e-01,8.45329613564441e-05,8.00000000000000e-01
5.52080000000000e-08,0.00000000000000e+00,8.00000000000000e-01,4.72226751969465e-05,8.00000000000000e-01
5.52240000000000e-08,0.00000000000000e+00,8.00000000000000e-01,-1.44433602626490e-05,8.00000000000000e-01
5.52560000000000e-08,0.00000000000000e+00,8.00000000000000e-01,-2.37045323018110e-04,8.00000000000000e-01
5.53200000000000e-08,0.00000000000000e+00,8.00000000000000e-01,-1.07369227276859e-03,8.00000000000000e-01
5.54480000000000e-08,0.00000000000000e+00,8.00000000000000e-01,-2.00079950800323e-04,8.00000000000000e-01
5.56605533772696e-08,0.00000000000000e+00,8.00000000000000e-01,2.05986707294246e-04,8.00000000000000e-01
5.60626611807166e-08,0.00000000000000e+00,8.00000000000000e-01,-3.09546654700697e-04,8.00000000000000e-01
5.65334942858436e-08,0.00000000000000e+00,8.00000000000000e-01,3.53980022811626e-04,8.00000000000000e-01
5.73238575312224e-08,0.00000000000000e+00,8.00000000000000e-01,-3.35613517437217e-04,8.00000000000000e-01
5.85412888460687e-08,0.00000000000000e+00,8.00000000000000e-01,3.24334692003806e-04,8.00000000000000e-01
6.05354703983893e-08,0.00000000000000e+00,8.00000000000000e-01,-3.14321345159661e-04,8.00000000000000e-01
6.40229620602429e-08,0.00000000000000e+00,8.00000000000000e-01,3.11100494365626e-04,8.00000000000000e-01
6.50000000000000e-08,0.00000000000000e+00,8.00000000000000e-01,-2.91741729846248e-04,8.00000000000000e-01
6.50100000000000e-08,7.99999999999848e-02,8.00000000000000e-01,-4.73820077074721e-05,8.00000000000000e-01
6.50300000000000e-08,2.39999999999954e-01,8.00000000000000e-01,2.29742577582438e-04,8.00000000000000e-01
6.50700000000000e-08,5.59999999999894e-01,8.00000000000000e-01,-2.76947494616507e-04,8.00000000000000e-01
6.51000000000000e-08,7.99999999999954e-01,8.00000000000000e-01,-3.11997046570940e-03,8.00000000000000e-01
6.51080000000000e-08,8.00000000000000e-01,8.00000000000000e-01,-4.23304520431356e-03,8.00000000000000e-01
6.51240000000000e-08,8.00000000000000e-01,8.00000000000000e-01,-6.01425788205232e-03,8.00000000000000e-01
6.51560000000000e-08,8.00000000000000e-01,8.00000000000000e-01,-4.38330812036999e-03,8.00000000000000e-01
6.52200000000000e-08,8.00000000000000e-01,8.00000000000000e-01,8.47818460147185e-02,8.00000000000000e-01
6.53480000000000e-08,8.00000000000000e-01,8.00000000000000e-01,5.49085961581779e-01,8.00000000000000e-01
6.56040000000000e-08,8.00000000000000e-01,8.00000000000000e-01,8.32111904486311e-01,8.00000000000000e-01
6.59125537053184e-08,8.00000000000000e-01,8.00000000000000e-01,7.73763425676651e-01,8.00000000000000e-01
6.64668280639612e-08,8.00000000000000e-01,8.00000000000000e-01,8.22378495820992e-01,8.00000000000000e-01
6.72014541318659e-08,8.00000000000000e-01,8.00000000000000e-01,7.79038203318848e-01,8.00000000000000e-01
6.86707062676751e-08,8.00000000000000e-01,8.00000000000000e-01,8.19350067910401e-01,8.00000000000000e-01
7.15791889152839e-08,8.00000000000000e-01,8.00000000000000e-01,7.80580476492534e-01,8.00000000000000e-01
7.51000000000000e-08,8.00000000000000e-01,8.00000000000000e-01,8.18522269960667e-01,8.00000000000000e-01
7.51100000000000e-08,7.20000000000081e-01,8.00000000000000e-01,8.11753520049160e-01,8.00000000000000e-01
7.51300000000000e-08,5.60000000000112e-01,8.00000000000000e-01,8.03041910577695e-01,8.00000000000000e-01
7.51700000000000e-08,2.40000000000172e-01,8.00000000000000e-01,8.00339190522691e-01,8.00000000000000e-01
7.52000000000000e-08,1.11910480882216e-13,8.00000000000000e-01,8.02494130876022e-01,8.00000000000000e-01
7.52080000000000e-08,0.00000000000000e+00,8.00000000000000e-01,8.02916274551217e-01,8.00000000000000e-01
7.52240000000000e-08,0.00000000000000e+00,8.00000000000000e-01,8.03100800391804e-01,8.00000000000000e-01
7.52560000000000e-08,0.00000000000000e+00,8.00000000000000e-01,7.98593982843985e-01,8.00000000000000e-01
7.53200000000000e-08,0.00000000000000e+00,8.00000000000000e-01,7.77322411177936e-01,8.00000000000000e-01
7.54480000000000e-08,0.00000000000000e+00,8.00000000000000e-01,7.67047855352915e-01,8.00000000000000e-01
7.57040000000000e-08,0.00000000000000e+00,8.00000000000000e-01,8.00152957506604e-01,8.00000000000000e-01
7.62079712091993e-08,0.00000000000000e+00,8.00000000000000e-01,7.98222627973595e-01,8.00000000000000e-01
7.67530478910144e-08,0.00000000000000e+00,8.00000000000000e-01,8.00775994223107e-01,8.00000000000000e-01
7.78432012546448e-08,0.00000000000000e+00,8.00000000000000e-01,7.98636446083908e-01,8.00000000000000e-01
8.00235079819054e-08,0.00000000000000e+00,8.00000000000000e-01,8.00858345487205e-01,8.00000000000000e-01
8.38235079819054e-08,0.00000000000000e+00,8.00000000000000e-01,7.98789318171684e-01,8.00000000000000e-01
8.50000000000000e-08,0.00000000000000e+00,8.00000000000000e-01,8.00789491512632e-01,8.00000000000000e-01
8.50100000000000e-08,7.99999999999848e-02,8.00000000000000e-01,8.00408946487041e-01,7.20000000000015e-01
8.50300000000000e-08,2.39999999999954e-01,8.00000000000000e-01,7.99897354978390e-01,5.60000000000046e-01
8.50700000000000e-08,5.59999999999894e-01,8.00000000000000e-01,8.01882014413370e-01,2.40000000000106e-01
8.51000000000000e-08,7.99999999999954e-01,8.00000000000000e-01,8.07174790747072e-01,4.57411886145564e-14
8.51080000000000e-08,8.00000000000000e-01,8.00000000000000e-01,8.08920553304266e-01,0.00000000000000e+00
8.51240000000000e-08,8.00000000000000e-01,8.00000000000000e-01,8.12053653851834e-01,0.00000000000000e+00
8.51560000000000e-08,8.00000000000000e-01,8.00000000000000e-01,8.17428137821898e-01,0.00000000000000e+00
8.52200000000000e-08,8.00000000000000e-01,8.00000000000000e-01,7.40877201116877e-01,0.00000000000000e+00
8.53480000000000e-08,8.00000000000000e-01,8.00000000000000e-01,1.79446926188788e-01,0.00000000000000e+00
8.55893821248366e-08,8.00000000000000e-01,8.00000000000000e-01,-7.54617982507705e-02,0.00000000000000e+00
8.58535238849013e-08,8.00000000000000e-01,8.00000000000000e-01,5.50388455889759e-02,0.00000000000000e+00
8.63818074050308e-08,8.00000000000000e-01,8.00000000000000e-01,-4.14419471567383e-02,0.00000000000000e+00
8.69667150561403e-08,8.00000000000000e-01,8.00000000000000e-01,3.68109494182648e-02,0.00000000000000e+00
8.81365303583593e-08,8.00000000000000e-01,8.00000000000000e-01,-3.19824344857565e-02,0.00000000000000e+00
9.00377352081640e-08,8.00000000000000e-01,3.01881665311839e-01,3.17793325429417e-02,0.00000000000000e+00
9.01000000000000e-08,8.00000000000000e-01,7.99999999999954e-01,-3.75527449127535e-03,0.00000000000000e+00
9.01881530322026e-08,8.00000000000000e-01,8.00000000000000e-01,-4.08955430198407e-04,0.00000000000000e+00
9.03644590966078e-08,8.00000000000000e-01,8.00000000000000e-01,2.55608212644979e-04,0.00000000000000e+00
9.06782382187290e-08,8.00000000000000e-01,8.00000000000000e-01,-2.02010359755389e-04,0.00000000000000e+00
9.13057964629714e-08,8.00000000000000e-01,8.00000000000000e-01,1.81880747482582e-04,0.00000000000000e+00
9.25609129514562e-08,8.00000000000000e-01,8.00000000000000e-01,-1.70562378347114e-04,0.00000000000000e+00
9.50711459284259e-08,8.00000000000000e-01,8.00000000000000e-01,1.67465444167480e-04,0.00000000000000e+00
9.51000000000000e-08,8.00000000000000e-01,8.00000000000000e-01,-1.35073107844635e-05,0.00000000000000e+00
9.51100000000000e-08,7.20000000000081e-01,8.00000000000000e-01,1.94044783748008e-04,7.99999999999187e-02
9.51300000000000e-08,5.60000000000112e-01,8.00000000000000e-01,3.26923723231384e-04,2.39999999999888e-01
9.51700000000000e-08,2.40000000000172e-01,8.00000000000000e-01,1.61785879603762e-04,5.59999999999828e-01
9.52000000000000e-08,1.11910480882216e-13,8.00000000000000e-01,8.46077606948548e-05,7.99999999999888e-01
9.52080000000000e-08,0.00000000000000e+00,8.00000000000000e-01,4.69596951219176e-05,8.00000000000000e-01
9.52240000000000e-08,0.00000000000000e+00,8.00000000000000e-01,-1.47940243676106e-05,8.00000000000000e-01
9.52560000000000e-08,0.00000000000000e+00,8.00000000000000e-01,-2.37218883432290e-04,8.00000000000000e-01
9.53200000000000e-08,0.00000000000000e+00,8.00000000000000e-01,-1.07396624848245e-03,8.00000000000000e-01
9.54480000000000e-08,0.00000000000000e+00,8.00000000000000e-01,-1.99946124837445e-04,8.00000000000000e-01
9.56605409938189e-08,0.00000000000000e+00,8.00000000000000e-01,2.05872136880361e-04,8.00000000000000e-01
9.60626736687960e-08,0.00000000000000e+00,8.00000000000000e-01,-3.09426591687185e-04,8.00000000000000e-01
9.65335029118236e-08,0.00000000000000e+00,8.00000000000000e-01,3.53906891766866e-04,8.00000000000000e-01
9.73239042730242e-08,0.00000000000000e+00,8.00000000000000e-01,-3.35572121342720e-04,8.00000000000000e-01
9.85414532939898e-08,0.00000000000000e+00,8.00000000000000e-01,3.24309000212437e-04,8.00000000000000e-01
1.00535799444332e-07,0.00000000000000e+00,8.00000000000000e-01,-3.14304348252217e-04,8.00000000000000e-01
1.04023780800780e-07,0.00000000000000e+00,8.00000000000000e-01,3.11087444529867e-04,8.00000000000000e-01
1.05000000000000e-07,0.00000000000000e+00,8.00000000000000e-01,-2.91724525610871e-04,8.00000000000000e-01
1.05010000000000e-07,7.99999999999848e-02,8.00000000000000e-01,-4.73660211351631e-05,8.00000000000000e-01
1.05030000000000e-07,2.39999999999954e-01,8.00000000000000e-01,2.29764778163583e-04,8.00000000000000e-01
1.05070000000000e-07,5.59999999999894e-01,8.00000000000000e-01,-2.76930786285032e-04,8.00000000000000e-01
1.05100000000000e-07,7.99999999999954e-01,8.00000000000000e-01,-3.11996986703778e-03,8.00000000000000e-01
1.05108000000000e-07,8.00000000000000e-01,8.00000000000000e-01,-4.23304391601961e-03,8.00000000000000e-01
1.05124000000000e-07,8.00000000000000e-01,8.00000000000000e-01,-6.01425563042151e-03,8.00000000000000e-01
1.05156000000000e-07,8.00000000000000e-01,8.00000000000000e-01,-4.38328214770463e-03,8.00000000000000e-01
1.05220000000000e-07,8.00000000000000e-01,8.00000000000000e-01,8.47820795093803e-02,8.00000000000000e-01
1.05348000000000e-07,8.00000000000000e-01,8.00000000000000e-01,5.49086305761274e-01,8.00000000000000e-01
1.05604000000000e-07,8.00000000000000e-01,8.00000000000000e-01,8.32111901400637e-01,8.00000000000000e-01
1.05912553723450e-07,8.00000000000000e-01,8.00000000000000e-01,7.73763425634855e-01,8.00000000000000e-01
1.06466827987826e-07,8.00000000000000e-01,8.00000000000000e-01,8.22378490769147e-01,8.00000000000000e-01
1.07201454286008e-07,8.00000000000000e-01,8.00000000000000e-01,7.79038205997457e-01,8.00000000000000e-01
