Time,v(clk),v(data),v(out)
1.00000000000000e-08,8.00000000000000e-01,0.00000000000000e+00,3.73902869143898e-06
1.00100000000000e-08,8.00000000000000e-01,7.99999999999981e-02,8.18226392483579e-06
1.00300000000000e-08,8.00000000000000e-01,2.39999999999994e-01,1.24999314524282e-05
1.00700000000000e-08,8.00000000000000e-01,5.59999999999987e-01,1.12035393908042e-05
1.01000000000000e-08,8.00000000000000e-01,7.99999999999994e-01,1.00905495333259e-05
1.01080000000000e-08,8.00000000000000e-01,8.00000000000000e-01,9.35426296320985e-06
1.01240000000000e-08,8.00000000000000e-01,8.00000000000000e-01,9.30653281874805e-06
1.01560000000000e-08,8.00000000000000e-01,8.00000000000000e-01,1.13338997393200e-05
1.02200000000000e-08,8.00000000000000e-01,8.00000000000000e-01,1.51197301139772e-05
1.03480000000000e-08,8.00000000000000e-01,8.00000000000000e-01,1.44276228627033e-05
1.06040000000000e-08,8.00000000000000e-01,8.00000000000000e-01,1.34368657835338e-05
1.10650488785117e-08,8.00000000000000e-01,8.00000000000000e-01,1.27837366123429e-05
1.19871466355350e-08,8.00000000000000e-01,8.00000000000000e-01,1.25460596746580e-05
1.38313421495818e-08,8.00000000000000e-01,8.00000000000000e-01,1.18178278601362e-05
1.51000000000000e-08,8.00000000000000e-01,8.00000000000000e-01,1.14546071104966e-05
1.51100000000000e-08,7.19999999999989e-01,8.00000000000000e-01,-6.97164409735190e-05
1.51300000000000e-08,5.59999999999993e-01,8.00000000000000e-01,-2.13537309342385e-04
1.51700000000000e-08,2.40000000000000e-01,8.00000000000000e-01,-2.39300808593051e-04
1.52000000000000e-08,0.00000000000000e+00,8.00000000000000e-01,5.22730760279116e-05
1.52080000000000e-08,0.00000000000000e+00,8.00000000000000e-01,2.21330862360009e-04
1.52240000000000e-08,0.00000000000000e+00,8.00000000000000e-01,4.59031993835068e-04
1.52560000000000e-08,0.00000000000000e+00,8.00000000000000e-01,5.59465991097366e-04
1.53200000000000e-08,0.00000000000000e+00,8.00000000000000e-01,2.50644513492868e-04
1.54480000000000e-08,0.00000000000000e+00,8.00000000000000e-01,-3.32666795456391e-04
1.57040000000000e-08,0.00000000000000e+00,8.00000000000000e-01,-1.65390389378434e-04
1.62160000000000e-08,0.00000000000000e+00,8.00000000000000e-01,-9.25011048601224e-05
1.67835071484957e-08,0.00000000000000e+00,8.00000000000000e-01,2.32938743239302e-04
1.79185214454872e-08,0.00000000000000e+00,8.00000000000000e-01,-9.51895879789423e-05
1.91588738549669e-08,0.00000000000000e+00,8.00000000000000e-01,4.26780174569066e-05
2.16395786739264e-08,0.00000000000000e+00,8.00000000000000e-01,2.14618495193546e-07
2.50000000000000e-08,0.00000000000000e+00,8.00000000000000e-01,2.01677817955603e-06
2.50100000000000e-08,7.99999999999848e-02,8.00000000000000e-01,1.52937873109701e-04
2.50300000000000e-08,2.40000000000007e-01,8.00000000000000e-01,4.02691060008772e-04
2.50700000000000e-08,5.60000000000000e-01,8.00000000000000e-01,6.68061837300317e-04
2.51000000000000e-08,8.00000000000000e-01,8.00000000000000e-01,3.37790567486687e-04
2.51080000000000e-08,8.00000000000000e-01,8.00000000000000e-01,-1.42030352455885e-05
2.51240000000000e-08,8.00000000000000e-01,8.00000000000000e-01,-8.39887628766481e-04
2.51560000000000e-08,8.00000000000000e-01,8.00000000000000e-01,-2.74571125207741e-03
2.52200000000000e-08,8.00000000000000e-01,8.00000000000000e-01,-5.56363584727784e-03
2.53480000000000e-08,8.00000000000000e-01,8.00000000000000e-01,1.60292110328157e-02
2.56040000000000e-08,8.00000000000000e-01,8.00000000000000e-01,4.48022016779471e-01
2.61160000000000e-08,8.00000000000000e-01,8.00000000000000e-01,8.28015535717804e-01
2.66906947327767e-08,8.00000000000000e-01,8.00000000000000e-01,7.78448915593461e-01
2.78400841983300e-08,8.00000000000000e-01,8.00000000000000e-01,8.20145060689776e-01
2.91527208144859e-08,8.00000000000000e-01,8.00000000000000e-01,7.80812282912543e-01
3.01000000000000e-08,8.00000000000000e-01,8.00000000000000e-01,8.17219266849043e-01
3.01100000000000e-08,8.00000000000000e-01,7.20000000000042e-01,8.11582429235558e-01
3.01300000000000e-08,8.00000000000000e-01,5.60000000000019e-01,8.04000822251814e-01
3.01700000000000e-08,8.00000000000000e-01,2.40000000000027e-01,8.00015307600994e-01
3.02000000000000e-08,8.00000000000000e-01,1.94289029309402e-14,7.99965181749475e-01
3.02080000000000e-08,8.00000000000000e-01,0.00000000000000e+00,7.99948186990730e-01
3.02240000000000e-08,8.00000000000000e-01,0.00000000000000e+00,7.99916315265584e-01
3.02560000000000e-08,8.00000000000000e-01,0.00000000000000e+00,7.99918484662601e-01
3.03200000000000e-08,8.00000000000000e-01,0.00000000000000e+00,7.99911800232532e-01
3.04480000000000e-08,8.00000000000000e-01,0.00000000000000e+00,7.99926412786540e-01
3.07040000000000e-08,8.00000000000000e-01,0.00000000000000e+00,7.99966095281691e-01
3.10777753646111e-08,8.00000000000000e-01,0.00000000000000e+00,7.99941652601100e-01
3.16956661617645e-08,8.00000000000000e-01,0.00000000000000e+00,7.99955620832176e-01
3.26087179471612e-08,8.00000000000000e-01,0.00000000000000e+00,7.99956621857365e-01
3.44348215179545e-08,8.00000000000000e-01,0.00000000000000e+00,7.99963096136381e-01
3.51000000000000e-08,7.99999999999960e-01,0.00000000000000e+00,7.99966022881751e-01
3.51100000000000e-08,7.19999999999976e-01,0.00000000000000e+00,7.99880190763510e-01
3.51300000000000e-08,5.59999999999953e-01,0.00000000000000e+00,7.99793008315994e-01
3.51700000000000e-08,2.39999999999961e-01,0.00000000000000e+00,8.00730176820847e-01
3.52000000000000e-08,0.00000000000000e+00,0.00000000000000e+00,8.02709325806600e-01
3.52080000000000e-08,0.00000000000000e+00,0.00000000000000e+00,8.03191048421124e-01
3.52240000000000e-08,0.00000000000000e+00,0.00000000000000e+00,8.03698823236271e-01
3.52560000000000e-08,0.00000000000000e+00,0.00000000000000e+00,8.02068789590013e-01
3.53200000000000e-08,0.00000000000000e+00,0.00000000000000e+00,7.88434985239335e-01
3.54480000000000e-08,0.00000000000000e+00,0.00000000000000e+00,7.66761800293666e-01
3.57040000000000e-08,0.00000000000000e+00,0.00000000000000e+00,7.90158381540386e-01
3.61041178605757e-08,0.00000000000000e+00,0.00000000000000e+00,8.03340346309766e-01
3.66797697225619e-08,0.00000000000000e+00,0.00000000000000e+00,7.96148605419110e-01
3.75267419137296e-08,0.00000000000000e+00,0.00000000000000e+00,8.02166273074325e-01
3.91000000000000e-08,0.00000000000000e+00,0.00000000000000e+00,7.97458758332942e-01
3.92693944382336e-08,0.00000000000000e+00,0.00000000000000e+00,7.99269062764162e-01
3.96081833147006e-08,0.00000000000000e+00,0.00000000000000e+00,8.00051861633183e-01
4.02857610676348e-08,0.00000000000000e+00,0.00000000000000e+00,7.99573987226141e-01
4.16409165735032e-08,0.00000000000000e+00,0.00000000000000e+00,8.00012438219720e-01
4.43512275852398e-08,0.00000000000000e+00,0.00000000000000e+00,7.99677395559936e-01
4.50000000000000e-08,0.00000000000000e+00,0.00000000000000e+00,7.99992917081182e-01
4.50100000000000e-08,7.99999999999848e-02,0.00000000000000e+00,8.00048138806763e-01
4.50300000000000e-08,2.40000000000007e-01,0.00000000000000e+00,8.00101567537372e-01
4.50700000000000e-08,5.60000000000000e-01,0.00000000000000e+00,8.00038493902531e-01
4.51000000000000e-08,8.00000000000000e-01,0.00000000000000e+00,7.99864270586026e-01
4.51080000000000e-08,8.00000000000000e-01,0.00000000000000e+00,7.99779121550374e-01
4.51240000000000e-08,8.00000000000000e-01,0.00000000000000e+00,7.99656681837244e-01
4.51560000000000e-08,8.00000000000000e-01,0.00000000000000e+00,7.99582828375704e-01
4.52200000000000e-08,8.00000000000000e-01,0.00000000000000e+00,7.99611667410180e-01
4.53480000000000e-08,8.00000000000000e-01,0.00000000000000e+00,8.01064097606862e-01
4.56040000000000e-08,8.00000000000000e-01,0.00000000000000e+00,8.08187633032744e-01
4.61160000000000e-08,8.00000000000000e-01,0.00000000000000e+00,2.08837267991993e-01
4.66492016328451e-08,8.00000000000000e-01,0.00000000000000e+00,-7.70127605401983e-02
4.75939423942883e-08,8.00000000000000e-01,0.00000000000000e+00,6.05647782699632e-02
4.87202845518171e-08,8.00000000000000e-01,0.00000000000000e+00,-4.21400806101323e-02
5.00000000000000e-08,8.00000000000000e-01,0.00000000000000e+00,3.49420576103115e-02
5.00100000000000e-08,8.00000000000000e-01,7.99999999999848e-02,3.02152066578806e-02
5.00300000000000e-08,8.00000000000000e-01,2.39999999999954e-01,2.26919925198062e-02
5.00700000000000e-08,8.00000000000000e-01,5.60000000000000e-01,1.37225492696946e-02
5.01000000000000e-08,8.00000000000000e-01,8.00000000000000e-01,9.49004651494383e-03
5.01080000000000e-08,8.00000000000000e-01,8.00000000000000e-01,8.64542883839708e-03
5.01240000000000e-08,8.00000000000000e-01,8.00000000000000e-01,7.09525153759284e-03
5.01560000000000e-08,8.00000000000000e-01,8.00000000000000e-01,4.78392931342254e-03
5.02200000000000e-08,8.00000000000000e-01,8.00000000000000e-01,2.09673710350176e-03
5.03480000000000e-08,8.00000000000000e-01,8.00000000000000e-01,2.64541136631130e-04
5.06040000000000e-08,8.00000000000000e-01,8.00000000000000e-01,-5.30885864313373e-05
5.10791932169823e-08,8.00000000000000e-01,8.00000000000000e-01,3.08460634667641e-05
5.20295796509467e-08,8.00000000000000e-01,8.00000000000000e-01,-1.45731546308606e-05
5.39303525188756e-08,8.00000000000000e-01,8.00000000000000e-01,2.14016225801358e-05
5.51000000000000e-08,8.00000000000000e-01,8.00000000000000e-01,-8.39582639657575e-06
5.51100000000000e-08,7.20000000000028e-01,8.00000000000000e-01,-8.78046907942936e-05
5.51300000000000e-08,5.60000000000006e-01,8.00000000000000e-01,-2.27881673306812e-04
5.51700000000000e-08,2.40000000000014e-01,8.00000000000000e-01,-2.41168045756940e-04
5.52000000000000e-08,0.00000000000000e+00,8.00000000000000e-01,3.63365046239655e-05
5.52080000000000e-08,0.00000000000000e+00,8.00000000000000e-01,1.99906529952332e-04
5.52240000000000e-08,0.00000000000000e+00,8.00000000000000e-01,4.17642238450103e-04
5.52560000000000e-08,0.00000000000000e+00,8.00000000000000e-01,3.89468332518975e-04
5.53200000000000e-08,0.00000000000000e+00,8.00000000000000e-01,-6.94527422415006e-04
5.54480000000000e-08,0.00000000000000e+00,8.00000000000000e-01,-2.38753189895259e-03
5.57040000000000e-08,0.00000000000000e+00,8.00000000000000e-01,-5.54247426179353e-04
5.60969307801214e-08,0.00000000000000e+00,8.00000000000000e-01,2.27132334227002e-04
5.67071000896489e-08,0.00000000000000e+00,8.00000000000000e-01,-7.46926486355527e-05
5.76358909290307e-08,0.00000000000000e+00,8.00000000000000e-01,2.44358455957465e-04
5.88239144985405e-08,0.00000000000000e+00,8.00000000000000e-01,-2.85388178727490e-04
6.11999616375602e-08,0.00000000000000e+00,8.00000000000000e-01,3.16187539243791e-04
6.49999616375602e-08,0.00000000000000e+00,8.00000000000000e-01,-3.05583068616447e-04
6.50000000000000e-08,0.00000000000000e+00,8.00000000000000e-01,-3.04834441159897e-04
6.50000767248797e-08,6.13799037731314e-04,8.00000000000000e-01,-3.03000868784903e-04
6.50002301746392e-08,1.84139711319394e-03,8.00000000000000e-01,-2.99606278263760e-04
6.50005370741580e-08,4.29659326411920e-03,8.00000000000000e-01,-2.95437999363185e-04
6.50011508731958e-08,9.20698556596972e-03,8.00000000000000e-01,-2.76761613908924e-04
6.50023784712712e-08,1.90277701696707e-02,8.00000000000000e-01,-2.40347584429673e-04
6.50048336674221e-08,3.86693393770728e-02,8.00000000000000e-01,-1.71462705713415e-04
6.50097440597240e-08,7.79524777918769e-02,8.00000000000000e-01,-4.78198898556520e-05
6.50195648443277e-08,1.56518754621485e-01,8.00000000000000e-01,1.36401526693142e-04
6.50392064135351e-08,3.13651308280702e-01,8.00000000000000e-01,3.90914619784521e-04
6.50784895519499e-08,6.27916415599135e-01,8.00000000000000e-01,6.36554825134916e-04
6.51000000000000e-08,7.99999999999954e-01,8.00000000000000e-01,4.54662026576486e-04
6.51078566276830e-08,8.00000000000000e-01,8.00000000000000e-01,1.67235633457177e-04
6.51235698830489e-08,8.00000000000000e-01,8.00000000000000e-01,-5.47993998916751e-04
6.51549963937807e-08,8.00000000000000e-01,8.00000000000000e-01,-2.36345906998300e-03
6.52178494152444e-08,8.00000000000000e-01,8.00000000000000e-01,-5.33688665624590e-03
6.53435554581718e-08,8.00000000000000e-01,8.00000000000000e-01,1.12210244828082e-02
6.55949675440265e-08,8.00000000000000e-01,8.00000000000000e-01,4.16687247706289e-01
6.60977917157360e-08,8.00000000000000e-01,8.00000000000000e-01,8.24157641534252e-01
6.66801244214228e-08,8.00000000000000e-01,8.00000000000000e-01,7.81768233921820e-01
6.78447898327963e-08,8.00000000000000e-01,8.00000000000000e-01,8.17253929102270e-01
6.91346089417981e-08,8.00000000000000e-01,8.00000000000000e-01,7.83680167200729e-01
7.01000000000000e-08,8.00000000000000e-01,8.00000000000000e-01,8.14783942226054e-01
7.01100000000000e-08,8.00000000000000e-01,7.20000000000015e-01,8.09928778863105e-01
7.01300000000000e-08,8.00000000000000e-01,5.60000000000046e-01,8.03403641633022e-01
7.01700000000000e-08,8.00000000000000e-01,2.40000000000106e-01,7.99995743328327e-01
7.02000000000000e-08,8.00000000000000e-01,4.57411886145564e-14,7.99957465032887e-01
7.02080000000000e-08,8.00000000000000e-01,0.00000000000000e+00,7.99940992875778e-01
7.02240000000000e-08,8.00000000000000e-01,0.00000000000000e+00,7.99932773503611e-01
7.02560000000000e-08,8.00000000000000e-01,0.00000000000000e+00,7.99919272717946e-01
7.03200000000000e-08,8.00000000000000e-01,0.00000000000000e+00,7.99912089719883e-01
7.04480000000000e-08,8.00000000000000e-01,0.00000000000000e+00,7.99928452046641e-01
7.07040000000000e-08,8.00000000000000e-01,0.00000000000000e+00,7.99968672339193e-01
7.10762290593258e-08,8.00000000000000e-01,0.00000000000000e+00,7.99946034198495e-01
7.16943673561944e-08,8.00000000000000e-01,0.00000000000000e+00,7.99957038236059e-01
7.26007874101638e-08,8.00000000000000e-01,0.00000000000000e+00,7.99959564234544e-01
7.44136275181027e-08,8.00000000000000e-01,0.00000000000000e+00,7.99963815834473e-01
7.51000000000000e-08,8.00000000000000e-01,0.00000000000000e+00,7.99967928402822e-01
7.51100000000000e-08,7.20000000000081e-01,0.00000000000000e+00,7.99880580350992e-01
7.51300000000000e-08,5.60000000000112e-01,0.00000000000000e+00,7.99792121223359e-01
7.51700000000000e-08,2.40000000000172e-01,0.00000000000000e+00,8.00731090792330e-01
7.52000000000000e-08,1.11910480882216e-13,0.00000000000000e+00,8.02713700258353e-01
7.52080000000000e-08,0.00000000000000e+00,0.00000000000000e+00,8.03197789092283e-01
7.52240000000000e-08,0.00000000000000e+00,0.00000000000000e+00,8.03714663882641e-01
7.52560000000000e-08,0.00000000000000e+00,0.00000000000000e+00,8.02140337273797e-01
7.53200000000000e-08,0.00000000000000e+00,0.00000000000000e+00,7.88619244371205e-01
7.54480000000000e-08,0.00000000000000e+00,0.00000000000000e+00,7.66864014415660e-01
7.57040000000000e-08,0.00000000000000e+00,0.00000000000000e+00,7.90102478855423e-01
7.61041305258188e-08,0.00000000000000e+00,0.00000000000000e+00,8.03380856855186e-01
7.66798003324941e-08,0.00000000000000e+00,0.00000000000000e+00,7.96118243658866e-01
7.75267814240524e-08,0.00000000000000e+00,0.00000000000000e+00,8.02191469236358e-01
7.81000000000000e-08,0.00000000000000e+00,0.00000000000000e+00,7.97775711781748e-01
7.82693962183117e-08,0.00000000000000e+00,0.00000000000000e+00,7.99281537507301e-01
7.86081886549350e-08,0.00000000000000e+00,0.00000000000000e+00,7.99947262733448e-01
7.92857735281816e-08,0.00000000000000e+00,0.00000000000000e+00,7.99571168399665e-01
8.06409432746749e-08,0.00000000000000e+00,0.00000000000000e+00,7.99958157215464e-01
8.33512827676615e-08,0.00000000000000e+00,0.00000000000000e+00,7.99697917512524e-01
8.50000000000000e-08,0.00000000000000e+00,0.00000000000000e+00,7.99991993321707e-01
8.50100000000000e-08,7.99999999999848e-02,0.00000000000000e+00,8.00056879662197e-01
8.50300000000000e-08,2.39999999999954e-01,0.00000000000000e+00,8.00120854492766e-01
8.50700000000000e-08,5.59999999999894e-01,0.00000000000000e+00,8.00051842823545e-01
8.51000000000000e-08,7.99999999999954e-01,0.00000000000000e+00,7.99870514185967e-01
8.51080000000000e-08,8.00000000000000e-01,0.00000000000000e+00,7.99786090895045e-01
8.51240000000000e-08,8.00000000000000e-01,0.00000000000000e+00,7.99665310162447e-01
8.51560000000000e-08,8.00000000000000e-01,0.00000000000000e+00,7.99587425551780e-01
8.52200000000000e-08,8.00000000000000e-01,0.00000000000000e+00,7.99601860383953e-01
8.53480000000000e-08,8.00000000000000e-01,0.00000000000000e+00,8.01072268250759e-01
8.56040000000000e-08,8.00000000000000e-01,0.00000000000000e+00,8.08121130336610e-01
8.61159999999999e-08,8.00000000000000e-01,0.00000000000000e+00,2.08734007589914e-01
8.66495059383114e-08,8.00000000000000e-01,0.00000000000000e+00,-7.70373713996949e-02
8.75943104613711e-08,8.00000000000000e-01,0.00000000000000e+00,6.06048637723121e-02
8.87215161808908e-08,8.00000000000000e-01,0.00000000000000e+00,-4.21762592576554e-02
9.00000000000000e-08,8.00000000000000e-01,0.00000000000000e+00,3.49655201449030e-02
9.00100000000000e-08,8.00000000000000e-01,7.99999999999848e-02,3.02338245319955e-02
9.00300000000000e-08,8.00000000000000e-01,2.39999999999954e-01,2.27038874131458e-02
9.00700000000000e-08,8.00000000000000e-01,5.59999999999894e-01,1.37291456727152e-02
9.01000000000000e-08,8.00000000000000e-01,7.99999999999954e-01,9.49457613951751e-03
9.01080000000000e-08,8.00000000000000e-01,8.00000000000000e-01,8.64955353124282e-03
9.01240000000000e-08,8.00000000000000e-01,8.00000000000000e-01,7.09863407975082e-03
9.01560000000000e-08,8.00000000000000e-01,8.00000000000000e-01,4.78621505069874e-03
9.02200000000000e-08,8.00000000000000e-01,8.00000000000000e-01,2.09774228841671e-03
9.03480000000000e-08,8.00000000000000e-01,8.00000000000000e-01,2.64673036718628e-04
9.06040000000000e-08,8.00000000000000e-01,8.00000000000000e-01,-5.31061241638882e-05
9.10791977792390e-08,8.00000000000000e-01,8.00000000000000e-01,3.08675322145784e-05
9.20295933377172e-08,8.00000000000000e-01,8.00000000000000e-01,-1.45728274908719e-05
9.39303844546735e-08,8.00000000000000e-01,8.00000000000000e-01,2.14175753294682e-05
9.51000000000000e-08,8.00000000000000e-01,8.00000000000000e-01,-8.39322644586964e-06
9.51100000000000e-08,7.20000000000081e-01,8.00000000000000e-01,-8.78000951718139e-05
9.51300000000000e-08,5.60000000000112e-01,8.00000000000000e-01,-2.27877393730813e-04
9.51700000000000e-08,2.40000000000172e-01,8.00000000000000e-01,-2.41162008160975e-04
9.52000000000000e-08,1.11910480882216e-13,8.00000000000000e-01,3.63524139026655e-05
9.52080000000000e-08,0.00000000000000e+00,8.00000000000000e-01,1.99930379580895e-04
9.52240000000000e-08,0.00000000000000e+00,8.00000000000000e-01,4.17695160379955e-04
9.52560000000000e-08,0.00000000000000e+00,8.00000000000000e-01,3.89674428695044e-04
9.53200000000000e-08,0.00000000000000e+00,8.00000000000000e-01,-6.93884758664394e-04
9.54480000000000e-08,0.00000000000000e+00,8.00000000000000e-01,-2.38564252721972e-03
9.57040000000000e-08,0.00000000000000e+00,8.00000000000000e-01,-5.53627356350367e-04
9.60970773035607e-08,0.00000000000000e+00,8.00000000000000e-01,2.26565158010224e-04
9.67071857845034e-08,0.00000000000000e+00,8.00000000000000e-01,-7.42403960036376e-05
9.76366556907036e-08,0.00000000000000e+00,8.00000000000000e-01,2.43831547379550e-04
9.88245871658482e-08,0.00000000000000e+00,8.00000000000000e-01,-2.84924073683910e-04
1.01200450116137e-07,0.00000000000000e+00,8.00000000000000e-01,3.15755294338037e-04
1.05000000000000e-07,0.00000000000000e+00,8.00000000000000e-01,-3.05165833239371e-04
1.05010000000000e-07,7.99999999999848e-02,8.00000000000000e-01,-7.75348570477563e-05
1.05030000000000e-07,2.39999999999954e-01,8.00000000000000e-01,2.72348538107273e-04
1.05070000000000e-07,5.59999999999894e-01,8.00000000000000e-01,6.23454144360214e-04
1.05100000000000e-07,7.99999999999954e-01,8.00000000000000e-01,4.24186901347122e-04
1.05108000000000e-07,8.00000000000000e-01,8.00000000000000e-01,1.33897725014764e-04
1.05124000000000e-07,8.00000000000000e-01,8.00000000000000e-01,-5.92793141912046e-04
1.05156000000000e-07,8.00000000000000e-01,8.00000000000000e-01,-2.43597331574005e-03
1.05220000000000e-07,8.00000000000000e-01,8.00000000000000e-01,-5.40643194268450e-03
