Time,v(clk),v(data),v(out),v(reset)
1.00000000000000e-08,8.00000000000000e-01,0.00000000000000e+00,3.22519972910055e-05,0.00000000000000e+00
1.00100000000000e-08,8.00000000000000e-01,7.99999999999981e-02,2.73284171642130e-05,0.00000000000000e+00
1.00300000000000e-08,8.00000000000000e-01,2.39999999999994e-01,2.06532649930924e-05,0.00000000000000e+00
1.00700000000000e-08,8.00000000000000e-01,5.59999999999987e-01,1.47560706776698e-05,0.00000000000000e+00
1.01000000000000e-08,8.00000000000000e-01,7.99999999999994e-01,1.36896059797567e-05,0.00000000000000e+00
1.01080000000000e-08,8.00000000000000e-01,8.00000000000000e-01,1.37875419848332e-05,0.00000000000000e+00
1.01240000000000e-08,8.00000000000000e-01,8.00000000000000e-01,1.43911277573627e-05,0.00000000000000e+00
1.01560000000000e-08,8.00000000000000e-01,8.00000000000000e-01,1.55072578927676e-05,0.00000000000000e+00
1.02200000000000e-08,8.00000000000000e-01,8.00000000000000e-01,1.52141238489167e-05,0.00000000000000e+00
1.03480000000000e-08,8.00000000000000e-01,8.00000000000000e-01,1.43327853151798e-05,0.00000000000000e+00
1.06040000000000e-08,8.00000000000000e-01,8.00000000000000e-01,1.33092184905377e-05,0.00000000000000e+00
1.11160000000000e-08,8.00000000000000e-01,8.00000000000000e-01,1.34123918301074e-05,0.00000000000000e+00
1.21400000000000e-08,8.00000000000000e-01,8.00000000000000e-01,1.25834567572787e-05,0.00000000000000e+00
1.41880000000000e-08,8.00000000000000e-01,8.00000000000000e-01,1.21456883555339e-05,0.00000000000000e+00
1.51000000000000e-08,8.00000000000000e-01,8.00000000000000e-01,1.17186833138334e-05,0.00000000000000e+00
1.51100000000000e-08,7.19999999999989e-01,8.00000000000000e-01,1.90676262746700e-04,8.00000000000113e-02
1.51300000000000e-08,5.59999999999993e-01,8.00000000000000e-01,3.34918467930129e-04,2.40000000000007e-01
1.51700000000000e-08,2.40000000000000e-01,8.00000000000000e-01,2.87190146750473e-04,5.60000000000000e-01
1.52000000000000e-08,0.00000000000000e+00,8.00000000000000e-01,2.80778350676768e-04,8.00000000000000e-01
1.52080000000000e-08,0.00000000000000e+00,8.00000000000000e-01,2.38033523682318e-04,8.00000000000000e-01
1.52240000000000e-08,0.00000000000000e+00,8.00000000000000e-01,1.59059593023037e-04,8.00000000000000e-01
1.52560000000000e-08,0.00000000000000e+00,8.00000000000000e-01,-8.55586324724489e-06,8.00000000000000e-01
1.53200000000000e-08,0.00000000000000e+00,8.00000000000000e-01,-3.04762793029607e-04,8.00000000000000e-01
1.54480000000000e-08,0.00000000000000e+00,8.00000000000000e-01,-2.54969116807335e-04,8.00000000000000e-01
1.56588537347513e-08,0.00000000000000e+00,8.00000000000000e-01,-1.96230862287483e-04,8.00000000000000e-01
1.60121204680819e-08,0.00000000000000e+00,8.00000000000000e-01,1.30661486258770e-04,8.00000000000000e-01
1.64464105437754e-08,0.00000000000000e+00,8.00000000000000e-01,1.95174808540760e-04,8.00000000000000e-01
1.73149906951623e-08,0.00000000000000e+00,8.00000000000000e-01,-2.75133423410600e-04,8.00000000000000e-01
1.82560297773785e-08,0.00000000000000e+00,8.00000000000000e-01,3.10128443066611e-04,8.00000000000000e-01
2.01381079418108e-08,0.00000000000000e+00,8.00000000000000e-01,-2.91029866293723e-04,8.00000000000000e-01
2.29448276218867e-08,0.00000000000000e+00,8.00000000000000e-01,3.07628040034277e-04,8.00000000000000e-01
2.50000000000000e-08,0.00000000000000e+00,8.00000000000000e-01,-2.84394225559843e-04,8.00000000000000e-01
2.50100000000000e-08,7.99999999999848e-02,8.00000000000000e-01,-9.87857973884926e-05,8.00000000000000e-01
2.50300000000000e-08,2.40000000000007e-01,8.00000000000000e-01,1.84485004954167e-04,8.00000000000000e-01
2.50700000000000e-08,5.60000000000000e-01,8.00000000000000e-01,3.54121698822797e-04,8.00000000000000e-01
2.51000000000000e-08,8.00000000000000e-01,8.00000000000000e-01,-7.91372402535746e-04,8.00000000000000e-01
2.51080000000000e-08,8.00000000000000e-01,8.00000000000000e-01,-1.51617397726958e-03,8.00000000000000e-01
2.51240000000000e-08,8.00000000000000e-01,8.00000000000000e-01,-2.96876780229803e-03,8.00000000000000e-01
2.51560000000000e-08,8.00000000000000e-01,8.00000000000000e-01,-5.23831274993149e-03,8.00000000000000e-01
2.52200000000000e-08,8.00000000000000e-01,8.00000000000000e-01,1.71557418589375e-03,8.00000000000000e-01
2.53480000000000e-08,8.00000000000000e-01,8.00000000000000e-01,2.44705310127570e-01,8.00000000000000e-01
2.56040000000000e-08,8.00000000000000e-01,8.00000000000000e-01,7.78763192834230e-01,8.00000000000000e-01
2.60240539261721e-08,8.00000000000000e-01,8.00000000000000e-01,8.06692618654986e-01,8.00000000000000e-01
2.65896588472356e-08,8.00000000000000e-01,8.00000000000000e-01,7.93702777471166e-01,8.00000000000000e-01
2.73943091406266e-08,8.00000000000000e-01,8.00000000000000e-01,8.05364032819250e-01,8.00000000000000e-01
2.85293292503370e-08,8.00000000000000e-01,8.00000000000000e-01,7.94683296785355e-01,8.00000000000000e-01
3.07993694697577e-08,8.00000000000000e-01,8.00000000000000e-01,8.04927611990079e-01,8.00000000000000e-01
3.45993694697577e-08,8.00000000000000e-01,8.00000000000000e-01,7.94959950934708e-01,8.00000000000000e-01
3.51000000000000e-08,7.99999999999960e-01,8.00000000000000e-01,8.04264864425819e-01,8.00000000000000e-01
3.51100000000000e-08,7.19999999999976e-01,8.00000000000000e-01,8.02546646259573e-01,8.00000000000000e-01
3.51300000000000e-08,5.59999999999953e-01,8.00000000000000e-01,8.00391399258861e-01,8.00000000000000e-01
3.51700000000000e-08,2.39999999999961e-01,8.00000000000000e-01,8.00924375628173e-01,8.00000000000000e-01
3.52000000000000e-08,0.00000000000000e+00,8.00000000000000e-01,8.03064882490502e-01,8.00000000000000e-01
3.52080000000000e-08,0.00000000000000e+00,8.00000000000000e-01,8.03343850141605e-01,8.00000000000000e-01
3.52240000000000e-08,0.00000000000000e+00,8.00000000000000e-01,8.02874257666660e-01,8.00000000000000e-01
3.52560000000000e-08,0.00000000000000e+00,8.00000000000000e-01,7.95463700047138e-01,8.00000000000000e-01
3.53200000000000e-08,0.00000000000000e+00,8.00000000000000e-01,7.73240251320755e-01,8.00000000000000e-01
3.54480000000000e-08,0.00000000000000e+00,8.00000000000000e-01,7.78490151437471e-01,8.00000000000000e-01
3.57040000000000e-08,0.00000000000000e+00,8.00000000000000e-01,8.04849470098507e-01,8.00000000000000e-01
3.60539322640227e-08,0.00000000000000e+00,8.00000000000000e-01,7.95125010727055e-01,8.00000000000000e-01
3.66714961406963e-08,0.00000000000000e+00,8.00000000000000e-01,8.03161190564064e-01,8.00000000000000e-01
3.79066238940435e-08,0.00000000000000e+00,8.00000000000000e-01,7.96507094670416e-01,8.00000000000000e-01
4.03768794007380e-08,0.00000000000000e+00,8.00000000000000e-01,8.02945216879338e-01,8.00000000000000e-01
4.41768794007380e-08,0.00000000000000e+00,8.00000000000000e-01,7.96839064938263e-01,8.00000000000000e-01
4.50000000000000e-08,0.00000000000000e+00,8.00000000000000e-01,8.02515360421597e-01,8.00000000000000e-01
4.50100000000000e-08,7.99999999999848e-02,8.00000000000000e-01,8.01664265352686e-01,7.20000000000015e-01
4.50300000000000e-08,2.40000000000007e-01,8.00000000000000e-01,8.00503625183447e-01,5.59999999999993e-01
4.50700000000000e-08,5.60000000000000e-01,8.00000000000000e-01,8.03054218299111e-01,2.40000000000000e-01
4.51000000000000e-08,8.00000000000000e-01,8.00000000000000e-01,8.10095305186631e-01,0.00000000000000e+00
4.51080000000000e-08,8.00000000000000e-01,8.00000000000000e-01,8.12280064319918e-01,0.00000000000000e+00
4.51240000000000e-08,8.00000000000000e-01,8.00000000000000e-01,8.16168416461966e-01,0.00000000000000e+00
4.51560000000000e-08,8.00000000000000e-01,8.00000000000000e-01,8.23077153188106e-01,0.00000000000000e+00
4.52200000000000e-08,8.00000000000000e-01,8.00000000000000e-01,7.27051273089837e-01,0.00000000000000e+00
4.53480000000000e-08,8.00000000000000e-01,8.00000000000000e-01,2.34930289961955e-01,0.00000000000000e+00
4.55540008002871e-08,8.00000000000000e-01,8.00000000000000e-01,-4.27836755942479e-02,0.00000000000000e+00
4.58625008778540e-08,8.00000000000000e-01,8.00000000000000e-01,2.47051330507445e-02,0.00000000000000e+00
4.64435928091531e-08,8.00000000000000e-01,8.00000000000000e-01,-1.78090179673218e-02,0.00000000000000e+00
4.70785433192220e-08,8.00000000000000e-01,8.00000000000000e-01,1.42724416234214e-02,0.00000000000000e+00
4.83484443393597e-08,8.00000000000000e-01,8.00000000000000e-01,-1.23838992280613e-02,0.00000000000000e+00
5.01000000000000e-08,8.00000000000000e-01,7.99999999999954e-01,1.16338440583463e-02,0.00000000000000e+00
5.03539802040275e-08,8.00000000000000e-01,8.00000000000000e-01,1.40899037225412e-03,0.00000000000000e+00
5.08619406120826e-08,8.00000000000000e-01,8.00000000000000e-01,-9.51766782189611e-04,0.00000000000000e+00
5.18778614281928e-08,8.00000000000000e-01,8.00000000000000e-01,8.13835099273318e-04,0.00000000000000e+00
5.39097030604132e-08,8.00000000000000e-01,8.00000000000000e-01,-7.25169170884456e-04,0.00000000000000e+00
5.51000000000000e-08,8.00000000000000e-01,8.00000000000000e-01,6.41879937250192e-04,0.00000000000000e+00
5.51100000000000e-08,7.20000000000028e-01,8.00000000000000e-01,6.81010192376277e-04,7.99999999999716e-02
5.51300000000000e-08,5.60000000000006e-01,8.00000000000000e-01,6.34968210300541e-04,2.39999999999994e-01
5.51700000000000e-08,2.40000000000014e-01,8.00000000000000e-01,4.16848491034405e-04,5.59999999999987e-01
5.52000000000000e-08,0.00000000000000e+00,8.00000000000000e-01,3.41039710426684e-04,8.00000000000000e-01
5.52080000000000e-08,0.00000000000000e+00,8.00000000000000e-01,2.83419642587573e-04,8.00000000000000e-01
5.52240000000000e-08,0.00000000000000e+00,8.00000000000000e-01,1.59433657973163e-04,8.00000000000000e-01
5.52560000000000e-08,0.00000000000000e+00,8.00000000000000e-01,-3.38877676383388e-04,8.00000000000000e-01
5.53200000000000e-08,0.00000000000000e+00,8.00000000000000e-01,-1.38159672405631e-03,8.00000000000000e-01
5.54480000000000e-08,0.00000000000000e+00,8.00000000000000e-01,-7.55981198959345e-04,8.00000000000000e-01
5.56413613950367e-08,0.00000000000000e+00,8.00000000000000e-01,4.79918221398028e-04,8.00000000000000e-01
5.60043501253075e-08,0.00000000000000e+00,8.00000000000000e-01,-5.20915533301532e-04,8.00000000000000e-01
5.64118644185742e-08,0.00000000000000e+00,8.00000000000000e-01,4.80080052696581e-04,8.00000000000000e-01
5.72268930051074e-08,0.00000000000000e+00,8.00000000000000e-01,-3.66231111709756e-04,8.00000000000000e-01
5.81189774932114e-08,0.00000000000000e+00,8.00000000000000e-01,3.13969462420995e-04,8.00000000000000e-01
5.99031464694193e-08,0.00000000000000e+00,8.00000000000000e-01,-2.61396489418402e-04,8.00000000000000e-01
6.25271096576980e-08,0.00000000000000e+00,8.00000000000000e-01,2.61157631658449e-04,8.00000000000000e-01
6.50000000000000e-08,0.00000000000000e+00,8.00000000000000e-01,-2.20648618478190e-04,8.00000000000000e-01
6.50100000000000e-08,7.99999999999848e-02,8.00000000000000e-01,-6.78859314731939e-05,8.00000000000000e-01
6.50300000000000e-08,2.39999999999954e-01,8.00000000000000e-01,1.57806155011278e-04,8.00000000000000e-01
6.50700000000000e-08,5.59999999999894e-01,8.00000000000000e-01,2.99446744307298e-04,8.00000000000000e-01
6.51000000000000e-08,7.99999999999954e-01,8.00000000000000e-01,-8.33854662124989e-04,8.00000000000000e-01
6.51080000000000e-08,8.00000000000000e-01,8.00000000000000e-01,-1.55819728590242e-03,8.00000000000000e-01
6.51240000000000e-08,8.00000000000000e-01,8.00000000000000e-01,-3.00751615427231e-03,8.00000000000000e-01
6.51560000000000e-08,8.00000000000000e-01,8.00000000000000e-01,-5.26836271942502e-03,8.00000000000000e-01
6.52200000000000e-08,8.00000000000000e-01,8.00000000000000e-01,1.53403745291002e-03,8.00000000000000e-01
6.53480000000000e-08,8.00000000000000e-01,8.00000000000000e-01,2.43397547882722e-01,8.00000000000000e-01
6.56040000000000e-08,8.00000000000000e-01,8.00000000000000e-01,7.78346759206726e-01,8.00000000000000e-01
6.60253287958866e-08,8.00000000000000e-01,8.00000000000000e-01,8.06869060811707e-01,8.00000000000000e-01
6.65901788223021e-08,8.00000000000000e-01,8.00000000000000e-01,7.93530582224178e-01,8.00000000000000e-01
6.73965207967004e-08,8.00000000000000e-01,8.00000000000000e-01,8.05514178416931e-01,8.00000000000000e-01
6.85314112827299e-08,8.00000000000000e-01,8.00000000000000e-01,7.94534104522603e-01,8.00000000000000e-01
7.08011922547888e-08,8.00000000000000e-01,8.00000000000000e-01,8.05066958424553e-01,8.00000000000000e-01
7.46011922547888e-08,8.00000000000000e-01,8.00000000000000e-01,7.94817098645485e-01,8.00000000000000e-01
7.51000000000000e-08,8.00000000000000e-01,8.00000000000000e-01,8.04385401642304e-01,8.00000000000000e-01
7.51100000000000e-08,7.20000000000081e-01,8.00000000000000e-01,8.02617492256436e-01,8.00000000000000e-01
7.51300000000000e-08,5.60000000000112e-01,8.00000000000000e-01,8.00402053625530e-01,8.00000000000000e-01
7.51700000000000e-08,2.40000000000172e-01,8.00000000000000e-01,8.00922199245563e-01,8.00000000000000e-01
7.52000000000000e-08,1.11910480882216e-13,8.00000000000000e-01,8.03064734460831e-01,8.00000000000000e-01
7.52080000000000e-08,0.00000000000000e+00,8.00000000000000e-01,8.03343436473482e-01,8.00000000000000e-01
7.52240000000000e-08,0.00000000000000e+00,8.00000000000000e-01,8.02872957422971e-01,8.00000000000000e-01
7.52560000000000e-08,0.00000000000000e+00,8.00000000000000e-01,7.95459907992490e-01,8.00000000000000e-01
7.53200000000000e-08,0.00000000000000e+00,8.00000000000000e-01,7.73236122644999e-01,8.00000000000000e-01
7.54480000000000e-08,0.00000000000000e+00,8.00000000000000e-01,7.78491008271706e-01,8.00000000000000e-01
7.57040000000000e-08,0.00000000000000e+00,8.00000000000000e-01,8.04849316757323e-01,8.00000000000000e-01
7.60539271373679e-08,0.00000000000000e+00,8.00000000000000e-01,7.95125072204400e-01,8.00000000000000e-01
7.66714992387065e-08,0.00000000000000e+00,8.00000000000000e-01,8.03161112067440e-01,8.00000000000000e-01
7.79066434413836e-08,0.00000000000000e+00,8.00000000000000e-01,7.96507157343952e-01,8.00000000000000e-01
8.03769318467380e-08,0.00000000000000e+00,8.00000000000000e-01,8.02945156562783e-01,8.00000000000000e-01
8.41769318467380e-08,0.00000000000000e+00,8.00000000000000e-01,7.96839123735884e-01,8.00000000000000e-01
8.50000000000000e-08,0.00000000000000e+00,8.00000000000000e-01,8.02515282682294e-01,8.00000000000000e-01
8.50100000000000e-08,7.99999999999848e-02,8.00000000000000e-01,8.01664265153904e-01,7.20000000000015e-01
8.50300000000000e-08,2.39999999999954e-01,8.00000000000000e-01,8.00503585385920e-01,5.60000000000046e-01
8.50700000000000e-08,5.59999999999894e-01,8.00000000000000e-01,8.03054228439227e-01,2.40000000000106e-01
8.51000000000000e-08,7.99999999999954e-01,8.00000000000000e-01,8.10099675492745e-01,4.57411886145564e-14
8.51080000000000e-08,8.00000000000000e-01,8.00000000000000e-01,8.12283627677941e-01,0.00000000000000e+00
8.51240000000000e-08,8.00000000000000e-01,8.00000000000000e-01,8.16170985060817e-01,0.00000000000000e+00
8.51560000000000e-08,8.00000000000000e-01,8.00000000000000e-01,8.23078470741435e-01,0.00000000000000e+00
8.52200000000000e-08,8.00000000000000e-01,8.00000000000000e-01,7.27027678754057e-01,0.00000000000000e+00
8.53480000000000e-08,8.00000000000000e-01,8.00000000000000e-01,2.34896422763177e-01,0.00000000000000e+00
8.55539428006461e-08,8.00000000000000e-01,8.00000000000000e-01,-4.27588551053112e-02,0.00000000000000e+00
8.58624685130176e-08,8.00000000000000e-01,8.00000000000000e-01,2.46918048988345e-02,0.00000000000000e+00
8.64434961345760e-08,8.00000000000000e-01,8.00000000000000e-01,-1.77993020564225e-02,0.00000000000000e+00
8.70784546266112e-08,8.00000000000000e-01,8.00000000000000e-01,1.42647131138852e-02,0.00000000000000e+00
8.83483716106815e-08,8.00000000000000e-01,8.00000000000000e-01,-1.23773455233522e-02,0.00000000000000e+00
9.01000000000000e-08,8.00000000000000e-01,7.99999999999954e-01,1.16277960542233e-02,0.00000000000000e+00
9.03539833968141e-08,8.00000000000000e-01,8.00000000000000e-01,1.40815491615793e-03,0.00000000000000e+00
9.08619501904422e-08,8.00000000000000e-01,8.00000000000000e-01,-9.51204103464266e-04,0.00000000000000e+00
9.18778837776985e-08,8.00000000000000e-01,8.00000000000000e-01,8.13369009496781e-04,0.00000000000000e+00
9.39097509522111e-08,8.00000000000000e-01,8.00000000000000e-01,-7.24745706725957e-04,0.00000000000000e+00
9.51000000000000e-08,8.00000000000000e-01,8.00000000000000e-01,6.41514546258219e-04,0.00000000000000e+00
9.51100000000000e-08,7.20000000000081e-01,8.00000000000000e-01,6.80717966037886e-04,7.99999999999187e-02
9.51300000000000e-08,5.60000000000112e-01,8.00000000000000e-01,6.34783778120637e-04,2.39999999999888e-01
9.51700000000000e-08,2.40000000000172e-01,8.00000000000000e-01,4.16767474435122e-04,5.59999999999828e-01
9.52000000000000e-08,1.11910480882216e-13,8.00000000000000e-01,3.40996918224284e-04,7.99999999999888e-01
9.52080000000000e-08,0.00000000000000e+00,8.00000000000000e-01,2.83382906900151e-04,8.00000000000000e-01
9.52240000000000e-08,0.00000000000000e+00,8.00000000000000e-01,1.59409107086339e-04,8.00000000000000e-01
9.52560000000000e-08,0.00000000000000e+00,8.00000000000000e-01,-3.38879585463969e-04,8.00000000000000e-01
9.53200000000000e-08,0.00000000000000e+00,8.00000000000000e-01,-1.38154385602727e-03,8.00000000000000e-01
9.54480000000000e-08,0.00000000000000e+00,8.00000000000000e-01,-7.55946458190590e-04,8.00000000000000e-01
9.56413569634435e-08,0.00000000000000e+00,8.00000000000000e-01,4.79870965240378e-04,8.00000000000000e-01
9.60043488671279e-08,0.00000000000000e+00,8.00000000000000e-01,-5.20883115252817e-04,8.00000000000000e-01
9.64118565355641e-08,0.00000000000000e+00,8.00000000000000e-01,4.80074089674558e-04,8.00000000000000e-01
9.72268718724364e-08,0.00000000000000e+00,8.00000000000000e-01,-3.66227808814797e-04,8.00000000000000e-01
9.81189432207472e-08,0.00000000000000e+00,8.00000000000000e-01,3.13967385142824e-04,8.00000000000000e-01
9.99030859173687e-08,0.00000000000000e+00,8.00000000000000e-01,-2.61394692183452e-04,8.00000000000000e-01
1.02526992769918e-07,0.00000000000000e+00,8.00000000000000e-01,2.61155746521663e-04,8.00000000000000e-01
1.05000000000000e-07,0.00000000000000e+00,8.00000000000000e-01,-2.20648117862471e-04,8.00000000000000e-01
1.05010000000000e-07,7.99999999999848e-02,8.00000000000000e-01,-6.78870755263378e-05,8.00000000000000e-01
1.05030000000000e-07,2.39999999999954e-01,8.00000000000000e-01,1.57805268693578e-04,8.00000000000000e-01
1.05070000000000e-07,5.59999999999894e-01,8.00000000000000e-01,2.99448034887545e-04,8.00000000000000e-01
1.05100000000000e-07,7.99999999999954e-01,8.00000000000000e-01,-8.33852540232959e-04,8.00000000000000e-01
1.05108000000000e-07,8.00000000000000e-01,8.00000000000000e-01,-1.55819482226824e-03,8.00000000000000e-01
1.05124000000000e-07,8.00000000000000e-01,8.00000000000000e-01,-3.00751347693647e-03,8.00000000000000e-01
1.05156000000000e-07,8.00000000000000e-01,8.00000000000000e-01,-5.26836089730737e-03,8.00000000000000e-01
1.05220000000000e-07,8.00000000000000e-01,8.00000000000000e-01,1.53403292951157e-03,8.00000000000000e-01
1.05348000000000e-07,8.00000000000000e-01,8.00000000000000e-01,2.43397508885300e-01,8.00000000000000e-01
1.05604000000000e-07,8.00000000000000e-01,8.00000000000000e-01,7.78346746801141e-01,8.00000000000000e-01
1.06025328831333e-07,8.00000000000000e-01,8.00000000000000e-01,8.06869066054651e-01,8.00000000000000e-01
1.06590178836096e-07,8.00000000000000e-01,8.00000000000000e-01,7.93530577103630e-01,8.00000000000000e-01
1.07396520858358e-07,8.00000000000000e-01,8.00000000000000e-01,8.05514182883077e-01,8.00000000000000e-01
1.08531411340451e-07,8.00000000000000e-01,8.00000000000000e-01,7.94534100084888e-01,8.00000000000000e-01
1.10801192304638e-07,8.00000000000000e-01,8.00000000000000e-01,8.05066962567522e-01,8.00000000000000e-01
1.14601192304638e-07,8.00000000000000e-01,8.00000000000000e-01,7.94817094395785e-01,8.00000000000000e-01
1.15100000000000e-07,8.00000000000000e-01,8.00000000000000e-01,8.04385405234827e-01,8.00000000000000e-01
