Time,v(clk),v(data),v(out)
1.00000000000000e-08,6.00000000000000e-01,0.00000000000000e+00,3.93406653604648e-05
1.00100000000000e-08,6.00000000000000e-01,5.99999999999985e-02,3.38273007781248e-05
1.00300000000000e-08,6.00000000000000e-01,1.79999999999996e-01,2.43952672477343e-05
1.00700000000000e-08,6.00000000000000e-01,4.19999999999990e-01,1.18339115459387e-05
1.01000000000000e-08,6.00000000000000e-01,5.99999999999995e-01,2.45427970104600e-06
1.01080000000000e-08,6.00000000000000e-01,6.00000000000000e-01,2.03957674550087e-06
1.01240000000000e-08,6.00000000000000e-01,6.00000000000000e-01,2.37752238033129e-06
1.01560000000000e-08,6.00000000000000e-01,6.00000000000000e-01,4.38035369031142e-06
1.02200000000000e-08,6.00000000000000e-01,6.00000000000000e-01,7.01948926769280e-06
1.03480000000000e-08,6.00000000000000e-01,6.00000000000000e-01,1.64546811440638e-06
1.06040000000000e-08,6.00000000000000e-01,6.00000000000000e-01,1.64110327078096e-06
1.11160000000000e-08,6.00000000000000e-01,6.00000000000000e-01,2.49840102444377e-06
1.21400000000000e-08,6.00000000000000e-01,6.00000000000000e-01,1.38176947052848e-06
1.41880000000000e-08,6.00000000000000e-01,6.00000000000000e-01,1.98489949857026e-06
1.51000000000000e-08,6.00000000000000e-01,6.00000000000000e-01,1.07057285205457e-06
1.51100000000000e-08,5.39999999999991e-01,6.00000000000000e-01,-5.83057650455146e-05
1.51300000000000e-08,4.19999999999994e-01,6.00000000000000e-01,-1.49685359074662e-04
1.51700000000000e-08,1.80000000000000e-01,6.00000000000000e-01,-1.90455145374774e-04
1.52000000000000e-08,0.00000000000000e+00,6.00000000000000e-01,-3.02210040698039e-05
1.52080000000000e-08,0.00000000000000e+00,6.00000000000000e-01,9.29028013125360e-05
1.52240000000000e-08,0.00000000000000e+00,6.00000000000000e-01,2.59918304750507e-04
1.52560000000000e-08,0.00000000000000e+00,6.00000000000000e-01,3.11163498349212e-04
1.53200000000000e-08,0.00000000000000e+00,6.00000000000000e-01,1.28397978567431e-04
1.54480000000000e-08,0.00000000000000e+00,6.00000000000000e-01,-1.40034914753728e-04
1.57040000000000e-08,0.00000000000000e+00,6.00000000000000e-01,-4.28805450050970e-05
1.62160000000000e-08,0.00000000000000e+00,6.00000000000000e-01,-1.29878369289104e-04
1.69457604018641e-08,0.00000000000000e+00,6.00000000000000e-01,1.60095897522355e-04
1.82552325808284e-08,0.00000000000000e+00,6.00000000000000e-01,-8.39856496261133e-05
1.99009745487338e-08,0.00000000000000e+00,6.00000000000000e-01,4.29494180104366e-05
2.30803567037185e-08,0.00000000000000e+00,6.00000000000000e-01,-2.37101877595730e-05
2.50000000000000e-08,0.00000000000000e+00,6.00000000000000e-01,6.73572945461120e-07
2.50100000000000e-08,5.99999999999886e-02,6.00000000000000e-01,1.22481340917330e-04
2.50300000000000e-08,1.80000000000006e-01,6.00000000000000e-01,2.96508191950290e-04
2.50700000000000e-08,4.20000000000000e-01,6.00000000000000e-01,3.65895303196716e-04
2.51000000000000e-08,6.00000000000000e-01,6.00000000000000e-01,-2.90745841794213e-04
2.51080000000000e-08,6.00000000000000e-01,6.00000000000000e-01,-8.10917565887977e-04
2.51240000000000e-08,6.00000000000000e-01,6.00000000000000e-01,-1.98611241641011e-03
2.51560000000000e-08,6.00000000000000e-01,6.00000000000000e-01,-4.11051124918232e-03
2.52200000000000e-08,6.00000000000000e-01,6.00000000000000e-01,-5.76175902084327e-03
2.53480000000000e-08,6.00000000000000e-01,6.00000000000000e-01,7.56202622714704e-02
2.56040000000000e-08,6.00000000000000e-01,6.00000000000000e-01,4.68751540058744e-01
2.61160000000000e-08,6.00000000000000e-01,6.00000000000000e-01,6.26216355187745e-01
2.67567212004839e-08,6.00000000000000e-01,6.00000000000000e-01,5.75601514514741e-01
2.80381636014517e-08,6.00000000000000e-01,6.00000000000000e-01,6.19905020880777e-01
2.95670764298747e-08,6.00000000000000e-01,6.00000000000000e-01,5.79867205575341e-01
3.26249020867205e-08,6.00000000000000e-01,6.00000000000000e-01,6.17739721196885e-01
3.51000000000000e-08,5.99999999999970e-01,6.00000000000000e-01,5.81710011137887e-01
3.51100000000000e-08,5.39999999999982e-01,6.00000000000000e-01,5.86024540966317e-01
3.51300000000000e-08,4.19999999999965e-01,6.00000000000000e-01,5.92581365787789e-01
3.51700000000000e-08,1.79999999999970e-01,6.00000000000000e-01,5.98476447105371e-01
3.52000000000000e-08,0.00000000000000e+00,6.00000000000000e-01,6.00606779284089e-01
3.52080000000000e-08,0.00000000000000e+00,6.00000000000000e-01,6.01120390904754e-01
3.52240000000000e-08,0.00000000000000e+00,6.00000000000000e-01,6.01896104026180e-01
3.52560000000000e-08,0.00000000000000e+00,6.00000000000000e-01,6.02494260384749e-01
3.53200000000000e-08,0.00000000000000e+00,6.00000000000000e-01,6.00640806969107e-01
3.54480000000000e-08,0.00000000000000e+00,6.00000000000000e-01,5.84412079040107e-01
3.57040000000000e-08,0.00000000000000e+00,6.00000000000000e-01,5.78009268902474e-01
3.62160000000000e-08,0.00000000000000e+00,6.00000000000000e-01,6.02730267091459e-01
3.71625965935769e-08,0.00000000000000e+00,6.00000000000000e-01,5.96742146736971e-01
3.84018064796124e-08,0.00000000000000e+00,6.00000000000000e-01,6.02080395912726e-01
4.08802262516834e-08,0.00000000000000e+00,6.00000000000000e-01,5.97560354381152e-01
4.46802262516834e-08,0.00000000000000e+00,6.00000000000000e-01,6.01924610016248e-01
4.50000000000000e-08,0.00000000000000e+00,6.00000000000000e-01,5.98751329622160e-01
4.50100000000000e-08,5.99999999999886e-02,6.00000000000000e-01,5.99002414230438e-01
4.50300000000000e-08,1.80000000000006e-01,6.00000000000000e-01,5.99410152448677e-01
4.50700000000000e-08,4.20000000000000e-01,6.00000000000000e-01,5.99804188570731e-01
4.51000000000000e-08,6.00000000000000e-01,6.00000000000000e-01,5.99301875361139e-01
4.51080000000000e-08,6.00000000000000e-01,5.52000000000025e-01,5.98894639907656e-01
4.51240000000000e-08,6.00000000000000e-01,4.55999999999996e-01,5.98030891490092e-01
4.51560000000000e-08,6.00000000000000e-01,2.64000000000016e-01,5.96500595974716e-01
4.52000000000000e-08,6.00000000000000e-01,3.44169137633799e-14,5.95133042280673e-01
4.52064000000000e-08,6.00000000000000e-01,0.00000000000000e+00,5.95005582491461e-01
4.52192000000000e-08,6.00000000000000e-01,0.00000000000000e+00,5.94756286857756e-01
4.52448000000000e-08,6.00000000000000e-01,0.00000000000000e+00,5.94422143230778e-01
4.52960000000000e-08,6.00000000000000e-01,0.00000000000000e+00,5.94813380372855e-01
4.53984000000000e-08,6.00000000000000e-01,0.00000000000000e+00,5.97440156906511e-01
4.56032000000000e-08,6.00000000000000e-01,0.00000000000000e+00,6.00056052053926e-01
4.60128000000000e-08,6.00000000000000e-01,0.00000000000000e+00,5.99942119408301e-01
4.65398704351780e-08,6.00000000000000e-01,0.00000000000000e+00,6.00046999685416e-01
4.73497072691373e-08,6.00000000000000e-01,0.00000000000000e+00,5.99957835502137e-01
4.89693809370559e-08,6.00000000000000e-01,0.00000000000000e+00,6.00039895117823e-01
5.19808306336644e-08,6.00000000000000e-01,0.00000000000000e+00,5.99958304868075e-01
5.51000000000000e-08,6.00000000000000e-01,0.00000000000000e+00,6.00040530034754e-01
5.51100000000000e-08,5.40000000000021e-01,0.00000000000000e+00,5.99953643034619e-01
5.51300000000000e-08,4.20000000000004e-01,0.00000000000000e+00,5.99842005006582e-01
5.51700000000000e-08,1.80000000000010e-01,0.00000000000000e+00,6.00101191237960e-01
5.52000000000000e-08,0.00000000000000e+00,0.00000000000000e+00,6.01267890907408e-01
5.52080000000000e-08,0.00000000000000e+00,0.00000000000000e+00,6.01675011081248e-01
5.52240000000000e-08,0.00000000000000e+00,0.00000000000000e+00,6.02308829048218e-01
5.52560000000000e-08,0.00000000000000e+00,0.00000000000000e+00,6.02974331020127e-01
5.53200000000000e-08,0.00000000000000e+00,0.00000000000000e+00,6.03618247835397e-01
5.54480000000000e-08,0.00000000000000e+00,0.00000000000000e+00,6.04076041861118e-01
5.57040000000000e-08,0.00000000000000e+00,0.00000000000000e+00,6.00603156548052e-01
5.61511891810104e-08,0.00000000000000e+00,0.00000000000000e+00,5.98842660891785e-01
5.67256640732098e-08,0.00000000000000e+00,0.00000000000000e+00,5.99837745086729e-01
5.76599738952325e-08,0.00000000000000e+00,0.00000000000000e+00,5.99463884510630e-01
5.92946065823074e-08,0.00000000000000e+00,0.00000000000000e+00,5.99888994844797e-01
6.20391784771376e-08,0.00000000000000e+00,0.00000000000000e+00,5.99684768135630e-01
6.50000000000000e-08,0.00000000000000e+00,0.00000000000000e+00,5.99933586470602e-01
6.50100000000000e-08,5.99999999999886e-02,0.00000000000000e+00,5.99992630058816e-01
6.50300000000000e-08,1.79999999999966e-01,0.00000000000000e+00,6.00076134336448e-01
6.50700000000000e-08,4.19999999999920e-01,0.00000000000000e+00,6.00038648344868e-01
6.51000000000000e-08,5.99999999999966e-01,0.00000000000000e+00,5.99813757405923e-01
6.51080000000000e-08,6.00000000000000e-01,0.00000000000000e+00,5.99726465846721e-01
6.51240000000000e-08,6.00000000000000e-01,0.00000000000000e+00,5.99566187207876e-01
6.51560000000000e-08,6.00000000000000e-01,0.00000000000000e+00,5.99420555340252e-01
6.52200000000000e-08,6.00000000000000e-01,0.00000000000000e+00,5.99586193856405e-01
6.53480000000000e-08,6.00000000000000e-01,0.00000000000000e+00,6.04136835687591e-01
6.56040000000000e-08,6.00000000000000e-01,0.00000000000000e+00,4.22054682835621e-01
6.61159999999999e-08,6.00000000000000e-01,0.00000000000000e+00,-7.20127300120496e-03
6.67161124180060e-08,6.00000000000000e-01,0.00000000000000e+00,5.70065558682603e-03
6.79163372540182e-08,6.00000000000000e-01,0.00000000000000e+00,-4.02733819352753e-03
6.91661439489162e-08,6.00000000000000e-01,0.00000000000000e+00,3.77310060146433e-03
7.16657573387121e-08,6.00000000000000e-01,0.00000000000000e+00,-2.95981239018170e-03
7.51000000000000e-08,6.00000000000000e-01,0.00000000000000e+00,3.13414970813656e-03
7.51100000000000e-08,5.40000000000061e-01,0.00000000000000e+00,3.24326855986871e-03
7.51300000000000e-08,4.20000000000084e-01,0.00000000000000e+00,2.48388291348934e-03
7.51700000000000e-08,1.80000000000129e-01,0.00000000000000e+00,7.60250983479455e-04
7.52000000000000e-08,8.40438829641244e-14,0.00000000000000e+00,5.20621927134757e-04
7.52080000000000e-08,0.00000000000000e+00,0.00000000000000e+00,5.41765515560934e-04
7.52240000000000e-08,0.00000000000000e+00,0.00000000000000e+00,5.56519797085729e-04
7.52560000000000e-08,0.00000000000000e+00,0.00000000000000e+00,4.49966778937147e-04
7.53200000000000e-08,0.00000000000000e+00,0.00000000000000e+00,9.38596793345556e-05
7.54480000000000e-08,0.00000000000000e+00,0.00000000000000e+00,-6.49506936696971e-04
7.57040000000000e-08,0.00000000000000e+00,0.00000000000000e+00,3.62415106321644e-06
7.61699513309959e-08,0.00000000000000e+00,0.00000000000000e+00,6.74317278338129e-05
7.70459644427173e-08,0.00000000000000e+00,0.00000000000000e+00,-8.31385624767951e-05
7.82863262765394e-08,0.00000000000000e+00,0.00000000000000e+00,9.36247807605105e-05
8.07670499441836e-08,0.00000000000000e+00,0.00000000000000e+00,-9.59218191510880e-05
8.45670499441836e-08,0.00000000000000e+00,0.00000000000000e+00,9.92865285423041e-05
8.50000000000000e-08,0.00000000000000e+00,0.00000000000000e+00,-1.10447910885627e-04
8.50100000000000e-08,5.99999999999886e-02,0.00000000000000e+00,4.82376334754175e-05
8.50300000000000e-08,1.79999999999966e-01,0.00000000000000e+00,2.31845289172049e-04
8.50700000000000e-08,4.19999999999920e-01,0.00000000000000e+00,2.04120371907639e-04
8.51000000000000e-08,5.99999999999966e-01,0.00000000000000e+00,-4.17073974937412e-05
8.51080000000000e-08,6.00000000000000e-01,0.00000000000000e+00,-1.35704696482088e-04
8.51240000000000e-08,6.00000000000000e-01,0.00000000000000e+00,-2.63292463313032e-04
8.51560000000000e-08,6.00000000000000e-01,0.00000000000000e+00,-3.13906764373095e-04
8.52200000000000e-08,6.00000000000000e-01,0.00000000000000e+00,-2.17676777658361e-04
8.53480000000000e-08,6.00000000000000e-01,0.00000000000000e+00,3.70825712882293e-05
8.56040000000000e-08,6.00000000000000e-01,0.00000000000000e+00,1.09888166279642e-04
8.61159999999999e-08,6.00000000000000e-01,0.00000000000000e+00,-6.19033414375244e-05
8.69462071035315e-08,6.00000000000000e-01,0.00000000000000e+00,5.40540421435278e-05
8.82506103662686e-08,6.00000000000000e-01,0.00000000000000e+00,-3.92354509114990e-05
9.00000000000000e-08,6.00000000000000e-01,0.00000000000000e+00,3.93091441098035e-05
9.00100000000000e-08,6.00000000000000e-01,5.99999999999886e-02,3.37754413339830e-05
9.00300000000000e-08,6.00000000000000e-01,1.79999999999966e-01,2.43066630038202e-05
9.00700000000000e-08,6.00000000000000e-01,4.19999999999920e-01,1.18160392226924e-05
9.01000000000000e-08,6.00000000000000e-01,5.99999999999966e-01,4.39782971766584e-06
9.01080000000000e-08,6.00000000000000e-01,6.00000000000000e-01,3.61552337908161e-06
9.01240000000000e-08,6.00000000000000e-01,6.00000000000000e-01,3.37580250517333e-06
9.01560000000000e-08,6.00000000000000e-01,6.00000000000000e-01,4.82762763734379e-06
9.02200000000000e-08,6.00000000000000e-01,6.00000000000000e-01,6.48449381448341e-06
9.03480000000000e-08,6.00000000000000e-01,6.00000000000000e-01,2.61015786620286e-06
9.06040000000000e-08,6.00000000000000e-01,6.00000000000000e-01,1.02075733143456e-06
9.11159999999999e-08,6.00000000000000e-01,6.00000000000000e-01,2.99824714896334e-06
9.21399999999999e-08,6.00000000000000e-01,6.00000000000000e-01,9.38434026839449e-07
9.41879999999998e-08,6.00000000000000e-01,6.00000000000000e-01,2.40553043932834e-06
9.51000000000000e-08,6.00000000000000e-01,6.00000000000000e-01,5.63345242454716e-07
9.51100000000000e-08,5.40000000000061e-01,6.00000000000000e-01,-5.89273874815541e-05
9.51300000000000e-08,4.20000000000084e-01,6.00000000000000e-01,-1.50010316011258e-04
9.51700000000000e-08,1.80000000000129e-01,6.00000000000000e-01,-1.90561858057402e-04
9.52000000000000e-08,8.40438829641244e-14,6.00000000000000e-01,-3.02556141983934e-05
9.52080000000000e-08,0.00000000000000e+00,6.00000000000000e-01,9.28755439589118e-05
9.52240000000000e-08,0.00000000000000e+00,6.00000000000000e-01,2.59903698580026e-04
9.52560000000000e-08,0.00000000000000e+00,6.00000000000000e-01,3.11162465660986e-04
9.53200000000000e-08,0.00000000000000e+00,6.00000000000000e-01,1.28407118868086e-04
9.54480000000000e-08,0.00000000000000e+00,6.00000000000000e-01,-1.40003067444675e-04
9.57040000000000e-08,0.00000000000000e+00,6.00000000000000e-01,-4.28873197911312e-05
9.62159999999999e-08,0.00000000000000e+00,6.00000000000000e-01,-1.29875225980992e-04
9.69457596124539e-08,0.00000000000000e+00,6.00000000000000e-01,1.60096377067763e-04
9.82552280798422e-08,0.00000000000000e+00,6.00000000000000e-01,-8.39882928376353e-05
9.99009624565480e-08,0.00000000000000e+00,6.00000000000000e-01,4.29530000298673e-05
1.03080359796396e-07,0.00000000000000e+00,6.00000000000000e-01,-2.37143301704415e-05
1.05000000000000e-07,0.00000000000000e+00,6.00000000000000e-01,6.78313430759695e-07
1.05010000000000e-07,5.99999999999886e-02,6.00000000000000e-01,1.22482914755320e-04
1.05030000000000e-07,1.79999999999966e-01,6.00000000000000e-01,2.96506756972161e-04
1.05070000000000e-07,4.19999999999920e-01,6.00000000000000e-01,3.65894024680735e-04
1.05100000000000e-07,5.99999999999966e-01,6.00000000000000e-01,-2.90750676081954e-04
1.05108000000000e-07,6.00000000000000e-01,6.00000000000000e-01,-8.10923717520264e-04
1.05124000000000e-07,6.00000000000000e-01,6.00000000000000e-01,-1.98611950542567e-03
1.05156000000000e-07,6.00000000000000e-01,6.00000000000000e-01,-4.11051599050246e-03
1.05220000000000e-07,6.00000000000000e-01,6.00000000000000e-01,-5.76175733762481e-03
1.05348000000000e-07,6.00000000000000e-01,6.00000000000000e-01,7.56203256660965e-02
1.05604000000000e-07,6.00000000000000e-01,6.00000000000000e-01,4.68751614275080e-01
1.06116000000000e-07,6.00000000000000e-01,6.00000000000000e-01,6.26216346356459e-01
1.06756721243058e-07,6.00000000000000e-01,6.00000000000000e-01,5.75601521555536e-01
1.08038163729175e-07,6.00000000000000e-01,6.00000000000000e-01,6.19905014213889e-01
1.09567076345557e-07,6.00000000000000e-01,6.00000000000000e-01,5.79867212072748e-01
1.12624901578322e-07,6.00000000000000e-01,6.00000000000000e-01,6.17739714833622e-01
1.15100000000000e-07,6.00000000000000e-01,6.00000000000000e-01,5.81710017158315e-01
1.15110000000000e-07,5.40000000000061e-01,6.00000000000000e-01,5.86024545348050e-01
1.15130000000000e-07,4.20000000000084e-01,6.00000000000000e-01,5.92581367764258e-01
1.15170000000000e-07,1.80000000000129e-01,6.00000000000000e-01,5.98476447325191e-01
1.15200000000000e-07,8.40438829641244e-14,6.00000000000000e-01,6.00606779256821e-01
1.15208000000000e-07,0.00000000000000e+00,6.00000000000000e-01,6.01120390852640e-01
1.15224000000000e-07,0.00000000000000e+00,6.00000000000000e-01,6.01896103937986e-01
1.15256000000000e-07,0.00000000000000e+00,6.00000000000000e-01,6.02494260314609e-01
1.15320000000000e-07,0.00000000000000e+00,6.00000000000000e-01,6.00640807224379e-01
1.15448000000000e-07,0.00000000000000e+00,6.00000000000000e-01,5.84412079888025e-01
1.15704000000000e-07,0.00000000000000e+00,6.00000000000000e-01,5.78009269050228e-01
1.16216000000000e-07,0.00000000000000e+00,6.00000000000000e-01,6.02730266912477e-01
1.17162596602684e-07,0.00000000000000e+00,6.00000000000000e-01,5.96742146911071e-01
1.18401806482501e-07,0.00000000000000e+00,6.00000000000000e-01,6.02080395813691e-01
1.20880226242136e-07,0.00000000000000e+00,6.00000000000000e-01,5.97560354481554e-01
1.24680226242136e-07,0.00000000000000e+00,6.00000000000000e-01,6.01924609936373e-01
1.25000000000000e-07,0.00000000000000e+00,6.00000000000000e-01,5.98751329614385e-01
1.25010000000000e-07,5.99999999999092e-02,6.00000000000000e-01,5.99002414240866e-01
1.25030000000000e-07,1.79999999999886e-01,6.00000000000000e-01,5.99410152478370e-01
1.25070000000000e-07,4.19999999999841e-01,6.00000000000000e-01,5.99804188593826e-01
1.25100000000000e-07,5.99999999999886e-01,6.00000000000000e-01,5.99301875373910e-01
1.25108000000000e-07,6.00000000000000e-01,5.51999999999946e-01,5.98894639921909e-01
1.25124000000000e-07,6.00000000000000e-01,4.55999999999996e-01,5.98030891505420e-01
1.25156000000000e-07,6.00000000000000e-01,2.63999999999937e-01,5.96500595983721e-01
1.25200000000000e-07,6.00000000000000e-01,0.00000000000000e+00,5.95133042276176e-01
1.25206400000000e-07,6.00000000000000e-01,0.00000000000000e+00,5.95005582490718e-01
1.25219200000000e-07,6.00000000000000e-01,0.00000000000000e+00,5.94756286864733e-01
1.25244800000000e-07,6.00000000000000e-01,0.00000000000000e+00,5.94422143234986e-01
1.25296000000000e-07,6.00000000000000e-01,0.00000000000000e+00,5.94813380369914e-01
1.25398400000000e-07,6.00000000000000e-01,0.00000000000000e+00,5.97440156900047e-01
1.25603200000000e-07,6.00000000000000e-01,0.00000000000000e+00,6.00056052054821e-01
1.26012800000000e-07,6.00000000000000e-01,0.00000000000000e+00,5.99942119407068e-01
1.26539870438395e-07,6.00000000000000e-01,0.00000000000000e+00,6.00046999686213e-01
1.27349707275550e-07,6.00000000000000e-01,0.00000000000000e+00,5.99957835500673e-01
1.28969380949861e-07,6.00000000000000e-01,0.00000000000000e+00,6.00039895119205e-01
1.31980830680975e-07,6.00000000000000e-01,0.00000000000000e+00,5.99958304866370e-01
1.35100000000000e-07,5.99999999999891e-01,0.00000000000000e+00,6.00040530036487e-01
1.35110000000000e-07,5.39999999999823e-01,0.00000000000000e+00,5.99953643036185e-01
1.35130000000000e-07,4.19999999999845e-01,0.00000000000000e+00,5.99842005009033e-01
1.35170000000000e-07,1.79999999999891e-01,0.00000000000000e+00,6.00101191240185e-01
1.35200000000000e-07,0.00000000000000e+00,0.00000000000000e+00,6.01267890899237e-01
1.35208000000000e-07,0.00000000000000e+00,0.00000000000000e+00,6.01675011078702e-01
1.35224000000000e-07,0.00000000000000e+00,0.00000000000000e+00,6.02308829047423e-01
1.35256000000000e-07,0.00000000000000e+00,0.00000000000000e+00,6.02974331015350e-01
1.35320000000000e-07,0.00000000000000e+00,0.00000000000000e+00,6.03618247834205e-01
1.35448000000000e-07,0.00000000000000e+00,0.00000000000000e+00,6.04076041853435e-01
1.35704000000000e-07,0.00000000000000e+00,0.00000000000000e+00,6.00603156552452e-01
