Time,v(clk),v(data),v(out)
1.00000000000000e-08,6.00000000000000e-01,0.00000000000000e+00,2.28630553563910e-07
1.00100000000000e-08,6.00000000000000e-01,5.99999999999985e-02,1.64829343444334e-06
1.00300000000000e-08,6.00000000000000e-01,1.79999999999996e-01,3.24362776306375e-06
1.00700000000000e-08,6.00000000000000e-01,4.19999999999990e-01,2.35710308631176e-06
1.01000000000000e-08,6.00000000000000e-01,5.99999999999995e-01,4.86427880655449e-07
1.01080000000000e-08,6.00000000000000e-01,6.00000000000000e-01,2.74130239064085e-07
1.01240000000000e-08,6.00000000000000e-01,6.00000000000000e-01,2.32133308734894e-07
1.01560000000000e-08,6.00000000000000e-01,6.00000000000000e-01,2.92125283874595e-06
1.02200000000000e-08,6.00000000000000e-01,6.00000000000000e-01,6.52426939137113e-06
1.03480000000000e-08,6.00000000000000e-01,6.00000000000000e-01,7.87447086505327e-06
1.06040000000000e-08,6.00000000000000e-01,6.00000000000000e-01,5.54226574923239e-06
1.11160000000000e-08,6.00000000000000e-01,6.00000000000000e-01,6.65254800706790e-06
1.20469217395770e-08,6.00000000000000e-01,6.00000000000000e-01,5.69228123912385e-06
1.39087652187311e-08,6.00000000000000e-01,6.00000000000000e-01,6.35060012045118e-06
1.51000000000000e-08,6.00000000000000e-01,6.00000000000000e-01,5.18246000672570e-06
1.51100000000000e-08,5.39999999999991e-01,6.00000000000000e-01,-5.19309076111585e-05
1.51300000000000e-08,4.19999999999994e-01,6.00000000000000e-01,-1.43105972475924e-04
1.51700000000000e-08,1.80000000000000e-01,6.00000000000000e-01,-1.43734409114547e-04
1.52000000000000e-08,0.00000000000000e+00,6.00000000000000e-01,1.14804849290114e-04
1.52080000000000e-08,0.00000000000000e+00,6.00000000000000e-01,2.51839090163755e-04
1.52240000000000e-08,0.00000000000000e+00,6.00000000000000e-01,4.28826812141632e-04
1.52560000000000e-08,0.00000000000000e+00,6.00000000000000e-01,4.60465196942025e-04
1.53200000000000e-08,0.00000000000000e+00,6.00000000000000e-01,1.38038008145783e-04
1.54480000000000e-08,0.00000000000000e+00,6.00000000000000e-01,-2.91484581188946e-04
1.57040000000000e-08,0.00000000000000e+00,6.00000000000000e-01,3.50806407836898e-05
1.61267909208069e-08,0.00000000000000e+00,6.00000000000000e-01,-1.86028992794986e-04
1.68134273905127e-08,0.00000000000000e+00,6.00000000000000e-01,1.73689636281355e-04
1.78994376172531e-08,0.00000000000000e+00,6.00000000000000e-01,-4.07624106064201e-05
1.94028006738112e-08,0.00000000000000e+00,6.00000000000000e-01,-6.48488698353714e-06
2.21556057285831e-08,0.00000000000000e+00,6.00000000000000e-01,3.61773110379589e-05
2.50000000000000e-08,0.00000000000000e+00,6.00000000000000e-01,-4.60447906113401e-05
2.50100000000000e-08,5.99999999999886e-02,6.00000000000000e-01,8.46062890924384e-05
2.50300000000000e-08,1.80000000000006e-01,6.00000000000000e-01,2.99893089656611e-04
2.50700000000000e-08,4.20000000000000e-01,6.00000000000000e-01,5.42765434520420e-04
2.51000000000000e-08,6.00000000000000e-01,6.00000000000000e-01,5.54110112353845e-04
2.51080000000000e-08,6.00000000000000e-01,6.00000000000000e-01,4.75699861949404e-04
2.51240000000000e-08,6.00000000000000e-01,6.00000000000000e-01,2.95996934543408e-04
2.51560000000000e-08,6.00000000000000e-01,6.00000000000000e-01,-3.49302305852575e-04
2.52200000000000e-08,6.00000000000000e-01,6.00000000000000e-01,-2.30712642788931e-03
2.53480000000000e-08,6.00000000000000e-01,6.00000000000000e-01,-4.84489513577617e-03
2.56040000000000e-08,6.00000000000000e-01,6.00000000000000e-01,1.24648446228107e-01
2.61160000000000e-08,6.00000000000000e-01,6.00000000000000e-01,5.77960295207462e-01
2.71400000000000e-08,6.00000000000000e-01,6.00000000000000e-01,6.07364816930235e-01
2.83347803433249e-08,6.00000000000000e-01,6.00000000000000e-01,5.92052725709871e-01
3.02822679797109e-08,6.00000000000000e-01,6.00000000000000e-01,6.06918391298662e-01
3.31221185949183e-08,6.00000000000000e-01,6.00000000000000e-01,5.92685224667058e-01
3.51000000000000e-08,5.99999999999970e-01,6.00000000000000e-01,6.06614657463924e-01
3.51100000000000e-08,5.39999999999982e-01,6.00000000000000e-01,6.03748196392896e-01
3.51300000000000e-08,4.19999999999965e-01,6.00000000000000e-01,6.00480684543432e-01
3.51700000000000e-08,1.79999999999970e-01,6.00000000000000e-01,6.00420084641720e-01
3.52000000000000e-08,0.00000000000000e+00,6.00000000000000e-01,6.02217529265314e-01
3.52080000000000e-08,0.00000000000000e+00,6.00000000000000e-01,6.02656172032351e-01
3.52240000000000e-08,0.00000000000000e+00,6.00000000000000e-01,6.03152042615779e-01
3.52560000000000e-08,0.00000000000000e+00,6.00000000000000e-01,6.01947859757152e-01
3.53200000000000e-08,0.00000000000000e+00,6.00000000000000e-01,5.90249029188577e-01
3.54480000000000e-08,0.00000000000000e+00,6.00000000000000e-01,5.82692581237524e-01
3.57040000000000e-08,0.00000000000000e+00,6.00000000000000e-01,6.00667576474865e-01
3.61628744869025e-08,0.00000000000000e+00,6.00000000000000e-01,5.98451845183467e-01
3.68150379369040e-08,0.00000000000000e+00,6.00000000000000e-01,6.00686594594135e-01
3.81193648369069e-08,0.00000000000000e+00,6.00000000000000e-01,5.98966325061988e-01
4.07280186369128e-08,0.00000000000000e+00,6.00000000000000e-01,6.00762303561411e-01
4.45280186369128e-08,0.00000000000000e+00,6.00000000000000e-01,5.99122417218154e-01
4.50000000000000e-08,0.00000000000000e+00,6.00000000000000e-01,6.00609946366594e-01
4.50100000000000e-08,5.99999999999886e-02,6.00000000000000e-01,6.00487737317243e-01
4.50300000000000e-08,1.80000000000006e-01,6.00000000000000e-01,6.00298823343070e-01
4.50700000000000e-08,4.20000000000000e-01,6.00000000000000e-01,6.00145249867295e-01
4.51000000000000e-08,6.00000000000000e-01,6.00000000000000e-01,6.00059407727199e-01
4.51080000000000e-08,6.00000000000000e-01,5.52000000000025e-01,5.99983316435688e-01
4.51240000000000e-08,6.00000000000000e-01,4.55999999999996e-01,5.99819946302459e-01
4.51560000000000e-08,6.00000000000000e-01,2.64000000000016e-01,5.99463243935171e-01
4.52000000000000e-08,6.00000000000000e-01,3.44169137633799e-14,5.99114484314931e-01
4.52064000000000e-08,6.00000000000000e-01,0.00000000000000e+00,5.99089130285259e-01
4.52192000000000e-08,6.00000000000000e-01,0.00000000000000e+00,5.99040046835292e-01
4.52448000000000e-08,6.00000000000000e-01,0.00000000000000e+00,5.98968433465530e-01
4.52960000000000e-08,6.00000000000000e-01,0.00000000000000e+00,5.98953732984289e-01
4.53984000000000e-08,6.00000000000000e-01,0.00000000000000e+00,5.99249890951219e-01
4.56032000000000e-08,6.00000000000000e-01,0.00000000000000e+00,6.00186017460297e-01
4.59334518979675e-08,6.00000000000000e-01,0.00000000000000e+00,6.01129013834915e-01
4.65009311846316e-08,6.00000000000000e-01,0.00000000000000e+00,2.62050506534078e-01
4.71835396012140e-08,6.00000000000000e-01,0.00000000000000e+00,-4.48258873236906e-02
4.83473752130713e-08,6.00000000000000e-01,0.00000000000000e+00,3.73884125189482e-02
5.02769730285172e-08,6.00000000000000e-01,0.00000000000000e+00,-2.59117257668500e-02
5.22522834079482e-08,6.00000000000000e-01,0.00000000000000e+00,2.38491799164438e-02
5.51000000000000e-08,6.00000000000000e-01,0.00000000000000e+00,-1.81717511443125e-02
5.51100000000000e-08,5.40000000000021e-01,0.00000000000000e+00,-1.73686980979265e-02
5.51300000000000e-08,4.20000000000004e-01,0.00000000000000e+00,-1.50031848016013e-02
5.51700000000000e-08,1.80000000000010e-01,0.00000000000000e+00,-9.78091567821171e-03
5.52000000000000e-08,0.00000000000000e+00,0.00000000000000e+00,-6.76851728037955e-03
5.52080000000000e-08,0.00000000000000e+00,0.00000000000000e+00,-6.08046643809761e-03
5.52240000000000e-08,0.00000000000000e+00,0.00000000000000e+00,-4.89050606407719e-03
5.52560000000000e-08,0.00000000000000e+00,0.00000000000000e+00,-3.32743358363843e-03
5.53200000000000e-08,0.00000000000000e+00,0.00000000000000e+00,-1.98686536760181e-03
5.54480000000000e-08,0.00000000000000e+00,0.00000000000000e+00,-9.90405488945759e-04
5.57040000000000e-08,0.00000000000000e+00,0.00000000000000e+00,8.19183097983296e-05
5.61231801841367e-08,0.00000000000000e+00,0.00000000000000e+00,-6.32425724081398e-06
5.68085479370542e-08,0.00000000000000e+00,0.00000000000000e+00,1.74403089637197e-06
5.81792834428891e-08,0.00000000000000e+00,0.00000000000000e+00,8.26363034143584e-06
6.09207544545589e-08,0.00000000000000e+00,0.00000000000000e+00,-1.44214092203613e-06
6.47207544545589e-08,0.00000000000000e+00,0.00000000000000e+00,9.58544840172493e-06
6.50000000000000e-08,0.00000000000000e+00,0.00000000000000e+00,-1.86430840050031e-06
6.50100000000000e-08,5.99999999999886e-02,0.00000000000000e+00,8.33864922366381e-05
6.50300000000000e-08,1.79999999999966e-01,0.00000000000000e+00,2.02654686657033e-04
6.50700000000000e-08,4.19999999999920e-01,0.00000000000000e+00,2.28288809854524e-04
6.51000000000000e-08,5.99999999999966e-01,0.00000000000000e+00,9.55366214559564e-05
6.51080000000000e-08,6.00000000000000e-01,0.00000000000000e+00,1.32498630794342e-05
6.51240000000000e-08,6.00000000000000e-01,0.00000000000000e+00,-1.13093923569695e-04
6.51560000000000e-08,6.00000000000000e-01,0.00000000000000e+00,-2.00737501852552e-04
6.52200000000000e-08,6.00000000000000e-01,0.00000000000000e+00,-1.61804279124815e-04
6.53480000000000e-08,6.00000000000000e-01,0.00000000000000e+00,-4.88106420834453e-05
6.56040000000000e-08,6.00000000000000e-01,0.00000000000000e+00,8.24360225262777e-06
6.61159999999999e-08,6.00000000000000e-01,0.00000000000000e+00,3.00098201468091e-05
6.71399999999999e-08,6.00000000000000e-01,0.00000000000000e+00,-6.18117107975547e-06
6.90711763865459e-08,6.00000000000000e-01,0.00000000000000e+00,1.70946798765427e-05
7.14267633623809e-08,6.00000000000000e-01,0.00000000000000e+00,-2.38599297838846e-06
7.51000000000000e-08,6.00000000000000e-01,0.00000000000000e+00,1.32070381086711e-05
7.51100000000000e-08,5.40000000000061e-01,0.00000000000000e+00,-4.46181222467992e-05
7.51300000000000e-08,4.20000000000084e-01,0.00000000000000e+00,-1.37782488928276e-04
7.51700000000000e-08,1.80000000000129e-01,0.00000000000000e+00,-1.39642376247806e-04
7.52000000000000e-08,8.40438829641244e-14,0.00000000000000e+00,1.17172426676394e-04
7.52080000000000e-08,0.00000000000000e+00,0.00000000000000e+00,2.54521488391182e-04
7.52240000000000e-08,0.00000000000000e+00,0.00000000000000e+00,4.32360724892812e-04
7.52560000000000e-08,0.00000000000000e+00,0.00000000000000e+00,4.65039700640185e-04
7.53200000000000e-08,0.00000000000000e+00,0.00000000000000e+00,1.38870592765919e-04
7.54480000000000e-08,0.00000000000000e+00,0.00000000000000e+00,-2.94175624382199e-04
7.57040000000000e-08,0.00000000000000e+00,0.00000000000000e+00,9.10583180668834e-06
7.61239135265066e-08,0.00000000000000e+00,0.00000000000000e+00,1.80241858432975e-05
7.68087457885541e-08,0.00000000000000e+00,0.00000000000000e+00,-1.34056028897600e-05
7.81784103126490e-08,0.00000000000000e+00,0.00000000000000e+00,2.14699903024786e-05
8.09177393608387e-08,0.00000000000000e+00,0.00000000000000e+00,-1.37649141150973e-05
8.47177393608387e-08,0.00000000000000e+00,0.00000000000000e+00,2.14440371309218e-05
8.50000000000000e-08,0.00000000000000e+00,0.00000000000000e+00,-1.12172980098052e-05
8.50100000000000e-08,5.99999999999886e-02,0.00000000000000e+00,8.05577534215909e-05
8.50300000000000e-08,1.79999999999966e-01,0.00000000000000e+00,2.05495549159364e-04
8.50700000000000e-08,4.19999999999920e-01,0.00000000000000e+00,2.29352588870642e-04
8.51000000000000e-08,5.99999999999966e-01,0.00000000000000e+00,9.62145803739059e-05
8.51080000000000e-08,6.00000000000000e-01,0.00000000000000e+00,1.38259460244830e-05
8.51240000000000e-08,6.00000000000000e-01,0.00000000000000e+00,-1.12690841866873e-04
8.51560000000000e-08,6.00000000000000e-01,0.00000000000000e+00,-2.00557326658482e-04
8.52200000000000e-08,6.00000000000000e-01,0.00000000000000e+00,-1.61809473709876e-04
8.53480000000000e-08,6.00000000000000e-01,0.00000000000000e+00,-4.88404070521781e-05
8.56040000000000e-08,6.00000000000000e-01,0.00000000000000e+00,8.26390972228849e-06
8.61159999999999e-08,6.00000000000000e-01,0.00000000000000e+00,2.99989086322942e-05
8.71399999999999e-08,6.00000000000000e-01,0.00000000000000e+00,-6.17631338772559e-06
8.90711534438042e-08,6.00000000000000e-01,0.00000000000000e+00,1.70917317535305e-05
9.00000000000000e-08,6.00000000000000e-01,0.00000000000000e+00,1.51118362899660e-07
9.00100000000000e-08,6.00000000000000e-01,5.99999999999886e-02,1.70460684797286e-06
9.00300000000000e-08,6.00000000000000e-01,1.79999999999966e-01,3.43872835427417e-06
9.00700000000000e-08,6.00000000000000e-01,4.19999999999920e-01,3.36582484250503e-06
9.01000000000000e-08,6.00000000000000e-01,5.99999999999966e-01,1.31054155294574e-06
9.01080000000000e-08,6.00000000000000e-01,6.00000000000000e-01,9.52968967994627e-07
9.01240000000000e-08,6.00000000000000e-01,6.00000000000000e-01,8.41286010314080e-07
9.01560000000000e-08,6.00000000000000e-01,6.00000000000000e-01,3.35602090049264e-06
9.02200000000000e-08,6.00000000000000e-01,6.00000000000000e-01,6.59302361406128e-06
9.03480000000000e-08,6.00000000000000e-01,6.00000000000000e-01,7.83005627517236e-06
9.06040000000000e-08,6.00000000000000e-01,6.00000000000000e-01,5.55276822363296e-06
9.11159999999999e-08,6.00000000000000e-01,6.00000000000000e-01,6.58818916775793e-06
9.21281502926255e-08,6.00000000000000e-01,6.00000000000000e-01,5.73426174496454e-06
9.41524508778766e-08,6.00000000000000e-01,6.00000000000000e-01,6.07797132294498e-06
9.51000000000000e-08,6.00000000000000e-01,6.00000000000000e-01,5.37316397762957e-06
9.51100000000000e-08,5.40000000000061e-01,6.00000000000000e-01,-5.18611073809030e-05
9.51300000000000e-08,4.20000000000084e-01,6.00000000000000e-01,-1.42990439334773e-04
9.51700000000000e-08,1.80000000000129e-01,6.00000000000000e-01,-1.43655418693579e-04
9.52000000000000e-08,8.40438829641244e-14,6.00000000000000e-01,1.14856417779870e-04
9.52080000000000e-08,0.00000000000000e+00,6.00000000000000e-01,2.51884916025152e-04
9.52240000000000e-08,0.00000000000000e+00,6.00000000000000e-01,4.28862347195864e-04
9.52560000000000e-08,0.00000000000000e+00,6.00000000000000e-01,4.60488905190917e-04
9.53200000000000e-08,0.00000000000000e+00,6.00000000000000e-01,1.38054670221155e-04
9.54480000000000e-08,0.00000000000000e+00,6.00000000000000e-01,-2.91506329686671e-04
9.57040000000000e-08,0.00000000000000e+00,6.00000000000000e-01,3.50715300456508e-05
9.61267901389469e-08,0.00000000000000e+00,6.00000000000000e-01,-1.86018290212229e-04
9.68134029246528e-08,0.00000000000000e+00,6.00000000000000e-01,1.73676034691766e-04
9.78993847300509e-08,0.00000000000000e+00,6.00000000000000e-01,-4.07471494039274e-05
9.94027459508807e-08,0.00000000000000e+00,6.00000000000000e-01,-6.49969910939720e-06
1.02155473078378e-07,0.00000000000000e+00,6.00000000000000e-01,3.61921070566526e-05
1.05000000000000e-07,0.00000000000000e+00,6.00000000000000e-01,-4.60582097412889e-05
1.05010000000000e-07,5.99999999999886e-02,6.00000000000000e-01,8.45943975171515e-05
1.05030000000000e-07,1.79999999999966e-01,6.00000000000000e-01,2.99883395579272e-04
1.05070000000000e-07,4.19999999999920e-01,6.00000000000000e-01,5.42759879135560e-04
1.05100000000000e-07,5.99999999999966e-01,6.00000000000000e-01,5.54104173836473e-04
1.05108000000000e-07,6.00000000000000e-01,6.00000000000000e-01,4.75691784695670e-04
1.05124000000000e-07,6.00000000000000e-01,6.00000000000000e-01,2.95978753602030e-04
1.05156000000000e-07,6.00000000000000e-01,6.00000000000000e-01,-3.49355349343265e-04
1.05220000000000e-07,6.00000000000000e-01,6.00000000000000e-01,-2.30720205828574e-03
1.05348000000000e-07,6.00000000000000e-01,6.00000000000000e-01,-4.84488946942470e-03
1.05604000000000e-07,6.00000000000000e-01,6.00000000000000e-01,1.24651322924735e-01
1.06116000000000e-07,6.00000000000000e-01,6.00000000000000e-01,5.77961135324612e-01
1.07140000000000e-07,6.00000000000000e-01,6.00000000000000e-01,6.07364547074555e-01
1.08334789815458e-07,6.00000000000000e-01,6.00000000000000e-01,5.92053020442941e-01
1.10282272471114e-07,6.00000000000000e-01,6.00000000000000e-01,6.06918131553188e-01
1.13122131317098e-07,6.00000000000000e-01,6.00000000000000e-01,5.92685502096238e-01
1.15100000000000e-07,6.00000000000000e-01,6.00000000000000e-01,6.06614406180232e-01
1.15110000000000e-07,5.40000000000061e-01,6.00000000000000e-01,6.03748055436605e-01
1.15130000000000e-07,4.20000000000084e-01,6.00000000000000e-01,6.00480667681441e-01
1.15170000000000e-07,1.80000000000129e-01,6.00000000000000e-01,6.00420089151685e-01
1.15200000000000e-07,8.40438829641244e-14,6.00000000000000e-01,6.02217529530587e-01
1.15208000000000e-07,0.00000000000000e+00,6.00000000000000e-01,6.02656172502622e-01
1.15224000000000e-07,0.00000000000000e+00,6.00000000000000e-01,6.03152043783417e-01
1.15256000000000e-07,0.00000000000000e+00,6.00000000000000e-01,6.01947865645826e-01
1.15320000000000e-07,0.00000000000000e+00,6.00000000000000e-01,5.90249044513437e-01
1.15448000000000e-07,0.00000000000000e+00,6.00000000000000e-01,5.82692586987770e-01
1.15704000000000e-07,0.00000000000000e+00,6.00000000000000e-01,6.00667572699378e-01
1.16162874496424e-07,0.00000000000000e+00,6.00000000000000e-01,5.98451848428532e-01
1.16815037951953e-07,0.00000000000000e+00,6.00000000000000e-01,6.00686591917550e-01
1.18119364863009e-07,0.00000000000000e+00,6.00000000000000e-01,5.98966327583546e-01
1.20728018685123e-07,0.00000000000000e+00,6.00000000000000e-01,6.00762301160557e-01
1.24528018685123e-07,0.00000000000000e+00,6.00000000000000e-01,5.99122419570204e-01
1.25000000000000e-07,0.00000000000000e+00,6.00000000000000e-01,6.00609944460502e-01
1.25010000000000e-07,5.99999999999092e-02,6.00000000000000e-01,6.00487735944904e-01
1.25030000000000e-07,1.79999999999886e-01,6.00000000000000e-01,6.00298822740763e-01
1.25070000000000e-07,4.19999999999841e-01,6.00000000000000e-01,6.00145249787977e-01
1.25100000000000e-07,5.99999999999886e-01,6.00000000000000e-01,6.00059407679675e-01
1.25108000000000e-07,6.00000000000000e-01,5.51999999999946e-01,5.99983316381628e-01
1.25124000000000e-07,6.00000000000000e-01,4.55999999999996e-01,5.99819946241491e-01
1.25156000000000e-07,6.00000000000000e-01,2.63999999999937e-01,5.99463243898499e-01
1.25200000000000e-07,6.00000000000000e-01,0.00000000000000e+00,5.99114484309896e-01
1.25206400000000e-07,6.00000000000000e-01,0.00000000000000e+00,5.99089130275240e-01
1.25219200000000e-07,6.00000000000000e-01,0.00000000000000e+00,5.99040046820882e-01
1.25244800000000e-07,6.00000000000000e-01,0.00000000000000e+00,5.98968433458703e-01
1.25296000000000e-07,6.00000000000000e-01,0.00000000000000e+00,5.98953732989185e-01
1.25398400000000e-07,6.00000000000000e-01,0.00000000000000e+00,5.99249890935877e-01
1.25603200000000e-07,6.00000000000000e-01,0.00000000000000e+00,6.00186017431110e-01
1.25933451949070e-07,6.00000000000000e-01,0.00000000000000e+00,6.01129014198715e-01
1.26500931206252e-07,6.00000000000000e-01,0.00000000000000e+00,2.62050511531381e-01
1.27183539875672e-07,6.00000000000000e-01,0.00000000000000e+00,-4.48259127788699e-02
1.28347375415982e-07,6.00000000000000e-01,0.00000000000000e+00,3.73884357755148e-02
1.30276973359180e-07,6.00000000000000e-01,0.00000000000000e+00,-2.59117410612917e-02
1.32252283902664e-07,6.00000000000000e-01,0.00000000000000e+00,2.38491951738543e-02
1.35100000000000e-07,5.99999999999891e-01,0.00000000000000e+00,-1.81717618652189e-02
1.35110000000000e-07,5.39999999999823e-01,0.00000000000000e+00,-1.73687078490199e-02
1.35130000000000e-07,4.19999999999845e-01,0.00000000000000e+00,-1.50031926448474e-02
1.35170000000000e-07,1.79999999999891e-01,0.00000000000000e+00,-9.78092070173208e-03
1.35200000000000e-07,0.00000000000000e+00,0.00000000000000e+00,-6.76852090530831e-03
1.35208000000000e-07,0.00000000000000e+00,0.00000000000000e+00,-6.08046977411090e-03
1.35224000000000e-07,0.00000000000000e+00,0.00000000000000e+00,-4.89050886945683e-03
1.35256000000000e-07,0.00000000000000e+00,0.00000000000000e+00,-3.32743556406064e-03
1.35320000000000e-07,0.00000000000000e+00,0.00000000000000e+00,-1.98686638179580e-03
