Time,v(clk),v(data),v(out)
1.00000000000000e-08,3.37000000000000e-01,0.00000000000000e+00,3.32519521819737e-05
1.00100000000000e-08,3.37000000000000e-01,3.36999999999992e-02,3.36315134354739e-05
1.00300000000000e-08,3.37000000000000e-01,1.01099999999998e-01,3.38769992736625e-05
1.00700000000000e-08,3.37000000000000e-01,2.35899999999994e-01,3.41772697200447e-05
1.01000000000000e-08,3.37000000000000e-01,3.36999999999997e-01,3.45440745848566e-05
1.01080000000000e-08,3.37000000000000e-01,3.37000000000000e-01,3.44560427796015e-05
1.01240000000000e-08,3.37000000000000e-01,3.37000000000000e-01,3.45191049694812e-05
1.01560000000000e-08,3.37000000000000e-01,3.37000000000000e-01,3.46280174655308e-05
1.02200000000000e-08,3.37000000000000e-01,3.37000000000000e-01,3.43370555455462e-05
1.03480000000000e-08,3.37000000000000e-01,3.37000000000000e-01,3.37684887324694e-05
1.06040000000000e-08,3.37000000000000e-01,3.37000000000000e-01,3.38994874742784e-05
1.11160000000000e-08,3.37000000000000e-01,3.37000000000000e-01,3.38515086826183e-05
1.21400000000000e-08,3.37000000000000e-01,3.37000000000000e-01,2.87913803095046e-05
1.41880000000000e-08,3.37000000000000e-01,3.37000000000000e-01,1.84220711614350e-05
1.51000000000000e-08,3.37000000000000e-01,3.37000000000000e-01,1.68841090889878e-05
1.51100000000000e-08,3.03299999999995e-01,3.37000000000000e-01,1.23640800681751e-06
1.51300000000000e-08,2.35899999999997e-01,3.37000000000000e-01,-3.09682999332130e-05
1.51700000000000e-08,1.01100000000000e-01,3.37000000000000e-01,-9.89108226566969e-05
1.52000000000000e-08,0.00000000000000e+00,3.37000000000000e-01,-1.51303960520387e-04
1.52080000000000e-08,0.00000000000000e+00,3.37000000000000e-01,-1.44838521801825e-04
1.52240000000000e-08,0.00000000000000e+00,3.37000000000000e-01,-1.32035189646440e-04
1.52560000000000e-08,0.00000000000000e+00,3.37000000000000e-01,-1.06909282119427e-04
1.53200000000000e-08,0.00000000000000e+00,3.37000000000000e-01,-6.09910926695663e-05
1.54480000000000e-08,0.00000000000000e+00,3.37000000000000e-01,7.91673038911568e-06
1.57040000000000e-08,0.00000000000000e+00,3.37000000000000e-01,7.30524707588318e-05
1.62160000000000e-08,0.00000000000000e+00,3.37000000000000e-01,7.98476438376005e-05
1.72400000000000e-08,0.00000000000000e+00,3.37000000000000e-01,1.81469398837959e-05
1.92880000000000e-08,0.00000000000000e+00,3.37000000000000e-01,-3.28308128215759e-05
2.30880000000000e-08,0.00000000000000e+00,3.37000000000000e-01,7.54059810796626e-06
2.50000000000000e-08,0.00000000000000e+00,3.37000000000000e-01,-3.97636037788550e-05
2.50100000000000e-08,3.36999999999936e-02,3.37000000000000e-01,-1.67015696632654e-05
2.50300000000000e-08,1.01100000000003e-01,3.37000000000000e-01,2.53597877326178e-05
2.50700000000000e-08,2.35900000000000e-01,3.37000000000000e-01,9.08324342259979e-05
2.51000000000000e-08,3.37000000000000e-01,3.37000000000000e-01,1.20098323702147e-04
2.51080000000000e-08,3.37000000000000e-01,3.37000000000000e-01,1.13552371473459e-04
2.51240000000000e-08,3.37000000000000e-01,3.37000000000000e-01,1.00325068049380e-04
2.51560000000000e-08,3.37000000000000e-01,3.37000000000000e-01,7.33029956939552e-05
2.52200000000000e-08,3.37000000000000e-01,3.37000000000000e-01,1.72119619702010e-05
2.53480000000000e-08,3.37000000000000e-01,3.37000000000000e-01,-9.99657388765750e-05
2.56040000000000e-08,3.37000000000000e-01,3.37000000000000e-01,-3.62128872249881e-04
2.61160000000000e-08,3.37000000000000e-01,3.37000000000000e-01,-9.18496217763434e-04
2.71400000000000e-08,3.37000000000000e-01,3.37000000000000e-01,-1.92421913020855e-03
2.91880000000000e-08,3.37000000000000e-01,3.37000000000000e-01,2.51492284690426e-02
3.01000000000000e-08,3.37000000000000e-01,3.37000000000000e-01,6.60876934109948e-02
3.01100000000000e-08,3.37000000000000e-01,3.03300000000018e-01,6.66867827065802e-02
3.01300000000000e-08,3.37000000000000e-01,2.35900000000008e-01,6.79433195560261e-02
3.01700000000000e-08,3.37000000000000e-01,1.01100000000011e-01,7.04979456831802e-02
3.02000000000000e-08,3.37000000000000e-01,8.16013923099490e-15,7.24476975211913e-02
3.02080000000000e-08,3.37000000000000e-01,0.00000000000000e+00,7.29633769997267e-02
3.02240000000000e-08,3.37000000000000e-01,0.00000000000000e+00,7.40228308364028e-02
3.02560000000000e-08,3.37000000000000e-01,0.00000000000000e+00,7.61199423849040e-02
3.03200000000000e-08,3.37000000000000e-01,0.00000000000000e+00,8.04487035529229e-02
3.04480000000000e-08,3.37000000000000e-01,0.00000000000000e+00,8.93851674368178e-02
3.07040000000000e-08,3.37000000000000e-01,0.00000000000000e+00,1.08460434095336e-01
3.12160000000000e-08,3.37000000000000e-01,0.00000000000000e+00,1.49367811619095e-01
3.22400000000000e-08,3.37000000000000e-01,0.00000000000000e+00,2.31949961976544e-01
3.42880000000000e-08,3.37000000000000e-01,0.00000000000000e+00,3.24940420163227e-01
3.51000000000000e-08,3.36999999999983e-01,0.00000000000000e+00,3.31866464632848e-01
3.51100000000000e-08,3.03299999999990e-01,0.00000000000000e+00,3.31893120046713e-01
3.51300000000000e-08,2.35899999999980e-01,0.00000000000000e+00,3.31942518478764e-01
3.51700000000000e-08,1.01099999999983e-01,0.00000000000000e+00,3.32057358971893e-01
3.52000000000000e-08,0.00000000000000e+00,0.00000000000000e+00,3.32188518200645e-01
3.52080000000000e-08,0.00000000000000e+00,0.00000000000000e+00,3.32245914082013e-01
3.52240000000000e-08,0.00000000000000e+00,0.00000000000000e+00,3.32353646587337e-01
3.52560000000000e-08,0.00000000000000e+00,0.00000000000000e+00,3.32565019177306e-01
3.53200000000000e-08,0.00000000000000e+00,0.00000000000000e+00,3.32917331931185e-01
3.54480000000000e-08,0.00000000000000e+00,0.00000000000000e+00,3.33448834115207e-01
3.57040000000000e-08,0.00000000000000e+00,0.00000000000000e+00,3.34102032289309e-01
3.62160000000000e-08,0.00000000000000e+00,0.00000000000000e+00,3.34416961670866e-01
3.72400000000000e-08,0.00000000000000e+00,0.00000000000000e+00,3.32529083651721e-01
3.91000000000000e-08,0.00000000000000e+00,0.00000000000000e+00,3.24955773676262e-01
3.93048000000000e-08,0.00000000000000e+00,0.00000000000000e+00,3.24136297947855e-01
3.97144000000000e-08,0.00000000000000e+00,0.00000000000000e+00,3.22842058280912e-01
4.05336000000000e-08,0.00000000000000e+00,0.00000000000000e+00,3.22221628108092e-01
4.21720000000000e-08,0.00000000000000e+00,0.00000000000000e+00,3.25838918860034e-01
4.50000000000000e-08,0.00000000000000e+00,0.00000000000000e+00,3.32537110341940e-01
4.50100000000000e-08,3.36999999999936e-02,0.00000000000000e+00,3.32569041942922e-01
4.50300000000000e-08,1.01100000000003e-01,0.00000000000000e+00,3.32627641891104e-01
4.50700000000000e-08,2.35900000000000e-01,0.00000000000000e+00,3.32718772100337e-01
4.51000000000000e-08,3.37000000000000e-01,0.00000000000000e+00,3.32763932322253e-01
4.51080000000000e-08,3.37000000000000e-01,0.00000000000000e+00,3.32765874324267e-01
4.51240000000000e-08,3.37000000000000e-01,0.00000000000000e+00,3.32770286840517e-01
4.51560000000000e-08,3.37000000000000e-01,0.00000000000000e+00,3.32780108817877e-01
4.52200000000000e-08,3.37000000000000e-01,0.00000000000000e+00,3.32805123800582e-01
4.53480000000000e-08,3.37000000000000e-01,0.00000000000000e+00,3.32883589464863e-01
4.56040000000000e-08,3.37000000000000e-01,0.00000000000000e+00,3.33087501106038e-01
4.61160000000000e-08,3.37000000000000e-01,0.00000000000000e+00,3.33531721095930e-01
4.71400000000000e-08,3.37000000000000e-01,0.00000000000000e+00,3.34291229779097e-01
4.91880000000000e-08,3.37000000000000e-01,0.00000000000000e+00,3.35731057050074e-01
5.00000000000000e-08,3.37000000000000e-01,0.00000000000000e+00,3.36476791720860e-01
5.00100000000000e-08,3.37000000000000e-01,3.36999999999936e-02,3.36487543990372e-01
5.00300000000000e-08,3.37000000000000e-01,1.01099999999981e-01,3.36506172430349e-01
5.00700000000000e-08,3.37000000000000e-01,2.35900000000000e-01,3.36540786077413e-01
5.01000000000000e-08,3.37000000000000e-01,3.37000000000000e-01,3.36574292291110e-01
5.01080000000000e-08,3.37000000000000e-01,3.37000000000000e-01,3.36581226065684e-01
5.01240000000000e-08,3.37000000000000e-01,3.37000000000000e-01,3.36595134069223e-01
5.01560000000000e-08,3.37000000000000e-01,3.37000000000000e-01,3.36624740738506e-01
5.02200000000000e-08,3.37000000000000e-01,3.37000000000000e-01,3.36686571820156e-01
5.03480000000000e-08,3.37000000000000e-01,3.37000000000000e-01,3.36819144932309e-01
5.06040000000000e-08,3.37000000000000e-01,3.37000000000000e-01,3.37093844524338e-01
5.11160000000001e-08,3.37000000000000e-01,3.37000000000000e-01,3.37550646741192e-01
5.21400000000002e-08,3.37000000000000e-01,3.37000000000000e-01,3.36364559609863e-01
5.41880000000003e-08,3.37000000000000e-01,3.37000000000000e-01,2.33412447870333e-01
5.51000000000000e-08,3.37000000000000e-01,3.37000000000000e-01,1.20190445139271e-01
5.51100000000000e-08,3.03300000000012e-01,3.37000000000000e-01,1.18703216716112e-01
5.51300000000000e-08,2.35900000000002e-01,3.37000000000000e-01,1.15769064870599e-01
5.51700000000000e-08,1.01100000000006e-01,3.37000000000000e-01,1.10077936260971e-01
5.52000000000000e-08,0.00000000000000e+00,3.37000000000000e-01,1.06025073671312e-01
5.52080000000000e-08,0.00000000000000e+00,3.37000000000000e-01,1.04927430754324e-01
5.52240000000000e-08,0.00000000000000e+00,3.37000000000000e-01,1.02851900748171e-01
5.52560000000000e-08,0.00000000000000e+00,3.37000000000000e-01,9.86254331593298e-02
5.53200000000000e-08,0.00000000000000e+00,3.37000000000000e-01,9.06673365983878e-02
5.54480000000000e-08,0.00000000000000e+00,3.37000000000000e-01,7.56334161175621e-02
5.57040000000000e-08,0.00000000000000e+00,3.37000000000000e-01,5.05707150891696e-02
5.62160000000000e-08,0.00000000000000e+00,3.37000000000000e-01,1.94723180766026e-02
5.72400000000000e-08,0.00000000000000e+00,3.37000000000000e-01,1.87442220065675e-04
5.92880000000000e-08,0.00000000000000e+00,3.37000000000000e-01,-3.91955599038337e-04
6.30880000000000e-08,0.00000000000000e+00,3.37000000000000e-01,8.89330417795588e-05
6.50000000000000e-08,0.00000000000000e+00,3.37000000000000e-01,-2.11050293592351e-05
6.50100000000000e-08,3.36999999999936e-02,3.37000000000000e-01,-4.25204065138129e-07
6.50300000000000e-08,1.01099999999981e-01,3.37000000000000e-01,3.76054173873153e-05
6.50700000000000e-08,2.35899999999955e-01,3.37000000000000e-01,1.00633618748479e-04
6.51000000000000e-08,3.36999999999981e-01,3.37000000000000e-01,1.25863864501547e-04
6.51080000000000e-08,3.37000000000000e-01,3.37000000000000e-01,1.18375496624121e-04
6.51240000000000e-08,3.37000000000000e-01,3.37000000000000e-01,1.03349637986003e-04
6.51560000000000e-08,3.37000000000000e-01,3.37000000000000e-01,7.31006676009879e-05
6.52200000000000e-08,3.37000000000000e-01,3.37000000000000e-01,1.17351735348069e-05
6.53480000000000e-08,3.37000000000000e-01,3.37000000000000e-01,-1.15536320840427e-04
6.56040000000000e-08,3.37000000000000e-01,3.37000000000000e-01,-3.78038530794440e-04
6.61159999999999e-08,3.37000000000000e-01,3.37000000000000e-01,-9.28342171766128e-04
6.71399999999999e-08,3.37000000000000e-01,3.37000000000000e-01,-1.92529050698762e-03
6.91879999999998e-08,3.37000000000000e-01,3.37000000000000e-01,2.51575996596298e-02
7.01000000000000e-08,3.37000000000000e-01,3.37000000000000e-01,6.61028074755491e-02
7.01100000000000e-08,3.37000000000000e-01,3.03300000000006e-01,6.67019571010767e-02
7.01300000000000e-08,3.37000000000000e-01,2.35900000000019e-01,6.79586311207665e-02
7.01700000000000e-08,3.37000000000000e-01,1.01100000000045e-01,7.05135178035916e-02
7.02000000000000e-08,3.37000000000000e-01,1.93178806284777e-14,7.24634656468664e-02
7.02080000000000e-08,3.37000000000000e-01,0.00000000000000e+00,7.29791961401718e-02
7.02240000000000e-08,3.37000000000000e-01,0.00000000000000e+00,7.40387538603946e-02
7.02560000000000e-08,3.37000000000000e-01,0.00000000000000e+00,7.61360700689551e-02
7.03200000000000e-08,3.37000000000000e-01,0.00000000000000e+00,8.04652271984717e-02
7.04480000000000e-08,3.37000000000000e-01,0.00000000000000e+00,8.94022472800934e-02
7.07040000000000e-08,3.37000000000000e-01,0.00000000000000e+00,1.08478674808840e-01
7.12159999999999e-08,3.37000000000000e-01,0.00000000000000e+00,1.49387294086080e-01
7.22399999999999e-08,3.37000000000000e-01,0.00000000000000e+00,2.31967993629178e-01
7.42879999999998e-08,3.37000000000000e-01,0.00000000000000e+00,3.24946099449100e-01
7.51000000000000e-08,3.37000000000000e-01,0.00000000000000e+00,3.31868154516159e-01
7.51100000000000e-08,3.03300000000034e-01,0.00000000000000e+00,3.31894789284990e-01
7.51300000000000e-08,2.35900000000047e-01,0.00000000000000e+00,3.31944145607838e-01
7.51700000000000e-08,1.01100000000073e-01,0.00000000000000e+00,3.32058906638815e-01
7.52000000000000e-08,4.71844785465692e-14,0.00000000000000e+00,3.32190009324766e-01
7.52080000000000e-08,0.00000000000000e+00,0.00000000000000e+00,3.32247391539660e-01
7.52240000000000e-08,0.00000000000000e+00,0.00000000000000e+00,3.32355097342476e-01
7.52560000000000e-08,0.00000000000000e+00,0.00000000000000e+00,3.32566417256989e-01
7.53200000000000e-08,0.00000000000000e+00,0.00000000000000e+00,3.32918638615069e-01
7.54480000000000e-08,0.00000000000000e+00,0.00000000000000e+00,3.33449992220942e-01
7.57040000000000e-08,0.00000000000000e+00,0.00000000000000e+00,3.34102980995428e-01
7.62159999999999e-08,0.00000000000000e+00,0.00000000000000e+00,3.34417688701907e-01
7.72399999999999e-08,0.00000000000000e+00,0.00000000000000e+00,3.32529589009506e-01
7.81000000000000e-08,0.00000000000000e+00,0.00000000000000e+00,3.28966527931985e-01
7.83048000000000e-08,0.00000000000000e+00,0.00000000000000e+00,3.27969665580099e-01
7.87144000000000e-08,0.00000000000000e+00,0.00000000000000e+00,3.26039163205481e-01
7.95335999999999e-08,0.00000000000000e+00,0.00000000000000e+00,3.23107329785552e-01
8.11719999999998e-08,0.00000000000000e+00,0.00000000000000e+00,3.23037633742026e-01
8.44487999999996e-08,0.00000000000000e+00,0.00000000000000e+00,3.31213049652575e-01
8.50000000000000e-08,0.00000000000000e+00,0.00000000000000e+00,3.32363002242203e-01
8.50100000000000e-08,3.36999999999936e-02,0.00000000000000e+00,3.32397791344184e-01
8.50300000000000e-08,1.01099999999981e-01,0.00000000000000e+00,3.32462070682340e-01
8.50700000000000e-08,2.35899999999955e-01,0.00000000000000e+00,3.32572356382791e-01
8.51000000000000e-08,3.36999999999981e-01,0.00000000000000e+00,3.32629941179687e-01
8.51080000000000e-08,3.37000000000000e-01,0.00000000000000e+00,3.32634759185878e-01
8.51240000000000e-08,3.37000000000000e-01,0.00000000000000e+00,3.32644977987440e-01
8.51560000000000e-08,3.37000000000000e-01,0.00000000000000e+00,3.32667395382047e-01
8.52200000000000e-08,3.37000000000000e-01,0.00000000000000e+00,3.32715881406332e-01
8.53480000000000e-08,3.37000000000000e-01,0.00000000000000e+00,3.32834889220792e-01
8.56040000000000e-08,3.37000000000000e-01,0.00000000000000e+00,3.33091828564133e-01
8.61159999999999e-08,3.37000000000000e-01,0.00000000000000e+00,3.33588830338902e-01
8.71399999999999e-08,3.37000000000000e-01,0.00000000000000e+00,3.34337715421319e-01
8.91879999999998e-08,3.37000000000000e-01,0.00000000000000e+00,3.35749257039151e-01
9.00000000000000e-08,3.37000000000000e-01,0.00000000000000e+00,3.36496796933438e-01
9.00100000000000e-08,3.37000000000000e-01,3.36999999999936e-02,3.36507611258385e-01
9.00300000000000e-08,3.37000000000000e-01,1.01099999999981e-01,3.36526314812886e-01
9.00700000000000e-08,3.37000000000000e-01,2.35899999999955e-01,3.36561034032420e-01
9.01000000000000e-08,3.37000000000000e-01,3.36999999999981e-01,3.36594766184248e-01
9.01080000000000e-08,3.37000000000000e-01,3.37000000000000e-01,3.36601736705537e-01
9.01240000000000e-08,3.37000000000000e-01,3.37000000000000e-01,3.36615719828814e-01
9.01560000000000e-08,3.37000000000000e-01,3.37000000000000e-01,3.36645499239953e-01
9.02200000000000e-08,3.37000000000000e-01,3.37000000000000e-01,3.36707745666401e-01
9.03480000000000e-08,3.37000000000000e-01,3.37000000000000e-01,3.36841373620425e-01
9.06040000000000e-08,3.37000000000000e-01,3.37000000000000e-01,3.37119412061049e-01
9.11159999999999e-08,3.37000000000000e-01,3.37000000000000e-01,3.37584105774150e-01
9.21399999999999e-08,3.37000000000000e-01,3.37000000000000e-01,3.36437163666025e-01
9.41879999999998e-08,3.37000000000000e-01,3.37000000000000e-01,2.33903545289042e-01
9.51000000000000e-08,3.37000000000000e-01,3.37000000000000e-01,1.20761203160888e-01
9.51100000000000e-08,3.03300000000034e-01,3.37000000000000e-01,1.19272032332887e-01
9.51300000000000e-08,2.35900000000047e-01,3.37000000000000e-01,1.16333801407402e-01
9.51700000000000e-08,1.01100000000073e-01,3.37000000000000e-01,1.10633724948786e-01
9.52000000000000e-08,4.71844785465692e-14,3.37000000000000e-01,1.06573239286732e-01
9.52080000000000e-08,0.00000000000000e+00,3.37000000000000e-01,1.05473613923886e-01
9.52240000000000e-08,0.00000000000000e+00,3.37000000000000e-01,1.03393548650659e-01
9.52560000000000e-08,0.00000000000000e+00,3.37000000000000e-01,9.91577865804774e-02
9.53200000000000e-08,0.00000000000000e+00,3.37000000000000e-01,9.11776714613120e-02
9.54480000000000e-08,0.00000000000000e+00,3.37000000000000e-01,7.60924355700096e-02
9.57040000000000e-08,0.00000000000000e+00,3.37000000000000e-01,5.09188047137711e-02
9.62159999999999e-08,0.00000000000000e+00,3.37000000000000e-01,1.96381018072986e-02
9.72399999999999e-08,0.00000000000000e+00,3.37000000000000e-01,1.98803940030847e-04
9.92879999999998e-08,0.00000000000000e+00,3.37000000000000e-01,-3.96285008055332e-04
1.03088000000000e-07,0.00000000000000e+00,3.37000000000000e-01,9.16372831423788e-05
1.05000000000000e-07,0.00000000000000e+00,3.37000000000000e-01,-2.20890862300009e-05
1.05010000000000e-07,3.36999999999936e-02,3.37000000000000e-01,-1.38226212744591e-06
1.05030000000000e-07,1.01099999999981e-01,3.37000000000000e-01,3.66993402228025e-05
1.05070000000000e-07,2.35899999999955e-01,3.37000000000000e-01,9.98232625664015e-05
1.05100000000000e-07,3.36999999999981e-01,3.37000000000000e-01,1.25101665429117e-04
1.05108000000000e-07,3.37000000000000e-01,3.37000000000000e-01,1.17627281719750e-04
1.05124000000000e-07,3.37000000000000e-01,3.37000000000000e-01,1.02628668733794e-04
1.05156000000000e-07,3.37000000000000e-01,3.37000000000000e-01,7.24310041522146e-05
1.05220000000000e-07,3.37000000000000e-01,3.37000000000000e-01,1.11581394608325e-05
1.05348000000000e-07,3.37000000000000e-01,3.37000000000000e-01,-1.15977329388272e-04
1.05604000000000e-07,3.37000000000000e-01,3.37000000000000e-01,-3.78294954593865e-04
1.06116000000000e-07,3.37000000000000e-01,3.37000000000000e-01,-9.28434699327588e-04
1.07140000000000e-07,3.37000000000000e-01,3.37000000000000e-01,-1.92530594157328e-03
1.09188000000000e-07,3.37000000000000e-01,3.37000000000000e-01,2.51581566844533e-02
1.10100000000000e-07,3.37000000000000e-01,3.37000000000000e-01,6.61038211433368e-02
1.10110000000000e-07,3.37000000000000e-01,3.03300000000051e-01,6.67029744278383e-02
1.10130000000000e-07,3.37000000000000e-01,2.35900000000064e-01,6.79596575516813e-02
1.10170000000000e-07,3.37000000000000e-01,1.01100000000089e-01,7.05145619438330e-02
1.10200000000000e-07,3.37000000000000e-01,6.38933350671778e-14,7.24645227317730e-02
1.10208000000000e-07,3.37000000000000e-01,0.00000000000000e+00,7.29802567084392e-02
1.10224000000000e-07,3.37000000000000e-01,0.00000000000000e+00,7.40398211283720e-02
1.10256000000000e-07,3.37000000000000e-01,0.00000000000000e+00,7.61371509366487e-02
1.10320000000000e-07,3.37000000000000e-01,0.00000000000000e+00,8.04663337331145e-02
1.10448000000000e-07,3.37000000000000e-01,0.00000000000000e+00,8.94034012039200e-02
1.10704000000000e-07,3.37000000000000e-01,0.00000000000000e+00,1.08479903291228e-01
1.11216000000000e-07,3.37000000000000e-01,0.00000000000000e+00,1.49388601508707e-01
1.12240000000000e-07,3.37000000000000e-01,0.00000000000000e+00,2.31969201526160e-01
1.14288000000000e-07,3.37000000000000e-01,0.00000000000000e+00,3.24946477404042e-01
1.15100000000000e-07,3.37000000000000e-01,0.00000000000000e+00,3.31868264723086e-01
