Time,v(clk),v(data),v(out),v(reset)
1.00000000000000e-08,5.50000000000000e-01,0.00000000000000e+00,-4.45615625693733e-05,0.00000000000000e+00
1.00100000000000e-08,5.50000000000000e-01,5.49999999999987e-02,-8.82645662713330e-05,0.00000000000000e+00
1.00300000000000e-08,5.50000000000000e-01,1.64999999999996e-01,-9.99973715176544e-05,0.00000000000000e+00
1.00700000000000e-08,5.50000000000000e-01,3.84999999999991e-01,-2.30372723637878e-05,0.00000000000000e+00
1.01000000000000e-08,5.50000000000000e-01,5.49999999999996e-01,-4.93830464286318e-05,0.00000000000000e+00
1.01080000000000e-08,5.50000000000000e-01,5.50000000000000e-01,-3.97379487341934e-05,0.00000000000000e+00
1.01240000000000e-08,5.50000000000000e-01,5.50000000000000e-01,-2.55029420718547e-05,0.00000000000000e+00
1.01560000000000e-08,5.50000000000000e-01,5.50000000000000e-01,-5.17780899211145e-06,0.00000000000000e+00
1.02200000000000e-08,5.50000000000000e-01,5.50000000000000e-01,6.63139189390621e-06,0.00000000000000e+00
1.03480000000000e-08,5.50000000000000e-01,5.50000000000000e-01,1.09941017242890e-05,0.00000000000000e+00
1.06040000000000e-08,5.50000000000000e-01,5.50000000000000e-01,1.05329382361612e-05,0.00000000000000e+00
1.11160000000000e-08,5.50000000000000e-01,5.50000000000000e-01,1.01075300609661e-05,0.00000000000000e+00
1.21400000000000e-08,5.50000000000000e-01,5.50000000000000e-01,9.82368831024209e-06,0.00000000000000e+00
1.41880000000000e-08,5.50000000000000e-01,5.50000000000000e-01,9.34908264844936e-06,0.00000000000000e+00
1.51000000000000e-08,5.50000000000000e-01,5.50000000000000e-01,9.14645482698578e-06,0.00000000000000e+00
1.51100000000000e-08,4.94999999999992e-01,5.50000000000000e-01,1.56811152083172e-04,5.50000000000078e-02
1.51300000000000e-08,3.84999999999995e-01,5.50000000000000e-01,3.02358821865675e-04,1.65000000000005e-01
1.51700000000000e-08,1.65000000000000e-01,5.50000000000000e-01,2.07706287047756e-04,3.85000000000000e-01
1.52000000000000e-08,0.00000000000000e+00,5.50000000000000e-01,1.50611455089746e-04,5.50000000000000e-01
1.52080000000000e-08,0.00000000000000e+00,5.50000000000000e-01,1.28159199663566e-04,5.50000000000000e-01
1.52240000000000e-08,0.00000000000000e+00,5.50000000000000e-01,9.48177272188308e-05,5.50000000000000e-01
1.52560000000000e-08,0.00000000000000e+00,5.50000000000000e-01,5.77061463620798e-05,5.50000000000000e-01
1.53200000000000e-08,0.00000000000000e+00,5.50000000000000e-01,-9.57165180541369e-05,5.50000000000000e-01
1.54480000000000e-08,0.00000000000000e+00,5.50000000000000e-01,-2.70246599201811e-04,5.50000000000000e-01
1.57040000000000e-08,0.00000000000000e+00,5.50000000000000e-01,3.55858188778400e-05,5.50000000000000e-01
1.61502713932111e-08,0.00000000000000e+00,5.50000000000000e-01,-1.29275958736521e-04,5.50000000000000e-01
1.68494430538333e-08,0.00000000000000e+00,5.50000000000000e-01,1.64164384768220e-04,5.50000000000000e-01
1.82477863750777e-08,0.00000000000000e+00,5.50000000000000e-01,-9.57811211713283e-05,5.50000000000000e-01
1.96722012712354e-08,0.00000000000000e+00,5.50000000000000e-01,7.08197663139500e-05,5.50000000000000e-01
2.25210310635506e-08,0.00000000000000e+00,5.50000000000000e-01,-3.86041797258716e-05,5.50000000000000e-01
2.50000000000000e-08,0.00000000000000e+00,5.50000000000000e-01,3.74297897400471e-05,5.50000000000000e-01
2.50100000000000e-08,5.49999999999896e-02,5.50000000000000e-01,1.41047827524735e-04,5.50000000000000e-01
2.50300000000000e-08,1.65000000000005e-01,5.50000000000000e-01,3.04909712217097e-04,5.50000000000000e-01
2.50700000000000e-08,3.85000000000000e-01,5.50000000000000e-01,4.26243626724387e-04,5.50000000000000e-01
2.51000000000000e-08,5.50000000000000e-01,5.50000000000000e-01,1.92319716690315e-04,5.50000000000000e-01
2.51080000000000e-08,5.50000000000000e-01,5.50000000000000e-01,-5.68477599683787e-05,5.50000000000000e-01
2.51240000000000e-08,5.50000000000000e-01,5.50000000000000e-01,-6.89126473470768e-04,5.50000000000000e-01
2.51560000000000e-08,5.50000000000000e-01,5.50000000000000e-01,-2.21661729470678e-03,5.50000000000000e-01
2.52200000000000e-08,5.50000000000000e-01,5.50000000000000e-01,-4.35144516284599e-03,5.50000000000000e-01
2.53480000000000e-08,5.50000000000000e-01,5.50000000000000e-01,1.33109728332132e-02,5.50000000000000e-01
2.56040000000000e-08,5.50000000000000e-01,5.50000000000000e-01,3.60927286751886e-01,5.50000000000000e-01
2.61160000000000e-08,5.50000000000000e-01,5.50000000000000e-01,5.73560847541139e-01,5.50000000000000e-01
2.67393780103629e-08,5.50000000000000e-01,5.50000000000000e-01,5.30039836551577e-01,5.50000000000000e-01
2.79861340310886e-08,5.50000000000000e-01,5.50000000000000e-01,5.68786938409855e-01,5.50000000000000e-01
2.96445860212731e-08,5.50000000000000e-01,5.50000000000000e-01,5.31581711716190e-01,5.50000000000000e-01
3.26469115991807e-08,5.50000000000000e-01,5.50000000000000e-01,5.67507447145995e-01,5.50000000000000e-01
3.51000000000000e-08,5.49999999999973e-01,5.50000000000000e-01,5.32450369357677e-01,5.50000000000000e-01
3.51100000000000e-08,4.94999999999983e-01,5.50000000000000e-01,5.38500992777647e-01,5.50000000000000e-01
3.51300000000000e-08,3.84999999999968e-01,5.50000000000000e-01,5.46407014245235e-01,5.50000000000000e-01
3.51700000000000e-08,1.64999999999973e-01,5.50000000000000e-01,5.50425391034867e-01,5.50000000000000e-01
3.52000000000000e-08,0.00000000000000e+00,5.50000000000000e-01,5.51747758342510e-01,5.50000000000000e-01
3.52080000000000e-08,0.00000000000000e+00,5.50000000000000e-01,5.52110467381766e-01,5.50000000000000e-01
3.52240000000000e-08,0.00000000000000e+00,5.50000000000000e-01,5.52570848041519e-01,5.50000000000000e-01
3.52560000000000e-08,0.00000000000000e+00,5.50000000000000e-01,5.52374872298270e-01,5.50000000000000e-01
3.53200000000000e-08,0.00000000000000e+00,5.50000000000000e-01,5.46224888290687e-01,5.50000000000000e-01
3.54480000000000e-08,0.00000000000000e+00,5.50000000000000e-01,5.31773160288573e-01,5.50000000000000e-01
3.57040000000000e-08,0.00000000000000e+00,5.50000000000000e-01,5.43209395817818e-01,5.50000000000000e-01
3.62160000000000e-08,0.00000000000000e+00,5.50000000000000e-01,5.52946019864767e-01,5.50000000000000e-01
3.68971475595318e-08,0.00000000000000e+00,5.50000000000000e-01,5.46744331302832e-01,5.50000000000000e-01
3.82594426785952e-08,0.00000000000000e+00,5.50000000000000e-01,5.52218411407109e-01,5.50000000000000e-01
4.09840329167222e-08,0.00000000000000e+00,5.50000000000000e-01,5.47471172343220e-01,5.50000000000000e-01
4.47840329167222e-08,0.00000000000000e+00,5.50000000000000e-01,5.52087789085277e-01,5.50000000000000e-01
4.50000000000000e-08,0.00000000000000e+00,5.50000000000000e-01,5.48765981920552e-01,5.50000000000000e-01
4.50100000000000e-08,5.49999999999896e-02,5.50000000000000e-01,5.48925774479200e-01,4.95000000000010e-01
4.50300000000000e-08,1.65000000000005e-01,5.50000000000000e-01,5.49168311995123e-01,3.84999999999995e-01
4.50700000000000e-08,3.85000000000000e-01,5.50000000000000e-01,5.50536616615406e-01,1.65000000000000e-01
4.51000000000000e-08,5.50000000000000e-01,5.50000000000000e-01,5.54478721197244e-01,0.00000000000000e+00
4.51080000000000e-08,5.50000000000000e-01,5.50000000000000e-01,5.55904864955075e-01,0.00000000000000e+00
4.51240000000000e-08,5.50000000000000e-01,5.50000000000000e-01,5.58390695398881e-01,0.00000000000000e+00
4.51560000000000e-08,5.50000000000000e-01,5.50000000000000e-01,5.62653795418791e-01,0.00000000000000e+00
4.52200000000000e-08,5.50000000000000e-01,5.50000000000000e-01,5.71566243821484e-01,0.00000000000000e+00
4.53480000000000e-08,5.50000000000000e-01,5.50000000000000e-01,4.19638119908026e-01,0.00000000000000e+00
4.56040000000000e-08,5.50000000000000e-01,5.50000000000000e-01,2.28267072216554e-02,0.00000000000000e+00
4.59805092213861e-08,5.50000000000000e-01,5.50000000000000e-01,-1.19520346126839e-02,0.00000000000000e+00
4.66635754348488e-08,5.50000000000000e-01,5.50000000000000e-01,9.18999380286571e-03,0.00000000000000e+00
4.74827873460369e-08,5.50000000000000e-01,5.50000000000000e-01,-7.00482200773036e-03,0.00000000000000e+00
4.91212111684132e-08,5.50000000000000e-01,5.50000000000000e-01,6.40580406627744e-03,0.00000000000000e+00
5.01000000000000e-08,5.50000000000000e-01,5.49999999999969e-01,-5.16002787695018e-03,0.00000000000000e+00
5.04276847644753e-08,5.50000000000000e-01,5.50000000000000e-01,-6.00338535163685e-04,0.00000000000000e+00
5.10830542934258e-08,5.50000000000000e-01,5.50000000000000e-01,4.44937215931048e-04,0.00000000000000e+00
5.23937933513268e-08,5.50000000000000e-01,5.50000000000000e-01,-3.64827045484575e-04,0.00000000000000e+00
5.50152714671290e-08,5.50000000000000e-01,5.50000000000000e-01,3.51234255484392e-04,0.00000000000000e+00
5.51000000000000e-08,5.50000000000000e-01,5.50000000000000e-01,3.38326904794038e-05,0.00000000000000e+00
5.51100000000000e-08,4.95000000000020e-01,5.50000000000000e-01,1.84950427286702e-04,5.49999999999805e-02
5.51300000000000e-08,3.85000000000004e-01,5.50000000000000e-01,3.29477150637129e-04,1.64999999999996e-01
5.51700000000000e-08,1.65000000000009e-01,5.50000000000000e-01,2.18483100249425e-04,3.84999999999991e-01
5.52000000000000e-08,0.00000000000000e+00,5.50000000000000e-01,1.53507033308027e-04,5.50000000000000e-01
5.52080000000000e-08,0.00000000000000e+00,5.50000000000000e-01,1.29082697603762e-04,5.50000000000000e-01
5.52240000000000e-08,0.00000000000000e+00,5.50000000000000e-01,9.19607606158293e-05,5.50000000000000e-01
5.52560000000000e-08,0.00000000000000e+00,5.50000000000000e-01,4.10972105116952e-05,5.50000000000000e-01
5.53200000000000e-08,0.00000000000000e+00,5.50000000000000e-01,-3.25897544383572e-04,5.50000000000000e-01
5.54480000000000e-08,0.00000000000000e+00,5.50000000000000e-01,-8.07873609201027e-04,5.50000000000000e-01
5.57040000000000e-08,0.00000000000000e+00,5.50000000000000e-01,1.32056343167160e-04,5.50000000000000e-01
5.61080149469355e-08,0.00000000000000e+00,5.50000000000000e-01,-6.52746787011479e-05,5.50000000000000e-01
5.68265262572626e-08,0.00000000000000e+00,5.50000000000000e-01,3.06845071900864e-05,5.50000000000000e-01
5.82120461947434e-08,0.00000000000000e+00,5.50000000000000e-01,2.42311213863385e-05,5.50000000000000e-01
5.95899491356656e-08,0.00000000000000e+00,5.50000000000000e-01,-3.86166471419086e-05,5.50000000000000e-01
6.23457550175099e-08,0.00000000000000e+00,5.50000000000000e-01,6.53355697217270e-05,5.50000000000000e-01
6.50000000000000e-08,0.00000000000000e+00,5.50000000000000e-01,-6.00623527533760e-05,5.50000000000000e-01
6.50100000000000e-08,5.49999999999896e-02,5.50000000000000e-01,6.94926490112033e-05,5.50000000000000e-01
6.50300000000000e-08,1.64999999999969e-01,5.50000000000000e-01,2.67130777989663e-04,5.50000000000000e-01
6.50700000000000e-08,3.84999999999927e-01,5.50000000000000e-01,4.10379610545485e-04,5.50000000000000e-01
6.51000000000000e-08,5.49999999999969e-01,5.50000000000000e-01,1.32195640878088e-04,5.50000000000000e-01
6.51080000000000e-08,5.50000000000000e-01,5.50000000000000e-01,-1.44526854936398e-04,5.50000000000000e-01
6.51240000000000e-08,5.50000000000000e-01,5.50000000000000e-01,-8.16298577771296e-04,5.50000000000000e-01
6.51560000000000e-08,5.50000000000000e-01,5.50000000000000e-01,-2.35015951850934e-03,5.50000000000000e-01
6.52200000000000e-08,5.50000000000000e-01,5.50000000000000e-01,-4.39971661466763e-03,5.50000000000000e-01
6.53480000000000e-08,5.50000000000000e-01,5.50000000000000e-01,1.48389964301674e-02,5.50000000000000e-01
6.56040000000000e-08,5.50000000000000e-01,5.50000000000000e-01,3.65628480643409e-01,5.50000000000000e-01
6.61159999999999e-08,5.50000000000000e-01,5.50000000000000e-01,5.73751786232134e-01,5.50000000000000e-01
6.67366185309002e-08,5.50000000000000e-01,5.50000000000000e-01,5.29753740099116e-01,5.50000000000000e-01
6.79778555927009e-08,5.50000000000000e-01,5.50000000000000e-01,5.68969883679964e-01,5.50000000000000e-01
6.96424390810001e-08,5.50000000000000e-01,5.50000000000000e-01,5.31345291301978e-01,5.50000000000000e-01
7.26735978095762e-08,5.50000000000000e-01,5.50000000000000e-01,5.67689628134082e-01,5.50000000000000e-01
7.51000000000000e-08,5.50000000000000e-01,5.50000000000000e-01,5.32235903808304e-01,5.50000000000000e-01
7.51100000000000e-08,4.95000000000056e-01,5.50000000000000e-01,5.38352981400068e-01,5.50000000000000e-01
7.51300000000000e-08,3.85000000000077e-01,5.50000000000000e-01,5.46351075925548e-01,5.50000000000000e-01
7.51700000000000e-08,1.65000000000118e-01,5.50000000000000e-01,5.50420993517135e-01,5.50000000000000e-01
7.52000000000000e-08,7.69384556065233e-14,5.50000000000000e-01,5.51746051612352e-01,5.50000000000000e-01
7.52080000000000e-08,0.00000000000000e+00,5.50000000000000e-01,5.52108705385238e-01,5.50000000000000e-01
7.52240000000000e-08,0.00000000000000e+00,5.50000000000000e-01,5.52569117893018e-01,5.50000000000000e-01
7.52560000000000e-08,0.00000000000000e+00,5.50000000000000e-01,5.52374096055719e-01,5.50000000000000e-01
7.53200000000000e-08,0.00000000000000e+00,5.50000000000000e-01,5.46228541990681e-01,5.50000000000000e-01
7.54480000000000e-08,0.00000000000000e+00,5.50000000000000e-01,5.31775028739869e-01,5.50000000000000e-01
7.57040000000000e-08,0.00000000000000e+00,5.50000000000000e-01,5.43206321519340e-01,5.50000000000000e-01
7.62159999999999e-08,0.00000000000000e+00,5.50000000000000e-01,5.52947958477911e-01,5.50000000000000e-01
7.68971416284866e-08,0.00000000000000e+00,5.50000000000000e-01,5.46742793226400e-01,5.50000000000000e-01
7.82594248854599e-08,0.00000000000000e+00,5.50000000000000e-01,5.52219668687164e-01,5.50000000000000e-01
8.09839913994066e-08,0.00000000000000e+00,5.50000000000000e-01,5.47469927087062e-01,5.50000000000000e-01
8.47839913994066e-08,0.00000000000000e+00,5.50000000000000e-01,5.52088896109806e-01,5.50000000000000e-01
8.50000000000000e-08,0.00000000000000e+00,5.50000000000000e-01,5.48765261067443e-01,5.50000000000000e-01
8.50100000000000e-08,5.49999999999896e-02,5.50000000000000e-01,5.48924814955583e-01,4.95000000000010e-01
8.50300000000000e-08,1.64999999999969e-01,5.50000000000000e-01,5.49167905004821e-01,3.85000000000031e-01
8.50700000000000e-08,3.84999999999927e-01,5.50000000000000e-01,5.50536587513308e-01,1.65000000000073e-01
8.51000000000000e-08,5.49999999999969e-01,5.50000000000000e-01,5.54478674061891e-01,3.15303338993544e-14
8.51080000000000e-08,5.50000000000000e-01,5.50000000000000e-01,5.55904800376010e-01,0.00000000000000e+00
8.51240000000000e-08,5.50000000000000e-01,5.50000000000000e-01,5.58390598089774e-01,0.00000000000000e+00
8.51560000000000e-08,5.50000000000000e-01,5.50000000000000e-01,5.62653640012479e-01,0.00000000000000e+00
8.52200000000000e-08,5.50000000000000e-01,5.50000000000000e-01,5.71566218610541e-01,0.00000000000000e+00
8.53480000000000e-08,5.50000000000000e-01,5.50000000000000e-01,4.19641829154000e-01,0.00000000000000e+00
8.56040000000000e-08,5.50000000000000e-01,5.50000000000000e-01,2.28287907942716e-02,0.00000000000000e+00
8.59807528022983e-08,5.50000000000000e-01,5.50000000000000e-01,-1.19577307052963e-02,0.00000000000000e+00
8.66637076630905e-08,5.50000000000000e-01,5.50000000000000e-01,9.19411287231670e-03,0.00000000000000e+00
8.74831718510521e-08,5.50000000000000e-01,5.50000000000000e-01,-7.00834237042466e-03,0.00000000000000e+00
8.91221002269751e-08,5.50000000000000e-01,5.50000000000000e-01,6.40925410991551e-03,0.00000000000000e+00
9.01000000000000e-08,5.50000000000000e-01,5.49999999999969e-01,-5.16182630670344e-03,0.00000000000000e+00
9.04277856751846e-08,5.50000000000000e-01,5.50000000000000e-01,-6.00411040299779e-04,0.00000000000000e+00
9.10833570255538e-08,5.50000000000000e-01,5.50000000000000e-01,4.45032223271134e-04,0.00000000000000e+00
9.23944997262923e-08,5.50000000000000e-01,5.50000000000000e-01,-3.64925599488059e-04,0.00000000000000e+00
9.50167851277692e-08,5.50000000000000e-01,5.50000000000000e-01,3.51333207093973e-04,0.00000000000000e+00
9.51000000000000e-08,5.50000000000000e-01,5.50000000000000e-01,3.67774479846962e-05,0.00000000000000e+00
9.51100000000000e-08,4.95000000000056e-01,5.50000000000000e-01,1.87384163255769e-04,5.49999999999441e-02
9.51300000000000e-08,3.85000000000077e-01,5.50000000000000e-01,3.31123946927442e-04,1.64999999999923e-01
9.51700000000000e-08,1.65000000000118e-01,5.50000000000000e-01,2.19266158714718e-04,3.84999999999882e-01
9.52000000000000e-08,7.69384556065233e-14,5.50000000000000e-01,1.53958682541352e-04,5.49999999999923e-01
9.52080000000000e-08,0.00000000000000e+00,5.50000000000000e-01,1.29478946400169e-04,5.50000000000000e-01
9.52240000000000e-08,0.00000000000000e+00,5.50000000000000e-01,9.22591704566322e-05,5.50000000000000e-01
9.52560000000000e-08,0.00000000000000e+00,5.50000000000000e-01,4.12629319725827e-05,5.50000000000000e-01
9.53200000000000e-08,0.00000000000000e+00,5.50000000000000e-01,-3.25858720449115e-04,5.50000000000000e-01
9.54480000000000e-08,0.00000000000000e+00,5.50000000000000e-01,-8.07905763581977e-04,5.50000000000000e-01
9.57040000000000e-08,0.00000000000000e+00,5.50000000000000e-01,1.32056503638173e-04,5.50000000000000e-01
9.61080539626232e-08,0.00000000000000e+00,5.50000000000000e-01,-6.52786499062297e-05,5.50000000000000e-01
9.68265454535283e-08,0.00000000000000e+00,5.50000000000000e-01,3.06885011912544e-05,5.50000000000000e-01
9.82121247110401e-08,0.00000000000000e+00,5.50000000000000e-01,2.42222191642358e-05,5.50000000000000e-01
9.95900624833651e-08,0.00000000000000e+00,5.50000000000000e-01,-3.86084590391551e-05,5.50000000000000e-01
1.02345938028015e-07,0.00000000000000e+00,5.50000000000000e-01,6.53279972838330e-05,5.50000000000000e-01
1.05000000000000e-07,0.00000000000000e+00,5.50000000000000e-01,-6.00562545496090e-05,5.50000000000000e-01
1.05010000000000e-07,5.49999999999896e-02,5.50000000000000e-01,6.95007413190479e-05,5.50000000000000e-01
1.05030000000000e-07,1.64999999999969e-01,5.50000000000000e-01,2.67140085219796e-04,5.50000000000000e-01
1.05070000000000e-07,3.84999999999927e-01,5.50000000000000e-01,4.10386826404034e-04,5.50000000000000e-01
1.05100000000000e-07,5.49999999999969e-01,5.50000000000000e-01,1.32200141223483e-04,5.50000000000000e-01
1.05108000000000e-07,5.50000000000000e-01,5.50000000000000e-01,-1.44523290842129e-04,5.50000000000000e-01
1.05124000000000e-07,5.50000000000000e-01,5.50000000000000e-01,-8.16296644759774e-04,5.50000000000000e-01
1.05156000000000e-07,5.50000000000000e-01,5.50000000000000e-01,-2.35015914637511e-03,5.50000000000000e-01
1.05220000000000e-07,5.50000000000000e-01,5.50000000000000e-01,-4.39971689455892e-03,5.50000000000000e-01
1.05348000000000e-07,5.50000000000000e-01,5.50000000000000e-01,1.48389557029726e-02,5.50000000000000e-01
1.05604000000000e-07,5.50000000000000e-01,5.50000000000000e-01,3.65628356371157e-01,5.50000000000000e-01
1.06116000000000e-07,5.50000000000000e-01,5.50000000000000e-01,5.73751781335554e-01,5.50000000000000e-01
1.06736618604800e-07,5.50000000000000e-01,5.50000000000000e-01,5.29753747424856e-01,5.50000000000000e-01
1.07977855814400e-07,5.50000000000000e-01,5.50000000000000e-01,5.68969878909563e-01,5.50000000000000e-01
1.09642439137885e-07,5.50000000000000e-01,5.50000000000000e-01,5.31345297446935e-01,5.50000000000000e-01
1.12673597149355e-07,5.50000000000000e-01,5.50000000000000e-01,5.67689623417092e-01,5.50000000000000e-01
1.15100000000000e-07,5.50000000000000e-01,5.50000000000000e-01,5.32235909371549e-01,5.50000000000000e-01
1.15110000000000e-07,4.95000000000056e-01,5.50000000000000e-01,5.38352985185683e-01,5.50000000000000e-01
1.15130000000000e-07,3.85000000000077e-01,5.50000000000000e-01,5.46351077348654e-01,5.50000000000000e-01
1.15170000000000e-07,1.65000000000118e-01,5.50000000000000e-01,5.50420993694865e-01,5.50000000000000e-01
1.15200000000000e-07,7.69384556065233e-14,5.50000000000000e-01,5.51746051683464e-01,5.50000000000000e-01
1.15208000000000e-07,0.00000000000000e+00,5.50000000000000e-01,5.52108705436469e-01,5.50000000000000e-01
1.15224000000000e-07,0.00000000000000e+00,5.50000000000000e-01,5.52569117927718e-01,5.50000000000000e-01
