Time,v(clk),v(data),v(out)
1.00000000000000e-08,5.50000000000000e-01,0.00000000000000e+00,-1.10389581060352e-05
1.00100000000000e-08,5.50000000000000e-01,5.49999999999987e-02,-3.96873007291187e-06
1.00300000000000e-08,5.50000000000000e-01,1.64999999999996e-01,4.19051731718328e-06
1.00700000000000e-08,5.50000000000000e-01,3.84999999999991e-01,5.28987093368488e-06
1.01000000000000e-08,5.50000000000000e-01,5.49999999999996e-01,1.14560494286764e-06
1.01080000000000e-08,5.50000000000000e-01,5.50000000000000e-01,5.01343252301556e-07
1.01240000000000e-08,5.50000000000000e-01,5.50000000000000e-01,5.07525108210671e-07
1.01560000000000e-08,5.50000000000000e-01,5.50000000000000e-01,2.99441348153989e-06
1.02200000000000e-08,5.50000000000000e-01,5.50000000000000e-01,6.28065307975434e-06
1.03480000000000e-08,5.50000000000000e-01,5.50000000000000e-01,3.02560112973652e-06
1.06040000000000e-08,5.50000000000000e-01,5.50000000000000e-01,6.18372298807207e-07
1.11058067618104e-08,5.50000000000000e-01,5.50000000000000e-01,2.46761876511632e-06
1.21094202854312e-08,5.50000000000000e-01,5.50000000000000e-01,8.89619606269515e-07
1.41166473326728e-08,5.50000000000000e-01,5.50000000000000e-01,2.05000553078673e-06
1.51000000000000e-08,5.50000000000000e-01,5.50000000000000e-01,8.15382191543534e-07
1.51100000000000e-08,4.94999999999992e-01,5.50000000000000e-01,-5.40775397387255e-05
1.51300000000000e-08,3.84999999999995e-01,5.50000000000000e-01,-1.39212416699987e-04
1.51700000000000e-08,1.65000000000000e-01,5.50000000000000e-01,-1.79884367764338e-04
1.52000000000000e-08,0.00000000000000e+00,5.50000000000000e-01,-9.09525984138515e-07
1.52080000000000e-08,0.00000000000000e+00,5.50000000000000e-01,1.25919872007760e-04
1.52240000000000e-08,0.00000000000000e+00,5.50000000000000e-01,2.96204827740967e-04
1.52560000000000e-08,0.00000000000000e+00,5.50000000000000e-01,3.50328099553938e-04
1.53200000000000e-08,0.00000000000000e+00,5.50000000000000e-01,1.62196410375556e-04
1.54480000000000e-08,0.00000000000000e+00,5.50000000000000e-01,-1.49171760747156e-04
1.57040000000000e-08,0.00000000000000e+00,5.50000000000000e-01,-4.39654731521077e-05
1.62160000000000e-08,0.00000000000000e+00,5.50000000000000e-01,-9.41725422759151e-05
1.69372217860653e-08,0.00000000000000e+00,5.50000000000000e-01,1.05937367459850e-04
1.82581831235425e-08,0.00000000000000e+00,5.50000000000000e-01,-3.34965329319035e-05
2.00090106099877e-08,0.00000000000000e+00,5.50000000000000e-01,-4.28320956675316e-06
2.32407606843066e-08,0.00000000000000e+00,5.50000000000000e-01,2.15422701292560e-05
2.50000000000000e-08,0.00000000000000e+00,5.50000000000000e-01,-4.52059659100811e-05
2.50100000000000e-08,5.49999999999896e-02,5.50000000000000e-01,7.42685105251731e-05
2.50300000000000e-08,1.65000000000005e-01,5.50000000000000e-01,2.62136743637079e-04
2.50700000000000e-08,3.85000000000000e-01,5.50000000000000e-01,4.11237019774954e-04
2.51000000000000e-08,5.50000000000000e-01,5.50000000000000e-01,3.13347321878037e-04
2.51080000000000e-08,5.50000000000000e-01,5.50000000000000e-01,1.72196025157452e-04
2.51240000000000e-08,5.50000000000000e-01,5.50000000000000e-01,-2.65899820208165e-04
2.51560000000000e-08,5.50000000000000e-01,5.50000000000000e-01,-1.66942157101406e-03
2.52200000000000e-08,5.50000000000000e-01,5.50000000000000e-01,-4.14935418105460e-03
2.53480000000000e-08,5.50000000000000e-01,5.50000000000000e-01,-1.15212016180494e-03
2.56040000000000e-08,5.50000000000000e-01,5.50000000000000e-01,2.64938428564883e-01
2.61160000000000e-08,5.50000000000000e-01,5.50000000000000e-01,5.65523973070876e-01
2.68605269801185e-08,5.50000000000000e-01,5.50000000000000e-01,5.39268942778800e-01
2.81085973036012e-08,5.50000000000000e-01,5.50000000000000e-01,5.61458160714584e-01
2.98618895860005e-08,5.50000000000000e-01,5.50000000000000e-01,5.39699159533974e-01
3.01000000000000e-08,5.50000000000000e-01,5.50000000000000e-01,5.57849340610840e-01
3.01100000000000e-08,5.50000000000000e-01,4.95000000000029e-01,5.55168591407903e-01
3.01300000000000e-08,5.50000000000000e-01,3.85000000000013e-01,5.51651496693069e-01
3.01700000000000e-08,5.50000000000000e-01,1.65000000000018e-01,5.49969851019929e-01
3.02000000000000e-08,5.50000000000000e-01,1.33226762955019e-14,5.49984412397229e-01
3.02080000000000e-08,5.50000000000000e-01,0.00000000000000e+00,5.49978269608496e-01
3.02240000000000e-08,5.50000000000000e-01,0.00000000000000e+00,5.49967029669178e-01
3.02560000000000e-08,5.50000000000000e-01,0.00000000000000e+00,5.49960354512227e-01
3.03200000000000e-08,5.50000000000000e-01,0.00000000000000e+00,5.49958426557210e-01
3.04480000000000e-08,5.50000000000000e-01,0.00000000000000e+00,5.49971611498967e-01
3.07040000000000e-08,5.50000000000000e-01,0.00000000000000e+00,5.49992045234156e-01
3.10950218192747e-08,5.50000000000000e-01,0.00000000000000e+00,5.49965221300791e-01
3.18770654578241e-08,5.50000000000000e-01,0.00000000000000e+00,5.49984763089118e-01
3.28268673961122e-08,5.50000000000000e-01,0.00000000000000e+00,5.49975803867748e-01
3.47264712726883e-08,5.50000000000000e-01,0.00000000000000e+00,5.49984112033977e-01
3.51000000000000e-08,5.49999999999973e-01,0.00000000000000e+00,5.49984277263595e-01
3.51100000000000e-08,4.94999999999983e-01,0.00000000000000e+00,5.49925230878562e-01
3.51300000000000e-08,3.84999999999968e-01,0.00000000000000e+00,5.49844238709097e-01
3.51700000000000e-08,1.64999999999973e-01,0.00000000000000e+00,5.50123377449711e-01
3.52000000000000e-08,0.00000000000000e+00,0.00000000000000e+00,5.51366553478126e-01
3.52080000000000e-08,0.00000000000000e+00,0.00000000000000e+00,5.51767952093175e-01
3.52240000000000e-08,0.00000000000000e+00,0.00000000000000e+00,5.52323443014048e-01
3.52560000000000e-08,0.00000000000000e+00,0.00000000000000e+00,5.52537803187091e-01
3.53200000000000e-08,0.00000000000000e+00,0.00000000000000e+00,5.48909998841687e-01
3.54480000000000e-08,0.00000000000000e+00,0.00000000000000e+00,5.32242608472470e-01
3.57040000000000e-08,0.00000000000000e+00,0.00000000000000e+00,5.38520377295789e-01
3.61387500557783e-08,0.00000000000000e+00,0.00000000000000e+00,5.54641334697739e-01
3.67722966797665e-08,0.00000000000000e+00,0.00000000000000e+00,5.45325170102906e-01
3.77810463271105e-08,0.00000000000000e+00,0.00000000000000e+00,5.53272340137534e-01
3.91000000000000e-08,0.00000000000000e+00,0.00000000000000e+00,5.46691830432868e-01
3.92848586193234e-08,0.00000000000000e+00,0.00000000000000e+00,5.49261934470905e-01
3.96545758579701e-08,0.00000000000000e+00,0.00000000000000e+00,5.50222052199731e-01
4.03940103352634e-08,0.00000000000000e+00,0.00000000000000e+00,5.49577148548009e-01
4.18728792898502e-08,0.00000000000000e+00,0.00000000000000e+00,5.50161490196014e-01
4.48306171990238e-08,0.00000000000000e+00,0.00000000000000e+00,5.49675645935649e-01
4.50000000000000e-08,0.00000000000000e+00,0.00000000000000e+00,5.50010032750263e-01
4.50100000000000e-08,5.49999999999896e-02,0.00000000000000e+00,5.50052393730117e-01
4.50300000000000e-08,1.65000000000005e-01,0.00000000000000e+00,5.50096588046506e-01
4.50700000000000e-08,3.85000000000000e-01,0.00000000000000e+00,5.50042447339612e-01
4.51000000000000e-08,5.50000000000000e-01,0.00000000000000e+00,5.49910660144880e-01
4.51080000000000e-08,5.50000000000000e-01,0.00000000000000e+00,5.49848147693413e-01
4.51240000000000e-08,5.50000000000000e-01,0.00000000000000e+00,5.49758076865098e-01
4.51560000000000e-08,5.50000000000000e-01,0.00000000000000e+00,5.49706879564172e-01
4.52200000000000e-08,5.50000000000000e-01,0.00000000000000e+00,5.49722552984060e-01
4.53480000000000e-08,5.50000000000000e-01,0.00000000000000e+00,5.50330476657128e-01
4.56040000000000e-08,5.50000000000000e-01,0.00000000000000e+00,5.66259501243957e-01
4.61160000000000e-08,5.50000000000000e-01,0.00000000000000e+00,1.28071254289751e-01
4.67856067305734e-08,5.50000000000000e-01,0.00000000000000e+00,-5.98539640600999e-02
4.76973335419279e-08,5.50000000000000e-01,0.00000000000000e+00,5.64408460867582e-02
4.92135994880151e-08,5.50000000000000e-01,0.00000000000000e+00,-4.09938436388039e-02
5.00000000000000e-08,5.50000000000000e-01,0.00000000000000e+00,3.47437008353864e-02
5.00100000000000e-08,5.50000000000000e-01,5.49999999999896e-02,2.95093433093922e-02
5.00300000000000e-08,5.50000000000000e-01,1.64999999999969e-01,2.07079727349423e-02
5.00700000000000e-08,5.50000000000000e-01,3.85000000000000e-01,9.91597277382672e-03
5.01000000000000e-08,5.50000000000000e-01,5.50000000000000e-01,5.74175027788733e-03
5.01080000000000e-08,5.50000000000000e-01,5.50000000000000e-01,5.02369517995372e-03
5.01240000000000e-08,5.50000000000000e-01,5.50000000000000e-01,3.75284656309474e-03
5.01560000000000e-08,5.50000000000000e-01,5.50000000000000e-01,2.09033162517103e-03
5.02200000000000e-08,5.50000000000000e-01,5.50000000000000e-01,5.69297240750603e-04
5.03480000000000e-08,5.50000000000000e-01,5.50000000000000e-01,-3.63196741470714e-05
5.06040000000000e-08,5.50000000000000e-01,5.50000000000000e-01,1.28144037339940e-05
5.11160000000001e-08,5.50000000000000e-01,5.50000000000000e-01,-9.63017791264474e-06
5.21400000000002e-08,5.50000000000000e-01,5.50000000000000e-01,7.56973325511615e-06
5.41880000000003e-08,5.50000000000000e-01,5.50000000000000e-01,-7.85914823310833e-06
5.51000000000000e-08,5.50000000000000e-01,5.50000000000000e-01,6.06325033737209e-06
5.51100000000000e-08,4.95000000000020e-01,5.50000000000000e-01,-3.93960196246879e-05
5.51300000000000e-08,3.85000000000004e-01,5.50000000000000e-01,-1.29091609979447e-04
5.51700000000000e-08,1.65000000000009e-01,5.50000000000000e-01,-1.69559101266217e-04
5.52000000000000e-08,0.00000000000000e+00,5.50000000000000e-01,7.85512011872158e-06
5.52080000000000e-08,0.00000000000000e+00,5.50000000000000e-01,1.32608080118085e-04
5.52240000000000e-08,0.00000000000000e+00,5.50000000000000e-01,2.92946119730582e-04
5.52560000000000e-08,0.00000000000000e+00,5.50000000000000e-01,3.17493422963708e-04
5.53200000000000e-08,0.00000000000000e+00,5.50000000000000e-01,-5.00879000573246e-05
5.54480000000000e-08,0.00000000000000e+00,5.50000000000000e-01,-1.36266038412449e-03
5.57040000000000e-08,0.00000000000000e+00,5.50000000000000e-01,-1.44894008345480e-04
5.60922402291148e-08,0.00000000000000e+00,5.50000000000000e-01,5.96512372447924e-05
5.68687206873443e-08,0.00000000000000e+00,5.50000000000000e-01,-8.01600302303513e-05
5.78306279266263e-08,0.00000000000000e+00,5.50000000000000e-01,1.99810817073529e-04
5.95613043565826e-08,0.00000000000000e+00,5.50000000000000e-01,-2.42523115644410e-04
6.21809954077871e-08,0.00000000000000e+00,5.50000000000000e-01,2.60623795484288e-04
6.50000000000000e-08,0.00000000000000e+00,5.50000000000000e-01,-2.76005168797307e-04
6.50100000000000e-08,5.49999999999896e-02,5.50000000000000e-01,-6.98919151112115e-05
6.50300000000000e-08,1.64999999999969e-01,5.50000000000000e-01,2.15673136425565e-04
6.50700000000000e-08,3.84999999999927e-01,5.50000000000000e-01,4.09600215146098e-04
6.51000000000000e-08,5.49999999999969e-01,5.50000000000000e-01,3.51266191654667e-04
6.51080000000000e-08,5.50000000000000e-01,5.50000000000000e-01,2.53917504902598e-04
6.51240000000000e-08,5.50000000000000e-01,5.50000000000000e-01,-5.02374399636227e-05
6.51560000000000e-08,5.50000000000000e-01,5.50000000000000e-01,-1.21882699270585e-03
6.52200000000000e-08,5.50000000000000e-01,5.50000000000000e-01,-3.88374348327310e-03
6.53480000000000e-08,5.50000000000000e-01,5.50000000000000e-01,-2.46853576629750e-03
6.56040000000000e-08,5.50000000000000e-01,5.50000000000000e-01,2.54864001571493e-01
6.61159999999999e-08,5.50000000000000e-01,5.50000000000000e-01,5.63845605435624e-01
6.68734493069563e-08,5.50000000000000e-01,5.50000000000000e-01,5.40459450380901e-01
6.81084902695820e-08,5.50000000000000e-01,5.50000000000000e-01,5.60310812039527e-01
6.98730963058766e-08,5.50000000000000e-01,5.50000000000000e-01,5.40779394982461e-01
7.01000000000000e-08,5.50000000000000e-01,5.50000000000000e-01,5.57010107539645e-01
7.01100000000000e-08,5.50000000000000e-01,4.95000000000010e-01,5.54611950601878e-01
7.01300000000000e-08,5.50000000000000e-01,3.85000000000031e-01,5.51471121127511e-01
7.01700000000000e-08,5.50000000000000e-01,1.65000000000073e-01,5.49975810224223e-01
7.02000000000000e-08,5.50000000000000e-01,3.15303338993544e-14,5.49988882307132e-01
7.02080000000000e-08,5.50000000000000e-01,0.00000000000000e+00,5.49982260306795e-01
7.02240000000000e-08,5.50000000000000e-01,0.00000000000000e+00,5.49970797153920e-01
7.02560000000000e-08,5.50000000000000e-01,0.00000000000000e+00,5.49964957631906e-01
7.03200000000000e-08,5.50000000000000e-01,0.00000000000000e+00,5.49966184517691e-01
7.04480000000000e-08,5.50000000000000e-01,0.00000000000000e+00,5.49964248747355e-01
7.07040000000000e-08,5.50000000000000e-01,0.00000000000000e+00,5.49999444782795e-01
7.10936899115593e-08,5.50000000000000e-01,0.00000000000000e+00,5.49962553445213e-01
7.18730697346779e-08,5.50000000000000e-01,0.00000000000000e+00,5.49987433881039e-01
7.28178061135090e-08,5.50000000000000e-01,0.00000000000000e+00,5.49973879200452e-01
7.47072788711712e-08,5.50000000000000e-01,0.00000000000000e+00,5.49986320602741e-01
7.51000000000000e-08,5.50000000000000e-01,0.00000000000000e+00,5.49982783066309e-01
7.51100000000000e-08,4.95000000000056e-01,0.00000000000000e+00,5.49923882710703e-01
7.51300000000000e-08,3.85000000000077e-01,0.00000000000000e+00,5.49843110806030e-01
7.51700000000000e-08,1.65000000000118e-01,0.00000000000000e+00,5.50123188268610e-01
7.52000000000000e-08,7.69384556065233e-14,0.00000000000000e+00,5.51366892173382e-01
7.52080000000000e-08,0.00000000000000e+00,0.00000000000000e+00,5.51768338242748e-01
7.52240000000000e-08,0.00000000000000e+00,0.00000000000000e+00,5.52324215818673e-01
7.52560000000000e-08,0.00000000000000e+00,0.00000000000000e+00,5.52541753345339e-01
7.53200000000000e-08,0.00000000000000e+00,0.00000000000000e+00,5.48934578562685e-01
7.54480000000000e-08,0.00000000000000e+00,0.00000000000000e+00,5.32274906108478e-01
7.57040000000000e-08,0.00000000000000e+00,0.00000000000000e+00,5.38512339014992e-01
7.61387560818328e-08,0.00000000000000e+00,0.00000000000000e+00,5.54644579182187e-01
7.67723050161681e-08,0.00000000000000e+00,0.00000000000000e+00,5.45322449352558e-01
7.77810618814477e-08,0.00000000000000e+00,0.00000000000000e+00,5.53274606009245e-01
7.81000000000000e-08,0.00000000000000e+00,0.00000000000000e+00,5.47667627164018e-01
7.82848596113972e-08,0.00000000000000e+00,0.00000000000000e+00,5.49398035502430e-01
7.86545788341915e-08,0.00000000000000e+00,0.00000000000000e+00,5.50062548631540e-01
7.93940172797801e-08,0.00000000000000e+00,0.00000000000000e+00,5.49644779943074e-01
8.08728941709573e-08,0.00000000000000e+00,0.00000000000000e+00,5.50059476912651e-01
8.38306479533117e-08,0.00000000000000e+00,0.00000000000000e+00,5.49751071063928e-01
8.50000000000000e-08,0.00000000000000e+00,0.00000000000000e+00,5.50070321348686e-01
8.50100000000000e-08,5.49999999999896e-02,0.00000000000000e+00,5.50100980539155e-01
8.50300000000000e-08,1.64999999999969e-01,0.00000000000000e+00,5.50126296088008e-01
8.50700000000000e-08,3.84999999999927e-01,0.00000000000000e+00,5.50052491888740e-01
8.51000000000000e-08,5.49999999999969e-01,0.00000000000000e+00,5.49915121367852e-01
8.51080000000000e-08,5.50000000000000e-01,0.00000000000000e+00,5.49851981964676e-01
8.51240000000000e-08,5.50000000000000e-01,0.00000000000000e+00,5.49760791754095e-01
8.51560000000000e-08,5.50000000000000e-01,0.00000000000000e+00,5.49708110515069e-01
8.52200000000000e-08,5.50000000000000e-01,0.00000000000000e+00,5.49722436908910e-01
8.53480000000000e-08,5.50000000000000e-01,0.00000000000000e+00,5.50329760473996e-01
8.56040000000000e-08,5.50000000000000e-01,0.00000000000000e+00,5.66254438561992e-01
8.61159999999999e-08,5.50000000000000e-01,0.00000000000000e+00,1.28078019212793e-01
8.67856367985518e-08,5.50000000000000e-01,0.00000000000000e+00,-5.98550557063572e-02
8.76973286433509e-08,5.50000000000000e-01,0.00000000000000e+00,5.64422175366170e-02
8.92136300224035e-08,5.50000000000000e-01,0.00000000000000e+00,-4.09940691590005e-02
9.00000000000000e-08,5.50000000000000e-01,0.00000000000000e+00,3.47424719928168e-02
9.00100000000000e-08,5.50000000000000e-01,5.49999999999896e-02,2.95086581199685e-02
9.00300000000000e-08,5.50000000000000e-01,1.64999999999969e-01,2.07078634150254e-02
9.00700000000000e-08,5.50000000000000e-01,3.84999999999927e-01,9.91599622617463e-03
9.01000000000000e-08,5.50000000000000e-01,5.49999999999969e-01,5.74178714653770e-03
9.01080000000000e-08,5.50000000000000e-01,5.50000000000000e-01,5.02372410991715e-03
9.01240000000000e-08,5.50000000000000e-01,5.50000000000000e-01,3.75286618265731e-03
9.01560000000000e-08,5.50000000000000e-01,5.50000000000000e-01,2.09034462760335e-03
9.02200000000000e-08,5.50000000000000e-01,5.50000000000000e-01,5.69301073719858e-04
9.03480000000000e-08,5.50000000000000e-01,5.50000000000000e-01,-3.63185257364861e-05
9.06040000000000e-08,5.50000000000000e-01,5.50000000000000e-01,1.28132741432745e-05
9.11159999999999e-08,5.50000000000000e-01,5.50000000000000e-01,-9.62918066103186e-06
9.21399999999999e-08,5.50000000000000e-01,5.50000000000000e-01,7.56917556658451e-06
9.41879999999998e-08,5.50000000000000e-01,5.50000000000000e-01,-7.85837152268189e-06
9.51000000000000e-08,5.50000000000000e-01,5.50000000000000e-01,6.06263609407177e-06
9.51100000000000e-08,4.95000000000056e-01,5.50000000000000e-01,-3.93969885866541e-05
9.51300000000000e-08,3.85000000000077e-01,5.50000000000000e-01,-1.29092197011911e-04
9.51700000000000e-08,1.65000000000118e-01,5.50000000000000e-01,-1.69559355447442e-04
9.52000000000000e-08,7.69384556065233e-14,5.50000000000000e-01,7.85510218614949e-06
9.52080000000000e-08,0.00000000000000e+00,5.50000000000000e-01,1.32608186473766e-04
9.52240000000000e-08,0.00000000000000e+00,5.50000000000000e-01,2.92946603876826e-04
9.52560000000000e-08,0.00000000000000e+00,5.50000000000000e-01,3.17495856526413e-04
9.53200000000000e-08,0.00000000000000e+00,5.50000000000000e-01,-5.00710455746400e-05
9.54480000000000e-08,0.00000000000000e+00,5.50000000000000e-01,-1.36258825649117e-03
9.57040000000000e-08,0.00000000000000e+00,5.50000000000000e-01,-1.44870756979519e-04
9.60922489064781e-08,0.00000000000000e+00,5.50000000000000e-01,5.96387884386120e-05
9.68687467194344e-08,0.00000000000000e+00,5.50000000000000e-01,-8.01490444998975e-05
9.78306898276008e-08,0.00000000000000e+00,5.50000000000000e-01,1.99796795851163e-04
9.95613777063234e-08,0.00000000000000e+00,5.50000000000000e-01,-2.42510041802915e-04
1.02181141264571e-07,0.00000000000000e+00,5.50000000000000e-01,2.60611296713037e-04
1.05000000000000e-07,0.00000000000000e+00,5.50000000000000e-01,-2.75994066847553e-04
1.05010000000000e-07,5.49999999999896e-02,5.50000000000000e-01,-6.98830582542345e-05
1.05030000000000e-07,1.64999999999969e-01,5.50000000000000e-01,2.15679134614975e-04
1.05070000000000e-07,3.84999999999927e-01,5.50000000000000e-01,4.09603671881344e-04
1.05100000000000e-07,5.49999999999969e-01,5.50000000000000e-01,3.51269882152269e-04
1.05108000000000e-07,5.50000000000000e-01,5.50000000000000e-01,2.53923817209428e-04
1.05124000000000e-07,5.50000000000000e-01,5.50000000000000e-01,-5.02200637131842e-05
1.05156000000000e-07,5.50000000000000e-01,5.50000000000000e-01,-1.21879420177395e-03
1.05220000000000e-07,5.50000000000000e-01,5.50000000000000e-01,-3.88371772140035e-03
1.05348000000000e-07,5.50000000000000e-01,5.50000000000000e-01,-2.46866142145614e-03
1.05604000000000e-07,5.50000000000000e-01,5.50000000000000e-01,2.54862276705619e-01
1.06116000000000e-07,5.50000000000000e-01,5.50000000000000e-01,5.63845271660820e-01
1.06873452092185e-07,5.50000000000000e-01,5.50000000000000e-01,5.40459687326502e-01
1.08108490857496e-07,5.50000000000000e-01,5.50000000000000e-01,5.60310580816894e-01
1.09873099951432e-07,5.50000000000000e-01,5.50000000000000e-01,5.40779610281512e-01
1.10100000000000e-07,5.50000000000000e-01,5.50000000000000e-01,5.57009926015525e-01
1.10110000000000e-07,5.50000000000000e-01,4.95000000000083e-01,5.54611830863208e-01
