Time,v(clk),v(data),v(out)
1.00000000000000e-08,7.25000000000000e-01,0.00000000000000e+00,-2.12979138647694e-05
1.00100000000000e-08,7.25000000000000e-01,7.24999999999982e-02,-1.16482419395131e-05
1.00300000000000e-08,7.25000000000000e-01,2.17499999999995e-01,-3.56173597640397e-06
1.00700000000000e-08,7.25000000000000e-01,5.07499999999988e-01,-2.49956192725082e-06
1.01000000000000e-08,7.25000000000000e-01,7.24999999999995e-01,-1.21546272346951e-06
1.01080000000000e-08,7.25000000000000e-01,7.25000000000000e-01,4.47480773629882e-07
1.01240000000000e-08,7.25000000000000e-01,7.25000000000000e-01,3.31580696562306e-06
1.01560000000000e-08,7.25000000000000e-01,7.25000000000000e-01,3.92407687517526e-06
1.02200000000000e-08,7.25000000000000e-01,7.25000000000000e-01,1.22674315544691e-06
1.03480000000000e-08,7.25000000000000e-01,7.25000000000000e-01,2.16918952609599e-06
1.06040000000000e-08,7.25000000000000e-01,7.25000000000000e-01,1.74742070432193e-06
1.11160000000000e-08,7.25000000000000e-01,7.25000000000000e-01,1.90874714696768e-06
1.21400000000000e-08,7.25000000000000e-01,7.25000000000000e-01,1.46328381865537e-06
1.41880000000000e-08,7.25000000000000e-01,7.25000000000000e-01,1.64840770859685e-06
1.51000000000000e-08,7.25000000000000e-01,7.25000000000000e-01,1.19555385011145e-06
1.51100000000000e-08,6.52499999999990e-01,7.25000000000000e-01,-7.60601477869105e-05
1.51300000000000e-08,5.07499999999993e-01,7.25000000000000e-01,-1.51858186503068e-04
1.51700000000000e-08,2.17500000000000e-01,7.25000000000000e-01,6.83000744477746e-05
1.52000000000000e-08,0.00000000000000e+00,7.25000000000000e-01,4.37891548535449e-04
1.52080000000000e-08,0.00000000000000e+00,7.25000000000000e-01,5.17903498136241e-04
1.52240000000000e-08,0.00000000000000e+00,7.25000000000000e-01,4.40508979644108e-04
1.52560000000000e-08,0.00000000000000e+00,7.25000000000000e-01,-1.99793422666877e-04
1.53200000000000e-08,0.00000000000000e+00,7.25000000000000e-01,-3.78991115170549e-04
1.54480000000000e-08,0.00000000000000e+00,7.25000000000000e-01,2.25985806488645e-05
1.56372789876977e-08,0.00000000000000e+00,7.25000000000000e-01,-8.87500295351888e-05
1.58888381039471e-08,0.00000000000000e+00,7.25000000000000e-01,2.86214108691046e-04
1.63919563364458e-08,0.00000000000000e+00,7.25000000000000e-01,-3.20542724032718e-04
1.68942156532332e-08,0.00000000000000e+00,7.25000000000000e-01,3.29391400391192e-04
1.78987342868079e-08,0.00000000000000e+00,7.25000000000000e-01,-3.25768428756913e-04
1.94049546258365e-08,0.00000000000000e+00,7.25000000000000e-01,3.22386159877280e-04
2.17512510079201e-08,0.00000000000000e+00,7.25000000000000e-01,-3.18850501495237e-04
2.50000000000000e-08,0.00000000000000e+00,7.25000000000000e-01,3.16826803163589e-04
2.50100000000000e-08,7.24999999999862e-02,7.25000000000000e-01,3.64160921476689e-04
2.50300000000000e-08,2.17500000000007e-01,7.25000000000000e-01,3.68281623494976e-04
2.50700000000000e-08,5.07500000000000e-01,7.25000000000000e-01,3.38814024554851e-05
2.51000000000000e-08,7.25000000000000e-01,7.25000000000000e-01,-2.51687430636955e-03
2.51080000000000e-08,7.25000000000000e-01,7.25000000000000e-01,-3.65555055734396e-03
2.51240000000000e-08,7.25000000000000e-01,7.25000000000000e-01,-5.38211682240121e-03
2.51560000000000e-08,7.25000000000000e-01,7.25000000000000e-01,-5.64279465034317e-03
2.52200000000000e-08,7.25000000000000e-01,7.25000000000000e-01,1.11542795677707e-01
2.53480000000000e-08,7.25000000000000e-01,7.25000000000000e-01,6.45552312567769e-01
2.56040000000000e-08,7.25000000000000e-01,7.25000000000000e-01,7.44723289697863e-01
2.58689393310779e-08,7.25000000000000e-01,7.25000000000000e-01,7.06114793020520e-01
2.63936882628223e-08,7.25000000000000e-01,7.25000000000000e-01,7.41877123913842e-01
2.70973164379932e-08,7.25000000000000e-01,7.25000000000000e-01,7.07992309983800e-01
2.85045727883351e-08,7.25000000000000e-01,7.25000000000000e-01,7.40898171345966e-01
3.01000000000000e-08,7.25000000000000e-01,7.25000000000000e-01,7.08679250375937e-01
3.01100000000000e-08,7.25000000000000e-01,6.52500000000038e-01,7.18021297037134e-01
3.01300000000000e-08,7.25000000000000e-01,5.07500000000017e-01,7.26009744926581e-01
3.01700000000000e-08,7.25000000000000e-01,2.17500000000024e-01,7.24485510103018e-01
3.02000000000000e-08,7.25000000000000e-01,1.75415237890775e-14,7.25173893653174e-01
3.02080000000000e-08,7.25000000000000e-01,0.00000000000000e+00,7.25072015449797e-01
3.02240000000000e-08,7.25000000000000e-01,0.00000000000000e+00,7.24967351608564e-01
3.02560000000000e-08,7.25000000000000e-01,0.00000000000000e+00,7.24966424254401e-01
3.03200000000000e-08,7.25000000000000e-01,0.00000000000000e+00,7.25002790238725e-01
3.04324720621076e-08,7.25000000000000e-01,0.00000000000000e+00,7.24988380748772e-01
3.06281652349295e-08,7.25000000000000e-01,0.00000000000000e+00,7.24983365042776e-01
3.08807891524827e-08,7.25000000000000e-01,0.00000000000000e+00,7.24996034688414e-01
3.13860369875890e-08,7.25000000000000e-01,0.00000000000000e+00,7.24982379985584e-01
3.23965326578017e-08,7.25000000000000e-01,0.00000000000000e+00,7.24998208329128e-01
3.44175239982271e-08,7.25000000000000e-01,0.00000000000000e+00,7.24984777037982e-01
3.51000000000000e-08,7.24999999999964e-01,0.00000000000000e+00,7.25000364395753e-01
3.51100000000000e-08,6.52499999999978e-01,0.00000000000000e+00,7.24920699411779e-01
3.51300000000000e-08,5.07499999999957e-01,0.00000000000000e+00,7.24886855254513e-01
3.51700000000000e-08,2.17499999999964e-01,0.00000000000000e+00,7.26256766440554e-01
3.52000000000000e-08,0.00000000000000e+00,0.00000000000000e+00,7.28356826826686e-01
3.52080000000000e-08,0.00000000000000e+00,0.00000000000000e+00,7.27578804688234e-01
3.52240000000000e-08,0.00000000000000e+00,0.00000000000000e+00,7.22449882022871e-01
3.52560000000000e-08,0.00000000000000e+00,0.00000000000000e+00,7.06708851867729e-01
3.53200000000000e-08,0.00000000000000e+00,0.00000000000000e+00,7.10079966561236e-01
3.54480000000000e-08,0.00000000000000e+00,0.00000000000000e+00,7.28092009262686e-01
3.56039064949545e-08,0.00000000000000e+00,0.00000000000000e+00,7.21852196124942e-01
3.59157194848636e-08,0.00000000000000e+00,0.00000000000000e+00,7.27050685714948e-01
3.62698117147171e-08,0.00000000000000e+00,0.00000000000000e+00,7.22861253570803e-01
3.69779961744240e-08,0.00000000000000e+00,0.00000000000000e+00,7.26728175770255e-01
3.83943650938377e-08,0.00000000000000e+00,0.00000000000000e+00,7.23175593265606e-01
3.91000000000000e-08,0.00000000000000e+00,0.00000000000000e+00,7.26580800698580e-01
3.93832737838828e-08,0.00000000000000e+00,0.00000000000000e+00,7.25019954345882e-01
3.99498213516483e-08,0.00000000000000e+00,0.00000000000000e+00,7.24890570227633e-01
4.10829164871793e-08,0.00000000000000e+00,0.00000000000000e+00,7.25020099471262e-01
4.33491067582414e-08,0.00000000000000e+00,0.00000000000000e+00,7.24906744415554e-01
4.50000000000000e-08,0.00000000000000e+00,0.00000000000000e+00,7.25025096596241e-01
4.50100000000000e-08,7.24999999999862e-02,0.00000000000000e+00,7.25063779045648e-01
4.50300000000000e-08,2.17500000000007e-01,0.00000000000000e+00,7.25050912629370e-01
4.50700000000000e-08,5.07500000000000e-01,0.00000000000000e+00,7.24930829314338e-01
4.51000000000000e-08,7.25000000000000e-01,0.00000000000000e+00,7.24753358434423e-01
4.51080000000000e-08,7.25000000000000e-01,0.00000000000000e+00,7.24699261740449e-01
4.51240000000000e-08,7.25000000000000e-01,0.00000000000000e+00,7.24696088811728e-01
4.51560000000000e-08,7.25000000000000e-01,0.00000000000000e+00,7.25040885178293e-01
4.52200000000000e-08,7.25000000000000e-01,0.00000000000000e+00,7.30916939637534e-01
4.53480000000000e-08,7.25000000000000e-01,0.00000000000000e+00,4.25647817294848e-01
4.56026913555119e-08,7.25000000000000e-01,0.00000000000000e+00,-5.77487257578074e-02
4.58369279415243e-08,7.25000000000000e-01,0.00000000000000e+00,3.85585294803954e-02
4.63054011135491e-08,7.25000000000000e-01,0.00000000000000e+00,-2.57970245573831e-02
4.67945237691494e-08,7.25000000000000e-01,0.00000000000000e+00,2.17344807077830e-02
4.77727690803501e-08,7.25000000000000e-01,0.00000000000000e+00,-1.72544852284611e-02
4.95510528040737e-08,7.25000000000000e-01,0.00000000000000e+00,1.74555028820691e-02
5.00000000000000e-08,7.25000000000000e-01,0.00000000000000e+00,-1.16887306738574e-02
5.00100000000000e-08,7.25000000000000e-01,7.24999999999862e-02,-1.02223317658407e-02
5.00300000000000e-08,7.25000000000000e-01,2.17499999999959e-01,-5.74852877245997e-03
5.00700000000000e-08,7.25000000000000e-01,5.07500000000000e-01,-5.21675571445300e-04
5.01000000000000e-08,7.25000000000000e-01,7.25000000000000e-01,-3.53445277788363e-04
5.01080000000000e-08,7.25000000000000e-01,7.25000000000000e-01,-2.09326250992514e-04
5.01240000000000e-08,7.25000000000000e-01,7.25000000000000e-01,-7.87577176299958e-05
5.01560000000000e-08,7.25000000000000e-01,7.25000000000000e-01,-2.67850661545554e-05
5.02200000000000e-08,7.25000000000000e-01,7.25000000000000e-01,8.83632191634592e-06
5.03480000000000e-08,7.25000000000000e-01,7.25000000000000e-01,-6.57659821109643e-06
5.06040000000000e-08,7.25000000000000e-01,7.25000000000000e-01,8.84612923706188e-06
5.11160000000001e-08,7.25000000000000e-01,7.25000000000000e-01,-7.50326920719198e-06
5.21400000000002e-08,7.25000000000000e-01,7.25000000000000e-01,8.28379176567081e-06
5.41880000000003e-08,7.25000000000000e-01,7.25000000000000e-01,-7.33086620868925e-06
5.51000000000000e-08,7.25000000000000e-01,7.25000000000000e-01,7.92724597058637e-06
5.51100000000000e-08,6.52500000000026e-01,7.25000000000000e-01,-7.74343872870509e-05
5.51300000000000e-08,5.07500000000005e-01,7.25000000000000e-01,-1.57184554763920e-04
5.51700000000000e-08,2.17500000000012e-01,7.25000000000000e-01,6.52126280588916e-05
5.52000000000000e-08,0.00000000000000e+00,7.25000000000000e-01,4.02612091505841e-04
5.52080000000000e-08,0.00000000000000e+00,7.25000000000000e-01,4.29926103708012e-04
5.52240000000000e-08,0.00000000000000e+00,7.25000000000000e-01,1.31558426840997e-04
5.52560000000000e-08,0.00000000000000e+00,7.25000000000000e-01,-9.41346949859048e-04
5.53200000000000e-08,0.00000000000000e+00,7.25000000000000e-01,-6.15185365309336e-04
5.54480000000000e-08,0.00000000000000e+00,7.25000000000000e-01,1.76906298838896e-04
5.56372861420764e-08,0.00000000000000e+00,7.25000000000000e-01,-2.03929871934821e-04
5.58888596000402e-08,0.00000000000000e+00,7.25000000000000e-01,3.84861526004490e-04
5.63920065159680e-08,0.00000000000000e+00,7.25000000000000e-01,-4.07153373686327e-04
5.68941941922440e-08,0.00000000000000e+00,7.25000000000000e-01,4.06452180590983e-04
5.78985695447961e-08,0.00000000000000e+00,7.25000000000000e-01,-4.00078656316025e-04
5.94047181222537e-08,0.00000000000000e+00,7.25000000000000e-01,3.93740507493916e-04
6.17506604578508e-08,0.00000000000000e+00,7.25000000000000e-01,-3.89091778988190e-04
6.50000000000000e-08,0.00000000000000e+00,7.25000000000000e-01,3.85561885450499e-04
6.50100000000000e-08,7.24999999999862e-02,7.25000000000000e-01,3.98687404335324e-04
6.50300000000000e-08,2.17499999999959e-01,7.25000000000000e-01,3.73911797277166e-04
6.50700000000000e-08,5.07499999999904e-01,7.25000000000000e-01,3.37860827459499e-05
6.51000000000000e-08,7.24999999999958e-01,7.25000000000000e-01,-2.51792400419136e-03
6.51080000000000e-08,7.25000000000000e-01,7.25000000000000e-01,-3.65593391615182e-03
6.51240000000000e-08,7.25000000000000e-01,7.25000000000000e-01,-5.55799928209079e-03
6.51560000000000e-08,7.25000000000000e-01,7.25000000000000e-01,-5.68648939897863e-03
6.52200000000000e-08,7.25000000000000e-01,7.25000000000000e-01,1.11516871230188e-01
6.53480000000000e-08,7.25000000000000e-01,7.25000000000000e-01,6.45552668019722e-01
6.56040000000000e-08,7.25000000000000e-01,7.25000000000000e-01,7.44723752408142e-01
6.58689378233643e-08,7.25000000000000e-01,7.25000000000000e-01,7.06115018332377e-01
6.63936725868072e-08,7.25000000000000e-01,7.25000000000000e-01,7.41877507301403e-01
6.70973162486539e-08,7.25000000000000e-01,7.25000000000000e-01,7.07992333512589e-01
6.85046035723472e-08,7.25000000000000e-01,7.25000000000000e-01,7.40898439243091e-01
7.01000000000000e-08,7.25000000000000e-01,7.25000000000000e-01,7.08679158552917e-01
7.01100000000000e-08,7.25000000000000e-01,6.52500000000014e-01,7.18021351053928e-01
7.01300000000000e-08,7.25000000000000e-01,5.07500000000041e-01,7.26009815884836e-01
7.01700000000000e-08,7.25000000000000e-01,2.17500000000096e-01,7.24485547317091e-01
7.02000000000000e-08,7.25000000000000e-01,4.15223411209809e-14,7.25173953067783e-01
7.02080000000000e-08,7.25000000000000e-01,0.00000000000000e+00,7.25072068563243e-01
7.02240000000000e-08,7.25000000000000e-01,0.00000000000000e+00,7.24967397114008e-01
7.02560000000000e-08,7.25000000000000e-01,0.00000000000000e+00,7.24966474041916e-01
7.03200000000000e-08,7.25000000000000e-01,0.00000000000000e+00,7.25002838077172e-01
7.04324743699830e-08,7.25000000000000e-01,0.00000000000000e+00,7.24988426909893e-01
7.06281662532848e-08,7.25000000000000e-01,0.00000000000000e+00,7.24983409999547e-01
7.08808000253009e-08,7.25000000000000e-01,0.00000000000000e+00,7.24996075059250e-01
7.13860675693331e-08,7.25000000000000e-01,0.00000000000000e+00,7.24982417431972e-01
7.23966026573976e-08,7.25000000000000e-01,0.00000000000000e+00,7.24998236424655e-01
7.44176728335266e-08,7.25000000000000e-01,0.00000000000000e+00,7.24984797671648e-01
7.51000000000000e-08,7.25000000000000e-01,0.00000000000000e+00,7.25000380846584e-01
7.51100000000000e-08,6.52500000000074e-01,0.00000000000000e+00,7.24920714991561e-01
7.51300000000000e-08,5.07500000000101e-01,0.00000000000000e+00,7.24886870377170e-01
7.51700000000000e-08,2.17500000000156e-01,0.00000000000000e+00,7.26256822833907e-01
7.52000000000000e-08,1.01474384450739e-13,0.00000000000000e+00,7.28358325589611e-01
7.52080000000000e-08,0.00000000000000e+00,0.00000000000000e+00,7.27581768109847e-01
7.52240000000000e-08,0.00000000000000e+00,0.00000000000000e+00,7.22455139657790e-01
7.52560000000000e-08,0.00000000000000e+00,0.00000000000000e+00,7.06713570251551e-01
7.53200000000000e-08,0.00000000000000e+00,0.00000000000000e+00,7.10078960914367e-01
7.54480000000000e-08,0.00000000000000e+00,0.00000000000000e+00,7.28092462847794e-01
7.56039065583771e-08,0.00000000000000e+00,0.00000000000000e+00,7.21851882255987e-01
7.59157196751313e-08,0.00000000000000e+00,0.00000000000000e+00,7.27050962005602e-01
7.62698119097400e-08,0.00000000000000e+00,0.00000000000000e+00,7.22861013713051e-01
7.69779963789573e-08,0.00000000000000e+00,0.00000000000000e+00,7.26728399719802e-01
7.81000000000000e-08,0.00000000000000e+00,0.00000000000000e+00,7.23186810441474e-01
7.82416368938435e-08,0.00000000000000e+00,0.00000000000000e+00,7.24785380349030e-01
7.85249106815304e-08,0.00000000000000e+00,0.00000000000000e+00,7.25066988538436e-01
7.90914582569043e-08,0.00000000000000e+00,0.00000000000000e+00,7.24832099325811e-01
8.02245534076520e-08,0.00000000000000e+00,0.00000000000000e+00,7.25065618929469e-01
8.24907437091474e-08,0.00000000000000e+00,0.00000000000000e+00,7.24856340388754e-01
8.50000000000000e-08,0.00000000000000e+00,0.00000000000000e+00,7.25073565043225e-01
8.50100000000000e-08,7.24999999999862e-02,0.00000000000000e+00,7.25095935400701e-01
8.50300000000000e-08,2.17499999999959e-01,0.00000000000000e+00,7.25061477910138e-01
8.50700000000000e-08,5.07499999999904e-01,0.00000000000000e+00,7.24929321994500e-01
8.51000000000000e-08,7.24999999999958e-01,0.00000000000000e+00,7.24752875466518e-01
8.51080000000000e-08,7.25000000000000e-01,0.00000000000000e+00,7.24696625630562e-01
8.51240000000000e-08,7.25000000000000e-01,0.00000000000000e+00,7.24689829813254e-01
8.51560000000000e-08,7.25000000000000e-01,0.00000000000000e+00,7.25038773421397e-01
8.52200000000000e-08,7.25000000000000e-01,0.00000000000000e+00,7.30916833493385e-01
8.53480000000000e-08,7.25000000000000e-01,0.00000000000000e+00,4.25638118898966e-01
8.56026929626346e-08,7.25000000000000e-01,0.00000000000000e+00,-5.77537795454302e-02
8.58369246961919e-08,7.25000000000000e-01,0.00000000000000e+00,3.85616452318189e-02
8.63053881633064e-08,7.25000000000000e-01,0.00000000000000e+00,-2.57990966670372e-02
8.67945047380857e-08,7.25000000000000e-01,0.00000000000000e+00,2.17361809667376e-02
8.77727378876444e-08,7.25000000000000e-01,0.00000000000000e+00,-1.72559337485976e-02
8.95509299865220e-08,7.25000000000000e-01,0.00000000000000e+00,1.74568445407733e-02
9.00000000000000e-08,7.25000000000000e-01,0.00000000000000e+00,-1.16908577137853e-02
9.00100000000000e-08,7.25000000000000e-01,7.24999999999862e-02,-1.02238271814764e-02
9.00300000000000e-08,7.25000000000000e-01,2.17499999999959e-01,-5.74914087949886e-03
9.00700000000000e-08,7.25000000000000e-01,5.07499999999904e-01,-5.21765210590511e-04
9.01000000000000e-08,7.25000000000000e-01,7.24999999999958e-01,-3.53472265569747e-04
9.01080000000000e-08,7.25000000000000e-01,7.25000000000000e-01,-2.09346068544863e-04
9.01240000000000e-08,7.25000000000000e-01,7.25000000000000e-01,-7.87666903819817e-05
9.01560000000000e-08,7.25000000000000e-01,7.25000000000000e-01,-2.67873554677250e-05
9.02200000000000e-08,7.25000000000000e-01,7.25000000000000e-01,8.83725765121052e-06
9.03480000000000e-08,7.25000000000000e-01,7.25000000000000e-01,-6.57748525365390e-06
9.06040000000000e-08,7.25000000000000e-01,7.25000000000000e-01,8.84734592318873e-06
9.11159999999999e-08,7.25000000000000e-01,7.25000000000000e-01,-7.50435204281870e-06
9.21399999999999e-08,7.25000000000000e-01,7.25000000000000e-01,8.28485053561406e-06
9.41879999999998e-08,7.25000000000000e-01,7.25000000000000e-01,-7.33187585977377e-06
9.51000000000000e-08,7.25000000000000e-01,7.25000000000000e-01,7.92822805509383e-06
9.51100000000000e-08,6.52500000000074e-01,7.25000000000000e-01,-7.74347045514323e-05
9.51300000000000e-08,5.07500000000101e-01,7.25000000000000e-01,-1.57184543041311e-04
9.51700000000000e-08,2.17500000000156e-01,7.25000000000000e-01,6.52126619280838e-05
9.52000000000000e-08,1.01474384450739e-13,7.25000000000000e-01,4.02613960145348e-04
9.52080000000000e-08,0.00000000000000e+00,7.25000000000000e-01,4.29929464134934e-04
9.52240000000000e-08,0.00000000000000e+00,7.25000000000000e-01,1.31566355115700e-04
9.52560000000000e-08,0.00000000000000e+00,7.25000000000000e-01,-9.41316659966634e-04
9.53200000000000e-08,0.00000000000000e+00,7.25000000000000e-01,-6.15170077846255e-04
9.54480000000000e-08,0.00000000000000e+00,7.25000000000000e-01,1.76896931522477e-04
9.56372861587944e-08,0.00000000000000e+00,7.25000000000000e-01,-2.03923175488112e-04
9.58888596107408e-08,0.00000000000000e+00,7.25000000000000e-01,3.84856240760605e-04
9.63920065146335e-08,0.00000000000000e+00,7.25000000000000e-01,-4.07148545035495e-04
9.68941941928333e-08,0.00000000000000e+00,7.25000000000000e-01,4.06447810687549e-04
9.78985695492329e-08,0.00000000000000e+00,7.25000000000000e-01,-4.00074465685882e-04
9.94047180712394e-08,0.00000000000000e+00,7.25000000000000e-01,3.93736457768868e-04
1.01750660366506e-07,0.00000000000000e+00,7.25000000000000e-01,-3.89087792523948e-04
1.05000000000000e-07,0.00000000000000e+00,7.25000000000000e-01,3.85557967246329e-04
1.05010000000000e-07,7.24999999999862e-02,7.25000000000000e-01,3.98685555439426e-04
1.05030000000000e-07,2.17499999999959e-01,7.25000000000000e-01,3.73911605240251e-04
1.05070000000000e-07,5.07499999999904e-01,7.25000000000000e-01,3.37859848386149e-05
1.05100000000000e-07,7.24999999999958e-01,7.25000000000000e-01,-2.51792389804778e-03
1.05108000000000e-07,7.25000000000000e-01,7.25000000000000e-01,-3.65593388983086e-03
1.05124000000000e-07,7.25000000000000e-01,7.25000000000000e-01,-5.55799929092411e-03
1.05156000000000e-07,7.25000000000000e-01,7.25000000000000e-01,-5.68648939523748e-03
1.05220000000000e-07,7.25000000000000e-01,7.25000000000000e-01,1.11516871015455e-01
1.05348000000000e-07,7.25000000000000e-01,7.25000000000000e-01,6.45552667900065e-01
1.05604000000000e-07,7.25000000000000e-01,7.25000000000000e-01,7.44723752425412e-01
