Time,v(clk),v(data),v(out)
1.00000000000000e-08,7.25000000000000e-01,0.00000000000000e+00,2.59305290232761e-05
1.00100000000000e-08,7.25000000000000e-01,7.24999999999982e-02,2.10392092270251e-05
1.00300000000000e-08,7.25000000000000e-01,2.17499999999995e-01,1.58095796267410e-05
1.00700000000000e-08,7.25000000000000e-01,5.07499999999988e-01,1.17978453995984e-05
1.01000000000000e-08,7.25000000000000e-01,7.24999999999995e-01,1.12873165988847e-05
1.01080000000000e-08,7.25000000000000e-01,7.25000000000000e-01,1.12037556358052e-05
1.01240000000000e-08,7.25000000000000e-01,7.25000000000000e-01,1.29051681147518e-05
1.01560000000000e-08,7.25000000000000e-01,7.25000000000000e-01,1.76374359608517e-05
1.02200000000000e-08,7.25000000000000e-01,7.25000000000000e-01,1.95177474147865e-05
1.03480000000000e-08,7.25000000000000e-01,7.25000000000000e-01,1.24514050622443e-05
1.06040000000000e-08,7.25000000000000e-01,7.25000000000000e-01,1.67796984284520e-05
1.11160000000000e-08,7.25000000000000e-01,7.25000000000000e-01,1.35281222212787e-05
1.21400000000000e-08,7.25000000000000e-01,7.25000000000000e-01,1.58317485625505e-05
1.41880000000000e-08,7.25000000000000e-01,7.25000000000000e-01,1.29014611542216e-05
1.51000000000000e-08,7.25000000000000e-01,7.25000000000000e-01,1.50828843008535e-05
1.51100000000000e-08,6.52499999999990e-01,7.25000000000000e-01,-7.51098988638760e-05
1.51300000000000e-08,5.07499999999993e-01,7.25000000000000e-01,-1.84936058715626e-04
1.51700000000000e-08,2.17500000000000e-01,7.25000000000000e-01,3.18596580434205e-05
1.52000000000000e-08,0.00000000000000e+00,7.25000000000000e-01,4.67710895947313e-04
1.52080000000000e-08,0.00000000000000e+00,7.25000000000000e-01,5.86241058072715e-04
1.52240000000000e-08,0.00000000000000e+00,7.25000000000000e-01,5.94378997731973e-04
1.52560000000000e-08,0.00000000000000e+00,7.25000000000000e-01,1.35109718940041e-05
1.53200000000000e-08,0.00000000000000e+00,7.25000000000000e-01,-5.99984798507001e-04
1.54480000000000e-08,0.00000000000000e+00,7.25000000000000e-01,5.04618685009534e-05
1.56598385502274e-08,0.00000000000000e+00,7.25000000000000e-01,-2.05437044457187e-04
1.59716142538368e-08,0.00000000000000e+00,7.25000000000000e-01,2.78886088836219e-04
1.65327642331006e-08,0.00000000000000e+00,7.25000000000000e-01,-1.44641214146429e-04
1.71070769857739e-08,0.00000000000000e+00,7.25000000000000e-01,1.01597688487498e-04
1.82557024911205e-08,0.00000000000000e+00,7.25000000000000e-01,-4.97102387421247e-05
2.05529535018136e-08,0.00000000000000e+00,7.25000000000000e-01,6.41344247526215e-05
2.43529535018136e-08,0.00000000000000e+00,7.25000000000000e-01,-3.19186377073378e-05
2.50000000000000e-08,0.00000000000000e+00,7.25000000000000e-01,2.65039503507258e-05
2.50100000000000e-08,7.24999999999862e-02,7.25000000000000e-01,2.07065133195225e-04
2.50300000000000e-08,2.17500000000007e-01,7.25000000000000e-01,4.34170458535249e-04
2.50700000000000e-08,5.07500000000000e-01,7.25000000000000e-01,4.32030385585785e-04
2.51000000000000e-08,7.25000000000000e-01,7.25000000000000e-01,-1.14301396767209e-03
2.51080000000000e-08,7.25000000000000e-01,7.25000000000000e-01,-2.05369058359790e-03
2.51240000000000e-08,7.25000000000000e-01,7.25000000000000e-01,-3.75344807517888e-03
2.51560000000000e-08,7.25000000000000e-01,7.25000000000000e-01,-5.86862771352278e-03
2.52200000000000e-08,7.25000000000000e-01,7.25000000000000e-01,1.15366895821979e-02
2.53480000000000e-08,7.25000000000000e-01,7.25000000000000e-01,3.95415590405433e-01
2.56040000000000e-08,7.25000000000000e-01,7.25000000000000e-01,7.44127102822930e-01
2.59065791960083e-08,7.25000000000000e-01,7.25000000000000e-01,7.10366055968000e-01
2.65117375880249e-08,7.25000000000000e-01,7.25000000000000e-01,7.39149021835061e-01
2.71732184746088e-08,7.25000000000000e-01,7.25000000000000e-01,7.11447717200082e-01
2.83153374105253e-08,7.25000000000000e-01,7.25000000000000e-01,7.38045924086136e-01
3.01000000000000e-08,7.25000000000000e-01,7.25000000000000e-01,7.12048023168749e-01
3.01100000000000e-08,7.25000000000000e-01,6.52500000000038e-01,7.18894488085766e-01
3.01300000000000e-08,7.25000000000000e-01,5.07500000000017e-01,7.25363363047158e-01
3.01700000000000e-08,7.25000000000000e-01,2.17500000000024e-01,7.24875406055736e-01
3.02000000000000e-08,7.25000000000000e-01,1.75415237890775e-14,7.25058302436072e-01
3.02080000000000e-08,7.25000000000000e-01,0.00000000000000e+00,7.25032150088334e-01
3.02240000000000e-08,7.25000000000000e-01,0.00000000000000e+00,7.24997473020065e-01
3.02560000000000e-08,7.25000000000000e-01,0.00000000000000e+00,7.24961143979966e-01
3.03200000000000e-08,7.25000000000000e-01,0.00000000000000e+00,7.24989684716849e-01
3.04480000000000e-08,7.25000000000000e-01,0.00000000000000e+00,7.24987350988703e-01
3.06587992164272e-08,7.25000000000000e-01,0.00000000000000e+00,7.24970625153620e-01
3.09522930859397e-08,7.25000000000000e-01,0.00000000000000e+00,7.24983044933224e-01
3.15392808249646e-08,7.25000000000000e-01,0.00000000000000e+00,7.24976028888701e-01
3.27132563030146e-08,7.25000000000000e-01,0.00000000000000e+00,7.24985816517296e-01
3.50612072591145e-08,7.25000000000000e-01,0.00000000000000e+00,7.24981327808929e-01
3.51000000000000e-08,7.24999999999964e-01,0.00000000000000e+00,7.24987814189828e-01
3.51100000000000e-08,6.52499999999978e-01,0.00000000000000e+00,7.24912233012520e-01
3.51300000000000e-08,5.07499999999957e-01,0.00000000000000e+00,7.24872603722820e-01
3.51700000000000e-08,2.17499999999964e-01,0.00000000000000e+00,7.26317126370193e-01
3.52000000000000e-08,0.00000000000000e+00,0.00000000000000e+00,7.28825625561222e-01
3.52080000000000e-08,0.00000000000000e+00,0.00000000000000e+00,7.28829586104492e-01
3.52240000000000e-08,0.00000000000000e+00,0.00000000000000e+00,7.26396057040256e-01
3.52560000000000e-08,0.00000000000000e+00,0.00000000000000e+00,7.13335066495362e-01
3.53200000000000e-08,0.00000000000000e+00,0.00000000000000e+00,7.04636870088517e-01
3.54480000000000e-08,0.00000000000000e+00,0.00000000000000e+00,7.24349744293463e-01
3.56438602022944e-08,0.00000000000000e+00,0.00000000000000e+00,7.23903353971251e-01
3.59561564476618e-08,0.00000000000000e+00,0.00000000000000e+00,7.24986175027451e-01
3.64113100999496e-08,0.00000000000000e+00,0.00000000000000e+00,7.24414730719225e-01
3.73216174045253e-08,0.00000000000000e+00,0.00000000000000e+00,7.25154790819906e-01
3.91000000000000e-08,0.00000000000000e+00,0.00000000000000e+00,7.24581113902331e-01
3.92820614609151e-08,0.00000000000000e+00,0.00000000000000e+00,7.24869637218454e-01
3.96461843827454e-08,0.00000000000000e+00,0.00000000000000e+00,7.24912520991390e-01
4.03744302264059e-08,0.00000000000000e+00,0.00000000000000e+00,7.24882602294544e-01
4.18309219137270e-08,0.00000000000000e+00,0.00000000000000e+00,7.24921563715795e-01
4.47439052883691e-08,0.00000000000000e+00,0.00000000000000e+00,7.24894282790541e-01
4.50000000000000e-08,0.00000000000000e+00,0.00000000000000e+00,7.24922642026602e-01
4.50100000000000e-08,7.24999999999862e-02,0.00000000000000e+00,7.24989226142056e-01
4.50300000000000e-08,2.17500000000007e-01,0.00000000000000e+00,7.25017998976672e-01
4.50700000000000e-08,5.07500000000000e-01,0.00000000000000e+00,7.24907448161903e-01
4.51000000000000e-08,7.25000000000000e-01,0.00000000000000e+00,7.24752162431389e-01
4.51080000000000e-08,7.25000000000000e-01,0.00000000000000e+00,7.24683493059782e-01
4.51240000000000e-08,7.25000000000000e-01,0.00000000000000e+00,7.24637824195295e-01
4.51560000000000e-08,7.25000000000000e-01,0.00000000000000e+00,7.24717425571980e-01
4.52200000000000e-08,7.25000000000000e-01,0.00000000000000e+00,7.26138639047787e-01
4.53480000000000e-08,7.25000000000000e-01,0.00000000000000e+00,7.35917774336322e-01
4.56040000000000e-08,7.25000000000000e-01,0.00000000000000e+00,1.93334610558193e-01
4.58715495585959e-08,7.25000000000000e-01,0.00000000000000e+00,-6.61024680559892e-02
4.63807671710731e-08,7.25000000000000e-01,0.00000000000000e+00,5.22345781007677e-02
4.69550349731526e-08,7.25000000000000e-01,0.00000000000000e+00,-3.64767728342606e-02
4.78590955137059e-08,7.25000000000000e-01,0.00000000000000e+00,3.22736739221770e-02
4.95629869306062e-08,7.25000000000000e-01,0.00000000000000e+00,-2.81218663102928e-02
5.00000000000000e-08,7.25000000000000e-01,0.00000000000000e+00,2.05692376374387e-02
5.00100000000000e-08,7.25000000000000e-01,7.24999999999862e-02,1.53921304940445e-02
5.00300000000000e-08,7.25000000000000e-01,2.17499999999959e-01,8.55587266878118e-03
5.00700000000000e-08,7.25000000000000e-01,5.07500000000000e-01,3.24223995873843e-03
5.01000000000000e-08,7.25000000000000e-01,7.25000000000000e-01,1.41412686488997e-03
5.01080000000000e-08,7.25000000000000e-01,7.25000000000000e-01,1.21986141671480e-03
5.01240000000000e-08,7.25000000000000e-01,7.25000000000000e-01,8.46255183488076e-04
5.01560000000000e-08,7.25000000000000e-01,7.25000000000000e-01,3.83158811994300e-04
5.02200000000000e-08,7.25000000000000e-01,7.25000000000000e-01,7.35577589486350e-05
5.03480000000000e-08,7.25000000000000e-01,7.25000000000000e-01,-6.63686379402673e-07
5.06040000000000e-08,7.25000000000000e-01,7.25000000000000e-01,1.27485895836353e-05
5.11160000000001e-08,7.25000000000000e-01,7.25000000000000e-01,4.08953535252499e-06
5.21400000000002e-08,7.25000000000000e-01,7.25000000000000e-01,1.19512920477641e-05
5.41880000000003e-08,7.25000000000000e-01,7.25000000000000e-01,4.93301795595437e-06
5.51000000000000e-08,7.25000000000000e-01,7.25000000000000e-01,1.18726999162521e-05
5.51100000000000e-08,6.52500000000026e-01,7.25000000000000e-01,-7.93574363662786e-05
5.51300000000000e-08,5.07500000000005e-01,7.25000000000000e-01,-1.89912570368600e-04
5.51700000000000e-08,2.17500000000012e-01,7.25000000000000e-01,3.13865323074147e-05
5.52000000000000e-08,0.00000000000000e+00,7.25000000000000e-01,4.03791430966818e-04
5.52080000000000e-08,0.00000000000000e+00,7.25000000000000e-01,4.62667102285416e-04
5.52240000000000e-08,0.00000000000000e+00,7.25000000000000e-01,2.49796189801407e-04
5.52560000000000e-08,0.00000000000000e+00,7.25000000000000e-01,-1.20634084534034e-03
5.53200000000000e-08,0.00000000000000e+00,7.25000000000000e-01,-2.01514530226382e-03
5.54480000000000e-08,0.00000000000000e+00,7.25000000000000e-01,7.77674796140215e-05
5.56584348925701e-08,0.00000000000000e+00,7.25000000000000e-01,-1.38068327687910e-04
5.59645470601987e-08,0.00000000000000e+00,7.25000000000000e-01,2.06308849886414e-04
5.65767713954561e-08,0.00000000000000e+00,7.25000000000000e-01,-8.66018021362762e-05
5.71337754563703e-08,0.00000000000000e+00,7.25000000000000e-01,4.48492357787954e-05
5.82477835781988e-08,0.00000000000000e+00,7.25000000000000e-01,4.97007204014032e-06
6.04757998218557e-08,0.00000000000000e+00,7.25000000000000e-01,1.06934361841947e-05
6.42757998218557e-08,0.00000000000000e+00,7.25000000000000e-01,2.04215082879138e-05
6.50000000000000e-08,0.00000000000000e+00,7.25000000000000e-01,-1.73565066241086e-05
6.50100000000000e-08,7.24999999999862e-02,7.25000000000000e-01,1.67433567532835e-04
6.50300000000000e-08,2.17499999999959e-01,7.25000000000000e-01,4.16705282642774e-04
6.50700000000000e-08,5.07499999999904e-01,7.25000000000000e-01,4.38153986717600e-04
6.51000000000000e-08,7.24999999999958e-01,7.25000000000000e-01,-1.14208337203472e-03
6.51080000000000e-08,7.25000000000000e-01,7.25000000000000e-01,-2.05207202042605e-03
6.51240000000000e-08,7.25000000000000e-01,7.25000000000000e-01,-3.75176924424067e-03
6.51560000000000e-08,7.25000000000000e-01,7.25000000000000e-01,-5.86768105782871e-03
6.52200000000000e-08,7.25000000000000e-01,7.25000000000000e-01,1.15455271628170e-02
6.53480000000000e-08,7.25000000000000e-01,7.25000000000000e-01,3.95455707998544e-01
6.56040000000000e-08,7.25000000000000e-01,7.25000000000000e-01,7.44130902047283e-01
6.59065689236954e-08,7.25000000000000e-01,7.25000000000000e-01,7.10362900311369e-01
6.65117067710862e-08,7.25000000000000e-01,7.25000000000000e-01,7.39151864611326e-01
6.71731921441680e-08,7.25000000000000e-01,7.25000000000000e-01,7.11444917844154e-01
6.83153043146382e-08,7.25000000000000e-01,7.25000000000000e-01,7.38048505585051e-01
7.01000000000000e-08,7.25000000000000e-01,7.25000000000000e-01,7.12045371400801e-01
7.01100000000000e-08,7.25000000000000e-01,6.52500000000014e-01,7.18893217742102e-01
7.01300000000000e-08,7.25000000000000e-01,5.07500000000041e-01,7.25363392297517e-01
7.01700000000000e-08,7.25000000000000e-01,2.17500000000096e-01,7.24875383653242e-01
7.02000000000000e-08,7.25000000000000e-01,4.15223411209809e-14,7.25058302246686e-01
7.02080000000000e-08,7.25000000000000e-01,0.00000000000000e+00,7.25032150328475e-01
7.02240000000000e-08,7.25000000000000e-01,0.00000000000000e+00,7.24997472434446e-01
7.02560000000000e-08,7.25000000000000e-01,0.00000000000000e+00,7.24961141698613e-01
7.03200000000000e-08,7.25000000000000e-01,0.00000000000000e+00,7.24989682572572e-01
7.04480000000000e-08,7.25000000000000e-01,0.00000000000000e+00,7.24987349659547e-01
7.06587992091832e-08,7.25000000000000e-01,0.00000000000000e+00,7.24970624322178e-01
7.09522963829313e-08,7.25000000000000e-01,0.00000000000000e+00,7.24983045501570e-01
7.15392907304276e-08,7.25000000000000e-01,0.00000000000000e+00,7.24976027387854e-01
7.27132794254203e-08,7.25000000000000e-01,0.00000000000000e+00,7.24985817333566e-01
7.50612568154055e-08,7.25000000000000e-01,0.00000000000000e+00,7.24981326348921e-01
7.51000000000000e-08,7.25000000000000e-01,0.00000000000000e+00,7.24987801304794e-01
7.51100000000000e-08,6.52500000000074e-01,0.00000000000000e+00,7.24912208729514e-01
7.51300000000000e-08,5.07500000000101e-01,0.00000000000000e+00,7.24872569396380e-01
7.51700000000000e-08,2.17500000000156e-01,0.00000000000000e+00,7.26317120960395e-01
7.52000000000000e-08,1.01474384450739e-13,0.00000000000000e+00,7.28825618530791e-01
7.52080000000000e-08,0.00000000000000e+00,0.00000000000000e+00,7.28829556602985e-01
7.52240000000000e-08,0.00000000000000e+00,0.00000000000000e+00,7.26395997865758e-01
7.52560000000000e-08,0.00000000000000e+00,0.00000000000000e+00,7.13335041089919e-01
7.53200000000000e-08,0.00000000000000e+00,0.00000000000000e+00,7.04636965666357e-01
7.54480000000000e-08,0.00000000000000e+00,0.00000000000000e+00,7.24349742583629e-01
7.56438602236053e-08,0.00000000000000e+00,0.00000000000000e+00,7.23903359173364e-01
7.59561564404121e-08,0.00000000000000e+00,0.00000000000000e+00,7.24986170646065e-01
7.64113101103136e-08,0.00000000000000e+00,0.00000000000000e+00,7.24414734747975e-01
7.73216174501166e-08,0.00000000000000e+00,0.00000000000000e+00,7.25154786970016e-01
7.81000000000000e-08,0.00000000000000e+00,0.00000000000000e+00,7.24571638670041e-01
7.82820614679606e-08,0.00000000000000e+00,0.00000000000000e+00,7.24851219931338e-01
7.86461844038818e-08,0.00000000000000e+00,0.00000000000000e+00,7.24896360059929e-01
7.93744302757242e-08,0.00000000000000e+00,0.00000000000000e+00,7.24873374811659e-01
8.08309220194090e-08,0.00000000000000e+00,0.00000000000000e+00,7.24916490720668e-01
8.37439055067786e-08,0.00000000000000e+00,0.00000000000000e+00,7.24893595026501e-01
8.50000000000000e-08,0.00000000000000e+00,0.00000000000000e+00,7.24925023216734e-01
8.50100000000000e-08,7.24999999999862e-02,0.00000000000000e+00,7.24992744793578e-01
8.50300000000000e-08,2.17499999999959e-01,0.00000000000000e+00,7.25021941877334e-01
8.50700000000000e-08,5.07499999999904e-01,0.00000000000000e+00,7.24907568248762e-01
8.51000000000000e-08,7.24999999999958e-01,0.00000000000000e+00,7.24751760512531e-01
8.51080000000000e-08,7.25000000000000e-01,0.00000000000000e+00,7.24682297413076e-01
8.51240000000000e-08,7.25000000000000e-01,0.00000000000000e+00,7.24635129797590e-01
8.51560000000000e-08,7.25000000000000e-01,0.00000000000000e+00,7.24715801470462e-01
8.52200000000000e-08,7.25000000000000e-01,0.00000000000000e+00,7.26138287694847e-01
8.53480000000000e-08,7.25000000000000e-01,0.00000000000000e+00,7.35903347291094e-01
8.56040000000000e-08,7.25000000000000e-01,0.00000000000000e+00,1.93306538805505e-01
8.58715353373148e-08,7.25000000000000e-01,0.00000000000000e+00,-6.60959351038721e-02
8.63807791483200e-08,7.25000000000000e-01,0.00000000000000e+00,5.22300456443243e-02
8.69550397735090e-08,7.25000000000000e-01,0.00000000000000e+00,-3.64740788521477e-02
8.78591653642654e-08,7.25000000000000e-01,0.00000000000000e+00,3.22716751203637e-02
8.95631712664145e-08,7.25000000000000e-01,0.00000000000000e+00,-2.81205129231879e-02
9.00000000000000e-08,7.25000000000000e-01,0.00000000000000e+00,2.05653888847765e-02
9.00100000000000e-08,7.25000000000000e-01,7.24999999999862e-02,1.53887362105781e-02
9.00300000000000e-08,7.25000000000000e-01,2.17499999999959e-01,8.55354445692165e-03
9.00700000000000e-08,7.25000000000000e-01,5.07499999999904e-01,3.24142694061929e-03
9.01000000000000e-08,7.25000000000000e-01,7.24999999999958e-01,1.41371353952406e-03
9.01080000000000e-08,7.25000000000000e-01,7.25000000000000e-01,1.21952059414487e-03
9.01240000000000e-08,7.25000000000000e-01,7.25000000000000e-01,8.46029075789817e-04
9.01560000000000e-08,7.25000000000000e-01,7.25000000000000e-01,3.83067724837455e-04
9.02200000000000e-08,7.25000000000000e-01,7.25000000000000e-01,7.35468162665828e-05
9.03480000000000e-08,7.25000000000000e-01,7.25000000000000e-01,-6.55390521069055e-07
9.06040000000000e-08,7.25000000000000e-01,7.25000000000000e-01,1.27437140054337e-05
9.11159999999999e-08,7.25000000000000e-01,7.25000000000000e-01,4.09262229439725e-06
9.21399999999999e-08,7.25000000000000e-01,7.25000000000000e-01,1.19479756838696e-05
9.41879999999998e-08,7.25000000000000e-01,7.25000000000000e-01,4.93562441930811e-06
9.51000000000000e-08,7.25000000000000e-01,7.25000000000000e-01,1.18700866381296e-05
9.51100000000000e-08,6.52500000000074e-01,7.25000000000000e-01,-7.93595269327763e-05
9.51300000000000e-08,5.07500000000101e-01,7.25000000000000e-01,-1.89913838145289e-04
9.51700000000000e-08,2.17500000000156e-01,7.25000000000000e-01,3.13857745180696e-05
9.52000000000000e-08,1.01474384450739e-13,7.25000000000000e-01,4.03788398234114e-04
9.52080000000000e-08,0.00000000000000e+00,7.25000000000000e-01,4.62661911634882e-04
9.52240000000000e-08,0.00000000000000e+00,7.25000000000000e-01,2.49785892511623e-04
9.52560000000000e-08,0.00000000000000e+00,7.25000000000000e-01,-1.20636416483287e-03
9.53200000000000e-08,0.00000000000000e+00,7.25000000000000e-01,-2.01518587666311e-03
9.54480000000000e-08,0.00000000000000e+00,7.25000000000000e-01,7.77558859392721e-05
9.56584348893542e-08,0.00000000000000e+00,7.25000000000000e-01,-1.38055945325784e-04
9.59645447238776e-08,0.00000000000000e+00,7.25000000000000e-01,2.06298300115364e-04
9.65767643929244e-08,0.00000000000000e+00,7.25000000000000e-01,-8.65921146512467e-05
9.71337674369398e-08,0.00000000000000e+00,7.25000000000000e-01,4.48403094631053e-05
9.82477735249708e-08,0.00000000000000e+00,7.25000000000000e-01,4.97855247066047e-06
1.00475785701033e-07,0.00000000000000e+00,7.25000000000000e-01,1.06851538123182e-05
1.04275785701033e-07,0.00000000000000e+00,7.25000000000000e-01,2.04296400605516e-05
1.05000000000000e-07,0.00000000000000e+00,7.25000000000000e-01,-1.73636117653149e-05
1.05010000000000e-07,7.24999999999862e-02,7.25000000000000e-01,1.67429593710799e-04
1.05030000000000e-07,2.17499999999959e-01,7.25000000000000e-01,4.16704417986566e-04
1.05070000000000e-07,5.07499999999904e-01,7.25000000000000e-01,4.38153568443789e-04
1.05100000000000e-07,7.24999999999958e-01,7.25000000000000e-01,-1.14208417042955e-03
1.05108000000000e-07,7.25000000000000e-01,7.25000000000000e-01,-2.05207295301119e-03
1.05124000000000e-07,7.25000000000000e-01,7.25000000000000e-01,-3.75177015923109e-03
1.05156000000000e-07,7.25000000000000e-01,7.25000000000000e-01,-5.86768124320065e-03
1.05220000000000e-07,7.25000000000000e-01,7.25000000000000e-01,1.15455380009413e-02
1.05348000000000e-07,7.25000000000000e-01,7.25000000000000e-01,3.95455760404819e-01
1.05604000000000e-07,7.25000000000000e-01,7.25000000000000e-01,7.44130906906494e-01
1.05906568910346e-07,7.25000000000000e-01,7.25000000000000e-01,7.10362896251274e-01
