Time,v(clk),v(data),v(out),v(reset)
1.00000000000000e-08,8.50000000000000e-01,0.00000000000000e+00,3.41744466686444e-06,0.00000000000000e+00
1.00100000000000e-08,8.50000000000000e-01,8.49999999999979e-02,2.83916225383291e-06,0.00000000000000e+00
1.00300000000000e-08,8.50000000000000e-01,2.54999999999994e-01,2.54096087431294e-06,0.00000000000000e+00
1.00700000000000e-08,8.50000000000000e-01,5.94999999999986e-01,2.81496903375283e-06,0.00000000000000e+00
1.01000000000000e-08,8.50000000000000e-01,8.49999999999994e-01,3.74756851927172e-06,0.00000000000000e+00
1.01080000000000e-08,8.50000000000000e-01,8.50000000000000e-01,3.61686224288615e-06,0.00000000000000e+00
1.01240000000000e-08,8.50000000000000e-01,8.50000000000000e-01,4.04464288009110e-06,0.00000000000000e+00
1.01560000000000e-08,8.50000000000000e-01,8.50000000000000e-01,4.17693327502827e-06,0.00000000000000e+00
1.02200000000000e-08,8.50000000000000e-01,8.50000000000000e-01,4.86247692665920e-06,0.00000000000000e+00
1.03480000000000e-08,8.50000000000000e-01,8.50000000000000e-01,3.47520846386701e-06,0.00000000000000e+00
1.06040000000000e-08,8.50000000000000e-01,8.50000000000000e-01,4.34012696582525e-06,0.00000000000000e+00
1.11160000000000e-08,8.50000000000000e-01,8.50000000000000e-01,3.57183878450709e-06,0.00000000000000e+00
1.21400000000000e-08,8.50000000000000e-01,8.50000000000000e-01,4.01924592717193e-06,0.00000000000000e+00
1.41880000000000e-08,8.50000000000000e-01,8.50000000000000e-01,3.03843246767747e-06,0.00000000000000e+00
1.51000000000000e-08,8.50000000000000e-01,8.50000000000000e-01,3.65064639599143e-06,0.00000000000000e+00
1.51100000000000e-08,7.64999999999988e-01,8.50000000000000e-01,1.43145627274896e-04,8.50000000000120e-02
1.51300000000000e-08,5.94999999999992e-01,8.50000000000000e-01,1.86879685535789e-04,2.55000000000008e-01
1.51700000000000e-08,2.55000000000000e-01,8.50000000000000e-01,1.24201425150815e-04,5.95000000000000e-01
1.52000000000000e-08,0.00000000000000e+00,8.50000000000000e-01,1.68438112972180e-04,8.50000000000000e-01
1.52080000000000e-08,0.00000000000000e+00,8.50000000000000e-01,9.97804081644266e-05,8.50000000000000e-01
1.52240000000000e-08,0.00000000000000e+00,8.50000000000000e-01,-4.66259815900122e-05,8.50000000000000e-01
1.52560000000000e-08,0.00000000000000e+00,8.50000000000000e-01,-2.49582223756768e-04,8.50000000000000e-01
1.53200000000000e-08,0.00000000000000e+00,8.50000000000000e-01,-2.66519435416834e-04,8.50000000000000e-01
1.54480000000000e-08,0.00000000000000e+00,8.50000000000000e-01,-2.19458423556911e-04,8.50000000000000e-01
1.56489063427268e-08,0.00000000000000e+00,8.50000000000000e-01,1.51854661188118e-04,8.50000000000000e-01
1.58931048424947e-08,0.00000000000000e+00,8.50000000000000e-01,1.67481795329142e-04,8.50000000000000e-01
1.63815018420304e-08,0.00000000000000e+00,8.50000000000000e-01,-2.27200823461685e-04,8.50000000000000e-01
1.68867117801557e-08,0.00000000000000e+00,8.50000000000000e-01,2.62975308333959e-04,8.50000000000000e-01
1.78971316564063e-08,0.00000000000000e+00,8.50000000000000e-01,-2.64535908309049e-04,8.50000000000000e-01
1.93637950475201e-08,0.00000000000000e+00,8.50000000000000e-01,2.70189416403028e-04,8.50000000000000e-01
2.17187350551239e-08,0.00000000000000e+00,8.50000000000000e-01,-2.66309787238451e-04,8.50000000000000e-01
2.50000000000000e-08,0.00000000000000e+00,8.50000000000000e-01,2.69992995154799e-04,8.50000000000000e-01
2.50100000000000e-08,8.49999999999839e-02,8.50000000000000e-01,2.75121536536055e-04,8.50000000000000e-01
2.50300000000000e-08,2.55000000000008e-01,8.50000000000000e-01,2.50932371332245e-04,8.50000000000000e-01
2.50700000000000e-08,5.95000000000000e-01,8.50000000000000e-01,-5.73109236371862e-04,8.50000000000000e-01
2.51000000000000e-08,8.50000000000000e-01,8.50000000000000e-01,-3.75185407186641e-03,8.50000000000000e-01
2.51080000000000e-08,8.50000000000000e-01,8.50000000000000e-01,-4.86296878823236e-03,8.50000000000000e-01
2.51240000000000e-08,8.50000000000000e-01,8.50000000000000e-01,-6.06301591568187e-03,8.50000000000000e-01
2.51560000000000e-08,8.50000000000000e-01,8.50000000000000e-01,1.15721257945956e-02,8.50000000000000e-01
2.52200000000000e-08,8.50000000000000e-01,8.50000000000000e-01,2.78913015334597e-01,8.50000000000000e-01
2.53480000000000e-08,8.50000000000000e-01,8.50000000000000e-01,8.25132883390759e-01,8.50000000000000e-01
2.55600406327005e-08,8.50000000000000e-01,8.50000000000000e-01,8.57644992339168e-01,8.50000000000000e-01
2.58467373640369e-08,8.50000000000000e-01,8.50000000000000e-01,8.43102572517234e-01,8.50000000000000e-01
2.62514314591451e-08,8.50000000000000e-01,8.50000000000000e-01,8.55912840822993e-01,8.50000000000000e-01
2.68242145828259e-08,8.50000000000000e-01,8.50000000000000e-01,8.44273602856886e-01,8.50000000000000e-01
2.79697808301876e-08,8.50000000000000e-01,8.50000000000000e-01,8.55346266640859e-01,8.50000000000000e-01
3.02609133249110e-08,8.50000000000000e-01,8.50000000000000e-01,8.44578660955838e-01,8.50000000000000e-01
3.40609133249110e-08,8.50000000000000e-01,8.50000000000000e-01,8.55216124743949e-01,8.50000000000000e-01
3.51000000000000e-08,8.49999999999958e-01,8.50000000000000e-01,8.44839604194001e-01,8.50000000000000e-01
3.51100000000000e-08,7.64999999999974e-01,8.50000000000000e-01,8.47431054062920e-01,8.50000000000000e-01
3.51300000000000e-08,5.94999999999950e-01,8.50000000000000e-01,8.49986635308234e-01,8.50000000000000e-01
3.51700000000000e-08,2.54999999999958e-01,8.50000000000000e-01,8.51291873996384e-01,8.50000000000000e-01
3.52000000000000e-08,0.00000000000000e+00,8.50000000000000e-01,8.52404598292613e-01,8.50000000000000e-01
3.52080000000000e-08,0.00000000000000e+00,8.50000000000000e-01,8.50925867338396e-01,8.50000000000000e-01
3.52240000000000e-08,0.00000000000000e+00,8.50000000000000e-01,8.44453348237219e-01,8.50000000000000e-01
3.52560000000000e-08,0.00000000000000e+00,8.50000000000000e-01,8.24974891152995e-01,8.50000000000000e-01
3.53200000000000e-08,0.00000000000000e+00,8.50000000000000e-01,8.24144293537638e-01,8.50000000000000e-01
3.54480000000000e-08,0.00000000000000e+00,8.50000000000000e-01,8.51812951914793e-01,8.50000000000000e-01
3.56666254403004e-08,0.00000000000000e+00,8.50000000000000e-01,8.47414003590790e-01,8.50000000000000e-01
3.59660586902348e-08,0.00000000000000e+00,8.50000000000000e-01,8.51459384522311e-01,8.50000000000000e-01
3.65649251901037e-08,0.00000000000000e+00,8.50000000000000e-01,8.48162942748793e-01,8.50000000000000e-01
3.77626581898415e-08,0.00000000000000e+00,8.50000000000000e-01,8.51438404344340e-01,8.50000000000000e-01
4.01581241893171e-08,0.00000000000000e+00,8.50000000000000e-01,8.48372087210190e-01,8.50000000000000e-01
4.39581241893171e-08,0.00000000000000e+00,8.50000000000000e-01,8.51428229555808e-01,8.50000000000000e-01
4.50000000000000e-08,0.00000000000000e+00,8.50000000000000e-01,8.48481994908518e-01,8.50000000000000e-01
4.50100000000000e-08,8.49999999999839e-02,8.50000000000000e-01,8.48970122210316e-01,7.65000000000016e-01
4.50300000000000e-08,2.55000000000008e-01,8.50000000000000e-01,8.49636631625977e-01,5.94999999999992e-01
4.50700000000000e-08,5.95000000000000e-01,8.50000000000000e-01,8.54258271058132e-01,2.55000000000000e-01
4.51000000000000e-08,8.50000000000000e-01,8.50000000000000e-01,8.63520432993479e-01,0.00000000000000e+00
4.51080000000000e-08,8.50000000000000e-01,8.50000000000000e-01,8.66556639296142e-01,0.00000000000000e+00
4.51240000000000e-08,8.50000000000000e-01,8.50000000000000e-01,8.70832610581483e-01,0.00000000000000e+00
4.51560000000000e-08,8.50000000000000e-01,8.50000000000000e-01,7.79967668993722e-01,0.00000000000000e+00
4.52200000000000e-08,8.50000000000000e-01,8.50000000000000e-01,2.92573515355459e-01,0.00000000000000e+00
4.53435837885896e-08,8.50000000000000e-01,8.50000000000000e-01,-5.48816033603144e-02,0.00000000000000e+00
4.54966618826355e-08,8.50000000000000e-01,8.50000000000000e-01,3.02022708472562e-02,0.00000000000000e+00
4.58028180707273e-08,8.50000000000000e-01,8.50000000000000e-01,-2.15208110939298e-02,0.00000000000000e+00
4.61168798998709e-08,8.50000000000000e-01,8.50000000000000e-01,1.66343563286818e-02,0.00000000000000e+00
4.67450035581581e-08,8.50000000000000e-01,8.50000000000000e-01,-1.42584122239602e-02,0.00000000000000e+00
4.80012508747325e-08,8.50000000000000e-01,8.50000000000000e-01,1.35550721554672e-02,0.00000000000000e+00
5.01000000000000e-08,8.50000000000000e-01,8.49999999999951e-01,-1.28379101415027e-02,0.00000000000000e+00
5.03512494633149e-08,8.50000000000000e-01,8.50000000000000e-01,-9.15680443179516e-04,0.00000000000000e+00
5.08537483899446e-08,8.50000000000000e-01,8.50000000000000e-01,7.62530333937671e-04,0.00000000000000e+00
5.18587462432042e-08,8.50000000000000e-01,8.50000000000000e-01,-6.87791577075617e-04,0.00000000000000e+00
5.38687419497232e-08,8.50000000000000e-01,8.50000000000000e-01,6.60308456884033e-04,0.00000000000000e+00
5.51000000000000e-08,8.50000000000000e-01,8.50000000000000e-01,-6.05953744205547e-04,0.00000000000000e+00
5.51100000000000e-08,7.65000000000030e-01,8.50000000000000e-01,-2.73960728362582e-04,8.49999999999698e-02
5.51300000000000e-08,5.95000000000006e-01,8.50000000000000e-01,1.87960091744960e-05,2.54999999999994e-01
5.51700000000000e-08,2.55000000000014e-01,8.50000000000000e-01,9.72711007267840e-05,5.94999999999986e-01
5.52000000000000e-08,0.00000000000000e+00,8.50000000000000e-01,9.51367822876886e-05,8.50000000000000e-01
5.52080000000000e-08,0.00000000000000e+00,8.50000000000000e-01,-5.69934129730498e-05,8.50000000000000e-01
5.52240000000000e-08,0.00000000000000e+00,8.50000000000000e-01,-5.20637500220897e-04,8.50000000000000e-01
5.52560000000000e-08,0.00000000000000e+00,8.50000000000000e-01,-1.36458858194743e-03,8.50000000000000e-01
5.53200000000000e-08,0.00000000000000e+00,8.50000000000000e-01,-7.29126414746463e-04,8.50000000000000e-01
5.54385831580451e-08,0.00000000000000e+00,8.50000000000000e-01,4.75916441927800e-04,8.50000000000000e-01
5.56444826597563e-08,0.00000000000000e+00,8.50000000000000e-01,-5.52625658021999e-04,8.50000000000000e-01
5.58750479061495e-08,0.00000000000000e+00,8.50000000000000e-01,5.04570595158897e-04,8.50000000000000e-01
5.63361783989360e-08,0.00000000000000e+00,8.50000000000000e-01,-4.04783634121926e-04,8.50000000000000e-01
5.68196781879669e-08,0.00000000000000e+00,8.50000000000000e-01,3.32937863008727e-04,8.50000000000000e-01
5.77866777660286e-08,0.00000000000000e+00,8.50000000000000e-01,-2.93135484015514e-04,8.50000000000000e-01
5.91771682605920e-08,0.00000000000000e+00,8.50000000000000e-01,2.76329372012474e-04,8.50000000000000e-01
6.14319934519874e-08,0.00000000000000e+00,8.50000000000000e-01,-2.57990944333842e-04,8.50000000000000e-01
6.50000000000000e-08,0.00000000000000e+00,8.50000000000000e-01,2.55058546440408e-04,8.50000000000000e-01
6.50100000000000e-08,8.49999999999839e-02,8.50000000000000e-01,3.03882001295545e-04,8.50000000000000e-01
6.50300000000000e-08,2.54999999999952e-01,8.50000000000000e-01,3.39965725679944e-04,8.50000000000000e-01
6.50700000000000e-08,5.94999999999887e-01,8.50000000000000e-01,-5.26403574262965e-04,8.50000000000000e-01
6.51000000000000e-08,8.49999999999951e-01,8.50000000000000e-01,-3.74544940139588e-03,8.50000000000000e-01
6.51080000000000e-08,8.50000000000000e-01,8.50000000000000e-01,-4.85481332168103e-03,8.50000000000000e-01
6.51240000000000e-08,8.50000000000000e-01,8.50000000000000e-01,-6.04007553122161e-03,8.50000000000000e-01
6.51560000000000e-08,8.50000000000000e-01,8.50000000000000e-01,1.18014026398308e-02,8.50000000000000e-01
6.52200000000000e-08,8.50000000000000e-01,8.50000000000000e-01,2.79996167727749e-01,8.50000000000000e-01
6.53480000000000e-08,8.50000000000000e-01,8.50000000000000e-01,8.25465659051124e-01,8.50000000000000e-01
6.55596740568995e-08,8.50000000000000e-01,8.50000000000000e-01,8.57511150145083e-01,8.50000000000000e-01
6.58466682935013e-08,8.50000000000000e-01,8.50000000000000e-01,8.43228479459932e-01,8.50000000000000e-01
6.62508249358867e-08,8.50000000000000e-01,8.50000000000000e-01,8.55802584637530e-01,8.50000000000000e-01
6.68236859968163e-08,8.50000000000000e-01,8.50000000000000e-01,8.44381664670449e-01,8.50000000000000e-01
6.79694081186755e-08,8.50000000000000e-01,8.50000000000000e-01,8.55245170305843e-01,8.50000000000000e-01
7.02608523623939e-08,8.50000000000000e-01,8.50000000000000e-01,8.44681651010065e-01,8.50000000000000e-01
7.40608523623938e-08,8.50000000000000e-01,8.50000000000000e-01,8.55117306788297e-01,8.50000000000000e-01
7.51000000000000e-08,8.50000000000000e-01,8.50000000000000e-01,8.44938185423844e-01,8.50000000000000e-01
7.51100000000000e-08,7.65000000000086e-01,8.50000000000000e-01,8.47476796155418e-01,8.50000000000000e-01
7.51300000000000e-08,5.95000000000119e-01,8.50000000000000e-01,8.49983592423818e-01,8.50000000000000e-01
7.51700000000000e-08,2.55000000000183e-01,8.50000000000000e-01,8.51293487496539e-01,8.50000000000000e-01
7.52000000000000e-08,1.19015908239817e-13,8.50000000000000e-01,8.52405029672057e-01,8.50000000000000e-01
7.52080000000000e-08,0.00000000000000e+00,8.50000000000000e-01,8.50927408187068e-01,8.50000000000000e-01
7.52240000000000e-08,0.00000000000000e+00,8.50000000000000e-01,8.44456358788957e-01,8.50000000000000e-01
7.52560000000000e-08,0.00000000000000e+00,8.50000000000000e-01,8.24977760248910e-01,8.50000000000000e-01
7.53200000000000e-08,0.00000000000000e+00,8.50000000000000e-01,8.24143955736139e-01,8.50000000000000e-01
7.54480000000000e-08,0.00000000000000e+00,8.50000000000000e-01,8.51812788498332e-01,8.50000000000000e-01
7.56666288328130e-08,0.00000000000000e+00,8.50000000000000e-01,8.47414176755222e-01,8.50000000000000e-01
7.59660588872285e-08,0.00000000000000e+00,8.50000000000000e-01,8.51459274287661e-01,8.50000000000000e-01
7.65649189960595e-08,0.00000000000000e+00,8.50000000000000e-01,8.48163048942393e-01,8.50000000000000e-01
7.77626392137213e-08,0.00000000000000e+00,8.50000000000000e-01,8.51438305358998e-01,8.50000000000000e-01
8.01580796490451e-08,0.00000000000000e+00,8.50000000000000e-01,8.48372182896506e-01,8.50000000000000e-01
8.39580796490451e-08,0.00000000000000e+00,8.50000000000000e-01,8.51428136189047e-01,8.50000000000000e-01
8.50000000000000e-08,0.00000000000000e+00,8.50000000000000e-01,8.48482078553757e-01,8.50000000000000e-01
8.50100000000000e-08,8.49999999999839e-02,8.50000000000000e-01,8.48970227291639e-01,7.65000000000016e-01
8.50300000000000e-08,2.54999999999952e-01,8.50000000000000e-01,8.49636598668521e-01,5.95000000000048e-01
8.50700000000000e-08,5.94999999999887e-01,8.50000000000000e-01,8.54258290506426e-01,2.55000000000113e-01
8.51000000000000e-08,8.49999999999951e-01,8.50000000000000e-01,8.63520455793739e-01,4.87387907810444e-14
8.51080000000000e-08,8.50000000000000e-01,8.50000000000000e-01,8.66556669116309e-01,0.00000000000000e+00
8.51240000000000e-08,8.50000000000000e-01,8.50000000000000e-01,8.70832598301018e-01,0.00000000000000e+00
8.51560000000000e-08,8.50000000000000e-01,8.50000000000000e-01,7.79967360093572e-01,0.00000000000000e+00
8.52200000000000e-08,8.50000000000000e-01,8.50000000000000e-01,2.92573217686043e-01,0.00000000000000e+00
8.53436069815325e-08,8.50000000000000e-01,8.50000000000000e-01,-5.48998105615499e-02,0.00000000000000e+00
8.54966803303533e-08,8.50000000000000e-01,8.50000000000000e-01,3.02145130735731e-02,0.00000000000000e+00
8.58028270279949e-08,8.50000000000000e-01,8.50000000000000e-01,-2.15285875507119e-02,0.00000000000000e+00
8.61169027433050e-08,8.50000000000000e-01,8.50000000000000e-01,1.66405234855758e-02,0.00000000000000e+00
8.67450541739253e-08,8.50000000000000e-01,8.50000000000000e-01,-1.42635438534062e-02,0.00000000000000e+00
8.80013570351659e-08,8.50000000000000e-01,8.50000000000000e-01,1.35600318809289e-02,0.00000000000000e+00
9.01000000000000e-08,8.50000000000000e-01,8.49999999999951e-01,-1.28424552301727e-02,0.00000000000000e+00
9.03512605722481e-08,8.50000000000000e-01,8.50000000000000e-01,-9.16035724978477e-04,0.00000000000000e+00
9.08537817167443e-08,8.50000000000000e-01,8.50000000000000e-01,7.62828602176852e-04,0.00000000000000e+00
9.18588240057368e-08,8.50000000000000e-01,8.50000000000000e-01,-6.88063807718874e-04,0.00000000000000e+00
9.38689085837217e-08,8.50000000000000e-01,8.50000000000000e-01,6.60568564131420e-04,0.00000000000000e+00
9.51000000000000e-08,8.50000000000000e-01,8.50000000000000e-01,-6.06186735188282e-04,0.00000000000000e+00
9.51100000000000e-08,7.65000000000086e-01,8.50000000000000e-01,-2.74127772784571e-04,8.49999999999136e-02
9.51300000000000e-08,5.95000000000119e-01,8.50000000000000e-01,1.87255468017400e-05,2.54999999999881e-01
9.51700000000000e-08,2.55000000000183e-01,8.50000000000000e-01,9.72635938690652e-05,5.94999999999817e-01
9.52000000000000e-08,1.19015908239817e-13,8.50000000000000e-01,9.51357702153460e-05,8.49999999999881e-01
9.52080000000000e-08,0.00000000000000e+00,8.50000000000000e-01,-5.69932950084118e-05,8.50000000000000e-01
9.52240000000000e-08,0.00000000000000e+00,8.50000000000000e-01,-5.20635200278133e-04,8.50000000000000e-01
9.52560000000000e-08,0.00000000000000e+00,8.50000000000000e-01,-1.36457928689684e-03,8.50000000000000e-01
9.53200000000000e-08,0.00000000000000e+00,8.50000000000000e-01,-7.29120770112397e-04,8.50000000000000e-01
9.54385839131539e-08,0.00000000000000e+00,8.50000000000000e-01,4.75901221466991e-04,8.50000000000000e-01
9.56444829504346e-08,0.00000000000000e+00,8.50000000000000e-01,-5.52610895708787e-04,8.50000000000000e-01
9.58750492786717e-08,0.00000000000000e+00,8.50000000000000e-01,5.04567344092238e-04,8.50000000000000e-01
9.63361819351459e-08,0.00000000000000e+00,8.50000000000000e-01,-4.04784068174353e-04,8.50000000000000e-01
9.68196833000348e-08,0.00000000000000e+00,8.50000000000000e-01,3.32940473597682e-04,8.50000000000000e-01
9.77866860298128e-08,0.00000000000000e+00,8.50000000000000e-01,-2.93138925475148e-04,8.50000000000000e-01
9.91771824662034e-08,0.00000000000000e+00,8.50000000000000e-01,2.76333248294298e-04,8.50000000000000e-01
1.01432014952934e-07,0.00000000000000e+00,8.50000000000000e-01,-2.57995081478971e-04,8.50000000000000e-01
1.05000000000000e-07,0.00000000000000e+00,8.50000000000000e-01,2.55062723393023e-04,8.50000000000000e-01
1.05010000000000e-07,8.49999999999839e-02,8.50000000000000e-01,3.03883768588011e-04,8.50000000000000e-01
1.05030000000000e-07,2.54999999999952e-01,8.50000000000000e-01,3.39964273304724e-04,8.50000000000000e-01
1.05070000000000e-07,5.94999999999887e-01,8.50000000000000e-01,-5.26404695109742e-04,8.50000000000000e-01
1.05100000000000e-07,8.49999999999951e-01,8.50000000000000e-01,-3.74544960761835e-03,8.50000000000000e-01
1.05108000000000e-07,8.50000000000000e-01,8.50000000000000e-01,-4.85481354510332e-03,8.50000000000000e-01
1.05124000000000e-07,8.50000000000000e-01,8.50000000000000e-01,-6.04007608278503e-03,8.50000000000000e-01
1.05156000000000e-07,8.50000000000000e-01,8.50000000000000e-01,1.18013973489241e-02,8.50000000000000e-01
1.05220000000000e-07,8.50000000000000e-01,8.50000000000000e-01,2.79996143425653e-01,8.50000000000000e-01
1.05348000000000e-07,8.50000000000000e-01,8.50000000000000e-01,8.25465651565185e-01,8.50000000000000e-01
1.05559674064847e-07,8.50000000000000e-01,8.50000000000000e-01,8.57511153147812e-01,8.50000000000000e-01
1.05846668294801e-07,8.50000000000000e-01,8.50000000000000e-01,8.43228476630585e-01,8.50000000000000e-01
1.06250824948664e-07,8.50000000000000e-01,8.50000000000000e-01,8.55802587115287e-01,8.50000000000000e-01
1.06823686007987e-07,8.50000000000000e-01,8.50000000000000e-01,8.44381662242989e-01,8.50000000000000e-01
1.07969408126633e-07,8.50000000000000e-01,8.50000000000000e-01,8.55245172578310e-01,8.50000000000000e-01
1.10260852363925e-07,8.50000000000000e-01,8.50000000000000e-01,8.44681648696048e-01,8.50000000000000e-01
1.14060852363925e-07,8.50000000000000e-01,8.50000000000000e-01,8.55117309008128e-01,8.50000000000000e-01
1.15100000000000e-07,8.50000000000000e-01,8.50000000000000e-01,8.44938183208645e-01,8.50000000000000e-01
