Time,v(clk),v(data),v(out)
1.00000000000000e-08,8.50000000000000e-01,0.00000000000000e+00,-3.08072074940427e-05
1.00100000000000e-08,8.50000000000000e-01,8.49999999999979e-02,-2.00339145349157e-05
1.00300000000000e-08,8.50000000000000e-01,2.54999999999994e-01,-9.21725505120125e-06
1.00700000000000e-08,8.50000000000000e-01,5.94999999999986e-01,-4.56841966336302e-06
1.01000000000000e-08,8.50000000000000e-01,8.49999999999994e-01,-4.82797569950622e-07
1.01080000000000e-08,8.50000000000000e-01,8.50000000000000e-01,3.53906259041581e-07
1.01240000000000e-08,8.50000000000000e-01,8.50000000000000e-01,3.11343735007186e-06
1.01560000000000e-08,8.50000000000000e-01,8.50000000000000e-01,4.43199123029842e-06
1.02200000000000e-08,8.50000000000000e-01,8.50000000000000e-01,1.30365111331021e-06
1.03480000000000e-08,8.50000000000000e-01,8.50000000000000e-01,5.21070127379453e-07
1.06040000000000e-08,8.50000000000000e-01,8.50000000000000e-01,1.67359850691134e-06
1.11160000000000e-08,8.50000000000000e-01,8.50000000000000e-01,1.00698620068059e-06
1.21400000000000e-08,8.50000000000000e-01,8.50000000000000e-01,1.24607426399848e-06
1.41880000000000e-08,8.50000000000000e-01,8.50000000000000e-01,7.74650869718842e-07
1.51000000000000e-08,8.50000000000000e-01,8.50000000000000e-01,9.19805285407201e-07
1.51100000000000e-08,7.64999999999988e-01,8.50000000000000e-01,-6.70623400024078e-05
1.51300000000000e-08,5.94999999999992e-01,8.50000000000000e-01,-1.50173650749458e-04
1.51700000000000e-08,2.55000000000000e-01,8.50000000000000e-01,-4.54129808246245e-05
1.52000000000000e-08,0.00000000000000e+00,8.50000000000000e-01,2.12679595515804e-04
1.52080000000000e-08,0.00000000000000e+00,8.50000000000000e-01,3.12263450033920e-04
1.52240000000000e-08,0.00000000000000e+00,8.50000000000000e-01,3.61485029749954e-04
1.52560000000000e-08,0.00000000000000e+00,8.50000000000000e-01,7.06309071940373e-05
1.53200000000000e-08,0.00000000000000e+00,8.50000000000000e-01,-1.67360842959860e-04
1.54480000000000e-08,0.00000000000000e+00,8.50000000000000e-01,-1.80790863191820e-04
1.57040000000000e-08,0.00000000000000e+00,8.50000000000000e-01,-5.44224057937286e-05
1.60132010774860e-08,0.00000000000000e+00,8.50000000000000e-01,2.18917508049381e-04
1.66132626066259e-08,0.00000000000000e+00,8.50000000000000e-01,-1.68362271760467e-04
1.72054104482905e-08,0.00000000000000e+00,8.50000000000000e-01,1.30458139441313e-04
1.83897061316197e-08,0.00000000000000e+00,8.50000000000000e-01,-1.13091754154146e-04
2.07582974982780e-08,0.00000000000000e+00,8.50000000000000e-01,1.05974410579161e-04
2.45582974982780e-08,0.00000000000000e+00,8.50000000000000e-01,-1.00828354210171e-04
2.50000000000000e-08,0.00000000000000e+00,8.50000000000000e-01,6.81123960339933e-05
2.50100000000000e-08,8.49999999999839e-02,8.50000000000000e-01,1.78712103359922e-04
2.50300000000000e-08,2.55000000000008e-01,8.50000000000000e-01,2.95643885199086e-04
2.50700000000000e-08,5.95000000000000e-01,8.50000000000000e-01,-7.55910730616857e-04
2.51000000000000e-08,8.50000000000000e-01,8.50000000000000e-01,-4.40526990612682e-03
2.51080000000000e-08,8.50000000000000e-01,8.50000000000000e-01,-5.56561274818875e-03
2.51240000000000e-08,8.50000000000000e-01,8.50000000000000e-01,-6.80349598516457e-03
2.51560000000000e-08,8.50000000000000e-01,8.50000000000000e-01,9.02928104249118e-03
2.52200000000000e-08,8.50000000000000e-01,8.50000000000000e-01,2.19739696578228e-01
2.53480000000000e-08,8.50000000000000e-01,8.50000000000000e-01,7.61320620702156e-01
2.56040000000000e-08,8.50000000000000e-01,8.50000000000000e-01,8.75417490472661e-01
2.58680989182511e-08,8.50000000000000e-01,8.50000000000000e-01,8.28830602596188e-01
2.63692137697585e-08,8.50000000000000e-01,8.50000000000000e-01,8.66774359735384e-01
2.69216444196318e-08,8.50000000000000e-01,8.50000000000000e-01,8.34335647962381e-01
2.80265057193784e-08,8.50000000000000e-01,8.50000000000000e-01,8.63904193678353e-01
3.01000000000000e-08,8.50000000000000e-01,8.50000000000000e-01,8.35845085806742e-01
3.01100000000000e-08,8.50000000000000e-01,7.65000000000044e-01,8.40971900550154e-01
3.01300000000000e-08,8.50000000000000e-01,5.95000000000020e-01,8.47516570348259e-01
3.01700000000000e-08,8.50000000000000e-01,2.55000000000028e-01,8.50055653259410e-01
3.02000000000000e-08,8.50000000000000e-01,2.05391259555654e-14,8.49910910969278e-01
3.02080000000000e-08,8.50000000000000e-01,0.00000000000000e+00,8.49928126276680e-01
3.02240000000000e-08,8.50000000000000e-01,0.00000000000000e+00,8.49928020282633e-01
3.02560000000000e-08,8.50000000000000e-01,0.00000000000000e+00,8.49939707871852e-01
3.03200000000000e-08,8.50000000000000e-01,0.00000000000000e+00,8.49973523751916e-01
3.04480000000000e-08,8.50000000000000e-01,0.00000000000000e+00,8.50000988891625e-01
3.06075957864766e-08,8.50000000000000e-01,0.00000000000000e+00,8.49971653474310e-01
3.09267873594299e-08,8.50000000000000e-01,0.00000000000000e+00,8.49982032626423e-01
3.13359178479716e-08,8.50000000000000e-01,0.00000000000000e+00,8.49985008042263e-01
3.21541788250549e-08,8.50000000000000e-01,0.00000000000000e+00,8.49978307413582e-01
3.37039759309201e-08,8.50000000000000e-01,0.00000000000000e+00,8.49989746157290e-01
3.51000000000000e-08,8.49999999999958e-01,0.00000000000000e+00,8.49979350345596e-01
3.51100000000000e-08,7.64999999999974e-01,0.00000000000000e+00,8.49907598384537e-01
3.51300000000000e-08,5.94999999999950e-01,0.00000000000000e+00,8.49842021225968e-01
3.51700000000000e-08,2.54999999999958e-01,0.00000000000000e+00,8.50906939457495e-01
3.52000000000000e-08,0.00000000000000e+00,0.00000000000000e+00,8.52945055709750e-01
3.52080000000000e-08,0.00000000000000e+00,0.00000000000000e+00,8.53244726551606e-01
3.52240000000000e-08,0.00000000000000e+00,0.00000000000000e+00,8.52569333151438e-01
3.52560000000000e-08,0.00000000000000e+00,0.00000000000000e+00,8.43157237427082e-01
3.53200000000000e-08,0.00000000000000e+00,0.00000000000000e+00,8.16801827965568e-01
3.54480000000000e-08,0.00000000000000e+00,0.00000000000000e+00,8.23809174327492e-01
3.56308128163143e-08,0.00000000000000e+00,0.00000000000000e+00,8.53377941479188e-01
3.59562981650218e-08,0.00000000000000e+00,0.00000000000000e+00,8.45785986375716e-01
3.62810764854803e-08,0.00000000000000e+00,0.00000000000000e+00,8.52025410097227e-01
3.69306331263973e-08,0.00000000000000e+00,0.00000000000000e+00,8.47572661955526e-01
3.82297464082312e-08,0.00000000000000e+00,0.00000000000000e+00,8.51764606974771e-01
3.91000000000000e-08,0.00000000000000e+00,0.00000000000000e+00,8.48111122542055e-01
3.93598226563668e-08,0.00000000000000e+00,0.00000000000000e+00,8.49676537973158e-01
3.98794679691003e-08,0.00000000000000e+00,0.00000000000000e+00,8.49988293304254e-01
4.09187585945675e-08,0.00000000000000e+00,0.00000000000000e+00,8.49745235298009e-01
4.29973398455017e-08,0.00000000000000e+00,0.00000000000000e+00,8.49994543693634e-01
4.50000000000000e-08,0.00000000000000e+00,0.00000000000000e+00,8.49777543574730e-01
4.50100000000000e-08,8.49999999999839e-02,0.00000000000000e+00,8.49878645900247e-01
4.50300000000000e-08,2.55000000000008e-01,0.00000000000000e+00,8.49982029795173e-01
4.50700000000000e-08,5.95000000000000e-01,0.00000000000000e+00,8.49823692367066e-01
4.51000000000000e-08,8.50000000000000e-01,0.00000000000000e+00,8.49501868216661e-01
4.51080000000000e-08,8.50000000000000e-01,0.00000000000000e+00,8.49420670878131e-01
4.51240000000000e-08,8.50000000000000e-01,0.00000000000000e+00,8.49444166955735e-01
4.51560000000000e-08,8.50000000000000e-01,0.00000000000000e+00,8.51131400218931e-01
4.52200000000000e-08,8.50000000000000e-01,0.00000000000000e+00,8.60897083847661e-01
4.53480000000000e-08,8.50000000000000e-01,0.00000000000000e+00,4.13247497979167e-01
4.55791659935970e-08,8.50000000000000e-01,0.00000000000000e+00,-7.56439656176397e-02
4.57891075533968e-08,8.50000000000000e-01,0.00000000000000e+00,5.41713027461179e-02
4.62089906729965e-08,8.50000000000000e-01,0.00000000000000e+00,-3.90435180132457e-02
4.66234600014682e-08,8.50000000000000e-01,0.00000000000000e+00,3.35249492851520e-02
4.74523986584115e-08,8.50000000000000e-01,0.00000000000000e+00,-2.81169578114587e-02
4.87843192091696e-08,8.50000000000000e-01,0.00000000000000e+00,2.77432359462098e-02
5.00000000000000e-08,8.50000000000000e-01,0.00000000000000e+00,-2.43667483760490e-02
5.00100000000000e-08,8.50000000000000e-01,8.49999999999839e-02,-1.70783498556440e-02
5.00300000000000e-08,8.50000000000000e-01,2.54999999999952e-01,-6.35709858960509e-03
5.00700000000000e-08,8.50000000000000e-01,5.95000000000000e-01,-9.44583021779757e-05
5.01000000000000e-08,8.50000000000000e-01,8.50000000000000e-01,-1.16874864381181e-04
5.01080000000000e-08,8.50000000000000e-01,8.50000000000000e-01,-4.81939237229334e-05
5.01240000000000e-08,8.50000000000000e-01,8.50000000000000e-01,-4.37180784463448e-06
5.01560000000000e-08,8.50000000000000e-01,8.50000000000000e-01,3.05494102011694e-05
5.02200000000000e-08,8.50000000000000e-01,8.50000000000000e-01,5.01227896219231e-06
5.03480000000000e-08,8.50000000000000e-01,8.50000000000000e-01,-3.22203986275610e-06
5.06040000000000e-08,8.50000000000000e-01,8.50000000000000e-01,2.48783635106199e-06
5.11160000000001e-08,8.50000000000000e-01,8.50000000000000e-01,-3.01753024188958e-06
5.21400000000002e-08,8.50000000000000e-01,8.50000000000000e-01,2.06332469610427e-06
5.41880000000003e-08,8.50000000000000e-01,8.50000000000000e-01,-2.23623292448143e-06
5.51000000000000e-08,8.50000000000000e-01,8.50000000000000e-01,2.03676100199663e-06
5.51100000000000e-08,7.65000000000030e-01,8.50000000000000e-01,-6.83463288672359e-05
5.51300000000000e-08,5.95000000000006e-01,8.50000000000000e-01,-1.49779660068600e-04
5.51700000000000e-08,2.55000000000014e-01,8.50000000000000e-01,-4.10825858510044e-05
5.52000000000000e-08,0.00000000000000e+00,8.50000000000000e-01,2.03623823292073e-04
5.52080000000000e-08,0.00000000000000e+00,8.50000000000000e-01,2.97920442472635e-04
5.52240000000000e-08,0.00000000000000e+00,8.50000000000000e-01,3.14003557780412e-04
5.52560000000000e-08,0.00000000000000e+00,8.50000000000000e-01,-2.86271435792691e-04
5.53200000000000e-08,0.00000000000000e+00,8.50000000000000e-01,-8.05770242884585e-04
5.54480000000000e-08,0.00000000000000e+00,8.50000000000000e-01,-7.62943473862562e-06
5.57040000000000e-08,0.00000000000000e+00,8.50000000000000e-01,-1.26431375310695e-04
5.60134555801940e-08,0.00000000000000e+00,8.50000000000000e-01,2.35303670287105e-04
5.66137357171908e-08,0.00000000000000e+00,8.50000000000000e-01,-1.65041191686576e-04
5.72063084891499e-08,0.00000000000000e+00,8.50000000000000e-01,1.10500158612926e-04
5.83914540330683e-08,0.00000000000000e+00,8.50000000000000e-01,-8.63315160172093e-05
6.07617451209049e-08,0.00000000000000e+00,8.50000000000000e-01,7.61930047659871e-05
6.45617451209049e-08,0.00000000000000e+00,8.50000000000000e-01,-6.92192194315046e-05
6.50000000000000e-08,0.00000000000000e+00,8.50000000000000e-01,2.33362443642854e-05
6.50100000000000e-08,8.49999999999839e-02,8.50000000000000e-01,1.80773515947488e-04
6.50300000000000e-08,2.54999999999952e-01,8.50000000000000e-01,3.27831957593824e-04
6.50700000000000e-08,5.94999999999887e-01,8.50000000000000e-01,-7.50819699152576e-04
6.51000000000000e-08,8.49999999999951e-01,8.50000000000000e-01,-4.40353274760007e-03
6.51080000000000e-08,8.50000000000000e-01,8.50000000000000e-01,-5.56478379517434e-03
6.51240000000000e-08,8.50000000000000e-01,8.50000000000000e-01,-6.80384382290050e-03
6.51560000000000e-08,8.50000000000000e-01,8.50000000000000e-01,9.02269321703499e-03
6.52200000000000e-08,8.50000000000000e-01,8.50000000000000e-01,2.19711773050037e-01
6.53480000000000e-08,8.50000000000000e-01,8.50000000000000e-01,7.61303484103335e-01
6.56040000000000e-08,8.50000000000000e-01,8.50000000000000e-01,8.75420453821970e-01
6.58681001164063e-08,8.50000000000000e-01,8.50000000000000e-01,8.28827894454071e-01
6.63692300253350e-08,8.50000000000000e-01,8.50000000000000e-01,8.66776649385273e-01
6.69216616384374e-08,8.50000000000000e-01,8.50000000000000e-01,8.34333444764667e-01
6.80265248646421e-08,8.50000000000000e-01,8.50000000000000e-01,8.63906157065365e-01
7.01000000000000e-08,8.50000000000000e-01,8.50000000000000e-01,8.35843064602803e-01
7.01100000000000e-08,8.50000000000000e-01,7.65000000000016e-01,8.40970643930806e-01
7.01300000000000e-08,8.50000000000000e-01,5.95000000000048e-01,8.47516283317208e-01
7.01700000000000e-08,8.50000000000000e-01,2.55000000000113e-01,8.50055701214664e-01
7.02000000000000e-08,8.50000000000000e-01,4.87387907810444e-14,8.49910912445002e-01
7.02080000000000e-08,8.50000000000000e-01,0.00000000000000e+00,8.49928129885291e-01
7.02240000000000e-08,8.50000000000000e-01,0.00000000000000e+00,8.49928026638845e-01
7.02560000000000e-08,8.50000000000000e-01,0.00000000000000e+00,8.49939706576616e-01
7.03200000000000e-08,8.50000000000000e-01,0.00000000000000e+00,8.49973521146837e-01
7.04480000000000e-08,8.50000000000000e-01,0.00000000000000e+00,8.50000987945844e-01
7.06075952896497e-08,8.50000000000000e-01,0.00000000000000e+00,8.49971654336989e-01
7.09267858689491e-08,8.50000000000000e-01,0.00000000000000e+00,8.49982028958324e-01
7.13359143582561e-08,8.50000000000000e-01,0.00000000000000e+00,8.49985009138549e-01
7.21541713368701e-08,8.50000000000000e-01,0.00000000000000e+00,8.49978304069113e-01
7.37039587389891e-08,8.50000000000000e-01,0.00000000000000e+00,8.49989747518134e-01
7.51000000000000e-08,8.50000000000000e-01,0.00000000000000e+00,8.49979347404076e-01
7.51100000000000e-08,7.65000000000086e-01,0.00000000000000e+00,8.49907597054867e-01
7.51300000000000e-08,5.95000000000119e-01,0.00000000000000e+00,8.49842021302932e-01
7.51700000000000e-08,2.55000000000183e-01,0.00000000000000e+00,8.50906938261713e-01
7.52000000000000e-08,1.19015908239817e-13,0.00000000000000e+00,8.52945045966736e-01
7.52080000000000e-08,0.00000000000000e+00,0.00000000000000e+00,8.53244706734150e-01
7.52240000000000e-08,0.00000000000000e+00,0.00000000000000e+00,8.52569268765459e-01
7.52560000000000e-08,0.00000000000000e+00,0.00000000000000e+00,8.43157058637097e-01
7.53200000000000e-08,0.00000000000000e+00,0.00000000000000e+00,8.16801689536642e-01
7.54480000000000e-08,0.00000000000000e+00,0.00000000000000e+00,8.23809230650486e-01
7.56308128102709e-08,0.00000000000000e+00,0.00000000000000e+00,8.53377905204716e-01
7.59562981557977e-08,0.00000000000000e+00,0.00000000000000e+00,8.45786013309439e-01
7.62810764700506e-08,0.00000000000000e+00,0.00000000000000e+00,8.52025391435524e-01
7.69306330985563e-08,0.00000000000000e+00,0.00000000000000e+00,8.47572677827024e-01
7.81000000000000e-08,0.00000000000000e+00,0.00000000000000e+00,8.51739377116723e-01
7.82299113257012e-08,0.00000000000000e+00,0.00000000000000e+00,8.50139594936374e-01
7.84897339771035e-08,0.00000000000000e+00,0.00000000000000e+00,8.49605464342012e-01
7.90093792799081e-08,0.00000000000000e+00,0.00000000000000e+00,8.50008084959652e-01
8.00486698855173e-08,0.00000000000000e+00,0.00000000000000e+00,8.49699949845577e-01
8.21272510967357e-08,0.00000000000000e+00,0.00000000000000e+00,8.50023505439116e-01
8.50000000000000e-08,0.00000000000000e+00,0.00000000000000e+00,8.49743803613709e-01
8.50100000000000e-08,8.49999999999839e-02,0.00000000000000e+00,8.49848007708978e-01
8.50300000000000e-08,2.54999999999952e-01,0.00000000000000e+00,8.49959947590474e-01
8.50700000000000e-08,5.94999999999887e-01,0.00000000000000e+00,8.49819271451877e-01
8.51000000000000e-08,8.49999999999951e-01,0.00000000000000e+00,8.49501864427261e-01
8.51080000000000e-08,8.50000000000000e-01,0.00000000000000e+00,8.49423400983162e-01
8.51240000000000e-08,8.50000000000000e-01,0.00000000000000e+00,8.49452424461736e-01
8.51560000000000e-08,8.50000000000000e-01,0.00000000000000e+00,8.51144300687905e-01
8.52200000000000e-08,8.50000000000000e-01,0.00000000000000e+00,8.60895015160950e-01
8.53480000000000e-08,8.50000000000000e-01,0.00000000000000e+00,4.13224520501347e-01
8.55794161503691e-08,8.50000000000000e-01,0.00000000000000e+00,-7.57393896970403e-02
8.57892907403462e-08,8.50000000000000e-01,0.00000000000000e+00,5.42400645718085e-02
8.62090399203003e-08,8.50000000000000e-01,0.00000000000000e+00,-3.91219964668826e-02
8.66236416027761e-08,8.50000000000000e-01,0.00000000000000e+00,3.35673776083480e-02
8.74528449677277e-08,8.50000000000000e-01,0.00000000000000e+00,-2.81517088717465e-02
8.87837449826168e-08,8.50000000000000e-01,0.00000000000000e+00,2.77776672242247e-02
9.00000000000000e-08,8.50000000000000e-01,0.00000000000000e+00,-2.43965829632958e-02
9.00100000000000e-08,8.50000000000000e-01,8.49999999999839e-02,-1.70984261418442e-02
9.00300000000000e-08,8.50000000000000e-01,2.54999999999952e-01,-6.36421503852184e-03
9.00700000000000e-08,8.50000000000000e-01,5.94999999999887e-01,-9.46271134478482e-05
9.01000000000000e-08,8.50000000000000e-01,8.49999999999951e-01,-1.16932663632399e-04
9.01080000000000e-08,8.50000000000000e-01,8.50000000000000e-01,-4.82338122500536e-05
9.01240000000000e-08,8.50000000000000e-01,8.50000000000000e-01,-4.39350271341787e-06
9.01560000000000e-08,8.50000000000000e-01,8.50000000000000e-01,3.05689765192699e-05
9.02200000000000e-08,8.50000000000000e-01,8.50000000000000e-01,5.04033613533267e-06
9.03480000000000e-08,8.50000000000000e-01,8.50000000000000e-01,-3.23378964436905e-06
9.06040000000000e-08,8.50000000000000e-01,8.50000000000000e-01,2.49593550169340e-06
9.11159999999999e-08,8.50000000000000e-01,8.50000000000000e-01,-3.02484957526768e-06
9.21399999999999e-08,8.50000000000000e-01,8.50000000000000e-01,2.06882768307272e-06
9.41879999999998e-08,8.50000000000000e-01,8.50000000000000e-01,-2.24106890135689e-06
9.51000000000000e-08,8.50000000000000e-01,8.50000000000000e-01,2.04144662215629e-06
9.51100000000000e-08,7.65000000000086e-01,8.50000000000000e-01,-6.83432456660624e-05
9.51300000000000e-08,5.95000000000119e-01,8.50000000000000e-01,-1.49778777279473e-04
9.51700000000000e-08,2.55000000000183e-01,8.50000000000000e-01,-4.10829882865268e-05
9.52000000000000e-08,1.19015908239817e-13,8.50000000000000e-01,2.03626652926642e-04
9.52080000000000e-08,0.00000000000000e+00,8.50000000000000e-01,2.97927292903760e-04
9.52240000000000e-08,0.00000000000000e+00,8.50000000000000e-01,3.14029927821417e-04
9.52560000000000e-08,0.00000000000000e+00,8.50000000000000e-01,-2.86163011139359e-04
9.53200000000000e-08,0.00000000000000e+00,8.50000000000000e-01,-8.05445215164444e-04
9.54480000000000e-08,0.00000000000000e+00,8.50000000000000e-01,-7.68066648580354e-06
9.57040000000000e-08,0.00000000000000e+00,8.50000000000000e-01,-1.26434127046314e-04
9.60134554886546e-08,0.00000000000000e+00,8.50000000000000e-01,2.35333226757355e-04
9.66137355630638e-08,0.00000000000000e+00,8.50000000000000e-01,-1.65080227905414e-04
9.72063081745059e-08,0.00000000000000e+00,8.50000000000000e-01,1.10546342145730e-04
9.83914533973903e-08,0.00000000000000e+00,8.50000000000000e-01,-8.63805168889601e-05
1.00761743843159e-07,0.00000000000000e+00,8.50000000000000e-01,7.62433149684881e-05
1.04561743843159e-07,0.00000000000000e+00,8.50000000000000e-01,-6.92701910452849e-05
1.05000000000000e-07,0.00000000000000e+00,8.50000000000000e-01,2.33921861541699e-05
1.05010000000000e-07,8.49999999999839e-02,8.50000000000000e-01,1.80784981660534e-04
1.05030000000000e-07,2.54999999999952e-01,8.50000000000000e-01,3.27813367161783e-04
1.05070000000000e-07,5.94999999999887e-01,8.50000000000000e-01,-7.50822212516523e-04
1.05100000000000e-07,8.49999999999951e-01,8.50000000000000e-01,-4.40353426070674e-03
1.05108000000000e-07,8.50000000000000e-01,8.50000000000000e-01,-5.56478435480844e-03
1.05124000000000e-07,8.50000000000000e-01,8.50000000000000e-01,-6.80384360065815e-03
1.05156000000000e-07,8.50000000000000e-01,8.50000000000000e-01,9.02269560665070e-03
1.05220000000000e-07,8.50000000000000e-01,8.50000000000000e-01,2.19711784877895e-01
1.05348000000000e-07,8.50000000000000e-01,8.50000000000000e-01,7.61303492153172e-01
1.05604000000000e-07,8.50000000000000e-01,8.50000000000000e-01,8.75420452730229e-01
