Time,v(clk),v(data),v(out),v(reset)
1.00000000000000e-08,8.50000000000000e-01,0.00000000000000e+00,1.00603098312706e-05,0.00000000000000e+00
1.00100000000000e-08,8.50000000000000e-01,8.49999999999979e-02,9.06061709617101e-06,0.00000000000000e+00
1.00300000000000e-08,8.50000000000000e-01,2.54999999999994e-01,6.78315290029985e-06,0.00000000000000e+00
1.00700000000000e-08,8.50000000000000e-01,5.94999999999986e-01,3.45646885852730e-06,0.00000000000000e+00
1.01000000000000e-08,8.50000000000000e-01,8.49999999999994e-01,3.17748098237897e-06,0.00000000000000e+00
1.01080000000000e-08,8.50000000000000e-01,8.50000000000000e-01,3.03346605910748e-06,0.00000000000000e+00
1.01240000000000e-08,8.50000000000000e-01,8.50000000000000e-01,3.16659526748697e-06,0.00000000000000e+00
1.01560000000000e-08,8.50000000000000e-01,8.50000000000000e-01,1.87050095886571e-06,0.00000000000000e+00
1.02200000000000e-08,8.50000000000000e-01,8.50000000000000e-01,9.79008189523622e-07,0.00000000000000e+00
1.03480000000000e-08,8.50000000000000e-01,8.50000000000000e-01,4.77963256985403e-06,0.00000000000000e+00
1.06040000000000e-08,8.50000000000000e-01,8.50000000000000e-01,5.02990526397504e-06,0.00000000000000e+00
1.11160000000000e-08,8.50000000000000e-01,8.50000000000000e-01,4.01214928538729e-06,0.00000000000000e+00
1.21400000000000e-08,8.50000000000000e-01,8.50000000000000e-01,4.64998195642916e-06,0.00000000000000e+00
1.41880000000000e-08,8.50000000000000e-01,8.50000000000000e-01,3.18723346625629e-06,0.00000000000000e+00
1.51000000000000e-08,8.50000000000000e-01,8.50000000000000e-01,4.12732031795839e-06,0.00000000000000e+00
1.51100000000000e-08,7.64999999999988e-01,8.50000000000000e-01,1.75494547951571e-04,8.50000000000120e-02
1.51300000000000e-08,5.94999999999992e-01,8.50000000000000e-01,2.78579149360747e-04,2.55000000000008e-01
1.51700000000000e-08,2.55000000000000e-01,8.50000000000000e-01,2.05403673361110e-04,5.95000000000000e-01
1.52000000000000e-08,0.00000000000000e+00,8.50000000000000e-01,2.22206676253382e-04,8.50000000000000e-01
1.52080000000000e-08,0.00000000000000e+00,8.50000000000000e-01,1.83380449150491e-04,8.50000000000000e-01
1.52240000000000e-08,0.00000000000000e+00,8.50000000000000e-01,9.75709921513246e-05,8.50000000000000e-01
1.52560000000000e-08,0.00000000000000e+00,8.50000000000000e-01,-7.22701282503263e-05,8.50000000000000e-01
1.53200000000000e-08,0.00000000000000e+00,8.50000000000000e-01,-3.30139027843873e-04,8.50000000000000e-01
1.54480000000000e-08,0.00000000000000e+00,8.50000000000000e-01,-1.11132827799627e-04,8.50000000000000e-01
1.56674801500948e-08,0.00000000000000e+00,8.50000000000000e-01,-2.25606201116925e-04,8.50000000000000e-01
1.59770995384085e-08,0.00000000000000e+00,8.50000000000000e-01,2.95637455906272e-04,8.50000000000000e-01
1.65858236122670e-08,0.00000000000000e+00,8.50000000000000e-01,-1.41912184560189e-04,8.50000000000000e-01
1.71561324882648e-08,0.00000000000000e+00,8.50000000000000e-01,4.13629570171180e-05,8.50000000000000e-01
1.82967502402604e-08,0.00000000000000e+00,8.50000000000000e-01,4.99131535813650e-07,8.50000000000000e-01
2.05779857442517e-08,0.00000000000000e+00,8.50000000000000e-01,-1.14473133136471e-05,8.50000000000000e-01
2.43779857442517e-08,0.00000000000000e+00,8.50000000000000e-01,2.43656286798249e-05,8.50000000000000e-01
2.50000000000000e-08,0.00000000000000e+00,8.50000000000000e-01,-5.96018636007528e-05,8.50000000000000e-01
2.50100000000000e-08,8.49999999999839e-02,8.50000000000000e-01,1.08047410223827e-04,8.50000000000000e-01
2.50300000000000e-08,2.55000000000008e-01,8.50000000000000e-01,3.25754694865926e-04,8.50000000000000e-01
2.50700000000000e-08,5.95000000000000e-01,8.50000000000000e-01,2.69357949542519e-04,8.50000000000000e-01
2.51000000000000e-08,8.50000000000000e-01,8.50000000000000e-01,-1.76997229020935e-03,8.50000000000000e-01
2.51080000000000e-08,8.50000000000000e-01,8.50000000000000e-01,-2.81199162889223e-03,8.50000000000000e-01
2.51240000000000e-08,8.50000000000000e-01,8.50000000000000e-01,-4.71777001723800e-03,8.50000000000000e-01
2.51560000000000e-08,8.50000000000000e-01,8.50000000000000e-01,-6.19476776934616e-03,8.50000000000000e-01
2.52200000000000e-08,8.50000000000000e-01,8.50000000000000e-01,4.57539520688899e-02,8.50000000000000e-01
2.53480000000000e-08,8.50000000000000e-01,8.50000000000000e-01,5.64562168828112e-01,8.50000000000000e-01
2.56040000000000e-08,8.50000000000000e-01,8.50000000000000e-01,8.84843347798189e-01,8.50000000000000e-01
2.58779110978465e-08,8.50000000000000e-01,8.50000000000000e-01,8.20997824125913e-01,8.50000000000000e-01
2.64257332935396e-08,8.50000000000000e-01,8.50000000000000e-01,8.76278001697032e-01,8.50000000000000e-01
2.70861042885054e-08,8.50000000000000e-01,8.50000000000000e-01,8.24770512764524e-01,8.50000000000000e-01
2.82490187833316e-08,8.50000000000000e-01,8.50000000000000e-01,8.73620283292312e-01,8.50000000000000e-01
3.05748477729840e-08,8.50000000000000e-01,8.50000000000000e-01,8.26204934439918e-01,8.50000000000000e-01
3.43748477729840e-08,8.50000000000000e-01,8.50000000000000e-01,8.72922517812039e-01,8.50000000000000e-01
3.51000000000000e-08,8.49999999999958e-01,8.50000000000000e-01,8.27867119139526e-01,8.50000000000000e-01
3.51100000000000e-08,7.64999999999974e-01,8.50000000000000e-01,8.38016654391006e-01,8.50000000000000e-01
3.51300000000000e-08,5.94999999999950e-01,8.50000000000000e-01,8.48969591327759e-01,8.50000000000000e-01
3.51700000000000e-08,2.54999999999958e-01,8.50000000000000e-01,8.51486341487842e-01,8.50000000000000e-01
3.52000000000000e-08,0.00000000000000e+00,8.50000000000000e-01,8.53031057349269e-01,8.50000000000000e-01
3.52080000000000e-08,0.00000000000000e+00,8.50000000000000e-01,8.52754802240896e-01,8.50000000000000e-01
3.52240000000000e-08,0.00000000000000e+00,8.50000000000000e-01,8.49772214822992e-01,8.50000000000000e-01
3.52560000000000e-08,0.00000000000000e+00,8.50000000000000e-01,8.35001427195199e-01,8.50000000000000e-01
3.53200000000000e-08,0.00000000000000e+00,8.50000000000000e-01,8.15983605185214e-01,8.50000000000000e-01
3.54480000000000e-08,0.00000000000000e+00,8.50000000000000e-01,8.40049220278800e-01,8.50000000000000e-01
3.57040000000000e-08,0.00000000000000e+00,8.50000000000000e-01,8.53480239797017e-01,8.50000000000000e-01
3.60066085716303e-08,0.00000000000000e+00,8.50000000000000e-01,8.46562377160185e-01,8.50000000000000e-01
3.66118257148910e-08,0.00000000000000e+00,8.50000000000000e-01,8.52240745730668e-01,8.50000000000000e-01
3.78222600014124e-08,0.00000000000000e+00,8.50000000000000e-01,8.47529699539155e-01,8.50000000000000e-01
4.02431285744552e-08,0.00000000000000e+00,8.50000000000000e-01,8.52112003249358e-01,8.50000000000000e-01
4.40431285744552e-08,0.00000000000000e+00,8.50000000000000e-01,8.47761366299193e-01,8.50000000000000e-01
4.50000000000000e-08,0.00000000000000e+00,8.50000000000000e-01,8.51878899265071e-01,8.50000000000000e-01
4.50100000000000e-08,8.49999999999839e-02,8.50000000000000e-01,8.51143361946166e-01,7.65000000000016e-01
4.50300000000000e-08,2.55000000000008e-01,8.50000000000000e-01,8.50224164476527e-01,5.94999999999992e-01
4.50700000000000e-08,5.95000000000000e-01,8.50000000000000e-01,8.53695699916641e-01,2.55000000000000e-01
4.51000000000000e-08,8.50000000000000e-01,8.50000000000000e-01,8.61837975300503e-01,0.00000000000000e+00
4.51080000000000e-08,8.50000000000000e-01,8.50000000000000e-01,8.64347471706289e-01,0.00000000000000e+00
4.51240000000000e-08,8.50000000000000e-01,8.50000000000000e-01,8.69043854681539e-01,0.00000000000000e+00
4.51560000000000e-08,8.50000000000000e-01,8.50000000000000e-01,8.67836416175550e-01,0.00000000000000e+00
4.52200000000000e-08,8.50000000000000e-01,8.50000000000000e-01,6.24103091726528e-01,0.00000000000000e+00
4.53480000000000e-08,8.50000000000000e-01,8.50000000000000e-01,6.37025067000278e-02,0.00000000000000e+00
4.55523845670971e-08,8.50000000000000e-01,8.50000000000000e-01,-2.68120986385266e-02,0.00000000000000e+00
4.58547883107658e-08,8.50000000000000e-01,8.50000000000000e-01,1.66074130478349e-02,0.00000000000000e+00
4.62652702488413e-08,8.50000000000000e-01,8.50000000000000e-01,-1.13727952761946e-02,0.00000000000000e+00
4.70110466730203e-08,8.50000000000000e-01,8.50000000000000e-01,9.36707950915783e-03,0.00000000000000e+00
4.85008414798101e-08,8.50000000000000e-01,8.50000000000000e-01,-8.44076285599103e-03,0.00000000000000e+00
5.01000000000000e-08,8.50000000000000e-01,8.49999999999951e-01,7.71034716334046e-03,0.00000000000000e+00
5.03803220381769e-08,8.50000000000000e-01,8.50000000000000e-01,9.05802121067379e-04,0.00000000000000e+00
5.09409661145307e-08,8.50000000000000e-01,8.50000000000000e-01,-6.94443857918543e-04,0.00000000000000e+00
5.20622542672383e-08,8.50000000000000e-01,8.50000000000000e-01,6.15794600627979e-04,0.00000000000000e+00
5.43048305726536e-08,8.50000000000000e-01,8.50000000000000e-01,-5.72555360481897e-04,0.00000000000000e+00
5.51000000000000e-08,8.50000000000000e-01,8.50000000000000e-01,4.81409318076160e-04,0.00000000000000e+00
5.51100000000000e-08,7.65000000000030e-01,8.50000000000000e-01,5.50831421385456e-04,8.49999999999698e-02
5.51300000000000e-08,5.95000000000006e-01,8.50000000000000e-01,4.91150967327977e-04,2.54999999999994e-01
5.51700000000000e-08,2.55000000000014e-01,8.50000000000000e-01,2.60351005879005e-04,5.94999999999986e-01
5.52000000000000e-08,0.00000000000000e+00,8.50000000000000e-01,2.33688513932330e-04,8.50000000000000e-01
5.52080000000000e-08,0.00000000000000e+00,8.50000000000000e-01,1.75254203031605e-04,8.50000000000000e-01
5.52240000000000e-08,0.00000000000000e+00,8.50000000000000e-01,-2.83848640133672e-05,8.50000000000000e-01
5.52560000000000e-08,0.00000000000000e+00,8.50000000000000e-01,-8.36909463945060e-04,8.50000000000000e-01
5.53200000000000e-08,0.00000000000000e+00,8.50000000000000e-01,-1.31052791707115e-03,8.50000000000000e-01
5.54480000000000e-08,0.00000000000000e+00,8.50000000000000e-01,9.38020254207007e-05,8.50000000000000e-01
5.56365783467373e-08,0.00000000000000e+00,8.50000000000000e-01,-1.04388044731490e-04,8.50000000000000e-01
5.59611268689852e-08,0.00000000000000e+00,8.50000000000000e-01,2.60514450640733e-05,8.50000000000000e-01
5.64680005076709e-08,0.00000000000000e+00,8.50000000000000e-01,6.75059328062843e-05,8.50000000000000e-01
5.70405908329415e-08,0.00000000000000e+00,8.50000000000000e-01,-1.05197541087397e-04,8.50000000000000e-01
5.81857714834827e-08,0.00000000000000e+00,8.50000000000000e-01,1.21590278682925e-04,8.50000000000000e-01
6.04761327845652e-08,0.00000000000000e+00,8.50000000000000e-01,-1.21431414669036e-04,8.50000000000000e-01
6.42761327845652e-08,0.00000000000000e+00,8.50000000000000e-01,1.27854879285011e-04,8.50000000000000e-01
6.50000000000000e-08,0.00000000000000e+00,8.50000000000000e-01,-1.29502883089746e-04,8.50000000000000e-01
6.50100000000000e-08,8.49999999999839e-02,8.50000000000000e-01,3.89532056605663e-05,8.50000000000000e-01
6.50300000000000e-08,2.54999999999952e-01,8.50000000000000e-01,2.71281194071132e-04,8.50000000000000e-01
6.50700000000000e-08,5.94999999999887e-01,8.50000000000000e-01,8.92755330070757e-05,8.50000000000000e-01
6.51000000000000e-08,8.49999999999951e-01,8.50000000000000e-01,-2.10889218254604e-03,8.50000000000000e-01
6.51080000000000e-08,8.50000000000000e-01,8.50000000000000e-01,-3.14525553007251e-03,8.50000000000000e-01
6.51240000000000e-08,8.50000000000000e-01,8.50000000000000e-01,-4.98822248015357e-03,8.50000000000000e-01
6.51560000000000e-08,8.50000000000000e-01,8.50000000000000e-01,-5.95776718045748e-03,8.50000000000000e-01
6.52200000000000e-08,8.50000000000000e-01,8.50000000000000e-01,5.19009663573494e-02,8.50000000000000e-01
6.53480000000000e-08,8.50000000000000e-01,8.50000000000000e-01,5.78357763509580e-01,8.50000000000000e-01
6.56040000000000e-08,8.50000000000000e-01,8.50000000000000e-01,8.85319776313453e-01,8.50000000000000e-01
6.58763730893110e-08,8.50000000000000e-01,8.50000000000000e-01,8.20453695332327e-01,8.50000000000000e-01
6.64211192679331e-08,8.50000000000000e-01,8.50000000000000e-01,8.76663824421990e-01,8.50000000000000e-01
6.70868159799710e-08,8.50000000000000e-01,8.50000000000000e-01,8.24334214516931e-01,8.50000000000000e-01
6.82668494363283e-08,8.50000000000000e-01,8.50000000000000e-01,8.73990586539927e-01,8.50000000000000e-01
7.06269163490428e-08,8.50000000000000e-01,8.50000000000000e-01,8.25779908031832e-01,8.50000000000000e-01
7.44269163490428e-08,8.50000000000000e-01,8.50000000000000e-01,8.73283087608447e-01,8.50000000000000e-01
7.51000000000000e-08,8.50000000000000e-01,8.50000000000000e-01,8.27596668286215e-01,8.50000000000000e-01
7.51100000000000e-08,7.65000000000086e-01,8.50000000000000e-01,8.37867215111305e-01,8.50000000000000e-01
7.51300000000000e-08,5.95000000000119e-01,8.50000000000000e-01,8.48945220380648e-01,8.50000000000000e-01
7.51700000000000e-08,2.55000000000183e-01,8.50000000000000e-01,8.51489362287619e-01,8.50000000000000e-01
7.52000000000000e-08,1.19015908239817e-13,8.50000000000000e-01,8.53027557654771e-01,8.50000000000000e-01
7.52080000000000e-08,0.00000000000000e+00,8.50000000000000e-01,8.52751909391154e-01,8.50000000000000e-01
7.52240000000000e-08,0.00000000000000e+00,8.50000000000000e-01,8.49769591195620e-01,8.50000000000000e-01
7.52560000000000e-08,0.00000000000000e+00,8.50000000000000e-01,8.34998510384627e-01,8.50000000000000e-01
7.53200000000000e-08,0.00000000000000e+00,8.50000000000000e-01,8.15982483460869e-01,8.50000000000000e-01
7.54480000000000e-08,0.00000000000000e+00,8.50000000000000e-01,8.40047363718647e-01,8.50000000000000e-01
7.57040000000000e-08,0.00000000000000e+00,8.50000000000000e-01,8.53480524363451e-01,8.50000000000000e-01
7.60066237575313e-08,0.00000000000000e+00,8.50000000000000e-01,8.46562482032268e-01,8.50000000000000e-01
7.66118712725940e-08,0.00000000000000e+00,8.50000000000000e-01,8.52240771548993e-01,8.50000000000000e-01
7.78223663027193e-08,0.00000000000000e+00,8.50000000000000e-01,8.47529726896769e-01,8.50000000000000e-01
8.02433563629699e-08,0.00000000000000e+00,8.50000000000000e-01,8.52112002092601e-01,8.50000000000000e-01
8.40433563629699e-08,0.00000000000000e+00,8.50000000000000e-01,8.47761382262932e-01,8.50000000000000e-01
8.50000000000000e-08,0.00000000000000e+00,8.50000000000000e-01,8.51878849777249e-01,8.50000000000000e-01
8.50100000000000e-08,8.49999999999839e-02,8.50000000000000e-01,8.51143199807352e-01,7.65000000000016e-01
8.50300000000000e-08,2.54999999999952e-01,8.50000000000000e-01,8.50224048665305e-01,5.95000000000048e-01
8.50700000000000e-08,5.94999999999887e-01,8.50000000000000e-01,8.53695714521422e-01,2.55000000000113e-01
8.51000000000000e-08,8.49999999999951e-01,8.50000000000000e-01,8.61837764036162e-01,4.87387907810444e-14
8.51080000000000e-08,8.50000000000000e-01,8.50000000000000e-01,8.64347257555492e-01,0.00000000000000e+00
8.51240000000000e-08,8.50000000000000e-01,8.50000000000000e-01,8.69043675510557e-01,0.00000000000000e+00
8.51560000000000e-08,8.50000000000000e-01,8.50000000000000e-01,8.67837591879103e-01,0.00000000000000e+00
8.52200000000000e-08,8.50000000000000e-01,8.50000000000000e-01,6.24103049752443e-01,0.00000000000000e+00
8.53480000000000e-08,8.50000000000000e-01,8.50000000000000e-01,6.37015678315749e-02,0.00000000000000e+00
8.55531829333137e-08,8.50000000000000e-01,8.50000000000000e-01,-2.69032806842440e-02,0.00000000000000e+00
8.58552973098580e-08,8.50000000000000e-01,8.50000000000000e-01,1.66568760857712e-02,0.00000000000000e+00
8.62665322711326e-08,8.50000000000000e-01,8.50000000000000e-01,-1.14135457240156e-02,0.00000000000000e+00
8.70115845426301e-08,8.50000000000000e-01,8.50000000000000e-01,9.39928917100877e-03,0.00000000000000e+00
8.85016890856250e-08,8.50000000000000e-01,8.50000000000000e-01,-8.46956949454291e-03,0.00000000000000e+00
9.01000000000000e-08,8.50000000000000e-01,8.49999999999951e-01,7.73660523081003e-03,0.00000000000000e+00
9.03814283918699e-08,8.50000000000000e-01,8.50000000000000e-01,9.05696302690964e-04,0.00000000000000e+00
9.09442851756096e-08,8.50000000000000e-01,8.50000000000000e-01,-6.95081240570359e-04,0.00000000000000e+00
9.20699987430892e-08,8.50000000000000e-01,8.50000000000000e-01,6.16667087622160e-04,0.00000000000000e+00
9.43214258780483e-08,8.50000000000000e-01,8.50000000000000e-01,-5.73517454250628e-04,0.00000000000000e+00
9.51000000000000e-08,8.50000000000000e-01,8.50000000000000e-01,4.80335988759218e-04,0.00000000000000e+00
9.51100000000000e-08,7.65000000000086e-01,8.50000000000000e-01,5.50008941587132e-04,8.49999999999136e-02
9.51300000000000e-08,5.95000000000119e-01,8.50000000000000e-01,4.90675534081567e-04,2.54999999999881e-01
9.51700000000000e-08,2.55000000000183e-01,8.50000000000000e-01,2.60216158428750e-04,5.94999999999817e-01
9.52000000000000e-08,1.19015908239817e-13,8.50000000000000e-01,2.33627598182344e-04,8.49999999999881e-01
9.52080000000000e-08,0.00000000000000e+00,8.50000000000000e-01,1.75195997972499e-04,8.50000000000000e-01
9.52240000000000e-08,0.00000000000000e+00,8.50000000000000e-01,-2.84485498489306e-05,8.50000000000000e-01
9.52560000000000e-08,0.00000000000000e+00,8.50000000000000e-01,-8.37022899600443e-04,8.50000000000000e-01
9.53200000000000e-08,0.00000000000000e+00,8.50000000000000e-01,-1.31069873914393e-03,8.50000000000000e-01
9.54480000000000e-08,0.00000000000000e+00,8.50000000000000e-01,9.38011621407046e-05,8.50000000000000e-01
9.56366675657089e-08,0.00000000000000e+00,8.50000000000000e-01,-1.04468129079476e-04,8.50000000000000e-01
9.59611697370243e-08,0.00000000000000e+00,8.50000000000000e-01,2.61639316025339e-05,8.50000000000000e-01
9.64683225968253e-08,0.00000000000000e+00,8.50000000000000e-01,6.73767435092325e-05,8.50000000000000e-01
9.70409001214906e-08,0.00000000000000e+00,8.50000000000000e-01,-1.05107282042965e-04,8.50000000000000e-01
9.81860551708212e-08,0.00000000000000e+00,8.50000000000000e-01,1.21516771115573e-04,8.50000000000000e-01
1.00476365269483e-07,0.00000000000000e+00,8.50000000000000e-01,-1.21365684937238e-04,8.50000000000000e-01
1.04276365269483e-07,0.00000000000000e+00,8.50000000000000e-01,1.27793665716569e-04,8.50000000000000e-01
1.05000000000000e-07,0.00000000000000e+00,8.50000000000000e-01,-1.29463807551905e-04,8.50000000000000e-01
1.05010000000000e-07,8.49999999999839e-02,8.50000000000000e-01,3.90061117290508e-05,8.50000000000000e-01
1.05030000000000e-07,2.54999999999952e-01,8.50000000000000e-01,2.71337829258422e-04,8.50000000000000e-01
1.05070000000000e-07,5.94999999999887e-01,8.50000000000000e-01,8.93083463149522e-05,8.50000000000000e-01
1.05100000000000e-07,8.49999999999951e-01,8.50000000000000e-01,-2.10886440231144e-03,8.50000000000000e-01
1.05108000000000e-07,8.50000000000000e-01,8.50000000000000e-01,-3.14523077331301e-03,8.50000000000000e-01
1.05124000000000e-07,8.50000000000000e-01,8.50000000000000e-01,-4.98820477804804e-03,8.50000000000000e-01
1.05156000000000e-07,8.50000000000000e-01,8.50000000000000e-01,-5.95779549559215e-03,8.50000000000000e-01
1.05220000000000e-07,8.50000000000000e-01,8.50000000000000e-01,5.19004140102935e-02,8.50000000000000e-01
1.05348000000000e-07,8.50000000000000e-01,8.50000000000000e-01,5.78356589970630e-01,8.50000000000000e-01
1.05604000000000e-07,8.50000000000000e-01,8.50000000000000e-01,8.85319744580286e-01,8.50000000000000e-01
1.05876373200815e-07,8.50000000000000e-01,8.50000000000000e-01,8.20453734190336e-01,8.50000000000000e-01
1.06421119602445e-07,8.50000000000000e-01,8.50000000000000e-01,8.76663797734029e-01,8.50000000000000e-01
1.07086815818973e-07,8.50000000000000e-01,8.50000000000000e-01,8.24334245658518e-01,8.50000000000000e-01
1.08266847733301e-07,8.50000000000000e-01,8.50000000000000e-01,8.73990560335159e-01,8.50000000000000e-01
1.10626911561957e-07,8.50000000000000e-01,8.50000000000000e-01,8.25779938652103e-01,8.50000000000000e-01
1.14426911561957e-07,8.50000000000000e-01,8.50000000000000e-01,8.73283061741881e-01,8.50000000000000e-01
1.15100000000000e-07,8.50000000000000e-01,8.50000000000000e-01,8.27596684514548e-01,8.50000000000000e-01
