Time,v(clk),v(data),v(out),v(reset)
1.00000000000000e-08,5.50000000000000e-01,0.00000000000000e+00,1.34131812957890e-05,0.00000000000000e+00
1.00100000000000e-08,5.50000000000000e-01,5.49999999999987e-02,1.63636084638472e-05,0.00000000000000e+00
1.00300000000000e-08,5.50000000000000e-01,1.64999999999996e-01,1.75431164169057e-05,0.00000000000000e+00
1.00700000000000e-08,5.50000000000000e-01,3.84999999999991e-01,1.18791309499239e-05,0.00000000000000e+00
1.01000000000000e-08,5.50000000000000e-01,5.49999999999996e-01,7.96365359229806e-06,0.00000000000000e+00
1.01080000000000e-08,5.50000000000000e-01,5.50000000000000e-01,7.51172704833297e-06,0.00000000000000e+00
1.01240000000000e-08,5.50000000000000e-01,5.50000000000000e-01,7.12551972981840e-06,0.00000000000000e+00
1.01560000000000e-08,5.50000000000000e-01,5.50000000000000e-01,6.65326120391496e-06,0.00000000000000e+00
1.02200000000000e-08,5.50000000000000e-01,5.50000000000000e-01,4.44113043693642e-06,0.00000000000000e+00
1.03480000000000e-08,5.50000000000000e-01,5.50000000000000e-01,2.57952411705439e-06,0.00000000000000e+00
1.06040000000000e-08,5.50000000000000e-01,5.50000000000000e-01,2.56716214864713e-06,0.00000000000000e+00
1.11160000000000e-08,5.50000000000000e-01,5.50000000000000e-01,2.43453234302898e-06,0.00000000000000e+00
1.21400000000000e-08,5.50000000000000e-01,5.50000000000000e-01,2.20485558295302e-06,0.00000000000000e+00
1.41880000000000e-08,5.50000000000000e-01,5.50000000000000e-01,1.80768066901198e-06,0.00000000000000e+00
1.51000000000000e-08,5.50000000000000e-01,5.50000000000000e-01,1.74905577060829e-06,0.00000000000000e+00
1.51100000000000e-08,4.94999999999992e-01,5.50000000000000e-01,1.68568090613025e-04,5.50000000000078e-02
1.51300000000000e-08,3.84999999999995e-01,5.50000000000000e-01,3.63205427832199e-04,1.65000000000005e-01
1.51700000000000e-08,1.65000000000000e-01,5.50000000000000e-01,2.68421251887460e-04,3.85000000000000e-01
1.52000000000000e-08,0.00000000000000e+00,5.50000000000000e-01,1.01206927286303e-04,5.50000000000000e-01
1.52080000000000e-08,0.00000000000000e+00,5.50000000000000e-01,5.47593259326712e-05,5.50000000000000e-01
1.52240000000000e-08,0.00000000000000e+00,5.50000000000000e-01,-8.79953837843589e-06,5.50000000000000e-01
1.52560000000000e-08,0.00000000000000e+00,5.50000000000000e-01,-3.83864061615433e-05,5.50000000000000e-01
1.53200000000000e-08,0.00000000000000e+00,5.50000000000000e-01,-1.78894655287615e-05,5.50000000000000e-01
1.54480000000000e-08,0.00000000000000e+00,5.50000000000000e-01,-5.83133180220470e-05,5.50000000000000e-01
1.57040000000000e-08,0.00000000000000e+00,5.50000000000000e-01,-7.78590880703735e-05,5.50000000000000e-01
1.62160000000000e-08,0.00000000000000e+00,5.50000000000000e-01,-6.40395901766195e-05,5.50000000000000e-01
1.69940813774335e-08,0.00000000000000e+00,5.50000000000000e-01,4.60708061374819e-05,5.50000000000000e-01
1.81288834205886e-08,0.00000000000000e+00,5.50000000000000e-01,3.56917592894460e-05,5.50000000000000e-01
1.99219575344375e-08,0.00000000000000e+00,5.50000000000000e-01,-6.23142683245947e-05,5.50000000000000e-01
2.25710623745452e-08,0.00000000000000e+00,5.50000000000000e-01,7.49375636505036e-05,5.50000000000000e-01
2.50000000000000e-08,0.00000000000000e+00,5.50000000000000e-01,-8.27727738507747e-05,5.50000000000000e-01
2.50100000000000e-08,5.49999999999896e-02,5.50000000000000e-01,3.19589054268640e-05,5.50000000000000e-01
2.50300000000000e-08,1.65000000000005e-01,5.50000000000000e-01,2.09245120500169e-04,5.50000000000000e-01
2.50700000000000e-08,3.85000000000000e-01,5.50000000000000e-01,3.12357902610576e-04,5.50000000000000e-01
2.51000000000000e-08,5.50000000000000e-01,5.50000000000000e-01,-1.71681185261299e-04,5.50000000000000e-01
2.51080000000000e-08,5.50000000000000e-01,5.50000000000000e-01,-5.70505530202506e-04,5.50000000000000e-01
2.51240000000000e-08,5.50000000000000e-01,5.50000000000000e-01,-1.49284957835080e-03,5.50000000000000e-01
2.51560000000000e-08,5.50000000000000e-01,5.50000000000000e-01,-3.27882028780031e-03,5.50000000000000e-01
2.52200000000000e-08,5.50000000000000e-01,5.50000000000000e-01,-5.43161911401837e-03,5.50000000000000e-01
2.53480000000000e-08,5.50000000000000e-01,5.50000000000000e-01,2.25301517603495e-02,5.50000000000000e-01
2.56040000000000e-08,5.50000000000000e-01,5.50000000000000e-01,3.10081762700491e-01,5.50000000000000e-01
2.61160000000000e-08,5.50000000000000e-01,5.50000000000000e-01,5.70433937619950e-01,5.50000000000000e-01
2.68683662516075e-08,5.50000000000000e-01,5.50000000000000e-01,5.34175472435677e-01,5.50000000000000e-01
2.81778354333536e-08,5.50000000000000e-01,5.50000000000000e-01,5.65345315484763e-01,5.50000000000000e-01
2.99763650339518e-08,5.50000000000000e-01,5.50000000000000e-01,5.36080468621742e-01,5.50000000000000e-01
3.31760571218426e-08,5.50000000000000e-01,5.50000000000000e-01,5.63755127460686e-01,5.50000000000000e-01
3.51000000000000e-08,5.49999999999973e-01,5.50000000000000e-01,5.37301929395311e-01,5.50000000000000e-01
3.51100000000000e-08,4.94999999999983e-01,5.50000000000000e-01,5.40183023231198e-01,5.50000000000000e-01
3.51300000000000e-08,3.84999999999968e-01,5.50000000000000e-01,5.44623571414850e-01,5.50000000000000e-01
3.51700000000000e-08,1.64999999999973e-01,5.50000000000000e-01,5.48777192893806e-01,5.50000000000000e-01
3.52000000000000e-08,0.00000000000000e+00,5.50000000000000e-01,5.50520074803295e-01,5.50000000000000e-01
3.52080000000000e-08,0.00000000000000e+00,5.50000000000000e-01,5.50969555978843e-01,5.50000000000000e-01
3.52240000000000e-08,0.00000000000000e+00,5.50000000000000e-01,5.51671392290222e-01,5.50000000000000e-01
3.52560000000000e-08,0.00000000000000e+00,5.50000000000000e-01,5.52333305580260e-01,5.50000000000000e-01
3.53200000000000e-08,0.00000000000000e+00,5.50000000000000e-01,5.51922069572862e-01,5.50000000000000e-01
3.54480000000000e-08,0.00000000000000e+00,5.50000000000000e-01,5.42862024498936e-01,5.50000000000000e-01
3.57040000000000e-08,0.00000000000000e+00,5.50000000000000e-01,5.27657504406803e-01,5.50000000000000e-01
3.62160000000000e-08,0.00000000000000e+00,5.50000000000000e-01,5.44797990661059e-01,5.50000000000000e-01
3.72400000000000e-08,0.00000000000000e+00,5.50000000000000e-01,5.52487799506662e-01,5.50000000000000e-01
3.85416697837263e-08,0.00000000000000e+00,5.50000000000000e-01,5.47380262761317e-01,5.50000000000000e-01
4.11450093511789e-08,0.00000000000000e+00,5.50000000000000e-01,5.51738115760140e-01,5.50000000000000e-01
4.49450093511789e-08,0.00000000000000e+00,5.50000000000000e-01,5.47994331241654e-01,5.50000000000000e-01
4.50000000000000e-08,0.00000000000000e+00,5.50000000000000e-01,5.48932792262071e-01,5.50000000000000e-01
4.50100000000000e-08,5.49999999999896e-02,5.50000000000000e-01,5.48943130908418e-01,4.95000000000010e-01
4.50300000000000e-08,1.65000000000005e-01,5.50000000000000e-01,5.48964351893034e-01,3.84999999999995e-01
4.50700000000000e-08,3.85000000000000e-01,5.50000000000000e-01,5.49526098841553e-01,1.65000000000000e-01
4.51000000000000e-08,5.50000000000000e-01,5.50000000000000e-01,5.51734299951021e-01,0.00000000000000e+00
4.51080000000000e-08,5.50000000000000e-01,5.50000000000000e-01,5.52656106036822e-01,0.00000000000000e+00
4.51240000000000e-08,5.50000000000000e-01,5.50000000000000e-01,5.54233472316711e-01,0.00000000000000e+00
4.51560000000000e-08,5.50000000000000e-01,5.50000000000000e-01,5.56577843616406e-01,0.00000000000000e+00
4.52200000000000e-08,5.50000000000000e-01,5.50000000000000e-01,5.60681081450889e-01,0.00000000000000e+00
4.53480000000000e-08,5.50000000000000e-01,5.50000000000000e-01,5.67640337251379e-01,0.00000000000000e+00
4.56040000000000e-08,5.50000000000000e-01,5.50000000000000e-01,2.14660950099684e-01,0.00000000000000e+00
4.61160000000000e-08,5.50000000000000e-01,5.50000000000000e-01,-5.74617607771597e-02,0.00000000000000e+00
4.66664061390946e-08,5.50000000000000e-01,5.50000000000000e-01,5.00136433220607e-02,0.00000000000000e+00
4.77672184172837e-08,5.50000000000000e-01,5.50000000000000e-01,-3.64361327171860e-02,0.00000000000000e+00
4.90169500992377e-08,5.50000000000000e-01,5.50000000000000e-01,3.57872062478757e-02,0.00000000000000e+00
5.01000000000000e-08,5.50000000000000e-01,5.49999999999969e-01,-2.73768377301047e-02,0.00000000000000e+00
5.03499463363908e-08,5.50000000000000e-01,5.50000000000000e-01,-3.84568248595047e-03,0.00000000000000e+00
5.08498390091724e-08,5.50000000000000e-01,5.50000000000000e-01,2.74450931077187e-03,0.00000000000000e+00
5.18496243547357e-08,5.50000000000000e-01,5.50000000000000e-01,-2.28792511934292e-03,0.00000000000000e+00
5.38491950458622e-08,5.50000000000000e-01,5.50000000000000e-01,2.11558570395227e-03,0.00000000000000e+00
5.51000000000000e-08,5.50000000000000e-01,5.50000000000000e-01,-1.83073966057579e-03,0.00000000000000e+00
5.51100000000000e-08,4.95000000000020e-01,5.50000000000000e-01,-1.30431079746282e-03,5.49999999999805e-02
5.51300000000000e-08,3.85000000000004e-01,5.50000000000000e-01,-5.36652079475800e-04,1.64999999999996e-01
5.51700000000000e-08,1.65000000000009e-01,5.50000000000000e-01,-6.12094857815396e-05,3.84999999999991e-01
5.52000000000000e-08,0.00000000000000e+00,5.50000000000000e-01,-6.22860311033299e-05,5.50000000000000e-01
5.52080000000000e-08,0.00000000000000e+00,5.50000000000000e-01,-8.47202978999650e-05,5.50000000000000e-01
5.52240000000000e-08,0.00000000000000e+00,5.50000000000000e-01,-1.07236071568172e-04,5.50000000000000e-01
5.52560000000000e-08,0.00000000000000e+00,5.50000000000000e-01,-9.13303901526330e-05,5.50000000000000e-01
5.53200000000000e-08,0.00000000000000e+00,5.50000000000000e-01,-4.37025920232981e-05,5.50000000000000e-01
5.54480000000000e-08,0.00000000000000e+00,5.50000000000000e-01,-3.67715891281518e-04,5.50000000000000e-01
5.57040000000000e-08,0.00000000000000e+00,5.50000000000000e-01,-3.52829586646257e-04,5.50000000000000e-01
5.62160000000000e-08,0.00000000000000e+00,5.50000000000000e-01,2.41691632546674e-04,5.50000000000000e-01
5.69949675900000e-08,0.00000000000000e+00,5.50000000000000e-01,-2.59142257684539e-04,5.50000000000000e-01
5.81306036634615e-08,0.00000000000000e+00,5.50000000000000e-01,2.43906069765114e-04,5.50000000000000e-01
5.99269834406869e-08,0.00000000000000e+00,5.50000000000000e-01,-2.11478854274915e-04,5.50000000000000e-01
6.25814764132923e-08,0.00000000000000e+00,5.50000000000000e-01,1.93290408186138e-04,5.50000000000000e-01
6.50000000000000e-08,0.00000000000000e+00,5.50000000000000e-01,-1.71094704472212e-04,5.50000000000000e-01
6.50100000000000e-08,5.49999999999896e-02,5.50000000000000e-01,-5.76715178937995e-05,5.50000000000000e-01
6.50300000000000e-08,1.64999999999969e-01,5.50000000000000e-01,1.24787560988167e-04,5.50000000000000e-01
6.50700000000000e-08,3.84999999999927e-01,5.50000000000000e-01,2.68888793753592e-04,5.50000000000000e-01
6.51000000000000e-08,5.49999999999969e-01,5.50000000000000e-01,-1.73050906541170e-04,5.50000000000000e-01
6.51080000000000e-08,5.50000000000000e-01,5.50000000000000e-01,-5.61745572379618e-04,5.50000000000000e-01
6.51240000000000e-08,5.50000000000000e-01,5.50000000000000e-01,-1.46989265819728e-03,5.50000000000000e-01
6.51560000000000e-08,5.50000000000000e-01,5.50000000000000e-01,-3.25223611648055e-03,5.50000000000000e-01
6.52200000000000e-08,5.50000000000000e-01,5.50000000000000e-01,-5.41499592047156e-03,5.50000000000000e-01
6.53480000000000e-08,5.50000000000000e-01,5.50000000000000e-01,2.11614542562698e-02,5.50000000000000e-01
6.56040000000000e-08,5.50000000000000e-01,5.50000000000000e-01,3.06418165867941e-01,5.50000000000000e-01
6.61159999999999e-08,5.50000000000000e-01,5.50000000000000e-01,5.70152875273478e-01,5.50000000000000e-01
6.68712719193933e-08,5.50000000000000e-01,5.50000000000000e-01,5.34451852003789e-01,5.50000000000000e-01
6.81721180422390e-08,5.50000000000000e-01,5.50000000000000e-01,5.65140447318492e-01,5.50000000000000e-01
6.99732376851777e-08,5.50000000000000e-01,5.50000000000000e-01,5.36305124981547e-01,5.50000000000000e-01
7.31292308057942e-08,5.50000000000000e-01,5.50000000000000e-01,5.63567060440910e-01,5.50000000000000e-01
7.51000000000000e-08,5.50000000000000e-01,5.50000000000000e-01,5.37483152771732e-01,5.50000000000000e-01
7.51100000000000e-08,4.95000000000056e-01,5.50000000000000e-01,5.40330414833016e-01,5.50000000000000e-01
7.51300000000000e-08,3.85000000000077e-01,5.50000000000000e-01,5.44719137246263e-01,5.50000000000000e-01
7.51700000000000e-08,1.65000000000118e-01,5.50000000000000e-01,5.48813946030674e-01,5.50000000000000e-01
7.52000000000000e-08,7.69384556065233e-14,5.50000000000000e-01,5.50541202440013e-01,5.50000000000000e-01
7.52080000000000e-08,0.00000000000000e+00,5.50000000000000e-01,5.50987821023570e-01,5.50000000000000e-01
7.52240000000000e-08,0.00000000000000e+00,5.50000000000000e-01,5.51685006559569e-01,5.50000000000000e-01
7.52560000000000e-08,0.00000000000000e+00,5.50000000000000e-01,5.52341274741257e-01,5.50000000000000e-01
7.53200000000000e-08,0.00000000000000e+00,5.50000000000000e-01,5.51921749876468e-01,5.50000000000000e-01
7.54480000000000e-08,0.00000000000000e+00,5.50000000000000e-01,5.42848118031196e-01,5.50000000000000e-01
7.57040000000000e-08,0.00000000000000e+00,5.50000000000000e-01,5.27650755509517e-01,5.50000000000000e-01
7.62159999999999e-08,0.00000000000000e+00,5.50000000000000e-01,5.44805544453773e-01,5.50000000000000e-01
7.72399999999999e-08,0.00000000000000e+00,5.50000000000000e-01,5.52481515425728e-01,5.50000000000000e-01
7.85416586633950e-08,0.00000000000000e+00,5.50000000000000e-01,5.47385236378000e-01,5.50000000000000e-01
8.11449759901854e-08,0.00000000000000e+00,5.50000000000000e-01,5.51733633953049e-01,5.50000000000000e-01
8.49449759901854e-08,0.00000000000000e+00,5.50000000000000e-01,5.47998555284581e-01,5.50000000000000e-01
8.50000000000000e-08,0.00000000000000e+00,5.50000000000000e-01,5.48935013276056e-01,5.50000000000000e-01
8.50100000000000e-08,5.49999999999896e-02,5.50000000000000e-01,5.48945060094184e-01,4.95000000000010e-01
8.50300000000000e-08,1.64999999999969e-01,5.50000000000000e-01,5.48965837922254e-01,3.85000000000031e-01
8.50700000000000e-08,3.84999999999927e-01,5.50000000000000e-01,5.49527015525233e-01,1.65000000000073e-01
8.51000000000000e-08,5.49999999999969e-01,5.50000000000000e-01,5.51734955387315e-01,3.15303338993544e-14
8.51080000000000e-08,5.50000000000000e-01,5.50000000000000e-01,5.52656718122028e-01,0.00000000000000e+00
8.51240000000000e-08,5.50000000000000e-01,5.50000000000000e-01,5.54233997616073e-01,0.00000000000000e+00
8.51560000000000e-08,5.50000000000000e-01,5.50000000000000e-01,5.56578215152485e-01,0.00000000000000e+00
8.52200000000000e-08,5.50000000000000e-01,5.50000000000000e-01,5.60681299363294e-01,0.00000000000000e+00
8.53480000000000e-08,5.50000000000000e-01,5.50000000000000e-01,5.67640227393983e-01,0.00000000000000e+00
8.56040000000000e-08,5.50000000000000e-01,5.50000000000000e-01,2.14660485954766e-01,0.00000000000000e+00
8.61159999999999e-08,5.50000000000000e-01,5.50000000000000e-01,-5.74618677684808e-02,0.00000000000000e+00
8.66664053474550e-08,5.50000000000000e-01,5.50000000000000e-01,5.00137283725976e-02,0.00000000000000e+00
8.77672160423650e-08,5.50000000000000e-01,5.50000000000000e-01,-3.64362678943472e-02,0.00000000000000e+00
8.90169467957247e-08,5.50000000000000e-01,5.50000000000000e-01,3.57872372169067e-02,0.00000000000000e+00
9.01000000000000e-08,5.50000000000000e-01,5.49999999999969e-01,-2.73768101439667e-02,0.00000000000000e+00
9.03499461506719e-08,5.50000000000000e-01,5.50000000000000e-01,-3.84569111666092e-03,0.00000000000000e+00
9.08498384520158e-08,5.50000000000000e-01,5.50000000000000e-01,2.74451411420143e-03,0.00000000000000e+00
9.18496230547036e-08,5.50000000000000e-01,5.50000000000000e-01,-2.28792782776770e-03,0.00000000000000e+00
9.38491922600791e-08,5.50000000000000e-01,5.50000000000000e-01,2.11558806875642e-03,0.00000000000000e+00
9.51000000000000e-08,5.50000000000000e-01,5.50000000000000e-01,-1.83074131359684e-03,0.00000000000000e+00
9.51100000000000e-08,4.95000000000056e-01,5.50000000000000e-01,-1.30431511080201e-03,5.49999999999441e-02
9.51300000000000e-08,3.85000000000077e-01,5.50000000000000e-01,-5.36658858918043e-04,1.64999999999923e-01
9.51700000000000e-08,1.65000000000118e-01,5.50000000000000e-01,-6.12132748206567e-05,3.84999999999882e-01
9.52000000000000e-08,7.69384556065233e-14,5.50000000000000e-01,-6.22870530311917e-05,5.49999999999923e-01
9.52080000000000e-08,0.00000000000000e+00,5.50000000000000e-01,-8.47210898616557e-05,5.50000000000000e-01
9.52240000000000e-08,0.00000000000000e+00,5.50000000000000e-01,-1.07236072951405e-04,5.50000000000000e-01
9.52560000000000e-08,0.00000000000000e+00,5.50000000000000e-01,-9.13292098943044e-05,5.50000000000000e-01
9.53200000000000e-08,0.00000000000000e+00,5.50000000000000e-01,-4.37000565804424e-05,5.50000000000000e-01
9.54480000000000e-08,0.00000000000000e+00,5.50000000000000e-01,-3.67703933899653e-04,5.50000000000000e-01
9.57040000000000e-08,0.00000000000000e+00,5.50000000000000e-01,-3.52802259541709e-04,5.50000000000000e-01
9.62159999999999e-08,0.00000000000000e+00,5.50000000000000e-01,2.41676120593399e-04,5.50000000000000e-01
9.69949677081972e-08,0.00000000000000e+00,5.50000000000000e-01,-2.59132093706976e-04,5.50000000000000e-01
9.81306038529385e-08,0.00000000000000e+00,5.50000000000000e-01,2.43899269250750e-04,5.50000000000000e-01
9.99269831640746e-08,0.00000000000000e+00,5.50000000000000e-01,-2.11473646516917e-04,5.50000000000000e-01
1.02581477315413e-07,0.00000000000000e+00,5.50000000000000e-01,1.93286130326944e-04,5.50000000000000e-01
1.05000000000000e-07,0.00000000000000e+00,5.50000000000000e-01,-1.71091377581218e-04,5.50000000000000e-01
1.05010000000000e-07,5.49999999999896e-02,5.50000000000000e-01,-5.76666475800777e-05,5.50000000000000e-01
1.05030000000000e-07,1.64999999999969e-01,5.50000000000000e-01,1.24793297860901e-04,5.50000000000000e-01
1.05070000000000e-07,3.84999999999927e-01,5.50000000000000e-01,2.68892428109360e-04,5.50000000000000e-01
1.05100000000000e-07,5.49999999999969e-01,5.50000000000000e-01,-1.73048171173376e-04,5.50000000000000e-01
1.05108000000000e-07,5.50000000000000e-01,5.50000000000000e-01,-5.61742940071441e-04,5.50000000000000e-01
1.05124000000000e-07,5.50000000000000e-01,5.50000000000000e-01,-1.46989030350204e-03,5.50000000000000e-01
1.05156000000000e-07,5.50000000000000e-01,5.50000000000000e-01,-3.25223458278191e-03,5.50000000000000e-01
1.05220000000000e-07,5.50000000000000e-01,5.50000000000000e-01,-5.41499544222477e-03,5.50000000000000e-01
1.05348000000000e-07,5.50000000000000e-01,5.50000000000000e-01,2.11614438327404e-02,5.50000000000000e-01
1.05604000000000e-07,5.50000000000000e-01,5.50000000000000e-01,3.06418137911225e-01,5.50000000000000e-01
1.06116000000000e-07,5.50000000000000e-01,5.50000000000000e-01,5.70152873089665e-01,5.50000000000000e-01
1.06871271940826e-07,5.50000000000000e-01,5.50000000000000e-01,5.34451854126829e-01,5.50000000000000e-01
1.08172117999269e-07,5.50000000000000e-01,5.50000000000000e-01,5.65140445751964e-01,5.50000000000000e-01
1.09973237661337e-07,5.50000000000000e-01,5.50000000000000e-01,5.36305126662531e-01,5.50000000000000e-01
1.13129230451098e-07,5.50000000000000e-01,5.50000000000000e-01,5.63567059048479e-01,5.50000000000000e-01
1.15100000000000e-07,5.50000000000000e-01,5.50000000000000e-01,5.37483154108778e-01,5.50000000000000e-01
1.15110000000000e-07,4.95000000000056e-01,5.50000000000000e-01,5.40330415920871e-01,5.50000000000000e-01
1.15130000000000e-07,3.85000000000077e-01,5.50000000000000e-01,5.44719137955512e-01,5.50000000000000e-01
1.15170000000000e-07,1.65000000000118e-01,5.50000000000000e-01,5.48813946307366e-01,5.50000000000000e-01
1.15200000000000e-07,7.69384556065233e-14,5.50000000000000e-01,5.50541202599232e-01,5.50000000000000e-01
1.15208000000000e-07,0.00000000000000e+00,5.50000000000000e-01,5.50987821161681e-01,5.50000000000000e-01
1.15224000000000e-07,0.00000000000000e+00,5.50000000000000e-01,5.51685006662920e-01,5.50000000000000e-01
