Time,v(clk),v(data),v(out),v(reset)
1.00000000000000e-08,5.50000000000000e-01,0.00000000000000e+00,-1.20039920893482e-06,0.00000000000000e+00
1.00100000000000e-08,5.50000000000000e-01,5.49999999999987e-02,-1.01718286698443e-06,0.00000000000000e+00
1.00300000000000e-08,5.50000000000000e-01,1.64999999999996e-01,-8.51350959764352e-07,0.00000000000000e+00
1.00700000000000e-08,5.50000000000000e-01,3.84999999999991e-01,-7.83001420520679e-07,0.00000000000000e+00
1.01000000000000e-08,5.50000000000000e-01,5.49999999999996e-01,-8.56908290679248e-07,0.00000000000000e+00
1.01080000000000e-08,5.50000000000000e-01,5.50000000000000e-01,-6.47304347102529e-07,0.00000000000000e+00
1.01240000000000e-08,5.50000000000000e-01,5.50000000000000e-01,1.38562996146452e-07,0.00000000000000e+00
1.01560000000000e-08,5.50000000000000e-01,5.50000000000000e-01,1.70742450852218e-06,0.00000000000000e+00
1.02200000000000e-08,5.50000000000000e-01,5.50000000000000e-01,2.62049617787141e-06,0.00000000000000e+00
1.03480000000000e-08,5.50000000000000e-01,5.50000000000000e-01,3.16372687108463e-06,0.00000000000000e+00
1.06040000000000e-08,5.50000000000000e-01,5.50000000000000e-01,3.11652079035968e-06,0.00000000000000e+00
1.11160000000000e-08,5.50000000000000e-01,5.50000000000000e-01,3.26360640100568e-06,0.00000000000000e+00
1.21400000000000e-08,5.50000000000000e-01,5.50000000000000e-01,3.01862951494411e-06,0.00000000000000e+00
1.41880000000000e-08,5.50000000000000e-01,5.50000000000000e-01,2.82783484564439e-06,0.00000000000000e+00
1.51000000000000e-08,5.50000000000000e-01,5.50000000000000e-01,2.67675020572747e-06,0.00000000000000e+00
1.51100000000000e-08,4.94999999999992e-01,5.50000000000000e-01,1.67430065194200e-04,5.50000000000078e-02
1.51300000000000e-08,3.84999999999995e-01,5.50000000000000e-01,3.42006852853786e-04,1.65000000000005e-01
1.51700000000000e-08,1.65000000000000e-01,5.50000000000000e-01,2.33684314111096e-04,3.85000000000000e-01
1.52000000000000e-08,0.00000000000000e+00,5.50000000000000e-01,1.92090379721246e-04,5.50000000000000e-01
1.52080000000000e-08,0.00000000000000e+00,5.50000000000000e-01,1.89073788109881e-04,5.50000000000000e-01
1.52240000000000e-08,0.00000000000000e+00,5.50000000000000e-01,1.83672878236972e-04,5.50000000000000e-01
1.52560000000000e-08,0.00000000000000e+00,5.50000000000000e-01,1.79261055577959e-04,5.50000000000000e-01
1.53200000000000e-08,0.00000000000000e+00,5.50000000000000e-01,9.38572233417714e-05,5.50000000000000e-01
1.54480000000000e-08,0.00000000000000e+00,5.50000000000000e-01,-1.82699388750492e-04,5.50000000000000e-01
1.57040000000000e-08,0.00000000000000e+00,5.50000000000000e-01,-3.16150978317414e-05,5.50000000000000e-01
1.61459210488114e-08,0.00000000000000e+00,5.50000000000000e-01,-4.40528313311941e-05,5.50000000000000e-01
1.68530616342639e-08,0.00000000000000e+00,5.50000000000000e-01,1.18281408232387e-05,5.50000000000000e-01
1.78458373438988e-08,0.00000000000000e+00,5.50000000000000e-01,7.76702657416875e-05,5.50000000000000e-01
1.96649708037622e-08,0.00000000000000e+00,5.50000000000000e-01,-1.03031976308906e-04,5.50000000000000e-01
2.25255701899916e-08,0.00000000000000e+00,5.50000000000000e-01,1.16499975424392e-04,5.50000000000000e-01
2.50000000000000e-08,0.00000000000000e+00,5.50000000000000e-01,-1.23897164589320e-04,5.50000000000000e-01
2.50100000000000e-08,5.49999999999896e-02,5.50000000000000e-01,1.52601318902795e-06,5.50000000000000e-01
2.50300000000000e-08,1.65000000000005e-01,5.50000000000000e-01,2.11788006127180e-04,5.50000000000000e-01
2.50700000000000e-08,3.85000000000000e-01,5.50000000000000e-01,4.55229285825060e-04,5.50000000000000e-01
2.51000000000000e-08,5.50000000000000e-01,5.50000000000000e-01,4.54030814817492e-04,5.50000000000000e-01
2.51080000000000e-08,5.50000000000000e-01,5.50000000000000e-01,3.66715332343628e-04,5.50000000000000e-01
2.51240000000000e-08,5.50000000000000e-01,5.50000000000000e-01,1.46829154758193e-04,5.50000000000000e-01
2.51560000000000e-08,5.50000000000000e-01,5.50000000000000e-01,-5.77729056463624e-04,5.50000000000000e-01
2.52200000000000e-08,5.50000000000000e-01,5.50000000000000e-01,-2.38194205112686e-03,5.50000000000000e-01
2.53480000000000e-08,5.50000000000000e-01,5.50000000000000e-01,-4.76549815511369e-03,5.50000000000000e-01
2.56040000000000e-08,5.50000000000000e-01,5.50000000000000e-01,6.87849194581917e-02,5.50000000000000e-01
2.61160000000000e-08,5.50000000000000e-01,5.50000000000000e-01,5.10866434688710e-01,5.50000000000000e-01
2.71400000000000e-08,5.50000000000000e-01,5.50000000000000e-01,5.61715694840928e-01,5.50000000000000e-01
2.82695786781788e-08,5.50000000000000e-01,5.50000000000000e-01,5.37280953505241e-01,5.50000000000000e-01
3.04053585416930e-08,5.50000000000000e-01,5.50000000000000e-01,5.61049248780425e-01,5.50000000000000e-01
3.34588155706846e-08,5.50000000000000e-01,5.50000000000000e-01,5.38135955839693e-01,5.50000000000000e-01
3.51000000000000e-08,5.49999999999973e-01,5.50000000000000e-01,5.60505116265439e-01,5.50000000000000e-01
3.51100000000000e-08,4.94999999999983e-01,5.50000000000000e-01,5.56137097699770e-01,5.50000000000000e-01
3.51300000000000e-08,3.84999999999968e-01,5.50000000000000e-01,5.50996951926651e-01,5.50000000000000e-01
3.51700000000000e-08,1.64999999999973e-01,5.50000000000000e-01,5.50111131428132e-01,5.50000000000000e-01
3.52000000000000e-08,0.00000000000000e+00,5.50000000000000e-01,5.51770938090788e-01,5.50000000000000e-01
3.52080000000000e-08,0.00000000000000e+00,5.50000000000000e-01,5.52211348887341e-01,5.50000000000000e-01
3.52240000000000e-08,0.00000000000000e+00,5.50000000000000e-01,5.52794540325449e-01,5.50000000000000e-01
3.52560000000000e-08,0.00000000000000e+00,5.50000000000000e-01,5.52743872604175e-01,5.50000000000000e-01
3.53200000000000e-08,0.00000000000000e+00,5.50000000000000e-01,5.45691416145513e-01,5.50000000000000e-01
3.54480000000000e-08,0.00000000000000e+00,5.50000000000000e-01,5.33483776492389e-01,5.50000000000000e-01
3.57040000000000e-08,0.00000000000000e+00,5.50000000000000e-01,5.46901492822061e-01,5.50000000000000e-01
3.62160000000000e-08,0.00000000000000e+00,5.50000000000000e-01,5.51374894807203e-01,5.50000000000000e-01
3.69055117329779e-08,0.00000000000000e+00,5.50000000000000e-01,5.48319327120147e-01,5.50000000000000e-01
3.82845351989337e-08,0.00000000000000e+00,5.50000000000000e-01,5.51158521627567e-01,5.50000000000000e-01
4.10425821308454e-08,0.00000000000000e+00,5.50000000000000e-01,5.48690184401946e-01,5.50000000000000e-01
4.48425821308454e-08,0.00000000000000e+00,5.50000000000000e-01,5.51139811467262e-01,5.50000000000000e-01
4.50000000000000e-08,0.00000000000000e+00,5.50000000000000e-01,5.49431357113030e-01,5.50000000000000e-01
4.50100000000000e-08,5.49999999999896e-02,5.50000000000000e-01,5.49489723259141e-01,4.95000000000010e-01
4.50300000000000e-08,1.65000000000005e-01,5.50000000000000e-01,5.49565197910394e-01,3.84999999999995e-01
4.50700000000000e-08,3.85000000000000e-01,5.50000000000000e-01,5.50694530129553e-01,1.65000000000000e-01
4.51000000000000e-08,5.50000000000000e-01,5.50000000000000e-01,5.55154254554234e-01,0.00000000000000e+00
4.51080000000000e-08,5.50000000000000e-01,5.50000000000000e-01,5.56898372529588e-01,0.00000000000000e+00
4.51240000000000e-08,5.50000000000000e-01,5.50000000000000e-01,5.60048039069930e-01,0.00000000000000e+00
4.51560000000000e-08,5.50000000000000e-01,5.50000000000000e-01,5.66448961943475e-01,0.00000000000000e+00
4.52200000000000e-08,5.50000000000000e-01,5.50000000000000e-01,5.79617237649084e-01,0.00000000000000e+00
4.53480000000000e-08,5.50000000000000e-01,5.50000000000000e-01,4.92426060472322e-01,0.00000000000000e+00
4.56040000000000e-08,5.50000000000000e-01,5.50000000000000e-01,1.17959412770657e-01,0.00000000000000e+00
4.60192851835277e-08,5.50000000000000e-01,5.50000000000000e-01,-2.84344017962186e-02,0.00000000000000e+00
4.67229769525414e-08,5.50000000000000e-01,5.50000000000000e-01,1.94809362857248e-02,0.00000000000000e+00
4.79185115883608e-08,5.50000000000000e-01,5.50000000000000e-01,-1.40538577328065e-02,0.00000000000000e+00
4.98162789482679e-08,5.50000000000000e-01,5.50000000000000e-01,1.26793524703590e-02,0.00000000000000e+00
5.01000000000000e-08,5.50000000000000e-01,5.49999999999969e-01,-4.41035309087306e-03,0.00000000000000e+00
5.04162900718392e-08,5.50000000000000e-01,5.50000000000000e-01,-4.65827397495162e-04,0.00000000000000e+00
5.10488702155176e-08,5.50000000000000e-01,5.50000000000000e-01,2.92068889015758e-04,0.00000000000000e+00
5.23140305028745e-08,5.50000000000000e-01,5.50000000000000e-01,-2.53991619407471e-04,0.00000000000000e+00
5.48443510775883e-08,5.50000000000000e-01,5.50000000000000e-01,2.30412609132775e-04,0.00000000000000e+00
5.51000000000000e-08,5.50000000000000e-01,5.50000000000000e-01,-9.04230668599439e-05,0.00000000000000e+00
5.51100000000000e-08,4.95000000000020e-01,5.50000000000000e-01,1.12184307411542e-04,5.49999999999805e-02
5.51300000000000e-08,3.85000000000004e-01,5.50000000000000e-01,3.23773057101170e-04,1.64999999999996e-01
5.51700000000000e-08,1.65000000000009e-01,5.50000000000000e-01,2.23517600903306e-04,3.84999999999991e-01
5.52000000000000e-08,0.00000000000000e+00,5.50000000000000e-01,1.79369411494976e-04,5.50000000000000e-01
5.52080000000000e-08,0.00000000000000e+00,5.50000000000000e-01,1.75167318309043e-04,5.50000000000000e-01
5.52240000000000e-08,0.00000000000000e+00,5.50000000000000e-01,1.67329400483932e-04,5.50000000000000e-01
5.52560000000000e-08,0.00000000000000e+00,5.50000000000000e-01,1.46896078784021e-04,5.50000000000000e-01
5.53200000000000e-08,0.00000000000000e+00,5.50000000000000e-01,-2.61829717543093e-04,5.50000000000000e-01
5.54480000000000e-08,0.00000000000000e+00,5.50000000000000e-01,-1.00819358783669e-03,5.50000000000000e-01
5.57040000000000e-08,0.00000000000000e+00,5.50000000000000e-01,-1.64687562551526e-04,5.50000000000000e-01
5.61238104704250e-08,0.00000000000000e+00,5.50000000000000e-01,2.01441612862067e-04,5.50000000000000e-01
5.68408270236862e-08,0.00000000000000e+00,5.50000000000000e-01,-2.44941566156632e-04,5.50000000000000e-01
5.77904601258256e-08,0.00000000000000e+00,5.50000000000000e-01,2.43323469178613e-04,5.50000000000000e-01
5.96034671941623e-08,0.00000000000000e+00,5.50000000000000e-01,-2.27223429109586e-04,5.50000000000000e-01
6.23107778546869e-08,0.00000000000000e+00,5.50000000000000e-01,2.19015106406702e-04,5.50000000000000e-01
6.50000000000000e-08,0.00000000000000e+00,5.50000000000000e-01,-2.05756764454244e-04,5.50000000000000e-01
6.50100000000000e-08,5.49999999999896e-02,5.50000000000000e-01,-7.89661001150341e-05,5.50000000000000e-01
6.50300000000000e-08,1.64999999999969e-01,5.50000000000000e-01,1.39144259584528e-04,5.50000000000000e-01
6.50700000000000e-08,3.84999999999927e-01,5.50000000000000e-01,4.08066402878417e-04,5.50000000000000e-01
6.51000000000000e-08,5.49999999999969e-01,5.50000000000000e-01,4.15115682585225e-04,5.50000000000000e-01
6.51080000000000e-08,5.50000000000000e-01,5.50000000000000e-01,3.23076810209717e-04,5.50000000000000e-01
6.51240000000000e-08,5.50000000000000e-01,5.50000000000000e-01,8.70723298753220e-05,5.50000000000000e-01
6.51560000000000e-08,5.50000000000000e-01,5.50000000000000e-01,-6.72189757326330e-04,5.50000000000000e-01
6.52200000000000e-08,5.50000000000000e-01,5.50000000000000e-01,-2.47550279197915e-03,5.50000000000000e-01
6.53480000000000e-08,5.50000000000000e-01,5.50000000000000e-01,-4.78822823161913e-03,5.50000000000000e-01
6.56040000000000e-08,5.50000000000000e-01,5.50000000000000e-01,7.07867360705537e-02,5.50000000000000e-01
6.61159999999999e-08,5.50000000000000e-01,5.50000000000000e-01,5.11691487975495e-01,5.50000000000000e-01
6.71399999999999e-08,5.50000000000000e-01,5.50000000000000e-01,5.61518557807584e-01,5.50000000000000e-01
6.82747848470504e-08,5.50000000000000e-01,5.50000000000000e-01,5.37492710237002e-01,5.50000000000000e-01
7.04055322397426e-08,5.50000000000000e-01,5.50000000000000e-01,5.60863824892711e-01,5.50000000000000e-01
7.34608693042955e-08,5.50000000000000e-01,5.50000000000000e-01,5.38338140370359e-01,5.50000000000000e-01
7.51000000000000e-08,5.50000000000000e-01,5.50000000000000e-01,5.60328313318440e-01,5.50000000000000e-01
7.51100000000000e-08,4.95000000000056e-01,5.50000000000000e-01,5.56034388448557e-01,5.50000000000000e-01
7.51300000000000e-08,3.85000000000077e-01,5.50000000000000e-01,5.50980731869680e-01,5.50000000000000e-01
7.51700000000000e-08,1.65000000000118e-01,5.50000000000000e-01,5.50114742379472e-01,5.50000000000000e-01
7.52000000000000e-08,7.69384556065233e-14,5.50000000000000e-01,5.51771286243711e-01,5.50000000000000e-01
7.52080000000000e-08,0.00000000000000e+00,5.50000000000000e-01,5.52211860273587e-01,5.50000000000000e-01
7.52240000000000e-08,0.00000000000000e+00,5.50000000000000e-01,5.52795160917617e-01,5.50000000000000e-01
7.52560000000000e-08,0.00000000000000e+00,5.50000000000000e-01,5.52746745161604e-01,5.50000000000000e-01
7.53200000000000e-08,0.00000000000000e+00,5.50000000000000e-01,5.45702961605152e-01,5.50000000000000e-01
7.54480000000000e-08,0.00000000000000e+00,5.50000000000000e-01,5.33492579739608e-01,5.50000000000000e-01
7.57040000000000e-08,0.00000000000000e+00,5.50000000000000e-01,5.46897426179009e-01,5.50000000000000e-01
7.62159999999999e-08,0.00000000000000e+00,5.50000000000000e-01,5.51378229010226e-01,5.50000000000000e-01
7.69055246030812e-08,0.00000000000000e+00,5.50000000000000e-01,5.48316430358487e-01,5.50000000000000e-01
7.82845738092438e-08,0.00000000000000e+00,5.50000000000000e-01,5.51161208554893e-01,5.50000000000000e-01
8.10426722215690e-08,0.00000000000000e+00,5.50000000000000e-01,5.48687586220121e-01,5.50000000000000e-01
8.48426722215690e-08,0.00000000000000e+00,5.50000000000000e-01,5.51142326502280e-01,5.50000000000000e-01
8.50000000000000e-08,0.00000000000000e+00,5.50000000000000e-01,5.49430374534324e-01,5.50000000000000e-01
8.50100000000000e-08,5.49999999999896e-02,5.50000000000000e-01,5.49489043676621e-01,4.95000000000010e-01
8.50300000000000e-08,1.64999999999969e-01,5.50000000000000e-01,5.49564880822925e-01,3.85000000000031e-01
8.50700000000000e-08,3.84999999999927e-01,5.50000000000000e-01,5.50694457894459e-01,1.65000000000073e-01
8.51000000000000e-08,5.49999999999969e-01,5.50000000000000e-01,5.55154257457803e-01,3.15303338993544e-14
8.51080000000000e-08,5.50000000000000e-01,5.50000000000000e-01,5.56898375350849e-01,0.00000000000000e+00
8.51240000000000e-08,5.50000000000000e-01,5.50000000000000e-01,5.60048044292039e-01,0.00000000000000e+00
8.51560000000000e-08,5.50000000000000e-01,5.50000000000000e-01,5.66448980492887e-01,0.00000000000000e+00
8.52200000000000e-08,5.50000000000000e-01,5.50000000000000e-01,5.79617274551504e-01,0.00000000000000e+00
8.53480000000000e-08,5.50000000000000e-01,5.50000000000000e-01,4.92426286651217e-01,0.00000000000000e+00
8.56040000000000e-08,5.50000000000000e-01,5.50000000000000e-01,1.17959700953196e-01,0.00000000000000e+00
8.60194424996376e-08,5.50000000000000e-01,5.50000000000000e-01,-2.84495675918576e-02,0.00000000000000e+00
8.67230693511418e-08,5.50000000000000e-01,5.50000000000000e-01,1.94906783880043e-02,0.00000000000000e+00
8.79187723343447e-08,5.50000000000000e-01,5.50000000000000e-01,-1.40607181218804e-02,0.00000000000000e+00
8.98166090740925e-08,5.50000000000000e-01,5.50000000000000e-01,1.26856214158157e-02,0.00000000000000e+00
9.01000000000000e-08,5.50000000000000e-01,5.49999999999969e-01,-4.40599726284572e-03,0.00000000000000e+00
9.04164045264141e-08,5.50000000000000e-01,5.50000000000000e-01,-4.64767110180333e-04,0.00000000000000e+00
9.10492135792423e-08,5.50000000000000e-01,5.50000000000000e-01,2.91519962164784e-04,0.00000000000000e+00
9.23148316848987e-08,5.50000000000000e-01,5.50000000000000e-01,-2.53569511098749e-04,0.00000000000000e+00
9.48460678962115e-08,5.50000000000000e-01,5.50000000000000e-01,2.30055227666316e-04,0.00000000000000e+00
9.51000000000000e-08,5.50000000000000e-01,5.50000000000000e-01,-8.97720086500547e-05,0.00000000000000e+00
9.51100000000000e-08,4.95000000000056e-01,5.50000000000000e-01,1.12733206622834e-04,5.49999999999441e-02
9.51300000000000e-08,3.85000000000077e-01,5.50000000000000e-01,3.24167180558617e-04,1.64999999999923e-01
9.51700000000000e-08,1.65000000000118e-01,5.50000000000000e-01,2.23768366545897e-04,3.84999999999882e-01
9.52000000000000e-08,7.69384556065233e-14,5.50000000000000e-01,1.79550650366400e-04,5.49999999999923e-01
9.52080000000000e-08,0.00000000000000e+00,5.50000000000000e-01,1.75333990804515e-04,5.50000000000000e-01
9.52240000000000e-08,0.00000000000000e+00,5.50000000000000e-01,1.67469402881419e-04,5.50000000000000e-01
9.52560000000000e-08,0.00000000000000e+00,5.50000000000000e-01,1.46994542400199e-04,5.50000000000000e-01
9.53200000000000e-08,0.00000000000000e+00,5.50000000000000e-01,-2.61780112046021e-04,5.50000000000000e-01
9.54480000000000e-08,0.00000000000000e+00,5.50000000000000e-01,-1.00817573646272e-03,5.50000000000000e-01
9.57040000000000e-08,0.00000000000000e+00,5.50000000000000e-01,-1.64685317095896e-04,5.50000000000000e-01
9.61238223305256e-08,0.00000000000000e+00,5.50000000000000e-01,2.01435402958496e-04,5.50000000000000e-01
9.68408333943668e-08,0.00000000000000e+00,5.50000000000000e-01,-2.44934109832992e-04,5.50000000000000e-01
9.77904894543994e-08,0.00000000000000e+00,5.50000000000000e-01,2.43317746720711e-04,5.50000000000000e-01
9.96034954898013e-08,0.00000000000000e+00,5.50000000000000e-01,-2.27218996165058e-04,5.50000000000000e-01
1.02310894192834e-07,0.00000000000000e+00,5.50000000000000e-01,2.19011628016612e-04,5.50000000000000e-01
1.05000000000000e-07,0.00000000000000e+00,5.50000000000000e-01,-2.05753433486237e-04,5.50000000000000e-01
1.05010000000000e-07,5.49999999999896e-02,5.50000000000000e-01,-7.89625361976368e-05,5.50000000000000e-01
1.05030000000000e-07,1.64999999999969e-01,5.50000000000000e-01,1.39147808015182e-04,5.50000000000000e-01
1.05070000000000e-07,3.84999999999927e-01,5.50000000000000e-01,4.08069160291680e-04,5.50000000000000e-01
1.05100000000000e-07,5.49999999999969e-01,5.50000000000000e-01,4.15117695854124e-04,5.50000000000000e-01
1.05108000000000e-07,5.50000000000000e-01,5.50000000000000e-01,3.23078654314697e-04,5.50000000000000e-01
1.05124000000000e-07,5.50000000000000e-01,5.50000000000000e-01,8.70738474027868e-05,5.50000000000000e-01
1.05156000000000e-07,5.50000000000000e-01,5.50000000000000e-01,-6.72188757594540e-04,5.50000000000000e-01
1.05220000000000e-07,5.50000000000000e-01,5.50000000000000e-01,-2.47550235157264e-03,5.50000000000000e-01
1.05348000000000e-07,5.50000000000000e-01,5.50000000000000e-01,-4.78822814480933e-03,5.50000000000000e-01
1.05604000000000e-07,5.50000000000000e-01,5.50000000000000e-01,7.07867300916690e-02,5.50000000000000e-01
1.06116000000000e-07,5.50000000000000e-01,5.50000000000000e-01,5.11691485446006e-01,5.50000000000000e-01
1.07140000000000e-07,5.50000000000000e-01,5.50000000000000e-01,5.61518558413185e-01,5.50000000000000e-01
1.08274784831550e-07,5.50000000000000e-01,5.50000000000000e-01,5.37492709597111e-01,5.50000000000000e-01
1.10405532238112e-07,5.50000000000000e-01,5.50000000000000e-01,5.60863825463492e-01,5.50000000000000e-01
1.13460869297143e-07,5.50000000000000e-01,5.50000000000000e-01,5.38338139745730e-01,5.50000000000000e-01
1.15100000000000e-07,5.50000000000000e-01,5.50000000000000e-01,5.60328313862929e-01,5.50000000000000e-01
1.15110000000000e-07,4.95000000000056e-01,5.50000000000000e-01,5.56034388764955e-01,5.50000000000000e-01
1.15130000000000e-07,3.85000000000077e-01,5.50000000000000e-01,5.50980731921784e-01,5.50000000000000e-01
1.15170000000000e-07,1.65000000000118e-01,5.50000000000000e-01,5.50114742371526e-01,5.50000000000000e-01
1.15200000000000e-07,7.69384556065233e-14,5.50000000000000e-01,5.51771286242878e-01,5.50000000000000e-01
1.15208000000000e-07,0.00000000000000e+00,5.50000000000000e-01,5.52211860272289e-01,5.50000000000000e-01
1.15224000000000e-07,0.00000000000000e+00,5.50000000000000e-01,5.52795160923391e-01,5.50000000000000e-01
