Time,v(clk),v(data),v(out)
1.00000000000000e-08,5.50000000000000e-01,0.00000000000000e+00,3.12673929450773e-05
1.00100000000000e-08,5.50000000000000e-01,5.49999999999987e-02,3.01549238080276e-05
1.00300000000000e-08,5.50000000000000e-01,1.64999999999996e-01,2.82433705998189e-05
1.00700000000000e-08,5.50000000000000e-01,3.84999999999991e-01,2.58406702503960e-05
1.01000000000000e-08,5.50000000000000e-01,5.49999999999996e-01,2.26463035622321e-05
1.01080000000000e-08,5.50000000000000e-01,5.50000000000000e-01,2.21913601653745e-05
1.01240000000000e-08,5.50000000000000e-01,5.50000000000000e-01,2.10236386738311e-05
1.01560000000000e-08,5.50000000000000e-01,5.50000000000000e-01,2.16166251903807e-05
1.02200000000000e-08,5.50000000000000e-01,5.50000000000000e-01,2.38318489194297e-05
1.03480000000000e-08,5.50000000000000e-01,5.50000000000000e-01,2.71967443729870e-05
1.06040000000000e-08,5.50000000000000e-01,5.50000000000000e-01,2.52281400808969e-05
1.11160000000000e-08,5.50000000000000e-01,5.50000000000000e-01,2.34566797645032e-05
1.20682419888209e-08,5.50000000000000e-01,5.50000000000000e-01,2.43058445902333e-05
1.39727259664628e-08,5.50000000000000e-01,5.50000000000000e-01,2.26230797275087e-05
1.51000000000000e-08,5.50000000000000e-01,5.50000000000000e-01,2.32234688087168e-05
1.51100000000000e-08,4.94999999999992e-01,5.50000000000000e-01,-3.18962511072357e-05
1.51300000000000e-08,3.84999999999995e-01,5.50000000000000e-01,-1.28642041450688e-04
1.51700000000000e-08,1.65000000000000e-01,5.50000000000000e-01,-1.81323809639089e-04
1.52000000000000e-08,0.00000000000000e+00,5.50000000000000e-01,1.36840231752047e-05
1.52080000000000e-08,0.00000000000000e+00,5.50000000000000e-01,1.44784141866791e-04
1.52240000000000e-08,0.00000000000000e+00,5.50000000000000e-01,3.35331310125621e-04
1.52560000000000e-08,0.00000000000000e+00,5.50000000000000e-01,4.57644601586246e-04
1.53200000000000e-08,0.00000000000000e+00,5.50000000000000e-01,3.25422236540550e-04
1.54480000000000e-08,0.00000000000000e+00,5.50000000000000e-01,-1.59265043467395e-04
1.57040000000000e-08,0.00000000000000e+00,5.50000000000000e-01,-1.79841532992976e-04
1.62160000000000e-08,0.00000000000000e+00,5.50000000000000e-01,3.89379048429117e-05
1.69143909068719e-08,0.00000000000000e+00,5.50000000000000e-01,-3.99910947750659e-05
1.80994914966427e-08,0.00000000000000e+00,5.50000000000000e-01,1.59406302390110e-04
2.04696926761842e-08,0.00000000000000e+00,5.50000000000000e-01,-1.27799568169122e-04
2.30944347370781e-08,0.00000000000000e+00,5.50000000000000e-01,1.68413533454801e-04
2.50000000000000e-08,0.00000000000000e+00,5.50000000000000e-01,-1.24827271192111e-04
2.50100000000000e-08,5.49999999999896e-02,5.50000000000000e-01,-1.41435863453068e-05
2.50300000000000e-08,1.65000000000005e-01,5.50000000000000e-01,1.80948147491596e-04
2.50700000000000e-08,3.85000000000000e-01,5.50000000000000e-01,4.55183934698386e-04
2.51000000000000e-08,5.50000000000000e-01,5.50000000000000e-01,5.26056458959902e-04
2.51080000000000e-08,5.50000000000000e-01,5.50000000000000e-01,4.69690245330716e-04
2.51240000000000e-08,5.50000000000000e-01,5.50000000000000e-01,3.44962916868301e-04
2.51560000000000e-08,5.50000000000000e-01,5.50000000000000e-01,-5.87585154276232e-06
2.52200000000000e-08,5.50000000000000e-01,5.50000000000000e-01,-1.08702985800443e-03
2.53480000000000e-08,5.50000000000000e-01,5.50000000000000e-01,-3.23444327461875e-03
2.56040000000000e-08,5.50000000000000e-01,5.50000000000000e-01,2.44890007756549e-03
2.61160000000000e-08,5.50000000000000e-01,5.50000000000000e-01,3.74266992330023e-01
2.71400000000000e-08,5.50000000000000e-01,5.50000000000000e-01,5.67249072018621e-01
2.82938740815102e-08,5.50000000000000e-01,5.50000000000000e-01,5.36266103775061e-01
3.06016222445305e-08,5.50000000000000e-01,5.50000000000000e-01,5.63473603351302e-01
3.40645916330107e-08,5.50000000000000e-01,5.50000000000000e-01,5.36636375632580e-01
3.51000000000000e-08,5.49999999999973e-01,5.50000000000000e-01,5.62153466305467e-01
3.51100000000000e-08,4.94999999999983e-01,5.50000000000000e-01,5.57681989202423e-01
3.51300000000000e-08,3.84999999999968e-01,5.50000000000000e-01,5.51981307316240e-01
3.51700000000000e-08,1.64999999999973e-01,5.50000000000000e-01,5.50130110335647e-01
3.52000000000000e-08,0.00000000000000e+00,5.50000000000000e-01,5.51747538760033e-01
3.52080000000000e-08,0.00000000000000e+00,5.50000000000000e-01,5.52176514715013e-01
3.52240000000000e-08,0.00000000000000e+00,5.50000000000000e-01,5.52751370877311e-01
3.52560000000000e-08,0.00000000000000e+00,5.50000000000000e-01,5.52840088849342e-01
3.53200000000000e-08,0.00000000000000e+00,5.50000000000000e-01,5.48150065563691e-01
3.54480000000000e-08,0.00000000000000e+00,5.50000000000000e-01,5.34584819545610e-01
3.57040000000000e-08,0.00000000000000e+00,5.50000000000000e-01,5.42586085687769e-01
3.62160000000000e-08,0.00000000000000e+00,5.50000000000000e-01,5.52710510378065e-01
3.69155067624869e-08,0.00000000000000e+00,5.50000000000000e-01,5.46810229124946e-01
3.83145202874607e-08,0.00000000000000e+00,5.50000000000000e-01,5.52188960179984e-01
4.11125473374083e-08,0.00000000000000e+00,5.50000000000000e-01,5.47563318801314e-01
4.49125473374083e-08,0.00000000000000e+00,5.50000000000000e-01,5.52104987896199e-01
4.50000000000000e-08,0.00000000000000e+00,5.50000000000000e-01,5.49702287746957e-01
4.50100000000000e-08,5.49999999999896e-02,5.50000000000000e-01,5.49815200640971e-01
4.50300000000000e-08,1.65000000000005e-01,5.50000000000000e-01,5.49977461102813e-01
4.50700000000000e-08,3.85000000000000e-01,5.50000000000000e-01,5.50092180398751e-01
4.51000000000000e-08,5.50000000000000e-01,5.50000000000000e-01,5.50068213495742e-01
4.51080000000000e-08,5.50000000000000e-01,5.06000000000023e-01,5.50016950260922e-01
4.51240000000000e-08,5.50000000000000e-01,4.17999999999996e-01,5.49927379249339e-01
4.51560000000000e-08,5.50000000000000e-01,2.42000000000015e-01,5.49758217845333e-01
4.52000000000000e-08,5.50000000000000e-01,3.15303338993544e-14,5.49522161809990e-01
4.52064000000000e-08,5.50000000000000e-01,0.00000000000000e+00,5.49490512665930e-01
4.52192000000000e-08,5.50000000000000e-01,0.00000000000000e+00,5.49427229402008e-01
4.52448000000000e-08,5.50000000000000e-01,0.00000000000000e+00,5.49316112113897e-01
4.52960000000000e-08,5.50000000000000e-01,0.00000000000000e+00,5.49195723197286e-01
4.53984000000000e-08,5.50000000000000e-01,0.00000000000000e+00,5.49262551008629e-01
4.56032000000000e-08,5.50000000000000e-01,0.00000000000000e+00,5.49743032467190e-01
4.60128000000000e-08,5.50000000000000e-01,0.00000000000000e+00,5.50799576367972e-01
4.66178264974508e-08,5.50000000000000e-01,0.00000000000000e+00,5.53098793525077e-01
4.75200180269030e-08,5.50000000000000e-01,0.00000000000000e+00,1.45871284486538e-01
4.89664525333890e-08,5.50000000000000e-01,0.00000000000000e+00,-6.09131786151334e-02
5.08884965776684e-08,5.50000000000000e-01,0.00000000000000e+00,5.65707918714902e-02
5.38030611965381e-08,5.50000000000000e-01,0.00000000000000e+00,-3.86223546768728e-02
5.51000000000000e-08,5.50000000000000e-01,0.00000000000000e+00,2.88790928789184e-02
5.51100000000000e-08,4.95000000000020e-01,0.00000000000000e+00,2.63819367856711e-02
5.51300000000000e-08,3.85000000000004e-01,0.00000000000000e+00,2.22638321634849e-02
5.51700000000000e-08,1.65000000000009e-01,0.00000000000000e+00,1.66456375172720e-02
5.52000000000000e-08,0.00000000000000e+00,0.00000000000000e+00,1.37721603153218e-02
5.52080000000000e-08,0.00000000000000e+00,0.00000000000000e+00,1.31937649908267e-02
5.52240000000000e-08,0.00000000000000e+00,0.00000000000000e+00,1.20199448014392e-02
5.52560000000000e-08,0.00000000000000e+00,0.00000000000000e+00,9.78861438090131e-03
5.53200000000000e-08,0.00000000000000e+00,0.00000000000000e+00,5.94706114863675e-03
5.54480000000000e-08,0.00000000000000e+00,0.00000000000000e+00,7.21222008466908e-04
5.57040000000000e-08,0.00000000000000e+00,0.00000000000000e+00,-1.23674013035989e-03
5.62132520350141e-08,0.00000000000000e+00,0.00000000000000e+00,3.71068601064350e-04
5.69110235896190e-08,0.00000000000000e+00,0.00000000000000e+00,-9.37796708626662e-05
5.82129342990545e-08,0.00000000000000e+00,0.00000000000000e+00,1.03327595177919e-04
6.08167557179256e-08,0.00000000000000e+00,0.00000000000000e+00,-5.57361357130691e-05
6.46167557179256e-08,0.00000000000000e+00,0.00000000000000e+00,8.94243669745881e-05
6.50000000000000e-08,0.00000000000000e+00,0.00000000000000e+00,-2.48261894949878e-05
6.50100000000000e-08,5.49999999999896e-02,0.00000000000000e+00,8.01774945497283e-05
6.50300000000000e-08,1.64999999999969e-01,0.00000000000000e+00,2.29923079521459e-04
6.50700000000000e-08,3.84999999999927e-01,0.00000000000000e+00,3.04562303913680e-04
6.51000000000000e-08,5.49999999999969e-01,0.00000000000000e+00,2.22157871911682e-04
6.51080000000000e-08,5.50000000000000e-01,0.00000000000000e+00,1.47926895045586e-04
6.51240000000000e-08,5.50000000000000e-01,0.00000000000000e+00,2.39171608158104e-05
6.51560000000000e-08,5.50000000000000e-01,0.00000000000000e+00,-1.10748198680038e-04
6.52200000000000e-08,5.50000000000000e-01,0.00000000000000e+00,-1.62385083645043e-04
6.53480000000000e-08,5.50000000000000e-01,0.00000000000000e+00,-8.55737553080230e-05
6.56040000000000e-08,5.50000000000000e-01,0.00000000000000e+00,3.50859471340975e-07
6.61159999999999e-08,5.50000000000000e-01,0.00000000000000e+00,4.01880220970603e-05
6.71399999999999e-08,5.50000000000000e-01,0.00000000000000e+00,3.26453234925778e-05
6.91879999999998e-08,5.50000000000000e-01,0.00000000000000e+00,1.86001841979474e-05
7.23939649742603e-08,5.50000000000000e-01,0.00000000000000e+00,3.03713072897600e-05
7.51000000000000e-08,5.50000000000000e-01,0.00000000000000e+00,1.61345735506723e-05
7.51100000000000e-08,4.95000000000056e-01,0.00000000000000e+00,-3.74448799751459e-05
7.51300000000000e-08,3.85000000000077e-01,0.00000000000000e+00,-1.31275463274259e-04
7.51700000000000e-08,1.65000000000118e-01,0.00000000000000e+00,-1.81412769578594e-04
7.52000000000000e-08,7.69384556065233e-14,0.00000000000000e+00,1.46965068655788e-05
7.52080000000000e-08,0.00000000000000e+00,0.00000000000000e+00,1.46053818373439e-04
7.52240000000000e-08,0.00000000000000e+00,0.00000000000000e+00,3.37258841459617e-04
7.52560000000000e-08,0.00000000000000e+00,0.00000000000000e+00,4.60456551223468e-04
7.53200000000000e-08,0.00000000000000e+00,0.00000000000000e+00,3.26668625287609e-04
7.54480000000000e-08,0.00000000000000e+00,0.00000000000000e+00,-1.63031609337623e-04
7.57040000000000e-08,0.00000000000000e+00,0.00000000000000e+00,-1.81325242729981e-04
7.62159999999999e-08,0.00000000000000e+00,0.00000000000000e+00,1.07271343746392e-04
7.69157767072764e-08,0.00000000000000e+00,0.00000000000000e+00,-3.25508792876628e-05
7.83153301218295e-08,0.00000000000000e+00,0.00000000000000e+00,5.99455224740732e-05
8.11144369509355e-08,0.00000000000000e+00,0.00000000000000e+00,-1.61968816570282e-05
8.49144369509355e-08,0.00000000000000e+00,0.00000000000000e+00,5.20778107983466e-05
8.50000000000000e-08,0.00000000000000e+00,0.00000000000000e+00,3.05049044173403e-05
8.50100000000000e-08,5.49999999999896e-02,0.00000000000000e+00,1.14213010663312e-04
8.50300000000000e-08,1.64999999999969e-01,0.00000000000000e+00,2.39073287788903e-04
8.50700000000000e-08,3.84999999999927e-01,0.00000000000000e+00,3.06161653667723e-04
8.51000000000000e-08,5.49999999999969e-01,0.00000000000000e+00,2.24091013492807e-04
8.51080000000000e-08,5.50000000000000e-01,0.00000000000000e+00,1.49803154135451e-04
8.51240000000000e-08,5.50000000000000e-01,0.00000000000000e+00,2.56472510747896e-05
8.51560000000000e-08,5.50000000000000e-01,0.00000000000000e+00,-1.08979879928292e-04
8.52200000000000e-08,5.50000000000000e-01,0.00000000000000e+00,-1.60731726725948e-04
8.53480000000000e-08,5.50000000000000e-01,0.00000000000000e+00,-8.45668530780122e-05
8.56040000000000e-08,5.50000000000000e-01,0.00000000000000e+00,5.36248630170905e-07
8.61159999999999e-08,5.50000000000000e-01,0.00000000000000e+00,4.02279504972611e-05
8.71399999999999e-08,5.50000000000000e-01,0.00000000000000e+00,3.25933015232673e-05
8.91879999999998e-08,5.50000000000000e-01,0.00000000000000e+00,1.86344797092454e-05
9.00000000000000e-08,5.50000000000000e-01,0.00000000000000e+00,3.11110318741460e-05
9.00100000000000e-08,5.50000000000000e-01,5.49999999999896e-02,3.00139832286259e-05
9.00300000000000e-08,5.50000000000000e-01,1.64999999999969e-01,2.81392096427857e-05
9.00700000000000e-08,5.50000000000000e-01,3.84999999999927e-01,2.57989400404834e-05
9.01000000000000e-08,5.50000000000000e-01,5.49999999999969e-01,2.26798764058345e-05
9.01080000000000e-08,5.50000000000000e-01,5.50000000000000e-01,2.22197189491055e-05
9.01240000000000e-08,5.50000000000000e-01,5.50000000000000e-01,2.10860944286073e-05
9.01560000000000e-08,5.50000000000000e-01,5.50000000000000e-01,2.17793757298149e-05
9.02200000000000e-08,5.50000000000000e-01,5.50000000000000e-01,2.39050062083648e-05
9.03480000000000e-08,5.50000000000000e-01,5.50000000000000e-01,2.71003686072926e-05
9.06040000000000e-08,5.50000000000000e-01,5.50000000000000e-01,2.50153221995689e-05
9.11159999999999e-08,5.50000000000000e-01,5.50000000000000e-01,2.37846646109555e-05
9.21155721491860e-08,5.50000000000000e-01,5.50000000000000e-01,2.39613530874424e-05
9.41147164475580e-08,5.50000000000000e-01,5.50000000000000e-01,2.29180746075435e-05
9.51000000000000e-08,5.50000000000000e-01,5.50000000000000e-01,2.28661150835311e-05
9.51100000000000e-08,4.95000000000056e-01,5.50000000000000e-01,-3.21112435307663e-05
9.51300000000000e-08,3.85000000000077e-01,5.50000000000000e-01,-1.28634419840401e-04
9.51700000000000e-08,1.65000000000118e-01,5.50000000000000e-01,-1.81249601083427e-04
9.52000000000000e-08,7.69384556065233e-14,5.50000000000000e-01,1.37275362939240e-05
9.52080000000000e-08,0.00000000000000e+00,5.50000000000000e-01,1.44826909957110e-04
9.52240000000000e-08,0.00000000000000e+00,5.50000000000000e-01,3.35371746247135e-04
9.52560000000000e-08,0.00000000000000e+00,5.50000000000000e-01,4.57674547488879e-04
9.53200000000000e-08,0.00000000000000e+00,5.50000000000000e-01,3.25403666193651e-04
9.54480000000000e-08,0.00000000000000e+00,5.50000000000000e-01,-1.59318365744565e-04
9.57040000000000e-08,0.00000000000000e+00,5.50000000000000e-01,-1.79834008887689e-04
9.62159999999999e-08,0.00000000000000e+00,5.50000000000000e-01,3.89321707788513e-05
9.69144166715369e-08,0.00000000000000e+00,5.50000000000000e-01,-3.99832879291583e-05
9.80995017904428e-08,0.00000000000000e+00,5.50000000000000e-01,1.59402092354819e-04
1.00469672028254e-07,0.00000000000000e+00,5.50000000000000e-01,-1.27797806360339e-04
1.03094458907415e-07,0.00000000000000e+00,5.50000000000000e-01,1.68413380578147e-04
1.05000000000000e-07,0.00000000000000e+00,5.50000000000000e-01,-1.24828583689189e-04
1.05010000000000e-07,5.49999999999896e-02,5.50000000000000e-01,-1.41443198021160e-05
1.05030000000000e-07,1.64999999999969e-01,5.50000000000000e-01,1.80948101336058e-04
1.05070000000000e-07,3.84999999999927e-01,5.50000000000000e-01,4.55184057815361e-04
1.05100000000000e-07,5.49999999999969e-01,5.50000000000000e-01,5.26056100399443e-04
1.05108000000000e-07,5.50000000000000e-01,5.50000000000000e-01,4.69689655976269e-04
1.05124000000000e-07,5.50000000000000e-01,5.50000000000000e-01,3.44961568817095e-04
1.05156000000000e-07,5.50000000000000e-01,5.50000000000000e-01,-5.87960952455613e-06
1.05220000000000e-07,5.50000000000000e-01,5.50000000000000e-01,-1.08703691925839e-03
1.05348000000000e-07,5.50000000000000e-01,5.50000000000000e-01,-3.23444836254909e-03
1.05604000000000e-07,5.50000000000000e-01,5.50000000000000e-01,2.44895759445302e-03
1.06116000000000e-07,5.50000000000000e-01,5.50000000000000e-01,3.74267422082128e-01
1.07140000000000e-07,5.50000000000000e-01,5.50000000000000e-01,5.67249093043075e-01
1.08293873538370e-07,5.50000000000000e-01,5.50000000000000e-01,5.36266077215650e-01
1.10601620615111e-07,5.50000000000000e-01,5.50000000000000e-01,5.63473625438971e-01
1.14064591130543e-07,5.50000000000000e-01,5.50000000000000e-01,5.36636350849421e-01
1.15100000000000e-07,5.50000000000000e-01,5.50000000000000e-01,5.62153487094093e-01
1.15110000000000e-07,4.95000000000056e-01,5.50000000000000e-01,5.57682002244600e-01
1.15130000000000e-07,3.85000000000077e-01,5.50000000000000e-01,5.51981310911486e-01
1.15170000000000e-07,1.65000000000118e-01,5.50000000000000e-01,5.50130110228008e-01
1.15200000000000e-07,7.69384556065233e-14,5.50000000000000e-01,5.51747538747977e-01
1.15208000000000e-07,0.00000000000000e+00,5.50000000000000e-01,5.52176514731029e-01
1.15224000000000e-07,0.00000000000000e+00,5.50000000000000e-01,5.52751370928712e-01
1.15256000000000e-07,0.00000000000000e+00,5.50000000000000e-01,5.52840088774616e-01
1.15320000000000e-07,0.00000000000000e+00,5.50000000000000e-01,5.48150065121049e-01
1.15448000000000e-07,0.00000000000000e+00,5.50000000000000e-01,5.34584819092342e-01
1.15704000000000e-07,0.00000000000000e+00,5.50000000000000e-01,5.42586085860647e-01
1.16216000000000e-07,0.00000000000000e+00,5.50000000000000e-01,5.52710510283509e-01
1.16915506763580e-07,0.00000000000000e+00,5.50000000000000e-01,5.46810229207141e-01
1.18314520290740e-07,0.00000000000000e+00,5.50000000000000e-01,5.52188960109766e-01
1.21112547345061e-07,0.00000000000000e+00,5.50000000000000e-01,5.47563318870454e-01
1.24912547345061e-07,0.00000000000000e+00,5.50000000000000e-01,5.52104987831554e-01
1.25000000000000e-07,0.00000000000000e+00,5.50000000000000e-01,5.49702287847027e-01
1.25010000000000e-07,5.49999999999168e-02,5.50000000000000e-01,5.49815200717700e-01
1.25030000000000e-07,1.64999999999896e-01,5.50000000000000e-01,5.49977461146491e-01
1.25070000000000e-07,3.84999999999854e-01,5.50000000000000e-01,5.50092180417087e-01
1.25100000000000e-07,5.49999999999896e-01,5.50000000000000e-01,5.50068213501099e-01
1.25108000000000e-07,5.50000000000000e-01,5.05999999999950e-01,5.50016950264118e-01
1.25124000000000e-07,5.50000000000000e-01,4.17999999999996e-01,5.49927379250598e-01
1.25156000000000e-07,5.50000000000000e-01,2.41999999999942e-01,5.49758217845314e-01
1.25200000000000e-07,5.50000000000000e-01,0.00000000000000e+00,5.49522161806548e-01
1.25206400000000e-07,5.50000000000000e-01,0.00000000000000e+00,5.49490512662488e-01
1.25219200000000e-07,5.50000000000000e-01,0.00000000000000e+00,5.49427229398632e-01
1.25244800000000e-07,5.50000000000000e-01,0.00000000000000e+00,5.49316112110300e-01
1.25296000000000e-07,5.50000000000000e-01,0.00000000000000e+00,5.49195723191234e-01
1.25398400000000e-07,5.50000000000000e-01,0.00000000000000e+00,5.49262550983381e-01
1.25603200000000e-07,5.50000000000000e-01,0.00000000000000e+00,5.49743032416119e-01
1.26012800000000e-07,5.50000000000000e-01,0.00000000000000e+00,5.50799576420258e-01
1.26617826485808e-07,5.50000000000000e-01,0.00000000000000e+00,5.53098798704919e-01
1.27520018044280e-07,5.50000000000000e-01,0.00000000000000e+00,1.45871288812684e-01
1.28966452543670e-07,5.50000000000000e-01,0.00000000000000e+00,-6.09131787832355e-02
1.30888496589620e-07,5.50000000000000e-01,0.00000000000000e+00,5.65707923251482e-02
1.33803061206004e-07,5.50000000000000e-01,0.00000000000000e+00,-3.86223547602168e-02
1.35100000000000e-07,5.49999999999900e-01,0.00000000000000e+00,2.88790927819394e-02
1.35110000000000e-07,4.94999999999838e-01,0.00000000000000e+00,2.63819367871802e-02
1.35130000000000e-07,3.84999999999858e-01,0.00000000000000e+00,2.22638322919692e-02
1.35170000000000e-07,1.64999999999900e-01,0.00000000000000e+00,1.66456376795781e-02
1.35200000000000e-07,0.00000000000000e+00,0.00000000000000e+00,1.37721604543039e-02
1.35208000000000e-07,0.00000000000000e+00,0.00000000000000e+00,1.31937651237574e-02
1.35224000000000e-07,0.00000000000000e+00,0.00000000000000e+00,1.20199449224548e-02
1.35256000000000e-07,0.00000000000000e+00,0.00000000000000e+00,9.78861447682691e-03
1.35320000000000e-07,0.00000000000000e+00,0.00000000000000e+00,5.94706120714361e-03
1.35448000000000e-07,0.00000000000000e+00,0.00000000000000e+00,7.21222009589524e-04
