Time,v(clk),v(data),v(out)
1.43693440000000e-09,0.00000000000000e+00,0.00000000000000e+00,4.74619226617443e-05
2.77911168000000e-09,0.00000000000000e+00,0.00000000000000e+00,9.70127356412706e-06
5.00000000000000e-09,0.00000000000000e+00,0.00000000000000e+00,2.31876119342160e-05
5.01000000000000e-09,5.99999999999986e-02,0.00000000000000e+00,7.31180573773804e-04
5.03000000000000e-09,1.80000000000001e-01,0.00000000000000e+00,1.97576121384670e-03
5.07000000000000e-09,4.20000000000000e-01,0.00000000000000e+00,3.61117247692730e-03
5.10000000000000e-09,6.00000000000000e-01,0.00000000000000e+00,3.34837453104052e-03
5.10800000000000e-09,6.00000000000000e-01,0.00000000000000e+00,2.80204755745746e-03
5.12400000000000e-09,6.00000000000000e-01,0.00000000000000e+00,1.71312685830147e-03
5.15600000000000e-09,6.00000000000000e-01,0.00000000000000e+00,-1.10160098455464e-04
5.22000000000000e-09,6.00000000000000e-01,0.00000000000000e+00,-1.85624460948003e-03
5.34800000000000e-09,6.00000000000000e-01,0.00000000000000e+00,-1.70166215444835e-03
5.60400000000000e-09,6.00000000000000e-01,0.00000000000000e+00,-3.09483838775507e-04
6.11600000000000e-09,6.00000000000000e-01,0.00000000000000e+00,-1.13662735038364e-04
7.02645989822778e-09,6.00000000000000e-01,0.00000000000000e+00,1.96291524594022e-04
8.84737969468334e-09,6.00000000000000e-01,0.00000000000000e+00,3.81595772427669e-05
1.00000000000000e-08,6.00000000000000e-01,0.00000000000000e+00,-4.73953412358369e-05
1.00100000000000e-08,6.00000000000000e-01,5.99999999999986e-02,-9.43009973383702e-06
1.00300000000000e-08,6.00000000000000e-01,1.79999999999996e-01,4.68300932619514e-05
1.00700000000000e-08,6.00000000000000e-01,4.19999999999990e-01,9.07796144807849e-05
1.01000000000000e-08,6.00000000000000e-01,5.99999999999995e-01,3.10218778700050e-05
1.01080000000000e-08,6.00000000000000e-01,6.00000000000000e-01,-3.81123975036479e-06
1.01240000000000e-08,6.00000000000000e-01,6.00000000000000e-01,-5.67063683244440e-05
1.01560000000000e-08,6.00000000000000e-01,6.00000000000000e-01,-1.15434603012998e-04
1.02200000000000e-08,6.00000000000000e-01,6.00000000000000e-01,-1.01925351559007e-04
1.03480000000000e-08,6.00000000000000e-01,6.00000000000000e-01,1.71780485477002e-05
1.06040000000000e-08,6.00000000000000e-01,6.00000000000000e-01,8.56209054138496e-05
1.11160000000000e-08,6.00000000000000e-01,6.00000000000000e-01,1.89601030669145e-05
1.18967607426359e-08,6.00000000000000e-01,6.00000000000000e-01,1.96694791849486e-05
1.34582822279079e-08,6.00000000000000e-01,6.00000000000000e-01,2.85085412123874e-05
1.51000000000000e-08,6.00000000000000e-01,6.00000000000000e-01,2.02922258216789e-05
1.51100000000000e-08,5.39999999999992e-01,6.00000000000000e-01,-3.36614978852248e-04
1.51300000000000e-08,4.19999999999994e-01,6.00000000000000e-01,-1.18217431165815e-03
1.51700000000000e-08,1.80000000000000e-01,6.00000000000000e-01,-2.74934064167413e-03
1.52000000000000e-08,0.00000000000000e+00,6.00000000000000e-01,-2.62509861935163e-03
1.52080000000000e-08,0.00000000000000e+00,6.00000000000000e-01,-1.88348482114219e-03
1.52240000000000e-08,0.00000000000000e+00,6.00000000000000e-01,-5.53335645013892e-04
1.52560000000000e-08,0.00000000000000e+00,6.00000000000000e-01,1.29034886630754e-03
1.53200000000000e-08,0.00000000000000e+00,6.00000000000000e-01,2.89357638265174e-03
1.54480000000000e-08,0.00000000000000e+00,6.00000000000000e-01,2.79984100134814e-03
1.57040000000000e-08,0.00000000000000e+00,6.00000000000000e-01,-1.58874882532495e-04
1.62160000000000e-08,0.00000000000000e+00,6.00000000000000e-01,-1.14907516238535e-03
1.71603730328301e-08,0.00000000000000e+00,6.00000000000000e-01,7.98472359513122e-04
1.83094092294878e-08,0.00000000000000e+00,6.00000000000000e-01,-9.69898807191491e-04
1.97770652734595e-08,0.00000000000000e+00,6.00000000000000e-01,1.16282174237144e-03
2.24081717437092e-08,0.00000000000000e+00,6.00000000000000e-01,-1.06778803746070e-03
2.49685164430011e-08,0.00000000000000e+00,6.00000000000000e-01,9.90433049403152e-04
2.50000000000000e-08,0.00000000000000e+00,6.00000000000000e-01,8.35219278047722e-04
2.50100000000000e-08,5.99999999999886e-02,6.00000000000000e-01,1.58487475946331e-03
2.50300000000000e-08,1.80000000000006e-01,6.00000000000000e-01,2.98029387636801e-03
2.50700000000000e-08,4.20000000000000e-01,6.00000000000000e-01,5.32650336080631e-03
2.51000000000000e-08,6.00000000000000e-01,6.00000000000000e-01,5.85929723096562e-03
2.51080000000000e-08,6.00000000000000e-01,6.00000000000000e-01,5.45775383615427e-03
2.51240000000000e-08,6.00000000000000e-01,6.00000000000000e-01,4.66862474398644e-03
2.51560000000000e-08,6.00000000000000e-01,6.00000000000000e-01,3.18984088532537e-03
2.52200000000000e-08,6.00000000000000e-01,6.00000000000000e-01,1.71385204979377e-04
2.53480000000000e-08,6.00000000000000e-01,6.00000000000000e-01,-5.95833016058417e-03
2.56040000000000e-08,6.00000000000000e-01,6.00000000000000e-01,-1.33009523806208e-02
2.61160000000000e-08,6.00000000000000e-01,6.00000000000000e-01,3.27618377506975e-02
2.71400000000000e-08,6.00000000000000e-01,6.00000000000000e-01,5.29722785735911e-01
2.86924996600952e-08,6.00000000000000e-01,6.00000000000000e-01,6.16177821943266e-01
3.01000000000000e-08,6.00000000000000e-01,6.00000000000000e-01,5.85396265874451e-01
3.01100000000000e-08,6.00000000000000e-01,5.40000000000031e-01,5.87693357205615e-01
3.01300000000000e-08,6.00000000000000e-01,4.20000000000014e-01,5.91540480400586e-01
3.01700000000000e-08,6.00000000000000e-01,1.80000000000020e-01,5.96167003048979e-01
3.02000000000000e-08,6.00000000000000e-01,1.44328993201270e-14,5.97995203334667e-01
3.02080000000000e-08,6.00000000000000e-01,0.00000000000000e+00,5.98329391422312e-01
3.02240000000000e-08,6.00000000000000e-01,0.00000000000000e+00,5.98892500262801e-01
3.02560000000000e-08,6.00000000000000e-01,0.00000000000000e+00,5.99563669139381e-01
3.03200000000000e-08,6.00000000000000e-01,0.00000000000000e+00,6.00037094137199e-01
3.04480000000000e-08,6.00000000000000e-01,0.00000000000000e+00,6.00044252903109e-01
3.07040000000000e-08,6.00000000000000e-01,0.00000000000000e+00,5.99818621963966e-01
3.12160000000000e-08,6.00000000000000e-01,0.00000000000000e+00,6.00056980189710e-01
3.19955256515687e-08,6.00000000000000e-01,0.00000000000000e+00,6.00023571726060e-01
3.31955910538885e-08,6.00000000000000e-01,0.00000000000000e+00,5.99949336408380e-01
3.47972064282247e-08,6.00000000000000e-01,0.00000000000000e+00,6.00046098674268e-01
3.51000000000000e-08,5.99999999999970e-01,0.00000000000000e+00,5.99949904578081e-01
3.51100000000000e-08,5.39999999999982e-01,0.00000000000000e+00,5.99665287537778e-01
3.51300000000000e-08,4.19999999999965e-01,0.00000000000000e+00,5.99113817808296e-01
3.51700000000000e-08,1.79999999999970e-01,0.00000000000000e+00,5.98957922521447e-01
3.52000000000000e-08,0.00000000000000e+00,0.00000000000000e+00,6.00619905474543e-01
3.52080000000000e-08,0.00000000000000e+00,0.00000000000000e+00,6.01564496387899e-01
3.52240000000000e-08,0.00000000000000e+00,0.00000000000000e+00,6.03121153552118e-01
3.52560000000000e-08,0.00000000000000e+00,0.00000000000000e+00,6.04997003299267e-01
3.53200000000000e-08,0.00000000000000e+00,0.00000000000000e+00,6.06474667245426e-01
3.54480000000000e-08,0.00000000000000e+00,0.00000000000000e+00,6.06679083885133e-01
3.57040000000000e-08,0.00000000000000e+00,0.00000000000000e+00,5.99418970478798e-01
3.62160000000000e-08,0.00000000000000e+00,0.00000000000000e+00,5.90147233353549e-01
3.70556692811177e-08,0.00000000000000e+00,0.00000000000000e+00,6.01761116289117e-01
3.81579857544373e-08,0.00000000000000e+00,0.00000000000000e+00,5.97947425322810e-01
3.91000000000000e-08,0.00000000000000e+00,0.00000000000000e+00,6.00906428207473e-01
3.92717456692153e-08,0.00000000000000e+00,0.00000000000000e+00,6.00174589381099e-01
3.96152370076459e-08,0.00000000000000e+00,0.00000000000000e+00,5.99683898011671e-01
4.03022196845071e-08,0.00000000000000e+00,0.00000000000000e+00,5.99875470749854e-01
4.16761850382295e-08,0.00000000000000e+00,0.00000000000000e+00,5.99831301063814e-01
4.44241157456742e-08,0.00000000000000e+00,0.00000000000000e+00,5.99939768383197e-01
4.50000000000000e-08,0.00000000000000e+00,0.00000000000000e+00,5.99904791575807e-01
4.50100000000000e-08,5.99999999999886e-02,0.00000000000000e+00,6.00251199002430e-01
4.50300000000000e-08,1.80000000000006e-01,0.00000000000000e+00,6.00850999711029e-01
4.50700000000000e-08,4.20000000000000e-01,0.00000000000000e+00,6.01550453566104e-01
4.51000000000000e-08,6.00000000000000e-01,0.00000000000000e+00,6.01278754109598e-01
4.51080000000000e-08,6.00000000000000e-01,0.00000000000000e+00,6.00975826916968e-01
4.51240000000000e-08,6.00000000000000e-01,0.00000000000000e+00,6.00444165560148e-01
4.51560000000000e-08,6.00000000000000e-01,0.00000000000000e+00,5.99671128518994e-01
4.52200000000000e-08,6.00000000000000e-01,0.00000000000000e+00,5.98951095222944e-01
4.53480000000000e-08,6.00000000000000e-01,0.00000000000000e+00,5.98653518230029e-01
4.56040000000000e-08,6.00000000000000e-01,0.00000000000000e+00,5.99161178801067e-01
4.61160000000000e-08,6.00000000000000e-01,0.00000000000000e+00,6.09692485454189e-01
4.70700663630275e-08,6.00000000000000e-01,0.00000000000000e+00,2.79210340728536e-01
4.86927491810610e-08,6.00000000000000e-01,0.00000000000000e+00,-5.69091850640774e-02
5.00000000000000e-08,6.00000000000000e-01,0.00000000000000e+00,3.63025323752566e-02
5.00100000000000e-08,6.00000000000000e-01,5.99999999999886e-02,3.51452636724802e-02
5.00300000000000e-08,6.00000000000000e-01,1.79999999999966e-01,3.28167566886760e-02
5.00700000000000e-08,6.00000000000000e-01,4.20000000000000e-01,2.80232726752710e-02
5.01000000000000e-08,6.00000000000000e-01,6.00000000000000e-01,2.45241522092973e-02
5.01080000000000e-08,6.00000000000000e-01,6.00000000000000e-01,2.36348134972100e-02
5.01240000000000e-08,6.00000000000000e-01,6.00000000000000e-01,2.19071056743433e-02
5.01560000000000e-08,6.00000000000000e-01,6.00000000000000e-01,1.88015890451420e-02
5.02200000000000e-08,6.00000000000000e-01,6.00000000000000e-01,1.37776192722694e-02
5.03480000000000e-08,6.00000000000000e-01,6.00000000000000e-01,7.24322080989392e-03
5.06040000000000e-08,6.00000000000000e-01,6.00000000000000e-01,1.68102677736832e-03
5.11160000000001e-08,6.00000000000000e-01,6.00000000000000e-01,-1.65765474616143e-04
5.19715737737765e-08,6.00000000000000e-01,6.00000000000000e-01,7.72177662252682e-05
5.36827213213294e-08,6.00000000000000e-01,6.00000000000000e-01,-1.86581573879303e-05
5.51000000000000e-08,6.00000000000000e-01,6.00000000000000e-01,3.88084362139864e-05
5.51100000000000e-08,5.40000000000021e-01,6.00000000000000e-01,-3.26738988717948e-04
5.51300000000000e-08,4.20000000000004e-01,6.00000000000000e-01,-1.16750740678717e-03
5.51700000000000e-08,1.80000000000010e-01,6.00000000000000e-01,-2.74578091624286e-03
5.52000000000000e-08,0.00000000000000e+00,6.00000000000000e-01,-2.64232555206166e-03
5.52080000000000e-08,0.00000000000000e+00,6.00000000000000e-01,-1.90895446449650e-03
5.52240000000000e-08,0.00000000000000e+00,6.00000000000000e-01,-5.96777708692278e-04
5.52560000000000e-08,0.00000000000000e+00,6.00000000000000e-01,1.22494331809002e-03
5.53200000000000e-08,0.00000000000000e+00,6.00000000000000e-01,2.66653955160800e-03
5.54480000000000e-08,0.00000000000000e+00,6.00000000000000e-01,2.06254191818543e-03
5.57040000000000e-08,0.00000000000000e+00,6.00000000000000e-01,-1.61757881455699e-03
5.62160000000000e-08,0.00000000000000e+00,6.00000000000000e-01,-1.34415870209677e-03
5.70409213268976e-08,0.00000000000000e+00,6.00000000000000e-01,9.71015748872033e-04
5.82332099117784e-08,0.00000000000000e+00,6.00000000000000e-01,-1.16409544060308e-03
5.95400804203951e-08,0.00000000000000e+00,6.00000000000000e-01,1.34542917208284e-03
6.20913200894727e-08,0.00000000000000e+00,6.00000000000000e-01,-1.21031176569448e-03
6.44228973976799e-08,0.00000000000000e+00,6.00000000000000e-01,1.09654657880634e-03
6.50000000000000e-08,0.00000000000000e+00,6.00000000000000e-01,-4.49806438691309e-04
6.50100000000000e-08,5.99999999999886e-02,6.00000000000000e-01,3.74879465006736e-04
6.50300000000000e-08,1.79999999999966e-01,6.00000000000000e-01,1.89864171145047e-03
6.50700000000000e-08,4.19999999999920e-01,6.00000000000000e-01,4.40671808466130e-03
6.51000000000000e-08,5.99999999999966e-01,6.00000000000000e-01,4.99157834191181e-03
6.51080000000000e-08,6.00000000000000e-01,6.00000000000000e-01,4.61273428375954e-03
6.51240000000000e-08,6.00000000000000e-01,6.00000000000000e-01,3.87156652771384e-03
6.51560000000000e-08,6.00000000000000e-01,6.00000000000000e-01,2.48181259514149e-03
6.52200000000000e-08,6.00000000000000e-01,6.00000000000000e-01,-3.91458968527769e-04
6.53480000000000e-08,6.00000000000000e-01,6.00000000000000e-01,-6.27953848834638e-03
6.56040000000000e-08,6.00000000000000e-01,6.00000000000000e-01,-1.32744836670595e-02
6.61159999999999e-08,6.00000000000000e-01,6.00000000000000e-01,3.60383629409484e-02
6.71399999999999e-08,6.00000000000000e-01,6.00000000000000e-01,5.31946339797397e-01
6.87046015967116e-08,6.00000000000000e-01,6.00000000000000e-01,6.15888395564331e-01
7.01000000000000e-08,6.00000000000000e-01,6.00000000000000e-01,5.85683449583048e-01
7.01100000000000e-08,6.00000000000000e-01,5.40000000000011e-01,5.87930169430182e-01
7.01300000000000e-08,6.00000000000000e-01,4.20000000000034e-01,5.91696957234626e-01
7.01700000000000e-08,6.00000000000000e-01,1.80000000000080e-01,5.96225057591982e-01
7.02000000000000e-08,6.00000000000000e-01,3.44169137633799e-14,5.98023844596990e-01
7.02080000000000e-08,6.00000000000000e-01,0.00000000000000e+00,5.98350683807938e-01
7.02240000000000e-08,6.00000000000000e-01,0.00000000000000e+00,5.98900963909507e-01
7.02560000000000e-08,6.00000000000000e-01,0.00000000000000e+00,5.99556500993552e-01
7.03200000000000e-08,6.00000000000000e-01,0.00000000000000e+00,6.00017519869821e-01
7.04480000000000e-08,6.00000000000000e-01,0.00000000000000e+00,6.00049901212804e-01
7.07040000000000e-08,6.00000000000000e-01,0.00000000000000e+00,5.99801291074040e-01
7.12159999999999e-08,6.00000000000000e-01,0.00000000000000e+00,6.00063197450464e-01
7.19983124475959e-08,6.00000000000000e-01,0.00000000000000e+00,6.00019442811065e-01
7.31971964394538e-08,6.00000000000000e-01,0.00000000000000e+00,5.99952337454206e-01
7.48054996478197e-08,6.00000000000000e-01,0.00000000000000e+00,6.00044211333879e-01
7.51000000000000e-08,6.00000000000000e-01,0.00000000000000e+00,5.99951165835772e-01
7.51100000000000e-08,5.40000000000061e-01,0.00000000000000e+00,5.99664782192707e-01
7.51300000000000e-08,4.20000000000084e-01,0.00000000000000e+00,5.99110728427942e-01
7.51700000000000e-08,1.80000000000129e-01,0.00000000000000e+00,5.98954248908024e-01
7.52000000000000e-08,8.40438829641244e-14,0.00000000000000e+00,6.00618358335270e-01
7.52080000000000e-08,0.00000000000000e+00,0.00000000000000e+00,6.01563464625841e-01
7.52240000000000e-08,0.00000000000000e+00,0.00000000000000e+00,6.03120727470308e-01
7.52560000000000e-08,0.00000000000000e+00,0.00000000000000e+00,6.04998553012968e-01
7.53200000000000e-08,0.00000000000000e+00,0.00000000000000e+00,6.06481070279949e-01
7.54480000000000e-08,0.00000000000000e+00,0.00000000000000e+00,6.06723067808945e-01
7.57040000000000e-08,0.00000000000000e+00,0.00000000000000e+00,5.99545393612594e-01
7.62159999999999e-08,0.00000000000000e+00,0.00000000000000e+00,5.90184180892146e-01
7.70556716678539e-08,0.00000000000000e+00,0.00000000000000e+00,6.01718137951643e-01
7.81000000000000e-08,0.00000000000000e+00,0.00000000000000e+00,5.98000594255269e-01
7.82102305912077e-08,0.00000000000000e+00,0.00000000000000e+00,5.98890426529507e-01
7.84306917736229e-08,0.00000000000000e+00,0.00000000000000e+00,5.99766309167337e-01
7.88716141384535e-08,0.00000000000000e+00,0.00000000000000e+00,5.99738819067098e-01
7.97534588681146e-08,0.00000000000000e+00,0.00000000000000e+00,5.99792951844065e-01
8.15171483274368e-08,0.00000000000000e+00,0.00000000000000e+00,5.99868232434425e-01
8.50000000000000e-08,0.00000000000000e+00,0.00000000000000e+00,5.99911621307708e-01
8.50100000000000e-08,5.99999999999886e-02,0.00000000000000e+00,6.00286939220217e-01
8.50300000000000e-08,1.79999999999966e-01,0.00000000000000e+00,6.00891929902164e-01
8.50700000000000e-08,4.19999999999920e-01,0.00000000000000e+00,6.01529051950602e-01
8.51000000000000e-08,5.99999999999966e-01,0.00000000000000e+00,6.01246396563901e-01
8.51080000000000e-08,6.00000000000000e-01,0.00000000000000e+00,6.00934371329766e-01
8.51240000000000e-08,6.00000000000000e-01,0.00000000000000e+00,6.00388503853172e-01
8.51560000000000e-08,6.00000000000000e-01,0.00000000000000e+00,5.99691192256928e-01
8.52200000000000e-08,6.00000000000000e-01,0.00000000000000e+00,5.98980346743726e-01
8.53480000000000e-08,6.00000000000000e-01,0.00000000000000e+00,5.98662517761649e-01
8.56040000000000e-08,6.00000000000000e-01,0.00000000000000e+00,5.99154054064051e-01
8.61159999999999e-08,6.00000000000000e-01,0.00000000000000e+00,6.09692030084018e-01
8.70699506580928e-08,6.00000000000000e-01,0.00000000000000e+00,2.79284477713083e-01
8.86924722233837e-08,6.00000000000000e-01,0.00000000000000e+00,-5.68918059572486e-02
9.00000000000000e-08,6.00000000000000e-01,0.00000000000000e+00,3.62943375405785e-02
9.00100000000000e-08,6.00000000000000e-01,5.99999999999886e-02,3.51376672190959e-02
9.00300000000000e-08,6.00000000000000e-01,1.79999999999966e-01,3.28103034496144e-02
9.00700000000000e-08,6.00000000000000e-01,4.19999999999920e-01,2.80184215569191e-02
9.01000000000000e-08,6.00000000000000e-01,5.99999999999966e-01,2.45201209768987e-02
9.01080000000000e-08,6.00000000000000e-01,6.00000000000000e-01,2.36309646193947e-02
9.01240000000000e-08,6.00000000000000e-01,6.00000000000000e-01,2.19036063573063e-02
9.01560000000000e-08,6.00000000000000e-01,6.00000000000000e-01,1.87986734706625e-02
9.02200000000000e-08,6.00000000000000e-01,6.00000000000000e-01,1.37755433915867e-02
9.03480000000000e-08,6.00000000000000e-01,6.00000000000000e-01,7.24214201732154e-03
9.06040000000000e-08,6.00000000000000e-01,6.00000000000000e-01,1.68078110188492e-03
9.11159999999999e-08,6.00000000000000e-01,6.00000000000000e-01,-1.65728914697759e-04
9.19718190360039e-08,6.00000000000000e-01,6.00000000000000e-01,7.72294842816199e-05
9.36834571080118e-08,6.00000000000000e-01,6.00000000000000e-01,-1.86700918215661e-05
9.51000000000000e-08,6.00000000000000e-01,6.00000000000000e-01,3.88071239347046e-05
9.51100000000000e-08,5.40000000000061e-01,6.00000000000000e-01,-3.26737987621631e-04
9.51300000000000e-08,4.20000000000084e-01,6.00000000000000e-01,-1.16750616458570e-03
9.51700000000000e-08,1.80000000000129e-01,6.00000000000000e-01,-2.74577924759881e-03
9.52000000000000e-08,8.40438829641244e-14,6.00000000000000e-01,-2.64232367209949e-03
9.52080000000000e-08,0.00000000000000e+00,6.00000000000000e-01,-1.90895266446166e-03
9.52240000000000e-08,0.00000000000000e+00,6.00000000000000e-01,-5.96775993326581e-04
9.52560000000000e-08,0.00000000000000e+00,6.00000000000000e-01,1.22494546641758e-03
9.53200000000000e-08,0.00000000000000e+00,6.00000000000000e-01,2.66654378427091e-03
9.54480000000000e-08,0.00000000000000e+00,6.00000000000000e-01,2.06257720144978e-03
9.57040000000000e-08,0.00000000000000e+00,6.00000000000000e-01,-1.61703827424672e-03
9.62159999999999e-08,0.00000000000000e+00,6.00000000000000e-01,-1.34405877467492e-03
9.70409699187882e-08,0.00000000000000e+00,6.00000000000000e-01,9.70935768771441e-04
9.82332416069714e-08,0.00000000000000e+00,6.00000000000000e-01,-1.16401318875699e-03
9.95401729922602e-08,0.00000000000000e+00,6.00000000000000e-01,1.34536037003781e-03
1.02091437792660e-07,0.00000000000000e+00,6.00000000000000e-01,-1.21025853858302e-03
1.04423099629843e-07,0.00000000000000e+00,6.00000000000000e-01,1.09651060032982e-03
1.05000000000000e-07,0.00000000000000e+00,6.00000000000000e-01,-4.49619847252739e-04
1.05010000000000e-07,5.99999999999886e-02,6.00000000000000e-01,3.75053195286523e-04
1.05030000000000e-07,1.79999999999966e-01,6.00000000000000e-01,1.89878151389221e-03
