Time,v(clk),v(data),v(out)
1.00000000000000e-08,6.00000000000000e-01,0.00000000000000e+00,5.34705089173500e-06
1.00100000000000e-08,6.00000000000000e-01,5.99999999999985e-02,7.51161129945721e-06
1.00300000000000e-08,6.00000000000000e-01,1.79999999999996e-01,9.23049576746771e-06
1.00700000000000e-08,6.00000000000000e-01,4.19999999999990e-01,6.57820655483587e-06
1.01000000000000e-08,6.00000000000000e-01,5.99999999999995e-01,4.09916879400354e-06
1.01080000000000e-08,6.00000000000000e-01,6.00000000000000e-01,3.57788051103675e-06
1.01240000000000e-08,6.00000000000000e-01,6.00000000000000e-01,3.31584524376760e-06
1.01560000000000e-08,6.00000000000000e-01,6.00000000000000e-01,4.35548852931525e-06
1.02200000000000e-08,6.00000000000000e-01,6.00000000000000e-01,5.66549048965428e-06
1.03480000000000e-08,6.00000000000000e-01,6.00000000000000e-01,1.85329102100895e-06
1.06040000000000e-08,6.00000000000000e-01,6.00000000000000e-01,1.07518689730114e-06
1.11160000000000e-08,6.00000000000000e-01,6.00000000000000e-01,1.97571022577791e-06
1.21400000000000e-08,6.00000000000000e-01,6.00000000000000e-01,1.13351443297187e-06
1.41880000000000e-08,6.00000000000000e-01,6.00000000000000e-01,1.59357863825497e-06
1.51000000000000e-08,6.00000000000000e-01,6.00000000000000e-01,9.32165977342476e-07
1.51100000000000e-08,5.39999999999991e-01,6.00000000000000e-01,-3.36257898178663e-05
1.51300000000000e-08,4.19999999999994e-01,6.00000000000000e-01,-8.81947884547596e-05
1.51700000000000e-08,1.80000000000000e-01,6.00000000000000e-01,-1.15033801341084e-04
1.52000000000000e-08,0.00000000000000e+00,6.00000000000000e-01,-7.24737422043431e-06
1.52080000000000e-08,0.00000000000000e+00,6.00000000000000e-01,7.12086838124334e-05
1.52240000000000e-08,0.00000000000000e+00,6.00000000000000e-01,1.78614211565356e-04
1.52560000000000e-08,0.00000000000000e+00,6.00000000000000e-01,2.14506303070745e-04
1.53200000000000e-08,0.00000000000000e+00,6.00000000000000e-01,9.40937471822639e-05
1.54480000000000e-08,0.00000000000000e+00,6.00000000000000e-01,-9.38129384149104e-05
1.57040000000000e-08,0.00000000000000e+00,6.00000000000000e-01,-3.99973635535206e-05
1.62160000000000e-08,0.00000000000000e+00,6.00000000000000e-01,-1.25418744616906e-04
1.69732392134864e-08,0.00000000000000e+00,6.00000000000000e-01,1.59732075518530e-04
1.83881330584497e-08,0.00000000000000e+00,6.00000000000000e-01,-9.09753322896382e-05
2.01074423507397e-08,0.00000000000000e+00,6.00000000000000e-01,5.11616159172201e-05
2.34050316753380e-08,0.00000000000000e+00,6.00000000000000e-01,-3.26856219026834e-05
2.50000000000000e-08,0.00000000000000e+00,6.00000000000000e-01,3.57242671136663e-06
2.50100000000000e-08,5.99999999999886e-02,6.00000000000000e-01,8.25132145594182e-05
2.50300000000000e-08,1.80000000000006e-01,6.00000000000000e-01,1.97030312397276e-04
2.50700000000000e-08,4.20000000000000e-01,6.00000000000000e-01,2.49501786236554e-04
2.51000000000000e-08,6.00000000000000e-01,6.00000000000000e-01,7.30466716578129e-05
2.51080000000000e-08,6.00000000000000e-01,6.00000000000000e-01,-1.22881257260649e-04
2.51240000000000e-08,6.00000000000000e-01,6.00000000000000e-01,-7.43337220446040e-04
2.51560000000000e-08,6.00000000000000e-01,6.00000000000000e-01,-2.47172822581045e-03
2.52200000000000e-08,6.00000000000000e-01,6.00000000000000e-01,-4.91589318857420e-03
2.53480000000000e-08,6.00000000000000e-01,6.00000000000000e-01,4.06972039159121e-02
2.56040000000000e-08,6.00000000000000e-01,6.00000000000000e-01,4.23687169790888e-01
2.61160000000000e-08,6.00000000000000e-01,6.00000000000000e-01,6.29359330649520e-01
2.67617888856205e-08,6.00000000000000e-01,6.00000000000000e-01,5.73853073317400e-01
2.80533666568614e-08,6.00000000000000e-01,6.00000000000000e-01,6.23080528512516e-01
2.98138273113786e-08,6.00000000000000e-01,6.00000000000000e-01,5.77030511951194e-01
3.01000000000000e-08,6.00000000000000e-01,6.00000000000000e-01,6.15303277512435e-01
3.01100000000000e-08,6.00000000000000e-01,5.40000000000031e-01,6.10801308482103e-01
3.01300000000000e-08,6.00000000000000e-01,4.20000000000014e-01,6.04475473837869e-01
3.01700000000000e-08,6.00000000000000e-01,1.80000000000020e-01,6.00386831487548e-01
3.02000000000000e-08,6.00000000000000e-01,1.44328993201270e-14,6.00071962172943e-01
3.02080000000000e-08,6.00000000000000e-01,0.00000000000000e+00,6.00043736527234e-01
3.02240000000000e-08,6.00000000000000e-01,0.00000000000000e+00,5.99998890008254e-01
3.02560000000000e-08,6.00000000000000e-01,0.00000000000000e+00,5.99954308937681e-01
3.03200000000000e-08,6.00000000000000e-01,0.00000000000000e+00,5.99959165713583e-01
3.04480000000000e-08,6.00000000000000e-01,0.00000000000000e+00,5.99957173431313e-01
3.07040000000000e-08,6.00000000000000e-01,0.00000000000000e+00,5.99979685696253e-01
3.10885537727358e-08,6.00000000000000e-01,0.00000000000000e+00,5.99962279298027e-01
3.18576613182075e-08,6.00000000000000e-01,0.00000000000000e+00,5.99972331967846e-01
3.27654134997977e-08,6.00000000000000e-01,0.00000000000000e+00,5.99972980284826e-01
3.45809178629780e-08,6.00000000000000e-01,0.00000000000000e+00,5.99972955122965e-01
3.51000000000000e-08,5.99999999999970e-01,0.00000000000000e+00,5.99980703886063e-01
3.51100000000000e-08,5.39999999999982e-01,0.00000000000000e+00,5.99938096238916e-01
3.51300000000000e-08,4.19999999999965e-01,0.00000000000000e+00,5.99874614314890e-01
3.51700000000000e-08,1.79999999999970e-01,0.00000000000000e+00,6.00125606459522e-01
3.52000000000000e-08,0.00000000000000e+00,0.00000000000000e+00,6.01032683401499e-01
3.52080000000000e-08,0.00000000000000e+00,0.00000000000000e+00,6.01311824780919e-01
3.52240000000000e-08,0.00000000000000e+00,0.00000000000000e+00,6.01704390105780e-01
3.52560000000000e-08,0.00000000000000e+00,0.00000000000000e+00,6.01810895061852e-01
3.53200000000000e-08,0.00000000000000e+00,0.00000000000000e+00,5.98562371368148e-01
3.54480000000000e-08,0.00000000000000e+00,0.00000000000000e+00,5.78834606164279e-01
3.57040000000000e-08,0.00000000000000e+00,0.00000000000000e+00,5.79884148446063e-01
3.61492055944908e-08,0.00000000000000e+00,0.00000000000000e+00,6.04927829666128e-01
3.67446019804233e-08,0.00000000000000e+00,0.00000000000000e+00,5.95119072116629e-01
3.77075014750893e-08,0.00000000000000e+00,0.00000000000000e+00,6.03129980914701e-01
3.91000000000000e-08,0.00000000000000e+00,0.00000000000000e+00,5.96724044418596e-01
3.92679127233445e-08,0.00000000000000e+00,0.00000000000000e+00,5.99094255635128e-01
3.96037381700335e-08,0.00000000000000e+00,0.00000000000000e+00,6.00177126999540e-01
4.02753890634114e-08,0.00000000000000e+00,0.00000000000000e+00,5.99537971321985e-01
4.16186908501674e-08,0.00000000000000e+00,0.00000000000000e+00,6.00099718889752e-01
4.43052944236792e-08,0.00000000000000e+00,0.00000000000000e+00,5.99662536959859e-01
4.50000000000000e-08,0.00000000000000e+00,0.00000000000000e+00,6.00067394908096e-01
4.50100000000000e-08,5.99999999999886e-02,0.00000000000000e+00,6.00071501244773e-01
4.50300000000000e-08,1.80000000000006e-01,0.00000000000000e+00,6.00066270318458e-01
4.50700000000000e-08,4.20000000000000e-01,0.00000000000000e+00,5.99996745536988e-01
4.51000000000000e-08,6.00000000000000e-01,0.00000000000000e+00,5.99866851277230e-01
4.51080000000000e-08,6.00000000000000e-01,0.00000000000000e+00,5.99821218002078e-01
4.51240000000000e-08,6.00000000000000e-01,0.00000000000000e+00,5.99752186433606e-01
4.51560000000000e-08,6.00000000000000e-01,0.00000000000000e+00,5.99686735422778e-01
4.52200000000000e-08,6.00000000000000e-01,0.00000000000000e+00,5.99727272519164e-01
4.53480000000000e-08,6.00000000000000e-01,0.00000000000000e+00,6.01946641303055e-01
4.56040000000000e-08,6.00000000000000e-01,0.00000000000000e+00,5.72149155667041e-01
4.61160000000000e-08,6.00000000000000e-01,0.00000000000000e+00,6.32194075578710e-02
4.67316104189050e-08,6.00000000000000e-01,0.00000000000000e+00,-4.12503446971305e-02
4.78022397078076e-08,6.00000000000000e-01,0.00000000000000e+00,3.83711646360045e-02
4.92983547033311e-08,6.00000000000000e-01,0.00000000000000e+00,-3.15566520244103e-02
5.00000000000000e-08,6.00000000000000e-01,0.00000000000000e+00,2.64247377586183e-02
5.00100000000000e-08,6.00000000000000e-01,5.99999999999886e-02,2.07290085938139e-02
5.00300000000000e-08,6.00000000000000e-01,1.79999999999966e-01,1.24603031670585e-02
5.00700000000000e-08,6.00000000000000e-01,4.20000000000000e-01,4.90683382073318e-03
5.01000000000000e-08,6.00000000000000e-01,6.00000000000000e-01,2.35323557610643e-03
5.01080000000000e-08,6.00000000000000e-01,6.00000000000000e-01,2.01569381239012e-03
5.01240000000000e-08,6.00000000000000e-01,6.00000000000000e-01,1.40503299932403e-03
5.01560000000000e-08,6.00000000000000e-01,6.00000000000000e-01,6.69165632274364e-04
5.02200000000000e-08,6.00000000000000e-01,6.00000000000000e-01,1.26403395204120e-04
5.03480000000000e-08,6.00000000000000e-01,6.00000000000000e-01,-3.20569794018573e-05
5.06040000000000e-08,6.00000000000000e-01,6.00000000000000e-01,1.41729186148055e-05
5.11160000000001e-08,6.00000000000000e-01,6.00000000000000e-01,-1.10977371961633e-05
5.21400000000002e-08,6.00000000000000e-01,6.00000000000000e-01,8.25576800715308e-06
5.41880000000003e-08,6.00000000000000e-01,6.00000000000000e-01,-9.04533961967120e-06
5.51000000000000e-08,6.00000000000000e-01,6.00000000000000e-01,6.43034388125201e-06
5.51100000000000e-08,5.40000000000021e-01,6.00000000000000e-01,-2.90036094791613e-05
5.51300000000000e-08,4.20000000000004e-01,6.00000000000000e-01,-8.43597201538315e-05
5.51700000000000e-08,1.80000000000010e-01,6.00000000000000e-01,-1.10205795267576e-04
5.52000000000000e-08,0.00000000000000e+00,6.00000000000000e-01,-2.18912578746344e-06
5.52080000000000e-08,0.00000000000000e+00,6.00000000000000e-01,7.43259708866212e-05
5.52240000000000e-08,0.00000000000000e+00,6.00000000000000e-01,1.74938268155976e-04
5.52560000000000e-08,0.00000000000000e+00,6.00000000000000e-01,1.89496846261898e-04
5.53200000000000e-08,0.00000000000000e+00,6.00000000000000e-01,-5.64978826065841e-05
5.54480000000000e-08,0.00000000000000e+00,6.00000000000000e-01,-1.19080568799125e-03
5.57040000000000e-08,0.00000000000000e+00,6.00000000000000e-01,-1.25894583100491e-04
5.60949741123158e-08,0.00000000000000e+00,6.00000000000000e-01,-2.81795852123644e-05
5.68769223369475e-08,0.00000000000000e+00,6.00000000000000e-01,2.90893298582930e-05
5.78382451289983e-08,0.00000000000000e+00,6.00000000000000e-01,9.89417496209104e-05
5.95489658992094e-08,0.00000000000000e+00,6.00000000000000e-01,-1.47023107406856e-04
6.20720409211101e-08,0.00000000000000e+00,6.00000000000000e-01,1.71055842089352e-04
6.50000000000000e-08,0.00000000000000e+00,6.00000000000000e-01,-1.89412342804824e-04
6.50100000000000e-08,5.99999999999886e-02,6.00000000000000e-01,-2.36854354648125e-05
6.50300000000000e-08,1.79999999999966e-01,6.00000000000000e-01,1.82669436367931e-04
6.50700000000000e-08,4.19999999999920e-01,6.00000000000000e-01,2.63634349062576e-04
6.51000000000000e-08,5.99999999999966e-01,6.00000000000000e-01,1.45723333691665e-04
6.51080000000000e-08,6.00000000000000e-01,6.00000000000000e-01,1.76748504616478e-05
6.51240000000000e-08,6.00000000000000e-01,6.00000000000000e-01,-4.69475926632962e-04
6.51560000000000e-08,6.00000000000000e-01,6.00000000000000e-01,-2.13257919233280e-03
6.52200000000000e-08,6.00000000000000e-01,6.00000000000000e-01,-4.79998178719307e-03
6.53480000000000e-08,6.00000000000000e-01,6.00000000000000e-01,3.56185870936711e-02
6.56040000000000e-08,6.00000000000000e-01,6.00000000000000e-01,4.14083128861813e-01
6.61159999999999e-08,6.00000000000000e-01,6.00000000000000e-01,6.29479341259080e-01
6.67627709436541e-08,6.00000000000000e-01,6.00000000000000e-01,5.73947293691410e-01
6.80563128309624e-08,6.00000000000000e-01,6.00000000000000e-01,6.23167459525652e-01
6.98100479004026e-08,6.00000000000000e-01,6.00000000000000e-01,5.77061753998482e-01
7.01000000000000e-08,6.00000000000000e-01,6.00000000000000e-01,6.15433996573739e-01
7.01100000000000e-08,6.00000000000000e-01,5.40000000000011e-01,6.10891022707593e-01
7.01300000000000e-08,6.00000000000000e-01,4.20000000000034e-01,6.04499191553769e-01
7.01700000000000e-08,6.00000000000000e-01,1.80000000000080e-01,6.00391679725443e-01
7.02000000000000e-08,6.00000000000000e-01,3.44169137633799e-14,6.00080408643164e-01
7.02080000000000e-08,6.00000000000000e-01,0.00000000000000e+00,6.00048811417216e-01
7.02240000000000e-08,6.00000000000000e-01,0.00000000000000e+00,5.99996566752052e-01
7.02560000000000e-08,6.00000000000000e-01,0.00000000000000e+00,5.99943460375141e-01
7.03200000000000e-08,6.00000000000000e-01,0.00000000000000e+00,5.99947099060422e-01
7.04480000000000e-08,6.00000000000000e-01,0.00000000000000e+00,5.99960175367938e-01
7.07040000000000e-08,6.00000000000000e-01,0.00000000000000e+00,5.99978769627390e-01
7.10874653411721e-08,6.00000000000000e-01,0.00000000000000e+00,5.99960925422724e-01
7.18543960235165e-08,6.00000000000000e-01,0.00000000000000e+00,5.99971618521739e-01
7.27578960981609e-08,6.00000000000000e-01,0.00000000000000e+00,5.99971868595877e-01
7.45648962474499e-08,6.00000000000000e-01,0.00000000000000e+00,5.99972546199424e-01
7.51000000000000e-08,6.00000000000000e-01,0.00000000000000e+00,5.99979621408276e-01
7.51100000000000e-08,5.40000000000061e-01,0.00000000000000e+00,5.99937222077500e-01
7.51300000000000e-08,4.20000000000084e-01,0.00000000000000e+00,5.99874027140161e-01
7.51700000000000e-08,1.80000000000129e-01,0.00000000000000e+00,6.00125025311363e-01
7.52000000000000e-08,8.40438829641244e-14,0.00000000000000e+00,6.01031655715642e-01
7.52080000000000e-08,0.00000000000000e+00,0.00000000000000e+00,6.01310515039623e-01
7.52240000000000e-08,0.00000000000000e+00,0.00000000000000e+00,6.01701977993510e-01
7.52560000000000e-08,0.00000000000000e+00,0.00000000000000e+00,6.01801486250371e-01
7.53200000000000e-08,0.00000000000000e+00,0.00000000000000e+00,5.98504134560655e-01
7.54480000000000e-08,0.00000000000000e+00,0.00000000000000e+00,5.78735925474087e-01
7.57040000000000e-08,0.00000000000000e+00,0.00000000000000e+00,5.79894793783821e-01
7.61492062488662e-08,0.00000000000000e+00,0.00000000000000e+00,6.04934387196458e-01
7.67446056950053e-08,0.00000000000000e+00,0.00000000000000e+00,5.95112567112111e-01
7.77074945291707e-08,0.00000000000000e+00,0.00000000000000e+00,6.03134500016127e-01
7.81000000000000e-08,0.00000000000000e+00,0.00000000000000e+00,5.97573205874607e-01
7.82679173699637e-08,0.00000000000000e+00,0.00000000000000e+00,5.99232355911770e-01
7.86037521098910e-08,0.00000000000000e+00,0.00000000000000e+00,6.00005289607803e-01
7.92754215897456e-08,0.00000000000000e+00,0.00000000000000e+00,5.99585488640294e-01
8.06187605494549e-08,0.00000000000000e+00,0.00000000000000e+00,5.99999941562561e-01
8.33054384688735e-08,0.00000000000000e+00,0.00000000000000e+00,5.99723860289309e-01
8.50000000000000e-08,0.00000000000000e+00,0.00000000000000e+00,6.00034850900733e-01
8.50100000000000e-08,5.99999999999886e-02,0.00000000000000e+00,6.00051567066836e-01
8.50300000000000e-08,1.79999999999966e-01,0.00000000000000e+00,6.00062902348993e-01
8.50700000000000e-08,4.19999999999920e-01,0.00000000000000e+00,5.99999180976560e-01
8.51000000000000e-08,5.99999999999966e-01,0.00000000000000e+00,5.99867749490170e-01
8.51080000000000e-08,6.00000000000000e-01,0.00000000000000e+00,5.99823898586595e-01
8.51240000000000e-08,6.00000000000000e-01,0.00000000000000e+00,5.99757107204202e-01
8.51560000000000e-08,6.00000000000000e-01,0.00000000000000e+00,5.99682789287355e-01
8.52200000000000e-08,6.00000000000000e-01,0.00000000000000e+00,5.99712936132697e-01
8.53480000000000e-08,6.00000000000000e-01,0.00000000000000e+00,6.01949128304764e-01
8.56040000000000e-08,6.00000000000000e-01,0.00000000000000e+00,5.72154983043576e-01
8.61159999999999e-08,6.00000000000000e-01,0.00000000000000e+00,6.32246420732648e-02
8.67315088468307e-08,6.00000000000000e-01,0.00000000000000e+00,-4.12528037184260e-02
8.78021210816999e-08,6.00000000000000e-01,0.00000000000000e+00,3.83725060773710e-02
8.92984950203037e-08,6.00000000000000e-01,0.00000000000000e+00,-3.15590591912454e-02
9.00000000000000e-08,6.00000000000000e-01,0.00000000000000e+00,2.64250525918875e-02
9.00100000000000e-08,6.00000000000000e-01,5.99999999999886e-02,2.07292956110770e-02
9.00300000000000e-08,6.00000000000000e-01,1.79999999999966e-01,1.24603794743697e-02
9.00700000000000e-08,6.00000000000000e-01,4.19999999999920e-01,4.90666312816984e-03
9.01000000000000e-08,6.00000000000000e-01,5.99999999999966e-01,2.35313970223405e-03
9.01080000000000e-08,6.00000000000000e-01,6.00000000000000e-01,2.01560328041502e-03
9.01240000000000e-08,6.00000000000000e-01,6.00000000000000e-01,1.40496257195964e-03
9.01560000000000e-08,6.00000000000000e-01,6.00000000000000e-01,6.69128922243269e-04
9.02200000000000e-08,6.00000000000000e-01,6.00000000000000e-01,1.26394533491041e-04
9.03480000000000e-08,6.00000000000000e-01,6.00000000000000e-01,-3.20555142277364e-05
9.06040000000000e-08,6.00000000000000e-01,6.00000000000000e-01,1.41742974534911e-05
9.11159999999999e-08,6.00000000000000e-01,6.00000000000000e-01,-1.10971569208763e-05
9.21399999999999e-08,6.00000000000000e-01,6.00000000000000e-01,8.25717671469606e-06
9.41879999999998e-08,6.00000000000000e-01,6.00000000000000e-01,-9.04476556951354e-06
9.51000000000000e-08,6.00000000000000e-01,6.00000000000000e-01,6.43167195118035e-06
9.51100000000000e-08,5.40000000000061e-01,6.00000000000000e-01,-2.90025932964053e-05
9.51300000000000e-08,4.20000000000084e-01,6.00000000000000e-01,-8.43590343902537e-05
9.51700000000000e-08,1.80000000000129e-01,6.00000000000000e-01,-1.10205065835429e-04
9.52000000000000e-08,8.40438829641244e-14,6.00000000000000e-01,-2.18784456807591e-06
9.52080000000000e-08,0.00000000000000e+00,6.00000000000000e-01,7.43277361221761e-05
9.52240000000000e-08,0.00000000000000e+00,6.00000000000000e-01,1.74941906419299e-04
9.52560000000000e-08,0.00000000000000e+00,6.00000000000000e-01,1.89511878462917e-04
9.53200000000000e-08,0.00000000000000e+00,6.00000000000000e-01,-5.63925855438380e-05
9.54480000000000e-08,0.00000000000000e+00,6.00000000000000e-01,-1.19039976254072e-03
9.57040000000000e-08,0.00000000000000e+00,6.00000000000000e-01,-1.25668125632833e-04
9.60950191394691e-08,0.00000000000000e+00,6.00000000000000e-01,-2.82758919995796e-05
9.68770574184073e-08,0.00000000000000e+00,6.00000000000000e-01,2.91573949581497e-05
9.78386127282254e-08,0.00000000000000e+00,6.00000000000000e-01,9.88586907208436e-05
9.95493746257232e-08,0.00000000000000e+00,6.00000000000000e-01,-1.46949060402542e-04
1.02072882866075e-07,0.00000000000000e+00,6.00000000000000e-01,1.70986312808306e-04
1.05000000000000e-07,0.00000000000000e+00,6.00000000000000e-01,-1.89353054864463e-04
1.05010000000000e-07,5.99999999999886e-02,6.00000000000000e-01,-2.36277643722374e-05
1.05030000000000e-07,1.79999999999966e-01,6.00000000000000e-01,1.82718719199455e-04
1.05070000000000e-07,4.19999999999920e-01,6.00000000000000e-01,2.63663237408743e-04
1.05100000000000e-07,5.99999999999966e-01,6.00000000000000e-01,1.45757575206594e-04
1.05108000000000e-07,6.00000000000000e-01,6.00000000000000e-01,1.77342679389958e-05
1.05124000000000e-07,6.00000000000000e-01,6.00000000000000e-01,-4.69355774270076e-04
1.05156000000000e-07,6.00000000000000e-01,6.00000000000000e-01,-2.13241622355199e-03
1.05220000000000e-07,6.00000000000000e-01,6.00000000000000e-01,-4.79991905271989e-03
1.05348000000000e-07,6.00000000000000e-01,6.00000000000000e-01,3.56160170886943e-02
1.05604000000000e-07,6.00000000000000e-01,6.00000000000000e-01,4.14078047274888e-01
1.06116000000000e-07,6.00000000000000e-01,6.00000000000000e-01,6.29479389225325e-01
1.06762771667115e-07,6.00000000000000e-01,6.00000000000000e-01,5.73947384762819e-01
1.08056315001344e-07,6.00000000000000e-01,6.00000000000000e-01,6.23167478933246e-01
1.09810041024252e-07,6.00000000000000e-01,6.00000000000000e-01,5.77061806987549e-01
1.10100000000000e-07,6.00000000000000e-01,6.00000000000000e-01,6.15434138997608e-01
1.10110000000000e-07,6.00000000000000e-01,5.40000000000091e-01,6.10891122470877e-01
