Time,v(clk),v(data),v(out)
1.00000000000000e-08,6.00000000000000e-01,0.00000000000000e+00,8.12500992507497e-06
1.00100000000000e-08,6.00000000000000e-01,5.99999999999985e-02,1.00558967954592e-05
1.00300000000000e-08,6.00000000000000e-01,1.79999999999996e-01,1.09286655453344e-05
1.00700000000000e-08,6.00000000000000e-01,4.19999999999990e-01,6.85484936580050e-06
1.01000000000000e-08,6.00000000000000e-01,5.99999999999995e-01,4.04305344896966e-06
1.01080000000000e-08,6.00000000000000e-01,6.00000000000000e-01,3.39604010932831e-06
1.01240000000000e-08,6.00000000000000e-01,6.00000000000000e-01,3.08610340239712e-06
1.01560000000000e-08,6.00000000000000e-01,6.00000000000000e-01,4.30510584337879e-06
1.02200000000000e-08,6.00000000000000e-01,6.00000000000000e-01,5.98746488894922e-06
1.03480000000000e-08,6.00000000000000e-01,6.00000000000000e-01,1.65215043455846e-06
1.06040000000000e-08,6.00000000000000e-01,6.00000000000000e-01,1.18912513719614e-06
1.11160000000000e-08,6.00000000000000e-01,6.00000000000000e-01,1.98459268814337e-06
1.21400000000000e-08,6.00000000000000e-01,6.00000000000000e-01,1.17549361935152e-06
1.41880000000000e-08,6.00000000000000e-01,6.00000000000000e-01,1.62960183074838e-06
1.51000000000000e-08,6.00000000000000e-01,6.00000000000000e-01,9.57994608141721e-07
1.51100000000000e-08,5.39999999999991e-01,6.00000000000000e-01,-4.13250528093975e-05
1.51300000000000e-08,4.19999999999994e-01,6.00000000000000e-01,-1.06160683903976e-04
1.51700000000000e-08,1.80000000000000e-01,6.00000000000000e-01,-1.28677430298443e-04
1.52000000000000e-08,0.00000000000000e+00,6.00000000000000e-01,1.51742139580871e-05
1.52080000000000e-08,0.00000000000000e+00,6.00000000000000e-01,1.10426641917225e-04
1.52240000000000e-08,0.00000000000000e+00,6.00000000000000e-01,2.35397560040408e-04
1.52560000000000e-08,0.00000000000000e+00,6.00000000000000e-01,2.60280052760881e-04
1.53200000000000e-08,0.00000000000000e+00,6.00000000000000e-01,8.93245453302306e-05
1.54480000000000e-08,0.00000000000000e+00,6.00000000000000e-01,-1.28360870933458e-04
1.57040000000000e-08,0.00000000000000e+00,6.00000000000000e-01,-4.45643992812942e-05
1.62160000000000e-08,0.00000000000000e+00,6.00000000000000e-01,-8.28794941188423e-05
1.69125233397789e-08,0.00000000000000e+00,6.00000000000000e-01,1.36712672964446e-04
1.83055700193367e-08,0.00000000000000e+00,6.00000000000000e-01,-9.32747000448263e-05
1.98622953842153e-08,0.00000000000000e+00,6.00000000000000e-01,6.43376456864776e-05
2.29757461139725e-08,0.00000000000000e+00,6.00000000000000e-01,-5.08140445928337e-05
2.50000000000000e-08,0.00000000000000e+00,6.00000000000000e-01,3.47690692487123e-05
2.50100000000000e-08,5.99999999999886e-02,6.00000000000000e-01,1.18229354972792e-04
2.50300000000000e-08,1.80000000000006e-01,6.00000000000000e-01,2.44761643932494e-04
2.50700000000000e-08,4.20000000000000e-01,6.00000000000000e-01,3.31412053076983e-04
2.51000000000000e-08,6.00000000000000e-01,6.00000000000000e-01,4.21740277452426e-05
2.51080000000000e-08,6.00000000000000e-01,6.00000000000000e-01,-2.41518987030905e-04
2.51240000000000e-08,6.00000000000000e-01,6.00000000000000e-01,-1.00450171529135e-03
2.51560000000000e-08,6.00000000000000e-01,6.00000000000000e-01,-2.70664128772279e-03
2.52200000000000e-08,6.00000000000000e-01,6.00000000000000e-01,-5.13308197869785e-03
2.53480000000000e-08,6.00000000000000e-01,6.00000000000000e-01,4.44905895748617e-02
2.56040000000000e-08,6.00000000000000e-01,6.00000000000000e-01,4.50134301584380e-01
2.61160000000000e-08,6.00000000000000e-01,6.00000000000000e-01,6.28478119331907e-01
2.67305116062095e-08,6.00000000000000e-01,6.00000000000000e-01,5.73559005775852e-01
2.79595348186285e-08,6.00000000000000e-01,6.00000000000000e-01,6.23063898766260e-01
2.96647018777107e-08,6.00000000000000e-01,6.00000000000000e-01,5.76585482529659e-01
3.01000000000000e-08,6.00000000000000e-01,6.00000000000000e-01,6.17959546905492e-01
3.01100000000000e-08,6.00000000000000e-01,5.40000000000031e-01,6.12108208609736e-01
3.01300000000000e-08,6.00000000000000e-01,4.20000000000014e-01,6.04215081445641e-01
3.01700000000000e-08,6.00000000000000e-01,1.80000000000020e-01,6.00039288738603e-01
3.02000000000000e-08,6.00000000000000e-01,1.44328993201270e-14,6.00016866901280e-01
3.02080000000000e-08,6.00000000000000e-01,0.00000000000000e+00,5.99998173552559e-01
3.02240000000000e-08,6.00000000000000e-01,0.00000000000000e+00,5.99966914890297e-01
3.02560000000000e-08,6.00000000000000e-01,0.00000000000000e+00,5.99948861953328e-01
3.03200000000000e-08,6.00000000000000e-01,0.00000000000000e+00,5.99969874409762e-01
3.04480000000000e-08,6.00000000000000e-01,0.00000000000000e+00,5.99967321657975e-01
3.07040000000000e-08,6.00000000000000e-01,0.00000000000000e+00,5.99984657988196e-01
3.10634323898299e-08,6.00000000000000e-01,0.00000000000000e+00,5.99967931371172e-01
3.17822971694896e-08,6.00000000000000e-01,0.00000000000000e+00,5.99978626682435e-01
3.26796491357606e-08,6.00000000000000e-01,0.00000000000000e+00,5.99976764910342e-01
3.44743530683026e-08,6.00000000000000e-01,0.00000000000000e+00,5.99979166092393e-01
3.51000000000000e-08,5.99999999999970e-01,0.00000000000000e+00,5.99983015376109e-01
3.51100000000000e-08,5.39999999999982e-01,0.00000000000000e+00,5.99937310709909e-01
3.51300000000000e-08,4.19999999999965e-01,0.00000000000000e+00,5.99871814427203e-01
3.51700000000000e-08,1.79999999999970e-01,0.00000000000000e+00,6.00185763079199e-01
3.52000000000000e-08,0.00000000000000e+00,0.00000000000000e+00,6.01290376649991e-01
3.52080000000000e-08,0.00000000000000e+00,0.00000000000000e+00,6.01621857220984e-01
3.52240000000000e-08,0.00000000000000e+00,0.00000000000000e+00,6.02068559709219e-01
3.52560000000000e-08,0.00000000000000e+00,0.00000000000000e+00,6.02050666498463e-01
3.53200000000000e-08,0.00000000000000e+00,0.00000000000000e+00,5.96857386698061e-01
3.54480000000000e-08,0.00000000000000e+00,0.00000000000000e+00,5.76811949636899e-01
3.57040000000000e-08,0.00000000000000e+00,0.00000000000000e+00,5.86278611907299e-01
3.60854433864782e-08,0.00000000000000e+00,0.00000000000000e+00,6.05151743770466e-01
3.67400362711700e-08,0.00000000000000e+00,0.00000000000000e+00,5.94745806636957e-01
3.75411339070721e-08,0.00000000000000e+00,0.00000000000000e+00,6.03430054883627e-01
3.91000000000000e-08,0.00000000000000e+00,0.00000000000000e+00,5.96428451514355e-01
3.92602195271804e-08,0.00000000000000e+00,0.00000000000000e+00,5.99097408947534e-01
3.95806585815413e-08,0.00000000000000e+00,0.00000000000000e+00,6.00245560218762e-01
4.02215366902630e-08,0.00000000000000e+00,0.00000000000000e+00,5.99531124691748e-01
4.15032929077065e-08,0.00000000000000e+00,0.00000000000000e+00,6.00154714619162e-01
4.40668053425933e-08,0.00000000000000e+00,0.00000000000000e+00,5.99647079605131e-01
4.50000000000000e-08,0.00000000000000e+00,0.00000000000000e+00,6.00129179802740e-01
4.50100000000000e-08,5.99999999999886e-02,0.00000000000000e+00,6.00128349122160e-01
4.50300000000000e-08,1.80000000000006e-01,0.00000000000000e+00,6.00111159673899e-01
4.50700000000000e-08,4.20000000000000e-01,0.00000000000000e+00,6.00019136892818e-01
4.51000000000000e-08,6.00000000000000e-01,0.00000000000000e+00,5.99875564997675e-01
4.51080000000000e-08,6.00000000000000e-01,0.00000000000000e+00,5.99823983663424e-01
4.51240000000000e-08,6.00000000000000e-01,0.00000000000000e+00,5.99749098597403e-01
4.51560000000000e-08,6.00000000000000e-01,0.00000000000000e+00,5.99689105503376e-01
4.52200000000000e-08,6.00000000000000e-01,0.00000000000000e+00,5.99748564350932e-01
4.53480000000000e-08,6.00000000000000e-01,0.00000000000000e+00,6.02103786099652e-01
4.56040000000000e-08,6.00000000000000e-01,0.00000000000000e+00,5.17082141049016e-01
4.61160000000000e-08,6.00000000000000e-01,0.00000000000000e+00,3.31842182902724e-02
4.67115477090724e-08,6.00000000000000e-01,0.00000000000000e+00,-2.38138505173359e-02
4.79026431272172e-08,6.00000000000000e-01,0.00000000000000e+00,2.16463315927850e-02
4.92803194491960e-08,6.00000000000000e-01,0.00000000000000e+00,-1.86127914399314e-02
5.00000000000000e-08,6.00000000000000e-01,0.00000000000000e+00,1.55001041033038e-02
5.00100000000000e-08,6.00000000000000e-01,5.99999999999886e-02,1.16403117925322e-02
5.00300000000000e-08,6.00000000000000e-01,1.79999999999966e-01,6.47018885885504e-03
5.00700000000000e-08,6.00000000000000e-01,4.20000000000000e-01,2.51067775675944e-03
5.01000000000000e-08,6.00000000000000e-01,6.00000000000000e-01,1.15716746591960e-03
5.01080000000000e-08,6.00000000000000e-01,6.00000000000000e-01,1.00362152575947e-03
5.01240000000000e-08,6.00000000000000e-01,6.00000000000000e-01,7.09864805845568e-04
5.01560000000000e-08,6.00000000000000e-01,6.00000000000000e-01,3.43065649906500e-04
5.02200000000000e-08,6.00000000000000e-01,6.00000000000000e-01,7.37215546467787e-05
5.03480000000000e-08,6.00000000000000e-01,6.00000000000000e-01,-9.12868495787922e-06
5.06040000000000e-08,6.00000000000000e-01,6.00000000000000e-01,3.05045698693017e-06
5.11160000000001e-08,6.00000000000000e-01,6.00000000000000e-01,-2.58281035888340e-06
5.21400000000002e-08,6.00000000000000e-01,6.00000000000000e-01,1.92836947513928e-06
5.41880000000003e-08,6.00000000000000e-01,6.00000000000000e-01,-2.35336480469044e-06
5.51000000000000e-08,6.00000000000000e-01,6.00000000000000e-01,1.00026840750035e-06
5.51100000000000e-08,5.40000000000021e-01,6.00000000000000e-01,-4.23759605883423e-05
5.51300000000000e-08,4.20000000000004e-01,6.00000000000000e-01,-1.05868461096892e-04
5.51700000000000e-08,1.80000000000010e-01,6.00000000000000e-01,-1.23982640661220e-04
5.52000000000000e-08,0.00000000000000e+00,6.00000000000000e-01,1.96760315326339e-05
5.52080000000000e-08,0.00000000000000e+00,6.00000000000000e-01,1.13294774630214e-04
5.52240000000000e-08,0.00000000000000e+00,6.00000000000000e-01,2.31344577955844e-04
5.52560000000000e-08,0.00000000000000e+00,6.00000000000000e-01,2.31602247767540e-04
5.53200000000000e-08,0.00000000000000e+00,6.00000000000000e-01,-1.37130883124753e-04
5.54480000000000e-08,0.00000000000000e+00,6.00000000000000e-01,-1.18820163741961e-03
5.57040000000000e-08,0.00000000000000e+00,6.00000000000000e-01,6.28698721032179e-05
5.60963739710331e-08,0.00000000000000e+00,6.00000000000000e-01,-7.15533436368449e-05
5.68521418627648e-08,0.00000000000000e+00,6.00000000000000e-01,6.05577245494995e-05
5.79018678880157e-08,0.00000000000000e+00,6.00000000000000e-01,4.21133522980196e-05
5.94189645977119e-08,0.00000000000000e+00,6.00000000000000e-01,-9.18516903314496e-05
6.22994172400248e-08,0.00000000000000e+00,6.00000000000000e-01,1.13541160111222e-04
6.50000000000000e-08,0.00000000000000e+00,6.00000000000000e-01,-1.32864463677151e-04
6.50100000000000e-08,5.99999999999886e-02,6.00000000000000e-01,4.10538110267658e-05
6.50300000000000e-08,1.79999999999966e-01,6.00000000000000e-01,2.60864114339204e-04
6.50700000000000e-08,4.19999999999920e-01,6.00000000000000e-01,3.49714946495015e-04
6.51000000000000e-08,5.99999999999966e-01,6.00000000000000e-01,1.90401183497314e-04
6.51080000000000e-08,6.00000000000000e-01,6.00000000000000e-01,8.57100527375948e-06
6.51240000000000e-08,6.00000000000000e-01,6.00000000000000e-01,-5.93556121571415e-04
6.51560000000000e-08,6.00000000000000e-01,6.00000000000000e-01,-2.37471950888243e-03
6.52200000000000e-08,6.00000000000000e-01,6.00000000000000e-01,-5.00694233560551e-03
6.53480000000000e-08,6.00000000000000e-01,6.00000000000000e-01,3.70900403421140e-02
6.56040000000000e-08,6.00000000000000e-01,6.00000000000000e-01,4.38130095732635e-01
6.61159999999999e-08,6.00000000000000e-01,6.00000000000000e-01,6.29083696368270e-01
6.67294963759499e-08,6.00000000000000e-01,6.00000000000000e-01,5.73312016248534e-01
6.79564891278498e-08,6.00000000000000e-01,6.00000000000000e-01,6.23444508852175e-01
6.96855493437126e-08,6.00000000000000e-01,6.00000000000000e-01,5.76288467221390e-01
7.01000000000000e-08,6.00000000000000e-01,6.00000000000000e-01,6.18112997714631e-01
7.01100000000000e-08,6.00000000000000e-01,5.40000000000011e-01,6.12187543445301e-01
7.01300000000000e-08,6.00000000000000e-01,4.20000000000034e-01,6.04237745380847e-01
7.01700000000000e-08,6.00000000000000e-01,1.80000000000080e-01,6.00036608740662e-01
7.02000000000000e-08,6.00000000000000e-01,3.44169137633799e-14,6.00010435572264e-01
7.02080000000000e-08,6.00000000000000e-01,0.00000000000000e+00,5.99997617727700e-01
7.02240000000000e-08,6.00000000000000e-01,0.00000000000000e+00,5.99975448284550e-01
7.02560000000000e-08,6.00000000000000e-01,0.00000000000000e+00,5.99960103259024e-01
7.03200000000000e-08,6.00000000000000e-01,0.00000000000000e+00,5.99957968555963e-01
7.04480000000000e-08,6.00000000000000e-01,0.00000000000000e+00,5.99963084927175e-01
7.07040000000000e-08,6.00000000000000e-01,0.00000000000000e+00,5.99988223635230e-01
7.10616964698993e-08,6.00000000000000e-01,0.00000000000000e+00,5.99962226806891e-01
7.17770894096979e-08,6.00000000000000e-01,0.00000000000000e+00,5.99982902039454e-01
7.26678849392184e-08,6.00000000000000e-01,0.00000000000000e+00,5.99970430203591e-01
7.44494759982594e-08,6.00000000000000e-01,0.00000000000000e+00,5.99984039622383e-01
7.51000000000000e-08,6.00000000000000e-01,0.00000000000000e+00,5.99977109676727e-01
7.51100000000000e-08,5.40000000000061e-01,0.00000000000000e+00,5.99932668194490e-01
7.51300000000000e-08,4.20000000000084e-01,0.00000000000000e+00,5.99868833811462e-01
7.51700000000000e-08,1.80000000000129e-01,0.00000000000000e+00,6.00184826692376e-01
7.52000000000000e-08,8.40438829641244e-14,0.00000000000000e+00,6.01289421612417e-01
7.52080000000000e-08,0.00000000000000e+00,0.00000000000000e+00,6.01620128038848e-01
7.52240000000000e-08,0.00000000000000e+00,0.00000000000000e+00,6.02064825139916e-01
7.52560000000000e-08,0.00000000000000e+00,0.00000000000000e+00,6.02035745832073e-01
7.53200000000000e-08,0.00000000000000e+00,0.00000000000000e+00,5.96775905321086e-01
7.54480000000000e-08,0.00000000000000e+00,0.00000000000000e+00,5.76723091130294e-01
7.57040000000000e-08,0.00000000000000e+00,0.00000000000000e+00,5.86311687508346e-01
7.60854406827146e-08,0.00000000000000e+00,0.00000000000000e+00,6.05134169793523e-01
7.67400349249967e-08,0.00000000000000e+00,0.00000000000000e+00,5.94760112940959e-01
7.75411247362874e-08,0.00000000000000e+00,0.00000000000000e+00,6.03418684639133e-01
7.81000000000000e-08,0.00000000000000e+00,0.00000000000000e+00,5.96975663074990e-01
7.82602179622581e-08,0.00000000000000e+00,0.00000000000000e+00,5.99165873597028e-01
7.85806538867744e-08,0.00000000000000e+00,0.00000000000000e+00,6.00120671453498e-01
7.92215257358069e-08,0.00000000000000e+00,0.00000000000000e+00,5.99555185524378e-01
8.05032694338719e-08,0.00000000000000e+00,0.00000000000000e+00,6.00081071261420e-01
8.30667568300019e-08,0.00000000000000e+00,0.00000000000000e+00,5.99687556702510e-01
8.50000000000000e-08,0.00000000000000e+00,0.00000000000000e+00,6.00105187832961e-01
8.50100000000000e-08,5.99999999999886e-02,0.00000000000000e+00,6.00114354486372e-01
8.50300000000000e-08,1.79999999999966e-01,0.00000000000000e+00,6.00109856533320e-01
8.50700000000000e-08,4.19999999999920e-01,0.00000000000000e+00,6.00021305971818e-01
8.51000000000000e-08,5.99999999999966e-01,0.00000000000000e+00,5.99876028902416e-01
8.51080000000000e-08,6.00000000000000e-01,0.00000000000000e+00,5.99825799671757e-01
8.51240000000000e-08,6.00000000000000e-01,0.00000000000000e+00,5.99752468164274e-01
8.51560000000000e-08,6.00000000000000e-01,0.00000000000000e+00,5.99685794176140e-01
8.52200000000000e-08,6.00000000000000e-01,0.00000000000000e+00,5.99738402082888e-01
8.53480000000000e-08,6.00000000000000e-01,0.00000000000000e+00,6.02106540254472e-01
8.56040000000000e-08,6.00000000000000e-01,0.00000000000000e+00,5.17076454271634e-01
8.61159999999999e-08,6.00000000000000e-01,0.00000000000000e+00,3.31852339986653e-02
8.67114747412647e-08,6.00000000000000e-01,0.00000000000000e+00,-2.38142699018786e-02
8.79024242237941e-08,6.00000000000000e-01,0.00000000000000e+00,2.16460042529399e-02
8.92801160549684e-08,6.00000000000000e-01,0.00000000000000e+00,-1.86128264529910e-02
9.00000000000000e-08,6.00000000000000e-01,0.00000000000000e+00,1.55009015311939e-02
9.00100000000000e-08,6.00000000000000e-01,5.99999999999886e-02,1.16410214832721e-02
9.00300000000000e-08,6.00000000000000e-01,1.79999999999966e-01,6.47060362381004e-03
9.00700000000000e-08,6.00000000000000e-01,4.19999999999920e-01,2.51070506036825e-03
9.01000000000000e-08,6.00000000000000e-01,5.99999999999966e-01,1.15718955766844e-03
9.01080000000000e-08,6.00000000000000e-01,6.00000000000000e-01,1.00363518640908e-03
9.01240000000000e-08,6.00000000000000e-01,6.00000000000000e-01,7.09868725698351e-04
9.01560000000000e-08,6.00000000000000e-01,6.00000000000000e-01,3.43066985180836e-04
9.02200000000000e-08,6.00000000000000e-01,6.00000000000000e-01,7.37194364205385e-05
9.03480000000000e-08,6.00000000000000e-01,6.00000000000000e-01,-9.13113923576431e-06
9.06040000000000e-08,6.00000000000000e-01,6.00000000000000e-01,3.05265003765209e-06
9.11159999999999e-08,6.00000000000000e-01,6.00000000000000e-01,-2.58355355698282e-06
9.21399999999999e-08,6.00000000000000e-01,6.00000000000000e-01,1.92993594033122e-06
9.41879999999998e-08,6.00000000000000e-01,6.00000000000000e-01,-2.35389364837022e-06
9.51000000000000e-08,6.00000000000000e-01,6.00000000000000e-01,1.00152953409587e-06
9.51100000000000e-08,5.40000000000061e-01,6.00000000000000e-01,-4.23753653301523e-05
9.51300000000000e-08,4.20000000000084e-01,6.00000000000000e-01,-1.05867824426259e-04
9.51700000000000e-08,1.80000000000129e-01,6.00000000000000e-01,-1.23982052948245e-04
9.52000000000000e-08,8.40438829641244e-14,6.00000000000000e-01,1.96769900510999e-05
9.52080000000000e-08,0.00000000000000e+00,6.00000000000000e-01,1.13296056451648e-04
9.52240000000000e-08,0.00000000000000e+00,6.00000000000000e-01,2.31347195906353e-04
9.52560000000000e-08,0.00000000000000e+00,6.00000000000000e-01,2.31614786673051e-04
9.53200000000000e-08,0.00000000000000e+00,6.00000000000000e-01,-1.37038433677857e-04
9.54480000000000e-08,0.00000000000000e+00,6.00000000000000e-01,-1.18775065193532e-03
9.57040000000000e-08,0.00000000000000e+00,6.00000000000000e-01,6.28596473757851e-05
9.60964460942900e-08,0.00000000000000e+00,6.00000000000000e-01,-7.15774388101980e-05
9.68521686306419e-08,0.00000000000000e+00,6.00000000000000e-01,6.05976482765608e-05
9.79022307359253e-08,0.00000000000000e+00,6.00000000000000e-01,4.20211664682469e-05
9.94192833793410e-08,0.00000000000000e+00,6.00000000000000e-01,-9.17574630472356e-05
1.02300352670749e-07,0.00000000000000e+00,6.00000000000000e-01,1.13442518486744e-04
1.05000000000000e-07,0.00000000000000e+00,6.00000000000000e-01,-1.32771782283628e-04
1.05010000000000e-07,5.99999999999886e-02,6.00000000000000e-01,4.11086211306519e-05
1.05030000000000e-07,1.79999999999966e-01,6.00000000000000e-01,2.60879061871763e-04
1.05070000000000e-07,4.19999999999920e-01,6.00000000000000e-01,3.49714131611806e-04
1.05100000000000e-07,5.99999999999966e-01,6.00000000000000e-01,1.90331940819473e-04
1.05108000000000e-07,6.00000000000000e-01,6.00000000000000e-01,8.42702481568952e-06
1.05124000000000e-07,6.00000000000000e-01,6.00000000000000e-01,-5.93842176066450e-04
1.05156000000000e-07,6.00000000000000e-01,6.00000000000000e-01,-2.37506968804221e-03
1.05220000000000e-07,6.00000000000000e-01,6.00000000000000e-01,-5.00707128475397e-03
1.05348000000000e-07,6.00000000000000e-01,6.00000000000000e-01,3.70957353310443e-02
1.05604000000000e-07,6.00000000000000e-01,6.00000000000000e-01,4.38139859644340e-01
1.06116000000000e-07,6.00000000000000e-01,6.00000000000000e-01,6.29083327441223e-01
1.06729496565260e-07,6.00000000000000e-01,6.00000000000000e-01,5.73312119034740e-01
1.07956489695780e-07,6.00000000000000e-01,6.00000000000000e-01,6.23444273423051e-01
1.09685571657736e-07,6.00000000000000e-01,6.00000000000000e-01,5.76288595892985e-01
1.10100000000000e-07,6.00000000000000e-01,6.00000000000000e-01,6.18112621177908e-01
1.10110000000000e-07,6.00000000000000e-01,5.40000000000091e-01,6.12187288104874e-01
