Time,v(clk),v(data),v(out)
1.00000000000000e-08,6.00000000000000e-01,0.00000000000000e+00,2.94459216487984e-05
1.00100000000000e-08,6.00000000000000e-01,5.99999999999985e-02,1.86483516104174e-05
1.00300000000000e-08,6.00000000000000e-01,1.79999999999996e-01,4.82038447451039e-06
1.00700000000000e-08,6.00000000000000e-01,4.19999999999990e-01,1.13222499403820e-07
1.01000000000000e-08,6.00000000000000e-01,5.99999999999995e-01,-1.97390172201883e-06
1.01080000000000e-08,6.00000000000000e-01,6.00000000000000e-01,-1.87429123849059e-06
1.01240000000000e-08,6.00000000000000e-01,6.00000000000000e-01,1.78491231216105e-06
1.01560000000000e-08,6.00000000000000e-01,6.00000000000000e-01,6.52960036118255e-06
1.02200000000000e-08,6.00000000000000e-01,6.00000000000000e-01,4.41649435785341e-06
1.03480000000000e-08,6.00000000000000e-01,6.00000000000000e-01,-3.89539763306912e-07
1.06040000000000e-08,6.00000000000000e-01,6.00000000000000e-01,3.41487720558614e-06
1.11160000000000e-08,6.00000000000000e-01,6.00000000000000e-01,7.13136356420355e-07
1.21400000000000e-08,6.00000000000000e-01,6.00000000000000e-01,2.85254454988632e-06
1.41880000000000e-08,6.00000000000000e-01,6.00000000000000e-01,6.05463855755332e-07
1.51000000000000e-08,6.00000000000000e-01,6.00000000000000e-01,2.47887188196700e-06
1.51100000000000e-08,5.39999999999991e-01,6.00000000000000e-01,-1.06798022190671e-04
1.51300000000000e-08,4.19999999999994e-01,6.00000000000000e-01,-2.19755901765054e-04
1.51700000000000e-08,1.80000000000000e-01,6.00000000000000e-01,-1.16225715739438e-05
1.52000000000000e-08,0.00000000000000e+00,6.00000000000000e-01,6.11016843499512e-04
1.52080000000000e-08,0.00000000000000e+00,6.00000000000000e-01,8.21028804615556e-04
1.52240000000000e-08,0.00000000000000e+00,6.00000000000000e-01,9.03003572713348e-04
1.52560000000000e-08,0.00000000000000e+00,6.00000000000000e-01,1.08358580807752e-04
1.53200000000000e-08,0.00000000000000e+00,6.00000000000000e-01,-6.82157950923357e-04
1.54480000000000e-08,0.00000000000000e+00,6.00000000000000e-01,2.25322043650319e-04
1.56660519757158e-08,0.00000000000000e+00,6.00000000000000e-01,-2.80443199316523e-04
1.59699832253289e-08,0.00000000000000e+00,6.00000000000000e-01,1.91181082851512e-04
1.64881068861216e-08,0.00000000000000e+00,6.00000000000000e-01,-5.11644329406636e-05
1.71569647912627e-08,0.00000000000000e+00,6.00000000000000e-01,-1.68227608857117e-05
1.84867636828181e-08,0.00000000000000e+00,6.00000000000000e-01,4.42605064922292e-05
2.11463614659289e-08,0.00000000000000e+00,6.00000000000000e-01,-5.37888610867114e-05
2.49463614659289e-08,0.00000000000000e+00,6.00000000000000e-01,6.24675208104352e-05
2.50000000000000e-08,0.00000000000000e+00,6.00000000000000e-01,-1.25054767224596e-04
2.50100000000000e-08,5.99999999999886e-02,6.00000000000000e-01,1.06616037886489e-04
2.50300000000000e-08,1.80000000000006e-01,6.00000000000000e-01,4.28376937507302e-04
2.50700000000000e-08,4.20000000000000e-01,6.00000000000000e-01,7.13701842377679e-04
2.51000000000000e-08,6.00000000000000e-01,6.00000000000000e-01,-2.70697755258384e-04
2.51080000000000e-08,6.00000000000000e-01,6.00000000000000e-01,-1.06678784947989e-03
2.51240000000000e-08,6.00000000000000e-01,6.00000000000000e-01,-2.66550952451493e-03
2.51560000000000e-08,6.00000000000000e-01,6.00000000000000e-01,-5.14510358802796e-03
2.52200000000000e-08,6.00000000000000e-01,6.00000000000000e-01,-6.20117631609408e-03
2.53480000000000e-08,6.00000000000000e-01,6.00000000000000e-01,1.83284406468279e-01
2.56040000000000e-08,6.00000000000000e-01,6.00000000000000e-01,5.92065496574761e-01
2.60698756168428e-08,6.00000000000000e-01,6.00000000000000e-01,6.01798347587319e-01
2.66287888910050e-08,6.00000000000000e-01,6.00000000000000e-01,5.98385180181070e-01
2.74838035691841e-08,6.00000000000000e-01,6.00000000000000e-01,6.01246118917251e-01
2.87569686469585e-08,6.00000000000000e-01,6.00000000000000e-01,5.98750551443818e-01
3.01000000000000e-08,6.00000000000000e-01,6.00000000000000e-01,6.01081069412092e-01
3.01100000000000e-08,6.00000000000000e-01,5.40000000000031e-01,6.00638760277547e-01
3.01300000000000e-08,6.00000000000000e-01,4.20000000000014e-01,6.00126717667804e-01
3.01700000000000e-08,6.00000000000000e-01,1.80000000000020e-01,6.00068687765176e-01
3.02000000000000e-08,6.00000000000000e-01,1.44328993201270e-14,6.00083969571124e-01
3.02080000000000e-08,6.00000000000000e-01,0.00000000000000e+00,6.00070040063679e-01
3.02240000000000e-08,6.00000000000000e-01,0.00000000000000e+00,6.00041661144728e-01
3.02560000000000e-08,6.00000000000000e-01,0.00000000000000e+00,5.99966655663108e-01
3.03200000000000e-08,6.00000000000000e-01,0.00000000000000e+00,6.00014833157623e-01
3.04480000000000e-08,6.00000000000000e-01,0.00000000000000e+00,6.00005049147428e-01
3.06647090815205e-08,6.00000000000000e-01,0.00000000000000e+00,5.99981753008685e-01
3.09630186415101e-08,6.00000000000000e-01,0.00000000000000e+00,6.00005021136028e-01
3.15596377614894e-08,6.00000000000000e-01,0.00000000000000e+00,5.99983209515588e-01
3.27528760014479e-08,6.00000000000000e-01,0.00000000000000e+00,6.00005084352494e-01
3.51000000000000e-08,5.99999999999970e-01,0.00000000000000e+00,5.99984744501765e-01
3.51100000000000e-08,5.39999999999982e-01,0.00000000000000e+00,5.99903364209627e-01
3.51300000000000e-08,4.19999999999965e-01,0.00000000000000e+00,5.99837813718446e-01
3.51700000000000e-08,1.79999999999970e-01,0.00000000000000e+00,6.00860731276264e-01
3.52000000000000e-08,0.00000000000000e+00,0.00000000000000e+00,6.04011980345013e-01
3.52080000000000e-08,0.00000000000000e+00,0.00000000000000e+00,6.04660821964654e-01
3.52240000000000e-08,0.00000000000000e+00,0.00000000000000e+00,6.04091534536990e-01
3.52560000000000e-08,0.00000000000000e+00,0.00000000000000e+00,5.94454874194563e-01
3.53200000000000e-08,0.00000000000000e+00,0.00000000000000e+00,5.87118335834946e-01
3.54480000000000e-08,0.00000000000000e+00,0.00000000000000e+00,6.00554568755966e-01
3.56644954433998e-08,0.00000000000000e+00,0.00000000000000e+00,5.98817437605364e-01
3.59655311884116e-08,0.00000000000000e+00,0.00000000000000e+00,6.00526639666031e-01
3.64713589392071e-08,0.00000000000000e+00,0.00000000000000e+00,5.99224073383318e-01
3.74531194576891e-08,0.00000000000000e+00,0.00000000000000e+00,6.00550469831254e-01
3.91000000000000e-08,0.00000000000000e+00,0.00000000000000e+00,5.99354245420303e-01
3.92963521036964e-08,0.00000000000000e+00,0.00000000000000e+00,5.99920645057814e-01
3.96890563110892e-08,0.00000000000000e+00,0.00000000000000e+00,5.99994044508079e-01
4.04744647258748e-08,0.00000000000000e+00,0.00000000000000e+00,5.99935129995743e-01
4.20452815554460e-08,0.00000000000000e+00,0.00000000000000e+00,6.00000867054610e-01
4.50000000000000e-08,0.00000000000000e+00,0.00000000000000e+00,5.99947992210478e-01
4.50100000000000e-08,5.99999999999886e-02,0.00000000000000e+00,6.00054926662991e-01
4.50300000000000e-08,1.80000000000006e-01,0.00000000000000e+00,6.00108669922982e-01
4.50700000000000e-08,4.20000000000000e-01,0.00000000000000e+00,5.99977034025597e-01
4.51000000000000e-08,6.00000000000000e-01,0.00000000000000e+00,5.99820467686232e-01
4.51080000000000e-08,6.00000000000000e-01,0.00000000000000e+00,5.99737343954136e-01
4.51240000000000e-08,6.00000000000000e-01,0.00000000000000e+00,5.99686237086551e-01
4.51560000000000e-08,6.00000000000000e-01,0.00000000000000e+00,5.99749574547703e-01
4.52200000000000e-08,6.00000000000000e-01,0.00000000000000e+00,6.00102627438473e-01
4.53480000000000e-08,6.00000000000000e-01,0.00000000000000e+00,6.13615700188624e-01
4.56040000000000e-08,6.00000000000000e-01,0.00000000000000e+00,2.03772911812195e-01
4.59514147399039e-08,6.00000000000000e-01,0.00000000000000e+00,-6.48625969240133e-02
4.64112749517564e-08,6.00000000000000e-01,0.00000000000000e+00,5.29628940026969e-02
4.71483393463209e-08,6.00000000000000e-01,0.00000000000000e+00,-3.68129027638837e-02
4.80729528122794e-08,6.00000000000000e-01,0.00000000000000e+00,3.40268113247861e-02
4.98855651996316e-08,6.00000000000000e-01,0.00000000000000e+00,-2.84015039577240e-02
5.00000000000000e-08,6.00000000000000e-01,0.00000000000000e+00,5.52537838299938e-03
5.00100000000000e-08,6.00000000000000e-01,5.99999999999886e-02,4.62168544730666e-03
5.00300000000000e-08,6.00000000000000e-01,1.79999999999966e-01,2.84885582587231e-03
5.00700000000000e-08,6.00000000000000e-01,4.20000000000000e-01,8.50085605286807e-04
5.01000000000000e-08,6.00000000000000e-01,6.00000000000000e-01,4.15967391246677e-04
5.01080000000000e-08,6.00000000000000e-01,6.00000000000000e-01,3.33426173844742e-04
5.01240000000000e-08,6.00000000000000e-01,6.00000000000000e-01,2.13376658318928e-04
5.01560000000000e-08,6.00000000000000e-01,6.00000000000000e-01,9.09202702909923e-05
5.02200000000000e-08,6.00000000000000e-01,6.00000000000000e-01,-6.41813073022635e-06
5.03480000000000e-08,6.00000000000000e-01,6.00000000000000e-01,8.57488375194393e-07
5.06040000000000e-08,6.00000000000000e-01,6.00000000000000e-01,-7.72371268355915e-07
5.11160000000001e-08,6.00000000000000e-01,6.00000000000000e-01,9.77438785043985e-07
5.21400000000002e-08,6.00000000000000e-01,6.00000000000000e-01,-8.68861411918581e-07
5.41880000000003e-08,6.00000000000000e-01,6.00000000000000e-01,9.44862478122893e-07
5.51000000000000e-08,6.00000000000000e-01,6.00000000000000e-01,-5.43152445945175e-07
5.51100000000000e-08,5.40000000000021e-01,6.00000000000000e-01,-1.05816556526778e-04
5.51300000000000e-08,4.20000000000004e-01,6.00000000000000e-01,-2.16733390981716e-04
5.51700000000000e-08,1.80000000000010e-01,6.00000000000000e-01,-4.84548955967390e-06
5.52000000000000e-08,0.00000000000000e+00,6.00000000000000e-01,5.95799355581586e-04
5.52080000000000e-08,0.00000000000000e+00,6.00000000000000e-01,7.82591566183724e-04
5.52240000000000e-08,0.00000000000000e+00,6.00000000000000e-01,7.33551899939150e-04
5.52560000000000e-08,0.00000000000000e+00,6.00000000000000e-01,-7.88556491810394e-04
5.53200000000000e-08,0.00000000000000e+00,6.00000000000000e-01,-1.75911678185119e-03
5.54480000000000e-08,0.00000000000000e+00,6.00000000000000e-01,3.49682136070242e-04
5.56650920589415e-08,0.00000000000000e+00,6.00000000000000e-01,-2.92055405648552e-04
5.59710167873933e-08,0.00000000000000e+00,6.00000000000000e-01,1.74540715536624e-04
5.64861523045500e-08,0.00000000000000e+00,6.00000000000000e-01,-2.60946049976118e-05
5.71565565056489e-08,0.00000000000000e+00,6.00000000000000e-01,-4.42147646499726e-05
5.84816462022590e-08,0.00000000000000e+00,6.00000000000000e-01,7.24063583659061e-05
6.11318255954790e-08,0.00000000000000e+00,6.00000000000000e-01,-8.21707877155958e-05
6.49318255954790e-08,0.00000000000000e+00,6.00000000000000e-01,9.07033080369244e-05
6.50000000000000e-08,0.00000000000000e+00,6.00000000000000e-01,-1.44510113075230e-04
6.50100000000000e-08,5.99999999999886e-02,6.00000000000000e-01,9.03569671655696e-05
6.50300000000000e-08,1.79999999999966e-01,6.00000000000000e-01,4.25280367621836e-04
6.50700000000000e-08,4.19999999999920e-01,6.00000000000000e-01,7.19451162367254e-04
6.51000000000000e-08,5.99999999999966e-01,6.00000000000000e-01,-2.60160124397141e-04
6.51080000000000e-08,6.00000000000000e-01,6.00000000000000e-01,-1.05378395482014e-03
6.51240000000000e-08,6.00000000000000e-01,6.00000000000000e-01,-2.65156025546724e-03
6.51560000000000e-08,6.00000000000000e-01,6.00000000000000e-01,-5.13714265011701e-03
6.52200000000000e-08,6.00000000000000e-01,6.00000000000000e-01,-6.20777788732169e-03
6.53480000000000e-08,6.00000000000000e-01,6.00000000000000e-01,1.83038739464934e-01
6.56040000000000e-08,6.00000000000000e-01,6.00000000000000e-01,5.92010135351839e-01
6.60703496143580e-08,6.00000000000000e-01,6.00000000000000e-01,6.01821187792345e-01
6.66290344186012e-08,6.00000000000000e-01,6.00000000000000e-01,5.98360193385248e-01
6.74846030863953e-08,6.00000000000000e-01,6.00000000000000e-01,6.01267856994792e-01
6.87579164898308e-08,6.00000000000000e-01,6.00000000000000e-01,5.98727561726127e-01
7.01000000000000e-08,6.00000000000000e-01,6.00000000000000e-01,6.01102067075715e-01
7.01100000000000e-08,6.00000000000000e-01,5.40000000000011e-01,6.00647333590467e-01
7.01300000000000e-08,6.00000000000000e-01,4.20000000000034e-01,6.00125048397261e-01
7.01700000000000e-08,6.00000000000000e-01,1.80000000000080e-01,6.00069616672916e-01
7.02000000000000e-08,6.00000000000000e-01,3.44169137633799e-14,6.00083579530056e-01
7.02080000000000e-08,6.00000000000000e-01,0.00000000000000e+00,6.00069882777433e-01
7.02240000000000e-08,6.00000000000000e-01,0.00000000000000e+00,6.00041586673623e-01
7.02560000000000e-08,6.00000000000000e-01,0.00000000000000e+00,5.99966689314493e-01
7.03200000000000e-08,6.00000000000000e-01,0.00000000000000e+00,6.00014837575842e-01
7.04480000000000e-08,6.00000000000000e-01,0.00000000000000e+00,6.00005045206709e-01
7.06647144299825e-08,6.00000000000000e-01,0.00000000000000e+00,5.99981754969321e-01
7.09631030421066e-08,6.00000000000000e-01,0.00000000000000e+00,6.00005021806627e-01
7.15598802663548e-08,6.00000000000000e-01,0.00000000000000e+00,5.99983209167022e-01
7.27534347148513e-08,6.00000000000000e-01,0.00000000000000e+00,6.00005086939721e-01
7.51000000000000e-08,6.00000000000000e-01,0.00000000000000e+00,5.99984742431894e-01
7.51100000000000e-08,5.40000000000061e-01,0.00000000000000e+00,5.99903491467155e-01
7.51300000000000e-08,4.20000000000084e-01,0.00000000000000e+00,5.99837769340112e-01
7.51700000000000e-08,1.80000000000129e-01,0.00000000000000e+00,6.00860765434321e-01
7.52000000000000e-08,8.40438829641244e-14,0.00000000000000e+00,6.04011968198413e-01
7.52080000000000e-08,0.00000000000000e+00,0.00000000000000e+00,6.04660819891522e-01
7.52240000000000e-08,0.00000000000000e+00,0.00000000000000e+00,6.04091531922677e-01
7.52560000000000e-08,0.00000000000000e+00,0.00000000000000e+00,5.94454851936668e-01
7.53200000000000e-08,0.00000000000000e+00,0.00000000000000e+00,5.87118397774422e-01
7.54480000000000e-08,0.00000000000000e+00,0.00000000000000e+00,6.00554592260894e-01
7.56644943879588e-08,0.00000000000000e+00,0.00000000000000e+00,5.98817416531318e-01
7.59655307989124e-08,0.00000000000000e+00,0.00000000000000e+00,6.00526654345012e-01
7.64713574676344e-08,0.00000000000000e+00,0.00000000000000e+00,5.99224059909654e-01
7.74531210063792e-08,0.00000000000000e+00,0.00000000000000e+00,6.00550482116105e-01
7.81000000000000e-08,0.00000000000000e+00,0.00000000000000e+00,5.99369069998121e-01
7.82963527077490e-08,0.00000000000000e+00,0.00000000000000e+00,5.99910855871971e-01
7.86890581232469e-08,0.00000000000000e+00,0.00000000000000e+00,5.99982876833836e-01
7.94744689542428e-08,0.00000000000000e+00,0.00000000000000e+00,5.99929945177113e-01
8.10452906162345e-08,0.00000000000000e+00,0.00000000000000e+00,5.99995834089858e-01
8.41869339402179e-08,0.00000000000000e+00,0.00000000000000e+00,5.99948305979263e-01
8.50000000000000e-08,0.00000000000000e+00,0.00000000000000e+00,6.00002370792559e-01
8.50100000000000e-08,5.99999999999886e-02,0.00000000000000e+00,6.00086203762028e-01
8.50300000000000e-08,1.79999999999966e-01,0.00000000000000e+00,6.00110042684283e-01
8.50700000000000e-08,4.19999999999920e-01,0.00000000000000e+00,5.99977219653796e-01
8.51000000000000e-08,5.99999999999966e-01,0.00000000000000e+00,5.99821550401508e-01
8.51080000000000e-08,6.00000000000000e-01,0.00000000000000e+00,5.99738253382548e-01
8.51240000000000e-08,6.00000000000000e-01,0.00000000000000e+00,5.99687018220449e-01
8.51560000000000e-08,6.00000000000000e-01,0.00000000000000e+00,5.99750009937091e-01
8.52200000000000e-08,6.00000000000000e-01,0.00000000000000e+00,6.00102783271124e-01
8.53480000000000e-08,6.00000000000000e-01,0.00000000000000e+00,6.13616387389959e-01
8.56040000000000e-08,6.00000000000000e-01,0.00000000000000e+00,2.03763615979430e-01
8.59514116945529e-08,6.00000000000000e-01,0.00000000000000e+00,-6.48621015947435e-02
8.64112954445645e-08,6.00000000000000e-01,0.00000000000000e+00,5.29635885626560e-02
8.71483410061988e-08,6.00000000000000e-01,0.00000000000000e+00,-3.68133060815282e-02
8.80729976292524e-08,6.00000000000000e-01,0.00000000000000e+00,3.40275237872893e-02
8.98856288265411e-08,6.00000000000000e-01,0.00000000000000e+00,-2.84022047980665e-02
9.00000000000000e-08,6.00000000000000e-01,0.00000000000000e+00,5.51801452778922e-03
9.00100000000000e-08,6.00000000000000e-01,5.99999999999886e-02,4.61557197444813e-03
9.00300000000000e-08,6.00000000000000e-01,1.79999999999966e-01,2.84507181623940e-03
9.00700000000000e-08,6.00000000000000e-01,4.19999999999920e-01,8.48907588482176e-04
9.01000000000000e-08,6.00000000000000e-01,5.99999999999966e-01,4.15406554263448e-04
9.01080000000000e-08,6.00000000000000e-01,6.00000000000000e-01,3.32970086353968e-04
9.01240000000000e-08,6.00000000000000e-01,6.00000000000000e-01,2.13085074617023e-04
9.01560000000000e-08,6.00000000000000e-01,6.00000000000000e-01,9.08059421936003e-05
9.02200000000000e-08,6.00000000000000e-01,6.00000000000000e-01,-6.40253234891058e-06
9.03480000000000e-08,6.00000000000000e-01,6.00000000000000e-01,8.52284815062998e-07
9.06040000000000e-08,6.00000000000000e-01,6.00000000000000e-01,-7.69438311190584e-07
9.11159999999999e-08,6.00000000000000e-01,6.00000000000000e-01,9.74587316354344e-07
9.21399999999999e-08,6.00000000000000e-01,6.00000000000000e-01,-8.66449285603053e-07
9.41879999999998e-08,6.00000000000000e-01,6.00000000000000e-01,9.42217952722580e-07
9.51000000000000e-08,6.00000000000000e-01,6.00000000000000e-01,-5.41870282980833e-07
9.51100000000000e-08,5.40000000000061e-01,6.00000000000000e-01,-1.05827533646574e-04
9.51300000000000e-08,4.20000000000084e-01,6.00000000000000e-01,-2.16738813051884e-04
9.51700000000000e-08,1.80000000000129e-01,6.00000000000000e-01,-4.84933996934556e-06
9.52000000000000e-08,8.40438829641244e-14,6.00000000000000e-01,5.95797105065007e-04
9.52080000000000e-08,0.00000000000000e+00,6.00000000000000e-01,7.82588395072573e-04
9.52240000000000e-08,0.00000000000000e+00,6.00000000000000e-01,7.33545240705166e-04
9.52560000000000e-08,0.00000000000000e+00,6.00000000000000e-01,-7.88574447974297e-04
9.53200000000000e-08,0.00000000000000e+00,6.00000000000000e-01,-1.75915765635369e-03
9.54480000000000e-08,0.00000000000000e+00,6.00000000000000e-01,3.49677431132844e-04
9.56650920537303e-08,0.00000000000000e+00,6.00000000000000e-01,-2.92047336827306e-04
9.59710167064981e-08,0.00000000000000e+00,6.00000000000000e-01,1.74532599829535e-04
9.64861521572989e-08,0.00000000000000e+00,6.00000000000000e-01,-2.60868804498136e-05
9.71565563677433e-08,0.00000000000000e+00,6.00000000000000e-01,-4.42221809961330e-05
9.84816457974428e-08,0.00000000000000e+00,6.00000000000000e-01,7.24135369848623e-05
1.01131824656842e-07,0.00000000000000e+00,6.00000000000000e-01,-8.21778977187558e-05
1.04931824656842e-07,0.00000000000000e+00,6.00000000000000e-01,9.07103076307025e-05
1.05000000000000e-07,0.00000000000000e+00,6.00000000000000e-01,-1.44514103456610e-04
1.05010000000000e-07,5.99999999999886e-02,6.00000000000000e-01,9.03550065486231e-05
1.05030000000000e-07,1.79999999999966e-01,6.00000000000000e-01,4.25280380039361e-04
1.05070000000000e-07,4.19999999999920e-01,6.00000000000000e-01,7.19451314333708e-04
1.05100000000000e-07,5.99999999999966e-01,6.00000000000000e-01,-2.60160178938096e-04
1.05108000000000e-07,6.00000000000000e-01,6.00000000000000e-01,-1.05378412865673e-03
1.05124000000000e-07,6.00000000000000e-01,6.00000000000000e-01,-2.65156053761349e-03
1.05156000000000e-07,6.00000000000000e-01,6.00000000000000e-01,-5.13714283069934e-03
1.05220000000000e-07,6.00000000000000e-01,6.00000000000000e-01,-6.20777734430192e-03
1.05348000000000e-07,6.00000000000000e-01,6.00000000000000e-01,1.83038757488426e-01
1.05604000000000e-07,6.00000000000000e-01,6.00000000000000e-01,5.92010139339170e-01
1.06070349578772e-07,6.00000000000000e-01,6.00000000000000e-01,6.01821186142127e-01
1.06629034399741e-07,6.00000000000000e-01,6.00000000000000e-01,5.98360195190309e-01
1.07484603025582e-07,6.00000000000000e-01,6.00000000000000e-01,6.01267855423228e-01
1.08757916417558e-07,6.00000000000000e-01,6.00000000000000e-01,5.98727563388032e-01
