Time,v(clk),v(data),v(out)
1.00000000000000e-08,6.00000000000000e-01,0.00000000000000e+00,2.65337175945684e-05
1.00100000000000e-08,6.00000000000000e-01,5.99999999999985e-02,2.34485759635916e-05
1.00300000000000e-08,6.00000000000000e-01,1.79999999999996e-01,1.50703911974137e-05
1.00700000000000e-08,6.00000000000000e-01,4.19999999999990e-01,4.95979565198756e-06
1.01000000000000e-08,6.00000000000000e-01,5.99999999999995e-01,2.11705564411024e-06
1.01080000000000e-08,6.00000000000000e-01,6.00000000000000e-01,1.55515905449211e-06
1.01240000000000e-08,6.00000000000000e-01,6.00000000000000e-01,4.31447255300199e-06
1.01560000000000e-08,6.00000000000000e-01,6.00000000000000e-01,9.75087155563603e-06
1.02200000000000e-08,6.00000000000000e-01,6.00000000000000e-01,8.70895148238904e-06
1.03480000000000e-08,6.00000000000000e-01,6.00000000000000e-01,2.60390822949541e-06
1.06040000000000e-08,6.00000000000000e-01,6.00000000000000e-01,5.94458265003664e-06
1.11160000000000e-08,6.00000000000000e-01,6.00000000000000e-01,3.60993918609512e-06
1.21400000000000e-08,6.00000000000000e-01,6.00000000000000e-01,5.33577496612293e-06
1.41880000000000e-08,6.00000000000000e-01,6.00000000000000e-01,3.27962035300607e-06
1.51000000000000e-08,6.00000000000000e-01,6.00000000000000e-01,4.85128646220481e-06
1.51100000000000e-08,5.39999999999991e-01,6.00000000000000e-01,-1.09808706462391e-04
1.51300000000000e-08,4.19999999999994e-01,6.00000000000000e-01,-2.42034173733641e-04
1.51700000000000e-08,1.80000000000000e-01,6.00000000000000e-01,-3.27618501990840e-05
1.52000000000000e-08,0.00000000000000e+00,6.00000000000000e-01,6.11884156383469e-04
1.52080000000000e-08,0.00000000000000e+00,6.00000000000000e-01,8.37934311070071e-04
1.52240000000000e-08,0.00000000000000e+00,6.00000000000000e-01,9.69783112259343e-04
1.52560000000000e-08,0.00000000000000e+00,6.00000000000000e-01,2.59317099649534e-04
1.53200000000000e-08,0.00000000000000e+00,6.00000000000000e-01,-7.25821126739301e-04
1.54480000000000e-08,0.00000000000000e+00,6.00000000000000e-01,9.14057406247934e-05
1.56764585347396e-08,0.00000000000000e+00,6.00000000000000e-01,-1.33528668104115e-04
1.59761558103395e-08,0.00000000000000e+00,6.00000000000000e-01,2.23109173089694e-05
1.64672865552489e-08,0.00000000000000e+00,6.00000000000000e-01,1.34621263786088e-04
1.72400716610809e-08,0.00000000000000e+00,6.00000000000000e-01,-1.81074508707713e-04
1.84781354639046e-08,0.00000000000000e+00,6.00000000000000e-01,2.06807246849892e-04
2.07747999524575e-08,0.00000000000000e+00,6.00000000000000e-01,-2.08845736402537e-04
2.45204248837848e-08,0.00000000000000e+00,6.00000000000000e-01,2.17612470046673e-04
2.50000000000000e-08,0.00000000000000e+00,6.00000000000000e-01,-2.24267201670861e-04
2.50100000000000e-08,5.99999999999886e-02,6.00000000000000e-01,4.64216107871757e-05
2.50300000000000e-08,1.80000000000006e-01,6.00000000000000e-01,4.49313003984902e-04
2.50700000000000e-08,4.20000000000000e-01,6.00000000000000e-01,7.90038447162050e-04
2.51000000000000e-08,6.00000000000000e-01,6.00000000000000e-01,-4.93409270663075e-05
2.51080000000000e-08,6.00000000000000e-01,6.00000000000000e-01,-7.63615398671910e-04
2.51240000000000e-08,6.00000000000000e-01,6.00000000000000e-01,-2.20620939128752e-03
2.51560000000000e-08,6.00000000000000e-01,6.00000000000000e-01,-4.58705991286334e-03
2.52200000000000e-08,6.00000000000000e-01,6.00000000000000e-01,-6.33399396776396e-03
2.53480000000000e-08,6.00000000000000e-01,6.00000000000000e-01,1.09077591246943e-01
2.56040000000000e-08,6.00000000000000e-01,6.00000000000000e-01,5.67650771312449e-01
2.61160000000000e-08,6.00000000000000e-01,6.00000000000000e-01,6.09024752476218e-01
2.66475542427458e-08,6.00000000000000e-01,6.00000000000000e-01,5.90573378997185e-01
2.75961830928758e-08,6.00000000000000e-01,6.00000000000000e-01,6.08217298139462e-01
2.89541582163440e-08,6.00000000000000e-01,6.00000000000000e-01,5.91438242456257e-01
3.01000000000000e-08,6.00000000000000e-01,6.00000000000000e-01,6.07768826034053e-01
3.01100000000000e-08,6.00000000000000e-01,5.40000000000031e-01,6.03461362601801e-01
3.01300000000000e-08,6.00000000000000e-01,4.20000000000014e-01,5.99685536129055e-01
3.01700000000000e-08,6.00000000000000e-01,1.80000000000020e-01,6.00199939745681e-01
3.02000000000000e-08,6.00000000000000e-01,1.44328993201270e-14,5.99991113287663e-01
3.02080000000000e-08,6.00000000000000e-01,0.00000000000000e+00,6.00011765606479e-01
3.02240000000000e-08,6.00000000000000e-01,0.00000000000000e+00,6.00002095756631e-01
3.02560000000000e-08,6.00000000000000e-01,0.00000000000000e+00,5.99978155535795e-01
3.03200000000000e-08,6.00000000000000e-01,0.00000000000000e+00,5.99974565892253e-01
3.04480000000000e-08,6.00000000000000e-01,0.00000000000000e+00,6.00027933151118e-01
3.06754337801304e-08,6.00000000000000e-01,0.00000000000000e+00,5.99954524085847e-01
3.09704146881599e-08,6.00000000000000e-01,0.00000000000000e+00,6.00020302190201e-01
3.15603765042188e-08,6.00000000000000e-01,0.00000000000000e+00,5.99961088115798e-01
3.27403001363367e-08,6.00000000000000e-01,0.00000000000000e+00,6.00018752590019e-01
3.51000000000000e-08,5.99999999999970e-01,0.00000000000000e+00,5.99965219350688e-01
3.51100000000000e-08,5.39999999999982e-01,0.00000000000000e+00,5.99881940675238e-01
3.51300000000000e-08,4.19999999999965e-01,0.00000000000000e+00,5.99827109105534e-01
3.51700000000000e-08,1.79999999999970e-01,0.00000000000000e+00,6.00926148198190e-01
3.52000000000000e-08,0.00000000000000e+00,0.00000000000000e+00,6.04037027991571e-01
3.52080000000000e-08,0.00000000000000e+00,0.00000000000000e+00,6.04698760696055e-01
3.52240000000000e-08,0.00000000000000e+00,0.00000000000000e+00,6.04469193358474e-01
3.52560000000000e-08,0.00000000000000e+00,0.00000000000000e+00,5.96087708465551e-01
3.53200000000000e-08,0.00000000000000e+00,0.00000000000000e+00,5.86598078280426e-01
3.54480000000000e-08,0.00000000000000e+00,0.00000000000000e+00,5.99050903190809e-01
3.56987162467108e-08,0.00000000000000e+00,0.00000000000000e+00,5.99761671558357e-01
3.59947718058658e-08,0.00000000000000e+00,0.00000000000000e+00,5.99666893885294e-01
3.65740710025357e-08,0.00000000000000e+00,0.00000000000000e+00,5.99935989463783e-01
3.74449606840202e-08,0.00000000000000e+00,0.00000000000000e+00,5.99846688316872e-01
3.91000000000000e-08,0.00000000000000e+00,0.00000000000000e+00,6.00001078692999e-01
3.92741779362969e-08,0.00000000000000e+00,0.00000000000000e+00,5.99955313577448e-01
3.96225338088907e-08,0.00000000000000e+00,0.00000000000000e+00,5.99939509207203e-01
4.03192455540784e-08,0.00000000000000e+00,0.00000000000000e+00,5.99959824824806e-01
4.17126690444536e-08,0.00000000000000e+00,0.00000000000000e+00,5.99951858128974e-01
4.44995160252042e-08,0.00000000000000e+00,0.00000000000000e+00,5.99971862210083e-01
4.50000000000000e-08,0.00000000000000e+00,0.00000000000000e+00,5.99960153356415e-01
4.50100000000000e-08,5.99999999999886e-02,0.00000000000000e+00,6.00054776394998e-01
4.50300000000000e-08,1.80000000000006e-01,0.00000000000000e+00,6.00101407916955e-01
4.50700000000000e-08,4.20000000000000e-01,0.00000000000000e+00,5.99998928353016e-01
4.51000000000000e-08,6.00000000000000e-01,0.00000000000000e+00,5.99835320743887e-01
4.51080000000000e-08,6.00000000000000e-01,0.00000000000000e+00,5.99748056415371e-01
4.51240000000000e-08,6.00000000000000e-01,0.00000000000000e+00,5.99683301071445e-01
4.51560000000000e-08,6.00000000000000e-01,0.00000000000000e+00,5.99725291543441e-01
4.52200000000000e-08,6.00000000000000e-01,0.00000000000000e+00,5.99953483274726e-01
4.53480000000000e-08,6.00000000000000e-01,0.00000000000000e+00,6.06355087375679e-01
4.56040000000000e-08,6.00000000000000e-01,0.00000000000000e+00,2.65979734781539e-01
4.60720495209210e-08,6.00000000000000e-01,0.00000000000000e+00,-6.98978958457690e-02
4.65237985312215e-08,6.00000000000000e-01,0.00000000000000e+00,5.38742413555172e-02
4.74272965518225e-08,6.00000000000000e-01,0.00000000000000e+00,-3.63984996841064e-02
4.83974485989365e-08,6.00000000000000e-01,0.00000000000000e+00,3.33211121525363e-02
5.00000000000000e-08,6.00000000000000e-01,0.00000000000000e+00,-2.62084376148140e-02
5.00100000000000e-08,6.00000000000000e-01,5.99999999999886e-02,-2.25105428939790e-02
5.00300000000000e-08,6.00000000000000e-01,1.79999999999966e-01,-1.51492659159811e-02
5.00700000000000e-08,6.00000000000000e-01,4.20000000000000e-01,-5.69947243385709e-03
5.01000000000000e-08,6.00000000000000e-01,6.00000000000000e-01,-2.98233668518240e-03
5.01080000000000e-08,6.00000000000000e-01,6.00000000000000e-01,-2.51734330538671e-03
5.01240000000000e-08,6.00000000000000e-01,6.00000000000000e-01,-1.74005429203902e-03
5.01560000000000e-08,6.00000000000000e-01,6.00000000000000e-01,-8.34916855361120e-04
5.02200000000000e-08,6.00000000000000e-01,6.00000000000000e-01,-1.38038996193912e-04
5.03480000000000e-08,6.00000000000000e-01,6.00000000000000e-01,2.13178990009361e-05
5.06040000000000e-08,6.00000000000000e-01,6.00000000000000e-01,-5.99848045236204e-06
5.11160000000001e-08,6.00000000000000e-01,6.00000000000000e-01,7.17971132985912e-06
5.21400000000002e-08,6.00000000000000e-01,6.00000000000000e-01,-5.24429418491401e-06
5.41880000000003e-08,6.00000000000000e-01,6.00000000000000e-01,4.24756406883046e-06
5.51000000000000e-08,6.00000000000000e-01,6.00000000000000e-01,1.11841649675856e-06
5.51100000000000e-08,5.40000000000021e-01,6.00000000000000e-01,-1.13303497394537e-04
5.51300000000000e-08,4.20000000000004e-01,6.00000000000000e-01,-2.39653311204943e-04
5.51700000000000e-08,1.80000000000010e-01,6.00000000000000e-01,-2.12407184156799e-05
5.52000000000000e-08,0.00000000000000e+00,6.00000000000000e-01,6.05586639031971e-04
5.52080000000000e-08,0.00000000000000e+00,6.00000000000000e-01,8.20214058936300e-04
5.52240000000000e-08,0.00000000000000e+00,6.00000000000000e-01,8.82116271103184e-04
5.52560000000000e-08,0.00000000000000e+00,6.00000000000000e-01,-2.97245961458734e-04
5.53200000000000e-08,0.00000000000000e+00,6.00000000000000e-01,-1.45078006502339e-03
5.54480000000000e-08,0.00000000000000e+00,6.00000000000000e-01,1.22484887334538e-04
5.56755076243337e-08,0.00000000000000e+00,6.00000000000000e-01,-1.24803316936629e-04
5.59768459683060e-08,0.00000000000000e+00,6.00000000000000e-01,8.97411323138447e-06
5.64657072431903e-08,0.00000000000000e+00,6.00000000000000e-01,1.47436805489749e-04
5.72392278670597e-08,0.00000000000000e+00,6.00000000000000e-01,-1.92412570784482e-04
5.84718071430210e-08,0.00000000000000e+00,6.00000000000000e-01,2.17141254498030e-04
6.07579295374486e-08,0.00000000000000e+00,6.00000000000000e-01,-2.18570860000454e-04
6.44848030021044e-08,0.00000000000000e+00,6.00000000000000e-01,2.26959591019931e-04
6.50000000000000e-08,0.00000000000000e+00,6.00000000000000e-01,-2.30594290462741e-04
6.50100000000000e-08,5.99999999999886e-02,6.00000000000000e-01,3.51353811680749e-05
6.50300000000000e-08,1.79999999999966e-01,6.00000000000000e-01,4.42440770958771e-04
6.50700000000000e-08,4.19999999999920e-01,6.00000000000000e-01,7.93892976712965e-04
6.51000000000000e-08,5.99999999999966e-01,6.00000000000000e-01,-4.51515959701415e-05
6.51080000000000e-08,6.00000000000000e-01,6.00000000000000e-01,-7.58022073855669e-04
6.51240000000000e-08,6.00000000000000e-01,6.00000000000000e-01,-2.19981069537621e-03
6.51560000000000e-08,6.00000000000000e-01,6.00000000000000e-01,-4.58298369968362e-03
6.52200000000000e-08,6.00000000000000e-01,6.00000000000000e-01,-6.33529605785818e-03
6.53480000000000e-08,6.00000000000000e-01,6.00000000000000e-01,1.08953152199365e-01
6.56040000000000e-08,6.00000000000000e-01,6.00000000000000e-01,5.67606804698621e-01
6.61159999999999e-08,6.00000000000000e-01,6.00000000000000e-01,6.09036241475075e-01
6.66474112127642e-08,6.00000000000000e-01,6.00000000000000e-01,5.90561191151896e-01
6.75961964522872e-08,6.00000000000000e-01,6.00000000000000e-01,6.08228254595934e-01
6.89540578214411e-08,6.00000000000000e-01,6.00000000000000e-01,5.91426767679360e-01
7.01000000000000e-08,6.00000000000000e-01,6.00000000000000e-01,6.07779254575659e-01
7.01100000000000e-08,6.00000000000000e-01,5.40000000000011e-01,6.03465777703011e-01
7.01300000000000e-08,6.00000000000000e-01,4.20000000000034e-01,5.99684888302837e-01
7.01700000000000e-08,6.00000000000000e-01,1.80000000000080e-01,6.00200181465558e-01
7.02000000000000e-08,6.00000000000000e-01,3.44169137633799e-14,5.99990996376761e-01
7.02080000000000e-08,6.00000000000000e-01,0.00000000000000e+00,6.00011690359732e-01
7.02240000000000e-08,6.00000000000000e-01,0.00000000000000e+00,6.00002051338717e-01
7.02560000000000e-08,6.00000000000000e-01,0.00000000000000e+00,5.99978140150563e-01
7.03200000000000e-08,6.00000000000000e-01,0.00000000000000e+00,5.99974554783435e-01
7.04480000000000e-08,6.00000000000000e-01,0.00000000000000e+00,6.00027928096377e-01
7.06754338204537e-08,6.00000000000000e-01,0.00000000000000e+00,5.99954522880379e-01
7.09704147018718e-08,6.00000000000000e-01,0.00000000000000e+00,6.00020297099073e-01
7.15603764647082e-08,6.00000000000000e-01,0.00000000000000e+00,5.99961087742937e-01
7.27402999903808e-08,6.00000000000000e-01,0.00000000000000e+00,6.00018748388220e-01
7.51000000000000e-08,6.00000000000000e-01,0.00000000000000e+00,5.99965220208138e-01
7.51100000000000e-08,5.40000000000061e-01,0.00000000000000e+00,5.99881935831088e-01
7.51300000000000e-08,4.20000000000084e-01,0.00000000000000e+00,5.99827108446646e-01
7.51700000000000e-08,1.80000000000129e-01,0.00000000000000e+00,6.00926151824209e-01
7.52000000000000e-08,8.40438829641244e-14,0.00000000000000e+00,6.04037001659731e-01
7.52080000000000e-08,0.00000000000000e+00,0.00000000000000e+00,6.04698705307637e-01
7.52240000000000e-08,0.00000000000000e+00,0.00000000000000e+00,6.04468998580631e-01
7.52560000000000e-08,0.00000000000000e+00,0.00000000000000e+00,5.96087273533534e-01
7.53200000000000e-08,0.00000000000000e+00,0.00000000000000e+00,5.86597936806580e-01
7.54480000000000e-08,0.00000000000000e+00,0.00000000000000e+00,5.99051025149116e-01
7.56987162080357e-08,0.00000000000000e+00,0.00000000000000e+00,5.99761570038801e-01
7.59947717274987e-08,0.00000000000000e+00,0.00000000000000e+00,5.99666975105911e-01
7.65740708968172e-08,0.00000000000000e+00,0.00000000000000e+00,5.99935915398100e-01
7.74449605908560e-08,0.00000000000000e+00,0.00000000000000e+00,5.99846757347155e-01
7.81000000000000e-08,0.00000000000000e+00,0.00000000000000e+00,5.99978123436783e-01
7.82741779388078e-08,0.00000000000000e+00,0.00000000000000e+00,5.99940144362505e-01
7.86225338164233e-08,0.00000000000000e+00,0.00000000000000e+00,5.99928394144147e-01
7.93192455716544e-08,0.00000000000000e+00,0.00000000000000e+00,5.99951136392790e-01
8.07126690821165e-08,0.00000000000000e+00,0.00000000000000e+00,5.99948012753425e-01
8.34995161030408e-08,0.00000000000000e+00,0.00000000000000e+00,5.99969328443531e-01
8.50000000000000e-08,0.00000000000000e+00,0.00000000000000e+00,5.99960348264415e-01
8.50100000000000e-08,5.99999999999886e-02,0.00000000000000e+00,6.00064360683284e-01
8.50300000000000e-08,1.79999999999966e-01,0.00000000000000e+00,6.00116338396174e-01
8.50700000000000e-08,4.19999999999920e-01,0.00000000000000e+00,5.99981411226977e-01
8.51000000000000e-08,5.99999999999966e-01,0.00000000000000e+00,5.99823687286160e-01
8.51080000000000e-08,6.00000000000000e-01,0.00000000000000e+00,5.99743743294829e-01
8.51240000000000e-08,6.00000000000000e-01,0.00000000000000e+00,5.99663578935767e-01
8.51560000000000e-08,6.00000000000000e-01,0.00000000000000e+00,5.99721854812881e-01
8.52200000000000e-08,6.00000000000000e-01,0.00000000000000e+00,5.99961579197576e-01
8.53480000000000e-08,6.00000000000000e-01,0.00000000000000e+00,6.06350867217098e-01
8.56040000000000e-08,6.00000000000000e-01,0.00000000000000e+00,2.65979609665720e-01
8.60722125364528e-08,6.00000000000000e-01,0.00000000000000e+00,-6.99179604686040e-02
8.65239592892304e-08,6.00000000000000e-01,0.00000000000000e+00,5.38919754762112e-02
8.74274527947857e-08,6.00000000000000e-01,0.00000000000000e+00,-3.64092205333280e-02
8.83977358996246e-08,6.00000000000000e-01,0.00000000000000e+00,3.33328395764596e-02
9.00000000000000e-08,6.00000000000000e-01,0.00000000000000e+00,-2.62166585762102e-02
9.00100000000000e-08,6.00000000000000e-01,5.99999999999886e-02,-2.25168875898373e-02
9.00300000000000e-08,6.00000000000000e-01,1.79999999999966e-01,-1.51530272691655e-02
9.00700000000000e-08,6.00000000000000e-01,4.19999999999920e-01,-5.70099209362683e-03
9.01000000000000e-08,6.00000000000000e-01,5.99999999999966e-01,-2.98306004484872e-03
9.01080000000000e-08,6.00000000000000e-01,6.00000000000000e-01,-2.51796850544886e-03
9.01240000000000e-08,6.00000000000000e-01,6.00000000000000e-01,-1.74049636359036e-03
9.01560000000000e-08,6.00000000000000e-01,6.00000000000000e-01,-8.35128400214158e-04
9.02200000000000e-08,6.00000000000000e-01,6.00000000000000e-01,-1.36420085596167e-04
9.03480000000000e-08,6.00000000000000e-01,6.00000000000000e-01,2.10042423823484e-05
9.06040000000000e-08,6.00000000000000e-01,6.00000000000000e-01,-5.83316016448260e-06
9.11159999999999e-08,6.00000000000000e-01,6.00000000000000e-01,7.05287404754833e-06
9.21399999999999e-08,6.00000000000000e-01,6.00000000000000e-01,-5.06034537517755e-06
9.41879999999998e-08,6.00000000000000e-01,6.00000000000000e-01,4.16134397332631e-06
9.51000000000000e-08,6.00000000000000e-01,6.00000000000000e-01,1.19626038269129e-06
9.51100000000000e-08,5.40000000000061e-01,6.00000000000000e-01,-1.13286485179331e-04
9.51300000000000e-08,4.20000000000084e-01,6.00000000000000e-01,-2.39707609929779e-04
9.51700000000000e-08,1.80000000000129e-01,6.00000000000000e-01,-2.13174406133027e-05
9.52000000000000e-08,8.40438829641244e-14,6.00000000000000e-01,6.05549636586378e-04
9.52080000000000e-08,0.00000000000000e+00,6.00000000000000e-01,8.20184157205375e-04
9.52240000000000e-08,0.00000000000000e+00,6.00000000000000e-01,8.82102038711377e-04
9.52560000000000e-08,0.00000000000000e+00,6.00000000000000e-01,-2.97210502839221e-04
9.53200000000000e-08,0.00000000000000e+00,6.00000000000000e-01,-1.45069562448354e-03
9.54480000000000e-08,0.00000000000000e+00,6.00000000000000e-01,1.22497694990113e-04
9.56755076753544e-08,0.00000000000000e+00,6.00000000000000e-01,-1.24817610983294e-04
9.59768459614125e-08,0.00000000000000e+00,6.00000000000000e-01,8.98650834219028e-06
9.64657073522330e-08,0.00000000000000e+00,6.00000000000000e-01,1.47425940932956e-04
9.72392279602439e-08,0.00000000000000e+00,6.00000000000000e-01,-1.92402522194162e-04
9.84718076148887e-08,0.00000000000000e+00,6.00000000000000e-01,2.17131783034214e-04
1.00757930635259e-07,0.00000000000000e+00,6.00000000000000e-01,-2.18561653176721e-04
1.04484805389672e-07,0.00000000000000e+00,6.00000000000000e-01,2.26950613893735e-04
1.05000000000000e-07,0.00000000000000e+00,6.00000000000000e-01,-2.30586473126170e-04
1.05010000000000e-07,5.99999999999886e-02,6.00000000000000e-01,3.51403820799123e-05
1.05030000000000e-07,1.79999999999966e-01,6.00000000000000e-01,4.42442362163370e-04
1.05070000000000e-07,4.19999999999920e-01,6.00000000000000e-01,7.93892953612318e-04
1.05100000000000e-07,5.99999999999966e-01,6.00000000000000e-01,-4.51518830634073e-05
1.05108000000000e-07,6.00000000000000e-01,6.00000000000000e-01,-7.58022357577201e-04
1.05124000000000e-07,6.00000000000000e-01,6.00000000000000e-01,-2.19981096751246e-03
1.05156000000000e-07,6.00000000000000e-01,6.00000000000000e-01,-4.58298388548734e-03
1.05220000000000e-07,6.00000000000000e-01,6.00000000000000e-01,-6.33529602777952e-03
1.05348000000000e-07,6.00000000000000e-01,6.00000000000000e-01,1.08953155988272e-01
1.05604000000000e-07,6.00000000000000e-01,6.00000000000000e-01,5.67606806037909e-01
1.06116000000000e-07,6.00000000000000e-01,6.00000000000000e-01,6.09036241124304e-01
1.06647411217154e-07,6.00000000000000e-01,6.00000000000000e-01,5.90561191524406e-01
1.07596196451764e-07,6.00000000000000e-01,6.00000000000000e-01,6.08228254266354e-01
1.08954057823775e-07,6.00000000000000e-01,6.00000000000000e-01,5.91426768023475e-01
