Time,v(clk),v(data),v(out)
1.00000000000000e-08,6.00000000000000e-01,0.00000000000000e+00,2.92518874456076e-06
1.00100000000000e-08,6.00000000000000e-01,5.99999999999985e-02,1.02454200415908e-05
1.00300000000000e-08,6.00000000000000e-01,1.79999999999996e-01,1.61128087161622e-05
1.00700000000000e-08,6.00000000000000e-01,4.19999999999990e-01,1.13161437211573e-05
1.01000000000000e-08,6.00000000000000e-01,5.99999999999995e-01,9.11604786234255e-06
1.01080000000000e-08,6.00000000000000e-01,6.00000000000000e-01,8.12679570846853e-06
1.01240000000000e-08,6.00000000000000e-01,6.00000000000000e-01,8.21958709414095e-06
1.01560000000000e-08,6.00000000000000e-01,6.00000000000000e-01,1.54856702648948e-05
1.02200000000000e-08,6.00000000000000e-01,6.00000000000000e-01,2.16695184383914e-05
1.03480000000000e-08,6.00000000000000e-01,6.00000000000000e-01,1.99953239736483e-05
1.06040000000000e-08,6.00000000000000e-01,6.00000000000000e-01,1.91868841509166e-05
1.11140447034744e-08,6.00000000000000e-01,6.00000000000000e-01,1.95198161189389e-05
1.21341341104233e-08,6.00000000000000e-01,6.00000000000000e-01,1.82212660158540e-05
1.41743129243210e-08,6.00000000000000e-01,6.00000000000000e-01,1.85829850785479e-05
1.51000000000000e-08,6.00000000000000e-01,6.00000000000000e-01,1.73178605623412e-05
1.51100000000000e-08,5.39999999999991e-01,6.00000000000000e-01,-1.21749448702260e-04
1.51300000000000e-08,4.19999999999994e-01,6.00000000000000e-01,-3.27963387182759e-04
1.51700000000000e-08,1.80000000000000e-01,6.00000000000000e-01,-2.41720984748117e-04
1.52000000000000e-08,0.00000000000000e+00,6.00000000000000e-01,4.23512098981407e-04
1.52080000000000e-08,0.00000000000000e+00,6.00000000000000e-01,7.32121752188994e-04
1.52240000000000e-08,0.00000000000000e+00,6.00000000000000e-01,1.10570750587730e-03
1.52560000000000e-08,0.00000000000000e+00,6.00000000000000e-01,1.03697566648994e-03
1.53200000000000e-08,0.00000000000000e+00,6.00000000000000e-01,-5.24589549569937e-05
1.54480000000000e-08,0.00000000000000e+00,6.00000000000000e-01,-6.72195475180652e-04
1.57040000000000e-08,0.00000000000000e+00,6.00000000000000e-01,2.76670300693019e-04
1.60647460271712e-08,0.00000000000000e+00,6.00000000000000e-01,-3.25026659334288e-04
1.67830871352859e-08,0.00000000000000e+00,6.00000000000000e-01,2.82896557801445e-04
1.77032481214542e-08,0.00000000000000e+00,6.00000000000000e-01,-9.34603715870425e-05
1.89901608161444e-08,0.00000000000000e+00,6.00000000000000e-01,5.39307823023104e-05
2.15639862055247e-08,0.00000000000000e+00,6.00000000000000e-01,4.32619838032847e-06
2.50000000000000e-08,0.00000000000000e+00,6.00000000000000e-01,1.05761963308301e-05
2.50100000000000e-08,5.99999999999886e-02,6.00000000000000e-01,2.68523267473453e-04
2.50300000000000e-08,1.80000000000006e-01,6.00000000000000e-01,6.83908907482253e-04
2.50700000000000e-08,4.20000000000000e-01,6.00000000000000e-01,1.17400459425217e-03
2.51000000000000e-08,6.00000000000000e-01,6.00000000000000e-01,1.24334789195919e-03
2.51080000000000e-08,6.00000000000000e-01,6.00000000000000e-01,1.03230797604502e-03
2.51240000000000e-08,6.00000000000000e-01,6.00000000000000e-01,5.26909685324276e-04
2.51560000000000e-08,6.00000000000000e-01,6.00000000000000e-01,-8.97503481599393e-04
2.52200000000000e-08,6.00000000000000e-01,6.00000000000000e-01,-3.79604404306337e-03
2.53480000000000e-08,6.00000000000000e-01,6.00000000000000e-01,-5.75874284070800e-03
2.56040000000000e-08,6.00000000000000e-01,6.00000000000000e-01,1.63814589140073e-01
2.61160000000000e-08,6.00000000000000e-01,6.00000000000000e-01,5.88439844799706e-01
2.71049192800204e-08,6.00000000000000e-01,6.00000000000000e-01,6.03302371041152e-01
2.81979774702067e-08,6.00000000000000e-01,6.00000000000000e-01,5.96610071691854e-01
2.99479744079225e-08,6.00000000000000e-01,6.00000000000000e-01,6.02843605922701e-01
3.01000000000000e-08,6.00000000000000e-01,6.00000000000000e-01,5.98181412340300e-01
3.01100000000000e-08,6.00000000000000e-01,5.40000000000031e-01,5.98935099108258e-01
3.01300000000000e-08,6.00000000000000e-01,4.20000000000014e-01,5.99808423572859e-01
3.01700000000000e-08,6.00000000000000e-01,1.80000000000020e-01,6.00066023081476e-01
3.02000000000000e-08,6.00000000000000e-01,1.44328993201270e-14,6.00058809762757e-01
3.02080000000000e-08,6.00000000000000e-01,0.00000000000000e+00,6.00054349713254e-01
3.02240000000000e-08,6.00000000000000e-01,0.00000000000000e+00,6.00037059994156e-01
3.02560000000000e-08,6.00000000000000e-01,0.00000000000000e+00,6.00002002835333e-01
3.03200000000000e-08,6.00000000000000e-01,0.00000000000000e+00,5.99954218837521e-01
3.04480000000000e-08,6.00000000000000e-01,0.00000000000000e+00,6.00016791776075e-01
3.07040000000000e-08,6.00000000000000e-01,0.00000000000000e+00,5.99973691154426e-01
3.10623814361668e-08,6.00000000000000e-01,0.00000000000000e+00,5.99983031111333e-01
3.16741489215183e-08,6.00000000000000e-01,0.00000000000000e+00,5.99978514468421e-01
3.28976838922211e-08,6.00000000000000e-01,0.00000000000000e+00,5.99984337700129e-01
3.51000000000000e-08,5.99999999999970e-01,0.00000000000000e+00,5.99983672882355e-01
3.51100000000000e-08,5.39999999999982e-01,0.00000000000000e+00,5.99859424112276e-01
3.51300000000000e-08,4.19999999999965e-01,0.00000000000000e+00,5.99738672269848e-01
3.51700000000000e-08,1.79999999999970e-01,0.00000000000000e+00,6.00794172743989e-01
3.52000000000000e-08,0.00000000000000e+00,0.00000000000000e+00,6.03720257794711e-01
3.52080000000000e-08,0.00000000000000e+00,0.00000000000000e+00,6.04510928689583e-01
3.52240000000000e-08,0.00000000000000e+00,0.00000000000000e+00,6.05406412797660e-01
3.52560000000000e-08,0.00000000000000e+00,0.00000000000000e+00,6.03667441271484e-01
3.53200000000000e-08,0.00000000000000e+00,0.00000000000000e+00,5.91390260665559e-01
3.54480000000000e-08,0.00000000000000e+00,0.00000000000000e+00,5.88597113585171e-01
3.56930770247470e-08,0.00000000000000e+00,0.00000000000000e+00,6.02378808010011e-01
3.60580958779062e-08,0.00000000000000e+00,0.00000000000000e+00,5.97108610731523e-01
3.66780704162491e-08,0.00000000000000e+00,0.00000000000000e+00,6.01767427056143e-01
3.75944704108487e-08,0.00000000000000e+00,0.00000000000000e+00,5.98007411794420e-01
3.91000000000000e-08,0.00000000000000e+00,0.00000000000000e+00,6.01586212098588e-01
3.92832799989199e-08,0.00000000000000e+00,0.00000000000000e+00,6.00090399229225e-01
3.96498399967598e-08,0.00000000000000e+00,0.00000000000000e+00,5.99751336714823e-01
4.03829599924394e-08,0.00000000000000e+00,0.00000000000000e+00,6.00038651891606e-01
4.18491999837987e-08,0.00000000000000e+00,0.00000000000000e+00,5.99801451803737e-01
4.47816799665174e-08,0.00000000000000e+00,0.00000000000000e+00,6.00052770253174e-01
4.50000000000000e-08,0.00000000000000e+00,0.00000000000000e+00,5.99860898863226e-01
4.50100000000000e-08,5.99999999999886e-02,0.00000000000000e+00,6.00003954411778e-01
4.50300000000000e-08,1.80000000000006e-01,0.00000000000000e+00,6.00147469020849e-01
4.50700000000000e-08,4.20000000000000e-01,0.00000000000000e+00,6.00093432244839e-01
4.51000000000000e-08,6.00000000000000e-01,0.00000000000000e+00,5.99922034438536e-01
4.51080000000000e-08,6.00000000000000e-01,0.00000000000000e+00,5.99813230834131e-01
4.51240000000000e-08,6.00000000000000e-01,0.00000000000000e+00,5.99688465015826e-01
4.51560000000000e-08,6.00000000000000e-01,0.00000000000000e+00,5.99642937788310e-01
4.52200000000000e-08,6.00000000000000e-01,0.00000000000000e+00,5.99738676706418e-01
4.53480000000000e-08,6.00000000000000e-01,0.00000000000000e+00,6.00003842155594e-01
4.56040000000000e-08,6.00000000000000e-01,0.00000000000000e+00,6.09851283470720e-01
4.61160000000000e-08,6.00000000000000e-01,0.00000000000000e+00,2.18163997039233e-01
4.68147291424795e-08,6.00000000000000e-01,0.00000000000000e+00,-6.56480220673381e-02
4.77372365206832e-08,6.00000000000000e-01,0.00000000000000e+00,5.19477321632123e-02
4.91891191550368e-08,6.00000000000000e-01,0.00000000000000e+00,-3.50894295425302e-02
5.00000000000000e-08,6.00000000000000e-01,0.00000000000000e+00,2.42475998971049e-02
5.00100000000000e-08,6.00000000000000e-01,5.99999999999886e-02,2.21751557793624e-02
5.00300000000000e-08,6.00000000000000e-01,1.79999999999966e-01,1.81418679564758e-02
5.00700000000000e-08,6.00000000000000e-01,4.20000000000000e-01,1.16029773054151e-02
5.01000000000000e-08,6.00000000000000e-01,6.00000000000000e-01,8.28796929962994e-03
5.01080000000000e-08,6.00000000000000e-01,6.00000000000000e-01,7.60794280205480e-03
5.01240000000000e-08,6.00000000000000e-01,6.00000000000000e-01,6.35630988205675e-03
5.01560000000000e-08,6.00000000000000e-01,6.00000000000000e-01,4.43958064009974e-03
5.02200000000000e-08,6.00000000000000e-01,6.00000000000000e-01,2.10216291097365e-03
5.03480000000000e-08,6.00000000000000e-01,6.00000000000000e-01,3.58195079776184e-04
5.06040000000000e-08,6.00000000000000e-01,6.00000000000000e-01,-5.14739640008199e-05
5.11160000000001e-08,6.00000000000000e-01,6.00000000000000e-01,4.20717692630780e-05
5.21400000000002e-08,6.00000000000000e-01,6.00000000000000e-01,-8.36473843613197e-06
5.41880000000003e-08,6.00000000000000e-01,6.00000000000000e-01,3.18243907888385e-05
5.51000000000000e-08,6.00000000000000e-01,6.00000000000000e-01,-2.44655536402877e-07
5.51100000000000e-08,5.40000000000021e-01,6.00000000000000e-01,-1.38932206066394e-04
5.51300000000000e-08,4.20000000000004e-01,6.00000000000000e-01,-3.39675745256188e-04
5.51700000000000e-08,1.80000000000010e-01,6.00000000000000e-01,-2.40162400922936e-04
5.52000000000000e-08,0.00000000000000e+00,6.00000000000000e-01,4.11546750718847e-04
5.52080000000000e-08,0.00000000000000e+00,6.00000000000000e-01,7.17570093057104e-04
5.52240000000000e-08,0.00000000000000e+00,6.00000000000000e-01,1.07042608416039e-03
5.52560000000000e-08,0.00000000000000e+00,6.00000000000000e-01,8.36122250401750e-04
5.53200000000000e-08,0.00000000000000e+00,6.00000000000000e-01,-1.01672657147772e-03
5.54480000000000e-08,0.00000000000000e+00,6.00000000000000e-01,-1.69150787635005e-03
5.57040000000000e-08,0.00000000000000e+00,6.00000000000000e-01,4.08090345358207e-04
5.60636531237493e-08,0.00000000000000e+00,6.00000000000000e-01,-3.65853109770071e-04
5.61499625767946e-08,0.00000000000000e+00,6.00000000000000e-01,-1.04546175538123e-04
5.63225814828851e-08,0.00000000000000e+00,6.00000000000000e-01,1.32721522943621e-04
5.66678192950661e-08,0.00000000000000e+00,6.00000000000000e-01,3.13323495353263e-05
5.73582949194281e-08,0.00000000000000e+00,6.00000000000000e-01,2.64181084245335e-06
5.87392461681522e-08,0.00000000000000e+00,6.00000000000000e-01,3.14545627199438e-05
6.15011486656003e-08,0.00000000000000e+00,6.00000000000000e-01,5.69741869234190e-07
6.50000000000000e-08,0.00000000000000e+00,6.00000000000000e-01,3.11836094250510e-05
6.50100000000000e-08,5.99999999999886e-02,6.00000000000000e-01,2.72913772492014e-04
6.50300000000000e-08,1.79999999999966e-01,6.00000000000000e-01,6.55108450636224e-04
6.50700000000000e-08,4.19999999999920e-01,6.00000000000000e-01,1.13354938880973e-03
6.51000000000000e-08,5.99999999999966e-01,6.00000000000000e-01,1.08375907861526e-03
6.51080000000000e-08,6.00000000000000e-01,6.00000000000000e-01,7.78156795312207e-04
6.51240000000000e-08,6.00000000000000e-01,6.00000000000000e-01,7.47560287192028e-05
6.51560000000000e-08,6.00000000000000e-01,6.00000000000000e-01,-1.55198043882961e-03
6.52200000000000e-08,6.00000000000000e-01,6.00000000000000e-01,-4.30356254599222e-03
6.53480000000000e-08,6.00000000000000e-01,6.00000000000000e-01,-5.30852161227080e-03
6.56040000000000e-08,6.00000000000000e-01,6.00000000000000e-01,1.82831012550395e-01
6.61159999999999e-08,6.00000000000000e-01,6.00000000000000e-01,5.92470738910918e-01
6.70302445330823e-08,6.00000000000000e-01,6.00000000000000e-01,6.01705726866211e-01
6.81577146806122e-08,6.00000000000000e-01,6.00000000000000e-01,5.98362819617374e-01
6.98259615537798e-08,6.00000000000000e-01,6.00000000000000e-01,6.01314570447003e-01
7.01000000000000e-08,6.00000000000000e-01,6.00000000000000e-01,5.99064263042241e-01
7.01100000000000e-08,6.00000000000000e-01,5.40000000000011e-01,5.99405803327874e-01
7.01300000000000e-08,6.00000000000000e-01,4.20000000000034e-01,5.99829445322300e-01
7.01700000000000e-08,6.00000000000000e-01,1.80000000000080e-01,6.00015518538810e-01
7.02000000000000e-08,6.00000000000000e-01,3.44169137633799e-14,6.00031514723073e-01
7.02080000000000e-08,6.00000000000000e-01,0.00000000000000e+00,6.00023362859358e-01
7.02240000000000e-08,6.00000000000000e-01,0.00000000000000e+00,6.00001425693952e-01
7.02560000000000e-08,6.00000000000000e-01,0.00000000000000e+00,5.99971511634805e-01
7.03200000000000e-08,6.00000000000000e-01,0.00000000000000e+00,5.99935110943928e-01
7.04480000000000e-08,6.00000000000000e-01,0.00000000000000e+00,6.00004770164853e-01
7.07040000000000e-08,6.00000000000000e-01,0.00000000000000e+00,5.99982768308726e-01
7.10622787436398e-08,6.00000000000000e-01,0.00000000000000e+00,5.99975413982739e-01
7.16766743511279e-08,6.00000000000000e-01,0.00000000000000e+00,5.99986331548364e-01
7.29054655661042e-08,6.00000000000000e-01,0.00000000000000e+00,5.99977493574610e-01
7.51000000000000e-08,6.00000000000000e-01,0.00000000000000e+00,5.99990995742552e-01
7.51100000000000e-08,5.40000000000061e-01,0.00000000000000e+00,5.99867705151707e-01
7.51300000000000e-08,4.20000000000084e-01,0.00000000000000e+00,5.99746002665511e-01
7.51700000000000e-08,1.80000000000129e-01,0.00000000000000e+00,6.00795685192681e-01
7.52000000000000e-08,8.40438829641244e-14,0.00000000000000e+00,6.03722323114735e-01
7.52080000000000e-08,0.00000000000000e+00,0.00000000000000e+00,6.04504104733656e-01
7.52240000000000e-08,0.00000000000000e+00,0.00000000000000e+00,6.05411389781855e-01
7.52560000000000e-08,0.00000000000000e+00,0.00000000000000e+00,6.03691775234383e-01
7.53200000000000e-08,0.00000000000000e+00,0.00000000000000e+00,5.91428823968414e-01
7.54480000000000e-08,0.00000000000000e+00,0.00000000000000e+00,5.88594889986547e-01
7.56930825677587e-08,0.00000000000000e+00,0.00000000000000e+00,6.02374708242571e-01
7.60581018877389e-08,0.00000000000000e+00,0.00000000000000e+00,5.97112038428814e-01
7.66780899056466e-08,0.00000000000000e+00,0.00000000000000e+00,6.01764617168129e-01
7.75944956234432e-08,0.00000000000000e+00,0.00000000000000e+00,5.98010007311969e-01
7.81000000000000e-08,0.00000000000000e+00,0.00000000000000e+00,6.01341687389012e-01
7.82832811435594e-08,0.00000000000000e+00,0.00000000000000e+00,6.00037045080261e-01
7.86498434306780e-08,0.00000000000000e+00,0.00000000000000e+00,5.99746726705765e-01
7.93829680049154e-08,0.00000000000000e+00,0.00000000000000e+00,6.00004240091690e-01
8.08492171533900e-08,0.00000000000000e+00,0.00000000000000e+00,5.99810423856005e-01
8.37817154503394e-08,0.00000000000000e+00,0.00000000000000e+00,6.00031859086057e-01
8.50000000000000e-08,0.00000000000000e+00,0.00000000000000e+00,5.99844470731988e-01
8.50100000000000e-08,5.99999999999886e-02,0.00000000000000e+00,5.99989057244094e-01
8.50300000000000e-08,1.79999999999966e-01,0.00000000000000e+00,6.00136100610645e-01
8.50700000000000e-08,4.19999999999920e-01,0.00000000000000e+00,6.00093416689229e-01
8.51000000000000e-08,5.99999999999966e-01,0.00000000000000e+00,5.99922013699837e-01
8.51080000000000e-08,6.00000000000000e-01,0.00000000000000e+00,5.99813385929790e-01
8.51240000000000e-08,6.00000000000000e-01,0.00000000000000e+00,5.99688892098501e-01
8.51560000000000e-08,6.00000000000000e-01,0.00000000000000e+00,5.99642932564904e-01
8.52200000000000e-08,6.00000000000000e-01,0.00000000000000e+00,5.99738297419637e-01
8.53480000000000e-08,6.00000000000000e-01,0.00000000000000e+00,6.00004177251092e-01
8.56040000000000e-08,6.00000000000000e-01,0.00000000000000e+00,6.09856015576278e-01
8.61159999999999e-08,6.00000000000000e-01,0.00000000000000e+00,2.18136940484125e-01
8.68146019492225e-08,6.00000000000000e-01,0.00000000000000e+00,-6.56405590305262e-02
8.77372194729293e-08,6.00000000000000e-01,0.00000000000000e+00,5.19429077524525e-02
8.91888926877673e-08,6.00000000000000e-01,0.00000000000000e+00,-3.50864511556557e-02
9.00000000000000e-08,6.00000000000000e-01,0.00000000000000e+00,2.42488915069233e-02
9.00100000000000e-08,6.00000000000000e-01,5.99999999999886e-02,2.21755918612939e-02
9.00300000000000e-08,6.00000000000000e-01,1.79999999999966e-01,1.81414352641431e-02
9.00700000000000e-08,6.00000000000000e-01,4.19999999999920e-01,1.16025987375430e-02
9.01000000000000e-08,6.00000000000000e-01,5.99999999999966e-01,8.28770602256841e-03
9.01080000000000e-08,6.00000000000000e-01,6.00000000000000e-01,7.60770120405704e-03
9.01240000000000e-08,6.00000000000000e-01,6.00000000000000e-01,6.35610831271072e-03
9.01560000000000e-08,6.00000000000000e-01,6.00000000000000e-01,4.43943921898765e-03
9.02200000000000e-08,6.00000000000000e-01,6.00000000000000e-01,2.10209544652276e-03
9.03480000000000e-08,6.00000000000000e-01,6.00000000000000e-01,3.58183270176005e-04
9.06040000000000e-08,6.00000000000000e-01,6.00000000000000e-01,-5.14732100464974e-05
9.11159999999999e-08,6.00000000000000e-01,6.00000000000000e-01,4.20701218744983e-05
9.21399999999999e-08,6.00000000000000e-01,6.00000000000000e-01,-8.36531132357952e-06
9.41879999999998e-08,6.00000000000000e-01,6.00000000000000e-01,3.18231221072603e-05
9.51000000000000e-08,6.00000000000000e-01,6.00000000000000e-01,-2.45388983972916e-07
9.51100000000000e-08,5.40000000000061e-01,6.00000000000000e-01,-1.38932716520782e-04
9.51300000000000e-08,4.20000000000084e-01,6.00000000000000e-01,-3.39675959465560e-04
9.51700000000000e-08,1.80000000000129e-01,6.00000000000000e-01,-2.40162871933264e-04
9.52000000000000e-08,8.40438829641244e-14,6.00000000000000e-01,4.11544902967548e-04
9.52080000000000e-08,0.00000000000000e+00,6.00000000000000e-01,7.17566961650998e-04
9.52240000000000e-08,0.00000000000000e+00,6.00000000000000e-01,1.07041749760364e-03
9.52560000000000e-08,0.00000000000000e+00,6.00000000000000e-01,8.36082368217611e-04
9.53200000000000e-08,0.00000000000000e+00,6.00000000000000e-01,-1.01691033930301e-03
9.54480000000000e-08,0.00000000000000e+00,6.00000000000000e-01,-1.69176815516369e-03
9.57040000000000e-08,0.00000000000000e+00,6.00000000000000e-01,4.08068092280403e-04
9.60636529487590e-08,0.00000000000000e+00,6.00000000000000e-01,-3.65819553004357e-04
9.61499547484435e-08,0.00000000000000e+00,6.00000000000000e-01,-1.04549618319245e-04
9.63225583478124e-08,0.00000000000000e+00,6.00000000000000e-01,1.32711773196161e-04
9.66677655465503e-08,0.00000000000000e+00,6.00000000000000e-01,3.13496084581172e-05
9.73581799440262e-08,0.00000000000000e+00,6.00000000000000e-01,2.63154819597072e-06
9.87390087389779e-08,0.00000000000000e+00,6.00000000000000e-01,3.14630880447631e-05
1.01500666328881e-07,0.00000000000000e+00,6.00000000000000e-01,5.62196740443340e-07
1.05000000000000e-07,0.00000000000000e+00,6.00000000000000e-01,3.11905277417691e-05
1.05010000000000e-07,5.99999999999886e-02,6.00000000000000e-01,2.72919807068200e-04
1.05030000000000e-07,1.79999999999966e-01,6.00000000000000e-01,6.55112974579680e-04
1.05070000000000e-07,4.19999999999920e-01,6.00000000000000e-01,1.13355211952500e-03
1.05100000000000e-07,5.99999999999966e-01,6.00000000000000e-01,1.08376126144928e-03
1.05108000000000e-07,6.00000000000000e-01,6.00000000000000e-01,7.78158993640685e-04
1.05124000000000e-07,6.00000000000000e-01,6.00000000000000e-01,7.47582361039084e-05
1.05156000000000e-07,6.00000000000000e-01,6.00000000000000e-01,-1.55197848186354e-03
1.05220000000000e-07,6.00000000000000e-01,6.00000000000000e-01,-4.30356141697798e-03
1.05348000000000e-07,6.00000000000000e-01,6.00000000000000e-01,-5.30852246292036e-03
1.05604000000000e-07,6.00000000000000e-01,6.00000000000000e-01,1.82830981399087e-01
1.06116000000000e-07,6.00000000000000e-01,6.00000000000000e-01,5.92470732512750e-01
1.07030244639257e-07,6.00000000000000e-01,6.00000000000000e-01,6.01705729495746e-01
1.08157714729313e-07,6.00000000000000e-01,6.00000000000000e-01,5.98362816782090e-01
1.09825961719386e-07,6.00000000000000e-01,6.00000000000000e-01,6.01314572948660e-01
