Time,v(clk),v(data),v(out),v(reset)
1.67772160000000e-09,0.00000000000000e+00,0.00000000000000e+00,5.99998110589284e-01,6.00000000000000e-01
3.35544320000000e-09,0.00000000000000e+00,0.00000000000000e+00,5.99998370638469e-01,6.00000000000000e-01
5.00000000000000e-09,0.00000000000000e+00,0.00000000000000e+00,5.99998048409651e-01,6.00000000000000e-01
5.01000000000000e-09,5.99999999999986e-02,0.00000000000000e+00,5.99648077986409e-01,5.40000000000002e-01
5.03000000000000e-09,1.80000000000001e-01,0.00000000000000e+00,5.98784705551785e-01,4.19999999999999e-01
5.07000000000000e-09,4.20000000000000e-01,0.00000000000000e+00,5.99317304414677e-01,1.80000000000000e-01
5.10000000000000e-09,6.00000000000000e-01,0.00000000000000e+00,6.06076787458038e-01,0.00000000000000e+00
5.10800000000000e-09,6.00000000000000e-01,0.00000000000000e+00,6.09155435479444e-01,0.00000000000000e+00
5.12400000000000e-09,6.00000000000000e-01,0.00000000000000e+00,6.14750945573999e-01,0.00000000000000e+00
5.15600000000000e-09,6.00000000000000e-01,0.00000000000000e+00,6.23394356235423e-01,0.00000000000000e+00
5.22000000000000e-09,6.00000000000000e-01,0.00000000000000e+00,6.35642786373100e-01,0.00000000000000e+00
5.34800000000000e-09,6.00000000000000e-01,0.00000000000000e+00,6.59011731775082e-01,0.00000000000000e+00
5.60400000000000e-09,6.00000000000000e-01,0.00000000000000e+00,5.77276883074541e-01,0.00000000000000e+00
6.11600000000000e-09,6.00000000000000e-01,0.00000000000000e+00,1.07707522048666e-01,0.00000000000000e+00
6.84370319347826e-09,6.00000000000000e-01,0.00000000000000e+00,-3.07628870855059e-02,0.00000000000000e+00
7.78743698452864e-09,6.00000000000000e-01,0.00000000000000e+00,1.85482787986760e-02,0.00000000000000e+00
9.67490456662939e-09,6.00000000000000e-01,0.00000000000000e+00,-1.37152502427316e-02,0.00000000000000e+00
1.00000000000000e-08,6.00000000000000e-01,0.00000000000000e+00,3.57272116623017e-03,0.00000000000000e+00
1.00100000000000e-08,6.00000000000000e-01,5.99999999999986e-02,2.86529158269525e-03,0.00000000000000e+00
1.00300000000000e-08,6.00000000000000e-01,1.79999999999996e-01,1.80543110951289e-03,0.00000000000000e+00
1.00700000000000e-08,6.00000000000000e-01,4.19999999999990e-01,8.85275293482271e-04,0.00000000000000e+00
1.01000000000000e-08,6.00000000000000e-01,5.99999999999995e-01,5.98964468362315e-04,0.00000000000000e+00
1.01080000000000e-08,6.00000000000000e-01,6.00000000000000e-01,5.39019065599555e-04,0.00000000000000e+00
1.01240000000000e-08,6.00000000000000e-01,6.00000000000000e-01,4.39573101297594e-04,0.00000000000000e+00
1.01560000000000e-08,6.00000000000000e-01,6.00000000000000e-01,3.14795745546048e-04,0.00000000000000e+00
1.02200000000000e-08,6.00000000000000e-01,6.00000000000000e-01,2.18621631846480e-04,0.00000000000000e+00
1.03480000000000e-08,6.00000000000000e-01,6.00000000000000e-01,1.28933979369528e-04,0.00000000000000e+00
1.06040000000000e-08,6.00000000000000e-01,6.00000000000000e-01,2.95643848145372e-05,0.00000000000000e+00
1.11160000000000e-08,6.00000000000000e-01,6.00000000000000e-01,-2.79523029590723e-06,0.00000000000000e+00
1.21400000000000e-08,6.00000000000000e-01,6.00000000000000e-01,2.20710447648362e-06,0.00000000000000e+00
1.41880000000000e-08,6.00000000000000e-01,6.00000000000000e-01,1.03846329008034e-05,0.00000000000000e+00
1.51000000000000e-08,6.00000000000000e-01,6.00000000000000e-01,6.74577616332356e-06,0.00000000000000e+00
1.51100000000000e-08,5.39999999999992e-01,6.00000000000000e-01,1.09398829674553e-03,6.00000000000085e-02
1.51300000000000e-08,4.19999999999994e-01,6.00000000000000e-01,2.59637597757280e-03,1.80000000000006e-01
1.51700000000000e-08,1.80000000000000e-01,6.00000000000000e-01,3.15719810513004e-03,4.20000000000000e-01
1.52000000000000e-08,0.00000000000000e+00,6.00000000000000e-01,1.72032591251033e-03,6.00000000000000e-01
1.52080000000000e-08,0.00000000000000e+00,6.00000000000000e-01,1.54801983771236e-03,6.00000000000000e-01
1.52240000000000e-08,0.00000000000000e+00,6.00000000000000e-01,1.29479832165393e-03,6.00000000000000e-01
1.52560000000000e-08,0.00000000000000e+00,6.00000000000000e-01,1.10557870477958e-03,6.00000000000000e-01
1.53200000000000e-08,0.00000000000000e+00,6.00000000000000e-01,1.00704371861648e-03,6.00000000000000e-01
1.54480000000000e-08,0.00000000000000e+00,6.00000000000000e-01,2.69291439908614e-04,6.00000000000000e-01
1.57040000000000e-08,0.00000000000000e+00,6.00000000000000e-01,-2.69481006340891e-03,6.00000000000000e-01
1.62160000000000e-08,0.00000000000000e+00,6.00000000000000e-01,-6.73339984073686e-04,6.00000000000000e-01
1.68704216833440e-08,0.00000000000000e+00,6.00000000000000e-01,8.83470181440013e-04,6.00000000000000e-01
1.79520960363902e-08,0.00000000000000e+00,6.00000000000000e-01,-1.24895883203240e-03,6.00000000000000e-01
1.90610173567322e-08,0.00000000000000e+00,6.00000000000000e-01,1.37773826491231e-03,6.00000000000000e-01
2.11813465794798e-08,0.00000000000000e+00,6.00000000000000e-01,-1.24540000436642e-03,6.00000000000000e-01
2.32330062728196e-08,0.00000000000000e+00,6.00000000000000e-01,1.10054820109675e-03,6.00000000000000e-01
2.50000000000000e-08,0.00000000000000e+00,6.00000000000000e-01,-8.89656939951446e-04,6.00000000000000e-01
2.50100000000000e-08,5.99999999999886e-02,6.00000000000000e-01,-1.36802531647690e-05,6.00000000000000e-01
2.50300000000000e-08,1.80000000000006e-01,6.00000000000000e-01,1.60364524914811e-03,6.00000000000000e-01
2.50700000000000e-08,4.20000000000000e-01,6.00000000000000e-01,4.15623526744743e-03,6.00000000000000e-01
2.51000000000000e-08,6.00000000000000e-01,6.00000000000000e-01,4.54136694851233e-03,6.00000000000000e-01
2.51080000000000e-08,6.00000000000000e-01,6.00000000000000e-01,4.12379763930507e-03,6.00000000000000e-01
2.51240000000000e-08,6.00000000000000e-01,6.00000000000000e-01,3.30256966550140e-03,6.00000000000000e-01
2.51560000000000e-08,6.00000000000000e-01,6.00000000000000e-01,1.70847070243059e-03,6.00000000000000e-01
2.52200000000000e-08,6.00000000000000e-01,6.00000000000000e-01,-1.71780545479586e-03,6.00000000000000e-01
2.53480000000000e-08,6.00000000000000e-01,6.00000000000000e-01,-8.26707490227654e-03,6.00000000000000e-01
2.56040000000000e-08,6.00000000000000e-01,6.00000000000000e-01,-1.40949242221041e-02,6.00000000000000e-01
2.61160000000000e-08,6.00000000000000e-01,6.00000000000000e-01,1.11033638930644e-01,6.00000000000000e-01
2.71400000000000e-08,6.00000000000000e-01,6.00000000000000e-01,5.72867764580169e-01,6.00000000000000e-01
2.89867065360848e-08,6.00000000000000e-01,6.00000000000000e-01,6.08953040736203e-01,6.00000000000000e-01
3.01000000000000e-08,6.00000000000000e-01,6.00000000000000e-01,5.93019158669158e-01,6.00000000000000e-01
3.01100000000000e-08,6.00000000000000e-01,5.40000000000031e-01,5.94083160266500e-01,6.00000000000000e-01
3.01300000000000e-08,6.00000000000000e-01,4.20000000000014e-01,5.95860141008403e-01,6.00000000000000e-01
3.01700000000000e-08,6.00000000000000e-01,1.80000000000020e-01,5.98012254839979e-01,6.00000000000000e-01
3.02000000000000e-08,6.00000000000000e-01,1.44328993201270e-14,5.98866236281867e-01,6.00000000000000e-01
3.02080000000000e-08,6.00000000000000e-01,0.00000000000000e+00,5.99027472795121e-01,6.00000000000000e-01
3.02240000000000e-08,6.00000000000000e-01,0.00000000000000e+00,5.99277648209459e-01,6.00000000000000e-01
3.02560000000000e-08,6.00000000000000e-01,0.00000000000000e+00,5.99547963063958e-01,6.00000000000000e-01
3.03200000000000e-08,6.00000000000000e-01,0.00000000000000e+00,5.99705274020993e-01,6.00000000000000e-01
3.04480000000000e-08,6.00000000000000e-01,0.00000000000000e+00,5.99732725928811e-01,6.00000000000000e-01
3.07040000000000e-08,6.00000000000000e-01,0.00000000000000e+00,5.99693144156396e-01,6.00000000000000e-01
3.12160000000000e-08,6.00000000000000e-01,0.00000000000000e+00,6.00102007057196e-01,6.00000000000000e-01
3.19501542945880e-08,6.00000000000000e-01,0.00000000000000e+00,5.99974975304060e-01,6.00000000000000e-01
3.31844101957365e-08,6.00000000000000e-01,0.00000000000000e+00,5.99995687735415e-01,6.00000000000000e-01
3.47389127311522e-08,6.00000000000000e-01,0.00000000000000e+00,6.00016792941282e-01,6.00000000000000e-01
3.51000000000000e-08,5.99999999999970e-01,0.00000000000000e+00,5.99961363837501e-01,6.00000000000000e-01
3.51100000000000e-08,5.39999999999982e-01,0.00000000000000e+00,5.99669941205902e-01,6.00000000000000e-01
3.51300000000000e-08,4.19999999999965e-01,0.00000000000000e+00,5.99118711999412e-01,6.00000000000000e-01
3.51700000000000e-08,1.79999999999970e-01,0.00000000000000e+00,5.98988934908706e-01,6.00000000000000e-01
3.52000000000000e-08,0.00000000000000e+00,0.00000000000000e+00,6.00846220993528e-01,6.00000000000000e-01
3.52080000000000e-08,0.00000000000000e+00,0.00000000000000e+00,6.01815915707957e-01,6.00000000000000e-01
3.52240000000000e-08,0.00000000000000e+00,0.00000000000000e+00,6.03393375491361e-01,6.00000000000000e-01
3.52560000000000e-08,0.00000000000000e+00,0.00000000000000e+00,6.05214590947559e-01,6.00000000000000e-01
3.53200000000000e-08,0.00000000000000e+00,0.00000000000000e+00,6.06579126341712e-01,6.00000000000000e-01
3.54480000000000e-08,0.00000000000000e+00,0.00000000000000e+00,6.07449040523987e-01,6.00000000000000e-01
3.57040000000000e-08,0.00000000000000e+00,0.00000000000000e+00,6.01300618887182e-01,6.00000000000000e-01
3.62160000000000e-08,0.00000000000000e+00,0.00000000000000e+00,5.91991692696780e-01,6.00000000000000e-01
3.70020754655966e-08,0.00000000000000e+00,0.00000000000000e+00,6.01489800893932e-01,6.00000000000000e-01
3.79763710472513e-08,0.00000000000000e+00,0.00000000000000e+00,5.98250665238929e-01,6.00000000000000e-01
3.97736149076479e-08,0.00000000000000e+00,0.00000000000000e+00,6.01012322324254e-01,6.00000000000000e-01
4.16613988853249e-08,0.00000000000000e+00,0.00000000000000e+00,5.98917792709197e-01,6.00000000000000e-01
4.50000000000000e-08,0.00000000000000e+00,0.00000000000000e+00,6.00803333559137e-01,6.00000000000000e-01
4.50100000000000e-08,5.99999999999886e-02,0.00000000000000e+00,6.00327997734350e-01,5.40000000000011e-01
4.50300000000000e-08,1.80000000000006e-01,0.00000000000000e+00,5.99313187075537e-01,4.19999999999994e-01
4.50700000000000e-08,4.20000000000000e-01,0.00000000000000e+00,5.99632945388751e-01,1.80000000000000e-01
4.51000000000000e-08,6.00000000000000e-01,0.00000000000000e+00,6.06277252911830e-01,0.00000000000000e+00
4.51080000000000e-08,6.00000000000000e-01,0.00000000000000e+00,6.09310996919689e-01,0.00000000000000e+00
4.51240000000000e-08,6.00000000000000e-01,0.00000000000000e+00,6.14836307861661e-01,0.00000000000000e+00
4.51560000000000e-08,6.00000000000000e-01,0.00000000000000e+00,6.23413862034138e-01,0.00000000000000e+00
4.52200000000000e-08,6.00000000000000e-01,0.00000000000000e+00,6.35524400678115e-01,0.00000000000000e+00
4.53480000000000e-08,6.00000000000000e-01,0.00000000000000e+00,6.58464750594805e-01,0.00000000000000e+00
4.56040000000000e-08,6.00000000000000e-01,0.00000000000000e+00,5.62445161165007e-01,0.00000000000000e+00
4.61160000000000e-08,6.00000000000000e-01,0.00000000000000e+00,9.97598269637822e-02,0.00000000000000e+00
4.68935012413829e-08,6.00000000000000e-01,0.00000000000000e+00,-3.12238723696127e-02,0.00000000000000e+00
4.78277189028180e-08,6.00000000000000e-01,0.00000000000000e+00,1.83395178267001e-02,0.00000000000000e+00
4.96961542256883e-08,6.00000000000000e-01,0.00000000000000e+00,-1.33463102579356e-02,0.00000000000000e+00
5.00000000000000e-08,6.00000000000000e-01,0.00000000000000e+00,2.59217715682174e-03,0.00000000000000e+00
5.00100000000000e-08,6.00000000000000e-01,5.99999999999886e-02,2.04909577025172e-03,0.00000000000000e+00
5.00300000000000e-08,6.00000000000000e-01,1.79999999999966e-01,1.23540257554028e-03,0.00000000000000e+00
5.00700000000000e-08,6.00000000000000e-01,4.20000000000000e-01,5.38639484158207e-04,0.00000000000000e+00
5.01000000000000e-08,6.00000000000000e-01,6.00000000000000e-01,3.23286613782420e-04,0.00000000000000e+00
5.01080000000000e-08,6.00000000000000e-01,6.00000000000000e-01,2.77351870320727e-04,0.00000000000000e+00
5.01240000000000e-08,6.00000000000000e-01,6.00000000000000e-01,2.05561474686852e-04,0.00000000000000e+00
5.01560000000000e-08,6.00000000000000e-01,6.00000000000000e-01,1.27156268131923e-04,0.00000000000000e+00
5.02200000000000e-08,6.00000000000000e-01,6.00000000000000e-01,6.38349966927271e-05,0.00000000000000e+00
5.03480000000000e-08,6.00000000000000e-01,6.00000000000000e-01,6.91849816164408e-05,0.00000000000000e+00
5.06040000000000e-08,6.00000000000000e-01,6.00000000000000e-01,1.87838633605580e-05,0.00000000000000e+00
5.11160000000001e-08,6.00000000000000e-01,6.00000000000000e-01,3.17258161450923e-06,0.00000000000000e+00
5.21400000000002e-08,6.00000000000000e-01,6.00000000000000e-01,8.65674607523903e-06,0.00000000000000e+00
5.41880000000003e-08,6.00000000000000e-01,6.00000000000000e-01,4.98739038785195e-06,0.00000000000000e+00
5.51000000000000e-08,6.00000000000000e-01,6.00000000000000e-01,8.21535115938521e-06,0.00000000000000e+00
5.51100000000000e-08,5.40000000000021e-01,6.00000000000000e-01,1.09860603769840e-03,5.99999999999787e-02
5.51300000000000e-08,4.20000000000004e-01,6.00000000000000e-01,2.60037289134446e-03,1.79999999999996e-01
5.51700000000000e-08,1.80000000000010e-01,6.00000000000000e-01,3.16600216736654e-03,4.19999999999990e-01
5.52000000000000e-08,0.00000000000000e+00,6.00000000000000e-01,1.73167135877163e-03,6.00000000000000e-01
5.52080000000000e-08,0.00000000000000e+00,6.00000000000000e-01,1.55499652056598e-03,6.00000000000000e-01
5.52240000000000e-08,0.00000000000000e+00,6.00000000000000e-01,1.29962305676991e-03,6.00000000000000e-01
5.52560000000000e-08,0.00000000000000e+00,6.00000000000000e-01,1.10650733730958e-03,6.00000000000000e-01
5.53200000000000e-08,0.00000000000000e+00,6.00000000000000e-01,1.00533290536060e-03,6.00000000000000e-01
5.54480000000000e-08,0.00000000000000e+00,6.00000000000000e-01,2.68444685983443e-04,6.00000000000000e-01
5.57040000000000e-08,0.00000000000000e+00,6.00000000000000e-01,-2.62153113031907e-03,6.00000000000000e-01
5.62160000000000e-08,0.00000000000000e+00,6.00000000000000e-01,-6.69808587610711e-04,6.00000000000000e-01
5.68998214014877e-08,0.00000000000000e+00,6.00000000000000e-01,1.06356942193204e-03,6.00000000000000e-01
5.80204145218004e-08,0.00000000000000e+00,6.00000000000000e-01,-1.45194220441957e-03,6.00000000000000e-01
5.91613356153085e-08,0.00000000000000e+00,6.00000000000000e-01,1.41056061043926e-03,6.00000000000000e-01
6.13453725438696e-08,0.00000000000000e+00,6.00000000000000e-01,-1.21969755120711e-03,6.00000000000000e-01
6.35033286248464e-08,0.00000000000000e+00,6.00000000000000e-01,1.05147223183293e-03,6.00000000000000e-01
6.50000000000000e-08,0.00000000000000e+00,6.00000000000000e-01,-7.85315939231753e-04,6.00000000000000e-01
6.50100000000000e-08,5.99999999999886e-02,6.00000000000000e-01,8.23573745939443e-05,6.00000000000000e-01
6.50300000000000e-08,1.79999999999966e-01,6.00000000000000e-01,1.67454639116209e-03,6.00000000000000e-01
6.50700000000000e-08,4.19999999999920e-01,6.00000000000000e-01,4.21029457847029e-03,6.00000000000000e-01
6.51000000000000e-08,5.99999999999966e-01,6.00000000000000e-01,4.59533491706697e-03,6.00000000000000e-01
6.51080000000000e-08,6.00000000000000e-01,6.00000000000000e-01,4.17574265657455e-03,6.00000000000000e-01
6.51240000000000e-08,6.00000000000000e-01,6.00000000000000e-01,3.35193967899861e-03,6.00000000000000e-01
6.51560000000000e-08,6.00000000000000e-01,6.00000000000000e-01,1.74451167332056e-03,6.00000000000000e-01
6.52200000000000e-08,6.00000000000000e-01,6.00000000000000e-01,-1.70717379441165e-03,6.00000000000000e-01
6.53480000000000e-08,6.00000000000000e-01,6.00000000000000e-01,-8.27654193800645e-03,6.00000000000000e-01
6.56040000000000e-08,6.00000000000000e-01,6.00000000000000e-01,-1.41097089420009e-02,6.00000000000000e-01
6.61159999999999e-08,6.00000000000000e-01,6.00000000000000e-01,1.10591637017441e-01,6.00000000000000e-01
6.71399999999999e-08,6.00000000000000e-01,6.00000000000000e-01,5.72746184625338e-01,6.00000000000000e-01
6.89895399957401e-08,6.00000000000000e-01,6.00000000000000e-01,6.09001771232760e-01,6.00000000000000e-01
7.01000000000000e-08,6.00000000000000e-01,6.00000000000000e-01,5.92980097748233e-01,6.00000000000000e-01
7.01100000000000e-08,6.00000000000000e-01,5.40000000000011e-01,5.94050986903559e-01,6.00000000000000e-01
7.01300000000000e-08,6.00000000000000e-01,4.20000000000034e-01,5.95839384586009e-01,6.00000000000000e-01
7.01700000000000e-08,6.00000000000000e-01,1.80000000000080e-01,5.98004787206419e-01,6.00000000000000e-01
7.02000000000000e-08,6.00000000000000e-01,3.44169137633799e-14,5.98862761626282e-01,6.00000000000000e-01
7.02080000000000e-08,6.00000000000000e-01,0.00000000000000e+00,5.99024613770839e-01,6.00000000000000e-01
7.02240000000000e-08,6.00000000000000e-01,0.00000000000000e+00,5.99275852574710e-01,6.00000000000000e-01
7.02560000000000e-08,6.00000000000000e-01,0.00000000000000e+00,5.99547493513395e-01,6.00000000000000e-01
7.03200000000000e-08,6.00000000000000e-01,0.00000000000000e+00,5.99705735216439e-01,6.00000000000000e-01
7.04480000000000e-08,6.00000000000000e-01,0.00000000000000e+00,5.99733297352373e-01,6.00000000000000e-01
7.07040000000000e-08,6.00000000000000e-01,0.00000000000000e+00,5.99693284945352e-01,6.00000000000000e-01
7.12159999999999e-08,6.00000000000000e-01,0.00000000000000e+00,6.00102077671727e-01,6.00000000000000e-01
7.19495140400153e-08,6.00000000000000e-01,0.00000000000000e+00,5.99975039074077e-01,6.00000000000000e-01
7.31840727961052e-08,6.00000000000000e-01,0.00000000000000e+00,5.99995648396966e-01,6.00000000000000e-01
7.47369237444875e-08,6.00000000000000e-01,0.00000000000000e+00,6.00016834143203e-01,6.00000000000000e-01
7.51000000000000e-08,6.00000000000000e-01,0.00000000000000e+00,5.99961399277351e-01,6.00000000000000e-01
7.51100000000000e-08,5.40000000000061e-01,0.00000000000000e+00,5.99669991899594e-01,6.00000000000000e-01
7.51300000000000e-08,4.20000000000084e-01,0.00000000000000e+00,5.99118783148915e-01,6.00000000000000e-01
7.51700000000000e-08,1.80000000000129e-01,0.00000000000000e+00,5.98989001857163e-01,6.00000000000000e-01
7.52000000000000e-08,8.40438829641244e-14,0.00000000000000e+00,6.00846248655880e-01,6.00000000000000e-01
7.52080000000000e-08,0.00000000000000e+00,0.00000000000000e+00,6.01815941675380e-01,6.00000000000000e-01
7.52240000000000e-08,0.00000000000000e+00,0.00000000000000e+00,6.03393395028833e-01,6.00000000000000e-01
7.52560000000000e-08,0.00000000000000e+00,0.00000000000000e+00,6.05214600882683e-01,6.00000000000000e-01
7.53200000000000e-08,0.00000000000000e+00,0.00000000000000e+00,6.06579161576308e-01,6.00000000000000e-01
7.54480000000000e-08,0.00000000000000e+00,0.00000000000000e+00,6.07449725574051e-01,6.00000000000000e-01
7.57040000000000e-08,0.00000000000000e+00,0.00000000000000e+00,6.01305654937355e-01,6.00000000000000e-01
7.62159999999999e-08,0.00000000000000e+00,0.00000000000000e+00,5.91993743191558e-01,6.00000000000000e-01
7.70020824492373e-08,0.00000000000000e+00,0.00000000000000e+00,6.01487759732003e-01,6.00000000000000e-01
7.79763748854145e-08,0.00000000000000e+00,0.00000000000000e+00,5.98252236620786e-01,6.00000000000000e-01
7.97736550638906e-08,0.00000000000000e+00,0.00000000000000e+00,6.01011028288284e-01,6.00000000000000e-01
8.16614462065742e-08,0.00000000000000e+00,0.00000000000000e+00,5.98918915036233e-01,6.00000000000000e-01
8.50000000000000e-08,0.00000000000000e+00,0.00000000000000e+00,6.00802309508594e-01,6.00000000000000e-01
8.50100000000000e-08,5.99999999999886e-02,0.00000000000000e+00,6.00327104638398e-01,5.40000000000011e-01
8.50300000000000e-08,1.79999999999966e-01,0.00000000000000e+00,5.99312581676222e-01,4.20000000000034e-01
8.50700000000000e-08,4.19999999999920e-01,0.00000000000000e+00,5.99632593513534e-01,1.80000000000080e-01
8.51000000000000e-08,5.99999999999966e-01,0.00000000000000e+00,6.06276990516858e-01,3.44169137633799e-14
