Time,v(clk),v(data),v(out)
1.00000000000000e-08,5.00000000000000e-01,0.00000000000000e+00,-5.99036270034284e-06
1.00100000000000e-08,5.00000000000000e-01,4.99999999999988e-02,4.40680578785158e-07
1.00300000000000e-08,5.00000000000000e-01,1.49999999999996e-01,6.91499008818180e-06
1.00700000000000e-08,5.00000000000000e-01,3.49999999999992e-01,7.48877795739983e-06
1.01000000000000e-08,5.00000000000000e-01,4.99999999999996e-01,4.10063087569884e-06
1.01080000000000e-08,5.00000000000000e-01,5.00000000000000e-01,3.57782365898590e-06
1.01240000000000e-08,5.00000000000000e-01,5.00000000000000e-01,3.63698890201020e-06
1.01560000000000e-08,5.00000000000000e-01,5.00000000000000e-01,5.21908573170721e-06
1.02200000000000e-08,5.00000000000000e-01,5.00000000000000e-01,5.97960896529109e-06
1.03480000000000e-08,5.00000000000000e-01,5.00000000000000e-01,3.85244119148823e-06
1.06040000000000e-08,5.00000000000000e-01,5.00000000000000e-01,2.78408513907681e-06
1.11160000000000e-08,5.00000000000000e-01,5.00000000000000e-01,3.55205483197618e-06
1.21400000000000e-08,5.00000000000000e-01,5.00000000000000e-01,2.56294576947858e-06
1.41880000000000e-08,5.00000000000000e-01,5.00000000000000e-01,3.02586385167143e-06
1.51000000000000e-08,5.00000000000000e-01,5.00000000000000e-01,2.20253122801620e-06
1.51100000000000e-08,4.49999999999993e-01,5.00000000000000e-01,-4.72924225424359e-05
1.51300000000000e-08,3.49999999999995e-01,5.00000000000000e-01,-1.23004656279298e-04
1.51700000000000e-08,1.50000000000000e-01,5.00000000000000e-01,-1.56574838096502e-04
1.52000000000000e-08,0.00000000000000e+00,5.00000000000000e-01,5.58245777999150e-06
1.52080000000000e-08,0.00000000000000e+00,5.00000000000000e-01,1.19195221609913e-04
1.52240000000000e-08,0.00000000000000e+00,5.00000000000000e-01,2.69530439946909e-04
1.52560000000000e-08,0.00000000000000e+00,5.00000000000000e-01,3.05863170989504e-04
1.53200000000000e-08,0.00000000000000e+00,5.00000000000000e-01,1.06947871757718e-04
1.54480000000000e-08,0.00000000000000e+00,5.00000000000000e-01,-1.76807758994212e-04
1.57040000000000e-08,0.00000000000000e+00,5.00000000000000e-01,-2.34460440703289e-05
1.62160000000000e-08,0.00000000000000e+00,5.00000000000000e-01,-7.85580970638928e-05
1.69677254320866e-08,0.00000000000000e+00,5.00000000000000e-01,9.11633761716034e-05
1.83377335698247e-08,0.00000000000000e+00,5.00000000000000e-01,-3.29072813948822e-05
2.01446103321908e-08,0.00000000000000e+00,5.00000000000000e-01,4.56686975030488e-06
2.36199421039091e-08,0.00000000000000e+00,5.00000000000000e-01,1.15372706117050e-05
2.50000000000000e-08,0.00000000000000e+00,5.00000000000000e-01,-3.50113919046356e-05
2.50100000000000e-08,4.99999999999905e-02,5.00000000000000e-01,7.20105951376102e-05
2.50300000000000e-08,1.50000000000005e-01,5.00000000000000e-01,2.37906227091508e-04
2.50700000000000e-08,3.50000000000000e-01,5.00000000000000e-01,3.59779991640871e-04
2.51000000000000e-08,5.00000000000000e-01,5.00000000000000e-01,2.42372490215824e-04
2.51080000000000e-08,5.00000000000000e-01,5.00000000000000e-01,8.48727572499500e-05
2.51240000000000e-08,5.00000000000000e-01,5.00000000000000e-01,-3.83002351651111e-04
2.51560000000000e-08,5.00000000000000e-01,5.00000000000000e-01,-1.74278708632304e-03
2.52200000000000e-08,5.00000000000000e-01,5.00000000000000e-01,-3.95911777901575e-03
2.53480000000000e-08,5.00000000000000e-01,5.00000000000000e-01,1.30619917105136e-03
2.56040000000000e-08,5.00000000000000e-01,5.00000000000000e-01,2.59270416024054e-01
2.61160000000000e-08,5.00000000000000e-01,5.00000000000000e-01,5.16225798085419e-01
2.68622827780640e-08,5.00000000000000e-01,5.00000000000000e-01,4.88428241502039e-01
2.81641759336050e-08,5.00000000000000e-01,5.00000000000000e-01,5.12247791208622e-01
2.99839386832491e-08,5.00000000000000e-01,5.00000000000000e-01,4.88943826544336e-01
3.01000000000000e-08,5.00000000000000e-01,5.00000000000000e-01,5.05866229807770e-01
3.01100000000000e-08,5.00000000000000e-01,4.50000000000026e-01,5.03863950533599e-01
3.01300000000000e-08,5.00000000000000e-01,3.50000000000012e-01,5.01248110936123e-01
3.01700000000000e-08,5.00000000000000e-01,1.50000000000017e-01,5.00020593484616e-01
3.02000000000000e-08,5.00000000000000e-01,1.21014309684142e-14,5.00039892094781e-01
3.02080000000000e-08,5.00000000000000e-01,0.00000000000000e+00,5.00040050811434e-01
3.02240000000000e-08,5.00000000000000e-01,0.00000000000000e+00,5.00034540458164e-01
3.02560000000000e-08,5.00000000000000e-01,0.00000000000000e+00,5.00012070805148e-01
3.03200000000000e-08,5.00000000000000e-01,0.00000000000000e+00,4.99965773836314e-01
3.04480000000000e-08,5.00000000000000e-01,0.00000000000000e+00,4.99959096501042e-01
3.07040000000000e-08,5.00000000000000e-01,0.00000000000000e+00,4.99973650460441e-01
3.11020450895330e-08,5.00000000000000e-01,0.00000000000000e+00,4.99961104010867e-01
3.18981352685989e-08,5.00000000000000e-01,0.00000000000000e+00,4.99968643440968e-01
3.28884392589830e-08,5.00000000000000e-01,0.00000000000000e+00,4.99972661745993e-01
3.48690472397513e-08,5.00000000000000e-01,0.00000000000000e+00,4.99971821951231e-01
3.51000000000000e-08,4.99999999999975e-01,0.00000000000000e+00,4.99982568046968e-01
3.51100000000000e-08,4.49999999999985e-01,0.00000000000000e+00,4.99927314772106e-01
3.51300000000000e-08,3.49999999999971e-01,0.00000000000000e+00,4.99852955737914e-01
3.51700000000000e-08,1.49999999999975e-01,0.00000000000000e+00,5.00077766315382e-01
3.52000000000000e-08,0.00000000000000e+00,0.00000000000000e+00,5.01192770641307e-01
3.52080000000000e-08,0.00000000000000e+00,0.00000000000000e+00,5.01557982468655e-01
3.52240000000000e-08,0.00000000000000e+00,0.00000000000000e+00,5.02063299815154e-01
3.52560000000000e-08,0.00000000000000e+00,0.00000000000000e+00,5.02294871283931e-01
3.53200000000000e-08,0.00000000000000e+00,0.00000000000000e+00,4.99734273124588e-01
3.54480000000000e-08,0.00000000000000e+00,0.00000000000000e+00,4.85926759561501e-01
3.57040000000000e-08,0.00000000000000e+00,0.00000000000000e+00,4.89564126822189e-01
3.61450867201800e-08,0.00000000000000e+00,0.00000000000000e+00,5.03740017570631e-01
3.67919743032348e-08,0.00000000000000e+00,0.00000000000000e+00,4.95950754907967e-01
3.78096186735226e-08,0.00000000000000e+00,0.00000000000000e+00,5.02725739485443e-01
3.91000000000000e-08,0.00000000000000e+00,0.00000000000000e+00,4.97139493471290e-01
3.92995337507578e-08,0.00000000000000e+00,0.00000000000000e+00,4.99361491763663e-01
3.96986012522734e-08,0.00000000000000e+00,0.00000000000000e+00,5.00134898131403e-01
4.04967362553047e-08,0.00000000000000e+00,0.00000000000000e+00,4.99604386044876e-01
4.20930062613671e-08,0.00000000000000e+00,0.00000000000000e+00,5.00099805220517e-01
4.50000000000000e-08,0.00000000000000e+00,0.00000000000000e+00,4.99689999379990e-01
4.50100000000000e-08,4.99999999999905e-02,0.00000000000000e+00,4.99781842409857e-01
4.50300000000000e-08,1.50000000000005e-01,0.00000000000000e+00,4.99909041035340e-01
4.50700000000000e-08,3.50000000000000e-01,0.00000000000000e+00,4.99949639487600e-01
4.51000000000000e-08,5.00000000000000e-01,0.00000000000000e+00,4.99859950665585e-01
4.51080000000000e-08,5.00000000000000e-01,0.00000000000000e+00,4.99807526585074e-01
4.51240000000000e-08,5.00000000000000e-01,0.00000000000000e+00,4.99733262392937e-01
4.51560000000000e-08,5.00000000000000e-01,0.00000000000000e+00,4.99696210889885e-01
4.52200000000000e-08,5.00000000000000e-01,0.00000000000000e+00,4.99718764981274e-01
4.53480000000000e-08,5.00000000000000e-01,0.00000000000000e+00,5.00347532218479e-01
4.56040000000000e-08,5.00000000000000e-01,0.00000000000000e+00,5.16498399161206e-01
4.61160000000000e-08,5.00000000000000e-01,0.00000000000000e+00,1.06906381586747e-01
4.67921581865258e-08,5.00000000000000e-01,0.00000000000000e+00,-5.28505417326455e-02
4.77344925363087e-08,5.00000000000000e-01,0.00000000000000e+00,5.13648090300673e-02
4.92966356674368e-08,5.00000000000000e-01,0.00000000000000e+00,-3.76896427358201e-02
5.00000000000000e-08,5.00000000000000e-01,0.00000000000000e+00,3.17983469778843e-02
5.00100000000000e-08,5.00000000000000e-01,4.99999999999905e-02,2.65965733377768e-02
5.00300000000000e-08,5.00000000000000e-01,1.49999999999972e-01,1.80569703741498e-02
5.00700000000000e-08,5.00000000000000e-01,3.50000000000000e-01,8.13222172543719e-03
5.01000000000000e-08,5.00000000000000e-01,5.00000000000000e-01,4.51346869394551e-03
5.01080000000000e-08,5.00000000000000e-01,5.00000000000000e-01,3.91351845390363e-03
5.01240000000000e-08,5.00000000000000e-01,5.00000000000000e-01,2.85968281598213e-03
5.01560000000000e-08,5.00000000000000e-01,5.00000000000000e-01,1.52288345333876e-03
5.02200000000000e-08,5.00000000000000e-01,5.00000000000000e-01,3.68185970368456e-04
5.03480000000000e-08,5.00000000000000e-01,5.00000000000000e-01,-3.61256601769146e-05
5.06040000000000e-08,5.00000000000000e-01,5.00000000000000e-01,1.38773410571068e-05
5.11160000000001e-08,5.00000000000000e-01,5.00000000000000e-01,-1.03887849792917e-05
5.21400000000002e-08,5.00000000000000e-01,5.00000000000000e-01,8.33161403068685e-06
5.41880000000003e-08,5.00000000000000e-01,5.00000000000000e-01,-9.40555992386431e-06
5.51000000000000e-08,5.00000000000000e-01,5.00000000000000e-01,6.65993111274594e-06
5.51100000000000e-08,4.50000000000018e-01,5.00000000000000e-01,-4.38522136227207e-05
5.51300000000000e-08,3.50000000000004e-01,5.00000000000000e-01,-1.20460188912798e-04
5.51700000000000e-08,1.50000000000008e-01,5.00000000000000e-01,-1.50315626070048e-04
5.52000000000000e-08,0.00000000000000e+00,5.00000000000000e-01,9.55184198039166e-06
5.52080000000000e-08,0.00000000000000e+00,5.00000000000000e-01,1.21258298360231e-04
5.52240000000000e-08,0.00000000000000e+00,5.00000000000000e-01,2.62474419959906e-04
5.52560000000000e-08,0.00000000000000e+00,5.00000000000000e-01,2.72635155633562e-04
5.53200000000000e-08,0.00000000000000e+00,5.00000000000000e-01,-5.87243551782718e-05
5.54480000000000e-08,0.00000000000000e+00,5.00000000000000e-01,-1.15983502722737e-03
5.57040000000000e-08,0.00000000000000e+00,5.00000000000000e-01,-8.50088710975441e-05
5.61053482975075e-08,0.00000000000000e+00,5.00000000000000e-01,5.20772497823001e-05
5.69080448925224e-08,0.00000000000000e+00,5.00000000000000e-01,-7.04758014762157e-05
5.79330668496792e-08,0.00000000000000e+00,5.00000000000000e-01,1.68276473989711e-04
5.97192442245530e-08,0.00000000000000e+00,5.00000000000000e-01,-2.03067342584681e-04
6.25809387252463e-08,0.00000000000000e+00,5.00000000000000e-01,2.20872816810262e-04
6.50000000000000e-08,0.00000000000000e+00,5.00000000000000e-01,-2.35562852952909e-04
6.50100000000000e-08,4.99999999999905e-02,5.00000000000000e-01,-4.44571159066640e-05
6.50300000000000e-08,1.49999999999972e-01,5.00000000000000e-01,2.12280323560091e-04
6.50700000000000e-08,3.49999999999934e-01,5.00000000000000e-01,3.69720626947859e-04
6.51000000000000e-08,4.99999999999971e-01,5.00000000000000e-01,2.95092836553934e-04
6.51080000000000e-08,5.00000000000000e-01,5.00000000000000e-01,1.77056236795765e-04
6.51240000000000e-08,5.00000000000000e-01,5.00000000000000e-01,-1.93804872418608e-04
6.51560000000000e-08,5.00000000000000e-01,5.00000000000000e-01,-1.46983777397423e-03
6.52200000000000e-08,5.00000000000000e-01,5.00000000000000e-01,-3.80838324621255e-03
6.53480000000000e-08,5.00000000000000e-01,5.00000000000000e-01,8.57123267143170e-05
6.56040000000000e-08,5.00000000000000e-01,5.00000000000000e-01,2.51849956760539e-01
6.61159999999999e-08,5.00000000000000e-01,5.00000000000000e-01,5.15256720992952e-01
6.68709326534468e-08,5.00000000000000e-01,5.00000000000000e-01,4.89206029020587e-01
6.81594300051156e-08,5.00000000000000e-01,5.00000000000000e-01,5.11531049019877e-01
6.99849214158304e-08,5.00000000000000e-01,5.00000000000000e-01,4.89649933687438e-01
7.01000000000000e-08,5.00000000000000e-01,5.00000000000000e-01,5.05529010477091e-01
7.01100000000000e-08,5.00000000000000e-01,4.50000000000010e-01,5.03643144902513e-01
7.01300000000000e-08,5.00000000000000e-01,3.50000000000028e-01,5.01178598165966e-01
7.01700000000000e-08,5.00000000000000e-01,1.50000000000066e-01,5.00024777858988e-01
7.02000000000000e-08,5.00000000000000e-01,2.86437540353290e-14,5.00041355986133e-01
7.02080000000000e-08,5.00000000000000e-01,0.00000000000000e+00,5.00041003717015e-01
7.02240000000000e-08,5.00000000000000e-01,0.00000000000000e+00,5.00035325949167e-01
7.02560000000000e-08,5.00000000000000e-01,0.00000000000000e+00,5.00013689840974e-01
7.03200000000000e-08,5.00000000000000e-01,0.00000000000000e+00,4.99966366880495e-01
7.04480000000000e-08,5.00000000000000e-01,0.00000000000000e+00,4.99959447534293e-01
7.07040000000000e-08,5.00000000000000e-01,0.00000000000000e+00,4.99975072329101e-01
7.11012796893541e-08,5.00000000000000e-01,0.00000000000000e+00,4.99960162390804e-01
7.18958390680623e-08,5.00000000000000e-01,0.00000000000000e+00,4.99969662158060e-01
7.28829971733596e-08,5.00000000000000e-01,0.00000000000000e+00,4.99971845231350e-01
7.48573133839544e-08,5.00000000000000e-01,0.00000000000000e+00,4.99972699257592e-01
7.51000000000000e-08,5.00000000000000e-01,0.00000000000000e+00,4.99981878980182e-01
7.51100000000000e-08,4.50000000000051e-01,0.00000000000000e+00,4.99926874161433e-01
7.51300000000000e-08,3.50000000000070e-01,0.00000000000000e+00,4.99852833666197e-01
7.51700000000000e-08,1.50000000000108e-01,0.00000000000000e+00,5.00077783482099e-01
7.52000000000000e-08,6.99995617026161e-14,0.00000000000000e+00,5.01192841195978e-01
7.52080000000000e-08,0.00000000000000e+00,0.00000000000000e+00,5.01558100697458e-01
7.52240000000000e-08,0.00000000000000e+00,0.00000000000000e+00,5.02063529848604e-01
7.52560000000000e-08,0.00000000000000e+00,0.00000000000000e+00,5.02295581389133e-01
7.53200000000000e-08,0.00000000000000e+00,0.00000000000000e+00,4.99738132478002e-01
7.54480000000000e-08,0.00000000000000e+00,0.00000000000000e+00,4.85932865503386e-01
7.57040000000000e-08,0.00000000000000e+00,0.00000000000000e+00,4.89563244459104e-01
7.61450914066035e-08,0.00000000000000e+00,0.00000000000000e+00,5.03739966172962e-01
7.67919804977784e-08,0.00000000000000e+00,0.00000000000000e+00,4.95950792660932e-01
7.78096298433773e-08,0.00000000000000e+00,0.00000000000000e+00,5.02725720342451e-01
7.81000000000000e-08,0.00000000000000e+00,0.00000000000000e+00,4.98039039241523e-01
7.82995346287685e-08,0.00000000000000e+00,0.00000000000000e+00,4.99471523017992e-01
7.86986038863055e-08,0.00000000000000e+00,0.00000000000000e+00,4.99988644088077e-01
7.94967424013794e-08,0.00000000000000e+00,0.00000000000000e+00,4.99664919293119e-01
8.10930194315273e-08,0.00000000000000e+00,0.00000000000000e+00,5.00006199265650e-01
8.42855734918232e-08,0.00000000000000e+00,0.00000000000000e+00,4.99760871921752e-01
8.50000000000000e-08,0.00000000000000e+00,0.00000000000000e+00,5.00007644343763e-01
8.50100000000000e-08,4.99999999999905e-02,0.00000000000000e+00,5.00039466849348e-01
8.50300000000000e-08,1.49999999999972e-01,0.00000000000000e+00,5.00067323246504e-01
8.50700000000000e-08,3.49999999999934e-01,0.00000000000000e+00,5.00002492583102e-01
8.51000000000000e-08,4.99999999999971e-01,0.00000000000000e+00,4.99884649627176e-01
8.51080000000000e-08,5.00000000000000e-01,0.00000000000000e+00,4.99828355430851e-01
8.51240000000000e-08,5.00000000000000e-01,0.00000000000000e+00,4.99747545643285e-01
8.51560000000000e-08,5.00000000000000e-01,0.00000000000000e+00,4.99702666401678e-01
8.52200000000000e-08,5.00000000000000e-01,0.00000000000000e+00,4.99719493757586e-01
8.53480000000000e-08,5.00000000000000e-01,0.00000000000000e+00,5.00345802393503e-01
8.56040000000000e-08,5.00000000000000e-01,0.00000000000000e+00,5.16486143998709e-01
8.61159999999999e-08,5.00000000000000e-01,0.00000000000000e+00,1.06931064388780e-01
8.67922738733741e-08,5.00000000000000e-01,0.00000000000000e+00,-5.28562689937863e-02
8.77344425142838e-08,5.00000000000000e-01,0.00000000000000e+00,5.13712243591942e-02
8.92967074524825e-08,5.00000000000000e-01,0.00000000000000e+00,-3.76919092961650e-02
9.00000000000000e-08,5.00000000000000e-01,0.00000000000000e+00,3.17993855308443e-02
9.00100000000000e-08,5.00000000000000e-01,4.99999999999905e-02,2.65986444967090e-02
9.00300000000000e-08,5.00000000000000e-01,1.49999999999972e-01,1.80595850503719e-02
9.00700000000000e-08,5.00000000000000e-01,3.49999999999934e-01,8.13361967557058e-03
9.01000000000000e-08,5.00000000000000e-01,4.99999999999971e-01,4.51434267622275e-03
9.01080000000000e-08,5.00000000000000e-01,5.00000000000000e-01,3.91426626305495e-03
9.01240000000000e-08,5.00000000000000e-01,5.00000000000000e-01,2.86022588711072e-03
9.01560000000000e-08,5.00000000000000e-01,5.00000000000000e-01,1.52317827790782e-03
9.02200000000000e-08,5.00000000000000e-01,5.00000000000000e-01,3.68253066240078e-04
9.03480000000000e-08,5.00000000000000e-01,5.00000000000000e-01,-3.61299807298716e-05
9.06040000000000e-08,5.00000000000000e-01,5.00000000000000e-01,1.38788475084490e-05
9.11159999999999e-08,5.00000000000000e-01,5.00000000000000e-01,-1.03886690616482e-05
9.21399999999999e-08,5.00000000000000e-01,5.00000000000000e-01,8.33266164365024e-06
9.41879999999998e-08,5.00000000000000e-01,5.00000000000000e-01,-9.40526299578106e-06
9.51000000000000e-08,5.00000000000000e-01,5.00000000000000e-01,6.66056831587995e-06
9.51100000000000e-08,4.50000000000051e-01,5.00000000000000e-01,-4.38513681108171e-05
9.51300000000000e-08,3.50000000000070e-01,5.00000000000000e-01,-1.20459306527008e-04
9.51700000000000e-08,1.50000000000108e-01,5.00000000000000e-01,-1.50315009474149e-04
9.52000000000000e-08,6.99995617026161e-14,5.00000000000000e-01,9.55264990443183e-06
9.52080000000000e-08,0.00000000000000e+00,5.00000000000000e-01,1.21259292835969e-04
9.52240000000000e-08,0.00000000000000e+00,5.00000000000000e-01,2.62476126819122e-04
9.52560000000000e-08,0.00000000000000e+00,5.00000000000000e-01,2.72641007387463e-04
9.53200000000000e-08,0.00000000000000e+00,5.00000000000000e-01,-5.86900843639881e-05
9.54480000000000e-08,0.00000000000000e+00,5.00000000000000e-01,-1.15968683983019e-03
9.57040000000000e-08,0.00000000000000e+00,5.00000000000000e-01,-8.49701047904959e-05
9.61053712225272e-08,0.00000000000000e+00,5.00000000000000e-01,5.20505389855052e-05
9.69081136675817e-08,0.00000000000000e+00,5.00000000000000e-01,-7.04501873143078e-05
9.79332332466000e-08,0.00000000000000e+00,5.00000000000000e-01,1.68243915490837e-04
9.97194479360325e-08,0.00000000000000e+00,5.00000000000000e-01,-2.03035863826396e-04
1.02581345475528e-07,0.00000000000000e+00,5.00000000000000e-01,2.20842091043241e-04
1.05000000000000e-07,0.00000000000000e+00,5.00000000000000e-01,-2.35536003989186e-04
1.05010000000000e-07,4.99999999999905e-02,5.00000000000000e-01,-4.44372729036732e-05
1.05030000000000e-07,1.49999999999972e-01,5.00000000000000e-01,2.12292026932140e-04
1.05070000000000e-07,3.49999999999934e-01,5.00000000000000e-01,3.69726503415602e-04
1.05100000000000e-07,4.99999999999971e-01,5.00000000000000e-01,2.95102182406186e-04
1.05108000000000e-07,5.00000000000000e-01,5.00000000000000e-01,1.77074170401970e-04
1.05124000000000e-07,5.00000000000000e-01,5.00000000000000e-01,-1.93762460773163e-04
1.05156000000000e-07,5.00000000000000e-01,5.00000000000000e-01,-1.46976765153124e-03
1.05220000000000e-07,5.00000000000000e-01,5.00000000000000e-01,-3.80834103080237e-03
1.05348000000000e-07,5.00000000000000e-01,5.00000000000000e-01,8.53700260463747e-05
1.05604000000000e-07,5.00000000000000e-01,5.00000000000000e-01,2.51847760203354e-01
1.06116000000000e-07,5.00000000000000e-01,5.00000000000000e-01,5.15256431140063e-01
1.06870935346424e-07,5.00000000000000e-01,5.00000000000000e-01,4.89206268900072e-01
1.08159428857019e-07,5.00000000000000e-01,5.00000000000000e-01,5.11530825513377e-01
1.09984922162679e-07,5.00000000000000e-01,5.00000000000000e-01,4.89650151750136e-01
1.10100000000000e-07,5.00000000000000e-01,5.00000000000000e-01,5.05528890685559e-01
1.10110000000000e-07,5.00000000000000e-01,4.50000000000076e-01,5.03643066693946e-01
1.10130000000000e-07,5.00000000000000e-01,3.50000000000095e-01,5.01178573948755e-01
