Time,v(clk),v(data),v(out)
1.00000000000000e-08,5.00000000000000e-01,0.00000000000000e+00,-1.38600314516708e-05
1.00100000000000e-08,5.00000000000000e-01,4.99999999999988e-02,-4.05494511628024e-06
1.00300000000000e-08,5.00000000000000e-01,1.49999999999996e-01,6.79014090881891e-06
1.00700000000000e-08,5.00000000000000e-01,3.49999999999992e-01,1.09374592022274e-05
1.01000000000000e-08,5.00000000000000e-01,4.99999999999996e-01,6.44616475845711e-06
1.01080000000000e-08,5.00000000000000e-01,5.00000000000000e-01,5.34707234677023e-06
1.01240000000000e-08,5.00000000000000e-01,5.00000000000000e-01,4.60292416958746e-06
1.01560000000000e-08,5.00000000000000e-01,5.00000000000000e-01,5.63648710411729e-06
1.02200000000000e-08,5.00000000000000e-01,5.00000000000000e-01,7.09903541789084e-06
1.03480000000000e-08,5.00000000000000e-01,5.00000000000000e-01,2.80127805638367e-06
1.06040000000000e-08,5.00000000000000e-01,5.00000000000000e-01,1.67301266047401e-07
1.11160000000000e-08,5.00000000000000e-01,5.00000000000000e-01,2.07723565746974e-06
1.21400000000000e-08,5.00000000000000e-01,5.00000000000000e-01,4.82833174509419e-07
1.41880000000000e-08,5.00000000000000e-01,5.00000000000000e-01,1.62162122778042e-06
1.51000000000000e-08,5.00000000000000e-01,5.00000000000000e-01,4.27135605067866e-07
1.51100000000000e-08,4.49999999999993e-01,5.00000000000000e-01,-5.28664990029348e-05
1.51300000000000e-08,3.49999999999995e-01,5.00000000000000e-01,-1.36348577018296e-04
1.51700000000000e-08,1.50000000000000e-01,5.00000000000000e-01,-2.11136453595856e-04
1.52000000000000e-08,0.00000000000000e+00,5.00000000000000e-01,-1.30624603825839e-04
1.52080000000000e-08,0.00000000000000e+00,5.00000000000000e-01,-2.35205245657927e-05
1.52240000000000e-08,0.00000000000000e+00,5.00000000000000e-01,1.37842909043812e-04
1.52560000000000e-08,0.00000000000000e+00,5.00000000000000e-01,2.47505052144860e-04
1.53200000000000e-08,0.00000000000000e+00,5.00000000000000e-01,1.83679053286350e-04
1.54480000000000e-08,0.00000000000000e+00,5.00000000000000e-01,-8.23479022367402e-07
1.57040000000000e-08,0.00000000000000e+00,5.00000000000000e-01,-7.76933097973130e-05
1.62160000000000e-08,0.00000000000000e+00,5.00000000000000e-01,-4.06338549452222e-05
1.72004162162276e-08,0.00000000000000e+00,5.00000000000000e-01,1.34732738844377e-05
1.85122358213836e-08,0.00000000000000e+00,5.00000000000000e-01,4.16889833616072e-05
2.08704778572643e-08,0.00000000000000e+00,5.00000000000000e-01,-5.43248916917473e-05
2.39322446277405e-08,0.00000000000000e+00,5.00000000000000e-01,5.95686508871283e-05
2.50000000000000e-08,0.00000000000000e+00,5.00000000000000e-01,-6.32290602026850e-05
2.50100000000000e-08,4.99999999999905e-02,5.00000000000000e-01,3.91950860869697e-05
2.50300000000000e-08,1.50000000000005e-01,5.00000000000000e-01,2.00421668620256e-04
2.50700000000000e-08,3.50000000000000e-01,5.00000000000000e-01,2.99737271304217e-04
2.51000000000000e-08,5.00000000000000e-01,5.00000000000000e-01,-1.12636589476647e-05
2.51080000000000e-08,5.00000000000000e-01,5.00000000000000e-01,-3.09904546142513e-04
2.51240000000000e-08,5.00000000000000e-01,5.00000000000000e-01,-1.05332422937160e-03
2.51560000000000e-08,5.00000000000000e-01,5.00000000000000e-01,-2.64131296788429e-03
2.52200000000000e-08,5.00000000000000e-01,5.00000000000000e-01,-4.77730389905361e-03
2.53480000000000e-08,5.00000000000000e-01,5.00000000000000e-01,1.97278296279917e-03
2.56040000000000e-08,5.00000000000000e-01,5.00000000000000e-01,1.90167963202493e-01
2.61160000000000e-08,5.00000000000000e-01,5.00000000000000e-01,4.98979153720307e-01
2.70710336149540e-08,5.00000000000000e-01,5.00000000000000e-01,4.98906502616200e-01
2.82392241529248e-08,5.00000000000000e-01,5.00000000000000e-01,5.01934279138939e-01
3.01000000000000e-08,5.00000000000000e-01,5.00000000000000e-01,4.98157878608259e-01
3.01100000000000e-08,5.00000000000000e-01,4.50000000000026e-01,4.98919736103332e-01
3.01300000000000e-08,5.00000000000000e-01,3.50000000000012e-01,4.99955315018576e-01
3.01700000000000e-08,5.00000000000000e-01,1.50000000000017e-01,5.00625069093328e-01
3.02000000000000e-08,5.00000000000000e-01,1.21014309684142e-14,5.00624465959206e-01
3.02080000000000e-08,5.00000000000000e-01,0.00000000000000e+00,5.00599807108997e-01
3.02240000000000e-08,5.00000000000000e-01,0.00000000000000e+00,5.00549805104976e-01
3.02560000000000e-08,5.00000000000000e-01,0.00000000000000e+00,5.00391266793770e-01
3.03200000000000e-08,5.00000000000000e-01,0.00000000000000e+00,5.00180058021289e-01
3.04480000000000e-08,5.00000000000000e-01,0.00000000000000e+00,4.99957703035175e-01
3.07040000000000e-08,5.00000000000000e-01,0.00000000000000e+00,4.99934887961160e-01
3.12160000000000e-08,5.00000000000000e-01,0.00000000000000e+00,4.99964392535771e-01
3.18831946744156e-08,5.00000000000000e-01,0.00000000000000e+00,4.99932634224837e-01
3.32175840232469e-08,5.00000000000000e-01,0.00000000000000e+00,4.99968148543181e-01
3.51000000000000e-08,4.99999999999975e-01,0.00000000000000e+00,4.99948060088081e-01
3.51100000000000e-08,4.49999999999985e-01,0.00000000000000e+00,4.99877579909083e-01
3.51300000000000e-08,3.49999999999971e-01,0.00000000000000e+00,4.99768196364576e-01
3.51700000000000e-08,1.49999999999975e-01,0.00000000000000e+00,4.99813787820035e-01
3.52000000000000e-08,0.00000000000000e+00,0.00000000000000e+00,5.00510565997114e-01
3.52080000000000e-08,0.00000000000000e+00,0.00000000000000e+00,5.00811487011922e-01
3.52240000000000e-08,0.00000000000000e+00,0.00000000000000e+00,5.01294194060723e-01
3.52560000000000e-08,0.00000000000000e+00,0.00000000000000e+00,5.01825529951078e-01
3.53200000000000e-08,0.00000000000000e+00,0.00000000000000e+00,5.02031284635043e-01
3.54480000000000e-08,0.00000000000000e+00,0.00000000000000e+00,4.98425011843766e-01
3.57040000000000e-08,0.00000000000000e+00,0.00000000000000e+00,4.82496686644092e-01
3.62160000000000e-08,0.00000000000000e+00,0.00000000000000e+00,4.88985289213685e-01
3.68536943457929e-08,0.00000000000000e+00,0.00000000000000e+00,5.03382231356580e-01
3.81290830373785e-08,0.00000000000000e+00,0.00000000000000e+00,4.96099050053780e-01
3.91000000000000e-08,0.00000000000000e+00,0.00000000000000e+00,5.01994082669995e-01
3.92424518228702e-08,0.00000000000000e+00,0.00000000000000e+00,5.00494698696078e-01
3.95273554686105e-08,0.00000000000000e+00,0.00000000000000e+00,4.99440423894950e-01
4.00971627600912e-08,0.00000000000000e+00,0.00000000000000e+00,4.99829645796846e-01
4.12367773430526e-08,0.00000000000000e+00,0.00000000000000e+00,4.99662825386637e-01
4.35160065089753e-08,0.00000000000000e+00,0.00000000000000e+00,4.99894541570820e-01
4.50000000000000e-08,0.00000000000000e+00,0.00000000000000e+00,4.99769480339942e-01
4.50100000000000e-08,4.99999999999905e-02,0.00000000000000e+00,4.99843916586036e-01
4.50300000000000e-08,1.50000000000005e-01,0.00000000000000e+00,4.99957441930212e-01
4.50700000000000e-08,3.50000000000000e-01,0.00000000000000e+00,5.00004743756588e-01
4.51000000000000e-08,5.00000000000000e-01,0.00000000000000e+00,4.99878221777811e-01
4.51080000000000e-08,5.00000000000000e-01,0.00000000000000e+00,4.99801855732378e-01
4.51240000000000e-08,5.00000000000000e-01,0.00000000000000e+00,4.99673473227854e-01
4.51560000000000e-08,5.00000000000000e-01,0.00000000000000e+00,4.99497940812475e-01
4.52200000000000e-08,5.00000000000000e-01,0.00000000000000e+00,4.99415071079079e-01
4.53480000000000e-08,5.00000000000000e-01,0.00000000000000e+00,5.00282671918735e-01
4.56040000000000e-08,5.00000000000000e-01,0.00000000000000e+00,5.10881166116333e-01
4.61160000000000e-08,5.00000000000000e-01,0.00000000000000e+00,1.10386660881696e-01
4.70089282256280e-08,5.00000000000000e-01,0.00000000000000e+00,-5.04189993390201e-02
4.78667493403091e-08,5.00000000000000e-01,0.00000000000000e+00,5.34518214755401e-02
4.95823915696715e-08,5.00000000000000e-01,0.00000000000000e+00,-3.73361283014149e-02
5.00000000000000e-08,5.00000000000000e-01,0.00000000000000e+00,2.84171958465918e-02
5.00100000000000e-08,5.00000000000000e-01,4.99999999999905e-02,2.35127120610408e-02
5.00300000000000e-08,5.00000000000000e-01,1.49999999999972e-01,1.51856327476912e-02
5.00700000000000e-08,5.00000000000000e-01,3.50000000000000e-01,5.84109389419842e-03
5.01000000000000e-08,5.00000000000000e-01,5.00000000000000e-01,2.91859154973632e-03
5.01080000000000e-08,5.00000000000000e-01,5.00000000000000e-01,2.47310305266116e-03
5.01240000000000e-08,5.00000000000000e-01,5.00000000000000e-01,1.72219882876139e-03
5.01560000000000e-08,5.00000000000000e-01,5.00000000000000e-01,8.14055138872623e-04
5.02200000000000e-08,5.00000000000000e-01,5.00000000000000e-01,1.48184877964773e-04
5.03480000000000e-08,5.00000000000000e-01,5.00000000000000e-01,-1.99985703372950e-05
5.06040000000000e-08,5.00000000000000e-01,5.00000000000000e-01,9.38308403509829e-06
5.11160000000001e-08,5.00000000000000e-01,5.00000000000000e-01,-7.82457269212899e-06
5.21400000000002e-08,5.00000000000000e-01,5.00000000000000e-01,6.25445741273293e-06
5.41880000000003e-08,5.00000000000000e-01,5.00000000000000e-01,-7.37093890647040e-06
5.51000000000000e-08,5.00000000000000e-01,5.00000000000000e-01,5.29071505765699e-06
5.51100000000000e-08,4.50000000000018e-01,5.00000000000000e-01,-5.16292172839453e-05
5.51300000000000e-08,3.50000000000004e-01,5.00000000000000e-01,-1.38267994640971e-04
5.51700000000000e-08,1.50000000000008e-01,5.00000000000000e-01,-2.11643954917490e-04
5.52000000000000e-08,0.00000000000000e+00,5.00000000000000e-01,-1.29062531988987e-04
5.52080000000000e-08,0.00000000000000e+00,5.00000000000000e-01,-2.35834651231698e-05
5.52240000000000e-08,0.00000000000000e+00,5.00000000000000e-01,1.29916496097560e-04
5.52560000000000e-08,0.00000000000000e+00,5.00000000000000e-01,2.24963421352191e-04
5.53200000000000e-08,0.00000000000000e+00,5.00000000000000e-01,1.76671151718301e-04
5.54480000000000e-08,0.00000000000000e+00,5.00000000000000e-01,-9.95472920475513e-05
5.57040000000000e-08,0.00000000000000e+00,5.00000000000000e-01,-5.74086694308784e-04
5.62160000000000e-08,0.00000000000000e+00,5.00000000000000e-01,2.19280067903611e-04
5.70064079782306e-08,0.00000000000000e+00,5.00000000000000e-01,-1.70963746142037e-04
5.83878551700186e-08,0.00000000000000e+00,5.00000000000000e-01,1.75221014236180e-04
6.04937856249866e-08,0.00000000000000e+00,5.00000000000000e-01,-1.57933591096765e-04
6.34200398726312e-08,0.00000000000000e+00,5.00000000000000e-01,1.43455020874414e-04
6.50000000000000e-08,0.00000000000000e+00,5.00000000000000e-01,-1.17532756539256e-04
6.50100000000000e-08,4.99999999999905e-02,5.00000000000000e-01,-4.58424980642053e-05
6.50300000000000e-08,1.49999999999972e-01,5.00000000000000e-01,9.78178016974932e-05
6.50700000000000e-08,3.49999999999934e-01,5.00000000000000e-01,2.39178597921046e-04
6.51000000000000e-08,4.99999999999971e-01,5.00000000000000e-01,-1.68014528375698e-05
6.51080000000000e-08,5.00000000000000e-01,5.00000000000000e-01,-2.95553119531916e-04
6.51240000000000e-08,5.00000000000000e-01,5.00000000000000e-01,-1.01178481373919e-03
6.51560000000000e-08,5.00000000000000e-01,5.00000000000000e-01,-2.59571959219135e-03
6.52200000000000e-08,5.00000000000000e-01,5.00000000000000e-01,-4.74799241358002e-03
6.53480000000000e-08,5.00000000000000e-01,5.00000000000000e-01,1.58602530585903e-03
6.56040000000000e-08,5.00000000000000e-01,5.00000000000000e-01,1.88584427330377e-01
6.61159999999999e-08,5.00000000000000e-01,5.00000000000000e-01,4.98588557392590e-01
6.70738293045805e-08,5.00000000000000e-01,5.00000000000000e-01,4.99089293062758e-01
6.82407799974813e-08,5.00000000000000e-01,5.00000000000000e-01,5.01733126347410e-01
7.01000000000000e-08,5.00000000000000e-01,5.00000000000000e-01,4.98332835216233e-01
7.01100000000000e-08,5.00000000000000e-01,4.50000000000010e-01,4.99060115562765e-01
7.01300000000000e-08,5.00000000000000e-01,3.50000000000028e-01,5.00043131722851e-01
7.01700000000000e-08,5.00000000000000e-01,1.50000000000066e-01,5.00656911601429e-01
7.02000000000000e-08,5.00000000000000e-01,2.86437540353290e-14,5.00639561849615e-01
7.02080000000000e-08,5.00000000000000e-01,0.00000000000000e+00,5.00612774005388e-01
7.02240000000000e-08,5.00000000000000e-01,0.00000000000000e+00,5.00559079548497e-01
7.02560000000000e-08,5.00000000000000e-01,0.00000000000000e+00,5.00394184419758e-01
7.03200000000000e-08,5.00000000000000e-01,0.00000000000000e+00,5.00179616555886e-01
7.04480000000000e-08,5.00000000000000e-01,0.00000000000000e+00,4.99957524581697e-01
7.07040000000000e-08,5.00000000000000e-01,0.00000000000000e+00,4.99934789027235e-01
7.12159999999999e-08,5.00000000000000e-01,0.00000000000000e+00,4.99964738605941e-01
7.18827719994266e-08,5.00000000000000e-01,0.00000000000000e+00,4.99932416209385e-01
7.32163159982801e-08,5.00000000000000e-01,0.00000000000000e+00,4.99968446322409e-01
7.51000000000000e-08,5.00000000000000e-01,0.00000000000000e+00,4.99947842948103e-01
7.51100000000000e-08,4.50000000000051e-01,0.00000000000000e+00,4.99877385012797e-01
7.51300000000000e-08,3.50000000000070e-01,0.00000000000000e+00,4.99768067861794e-01
7.51700000000000e-08,1.50000000000108e-01,0.00000000000000e+00,4.99813736401531e-01
7.52000000000000e-08,6.99995617026161e-14,0.00000000000000e+00,5.00510563032735e-01
7.52080000000000e-08,0.00000000000000e+00,0.00000000000000e+00,5.00811474444775e-01
7.52240000000000e-08,0.00000000000000e+00,0.00000000000000e+00,5.01294178854480e-01
7.52560000000000e-08,0.00000000000000e+00,0.00000000000000e+00,5.01825584464498e-01
7.53200000000000e-08,0.00000000000000e+00,0.00000000000000e+00,5.02031669940354e-01
7.54480000000000e-08,0.00000000000000e+00,0.00000000000000e+00,4.98427164069745e-01
7.57040000000000e-08,0.00000000000000e+00,0.00000000000000e+00,4.82499183354756e-01
7.62159999999999e-08,0.00000000000000e+00,0.00000000000000e+00,4.88984484025490e-01
7.68536956616578e-08,0.00000000000000e+00,0.00000000000000e+00,5.03382593511319e-01
7.81000000000000e-08,0.00000000000000e+00,0.00000000000000e+00,4.96112800840056e-01
7.82275391323316e-08,0.00000000000000e+00,0.00000000000000e+00,4.98178950245604e-01
7.84826173969948e-08,0.00000000000000e+00,0.00000000000000e+00,4.99828108449820e-01
7.89927739263211e-08,0.00000000000000e+00,0.00000000000000e+00,4.99479016589246e-01
8.00130869849737e-08,0.00000000000000e+00,0.00000000000000e+00,4.99798993484278e-01
8.20537131022790e-08,0.00000000000000e+00,0.00000000000000e+00,4.99696800978361e-01
8.50000000000000e-08,0.00000000000000e+00,0.00000000000000e+00,4.99911735365086e-01
8.50100000000000e-08,4.99999999999905e-02,0.00000000000000e+00,4.99975591887664e-01
8.50300000000000e-08,1.49999999999972e-01,0.00000000000000e+00,5.00069013324580e-01
8.50700000000000e-08,3.49999999999934e-01,0.00000000000000e+00,5.00075521640684e-01
8.51000000000000e-08,4.99999999999971e-01,0.00000000000000e+00,4.99925397934009e-01
8.51080000000000e-08,5.00000000000000e-01,0.00000000000000e+00,4.99847295971723e-01
8.51240000000000e-08,5.00000000000000e-01,0.00000000000000e+00,4.99714580403523e-01
8.51560000000000e-08,5.00000000000000e-01,0.00000000000000e+00,4.99518410927772e-01
8.52200000000000e-08,5.00000000000000e-01,0.00000000000000e+00,4.99408108520292e-01
8.53480000000000e-08,5.00000000000000e-01,0.00000000000000e+00,5.00299002887946e-01
8.56040000000000e-08,5.00000000000000e-01,0.00000000000000e+00,5.10874684949477e-01
8.61159999999999e-08,5.00000000000000e-01,0.00000000000000e+00,1.10329853173889e-01
8.70102050306939e-08,5.00000000000000e-01,0.00000000000000e+00,-5.04522418656928e-02
8.78677633783377e-08,5.00000000000000e-01,0.00000000000000e+00,5.34835707905450e-02
8.95828800736255e-08,5.00000000000000e-01,0.00000000000000e+00,-3.73580711061007e-02
9.00000000000000e-08,5.00000000000000e-01,0.00000000000000e+00,2.84177688695063e-02
9.00100000000000e-08,5.00000000000000e-01,4.99999999999905e-02,2.35127172963908e-02
9.00300000000000e-08,5.00000000000000e-01,1.49999999999972e-01,1.51848506877612e-02
9.00700000000000e-08,5.00000000000000e-01,3.49999999999934e-01,5.84011931591654e-03
9.01000000000000e-08,5.00000000000000e-01,4.99999999999971e-01,2.91789017358814e-03
9.01080000000000e-08,5.00000000000000e-01,5.00000000000000e-01,2.47246834227669e-03
9.01240000000000e-08,5.00000000000000e-01,5.00000000000000e-01,1.72168980560271e-03
9.01560000000000e-08,5.00000000000000e-01,5.00000000000000e-01,8.13742018798407e-04
9.02200000000000e-08,5.00000000000000e-01,5.00000000000000e-01,1.48085978460416e-04
9.03480000000000e-08,5.00000000000000e-01,5.00000000000000e-01,-1.99905713107740e-05
9.06040000000000e-08,5.00000000000000e-01,5.00000000000000e-01,9.38299431710483e-06
9.11159999999999e-08,5.00000000000000e-01,5.00000000000000e-01,-7.82028067428196e-06
9.21399999999999e-08,5.00000000000000e-01,5.00000000000000e-01,6.25518876206863e-06
9.41879999999998e-08,5.00000000000000e-01,5.00000000000000e-01,-7.36699322269655e-06
9.51000000000000e-08,5.00000000000000e-01,5.00000000000000e-01,5.29187195007393e-06
9.51100000000000e-08,4.50000000000051e-01,5.00000000000000e-01,-5.16282029058915e-05
9.51300000000000e-08,3.50000000000070e-01,5.00000000000000e-01,-1.38265769834806e-04
9.51700000000000e-08,1.50000000000108e-01,5.00000000000000e-01,-2.11639338074554e-04
9.52000000000000e-08,6.99995617026161e-14,5.00000000000000e-01,-1.29057472811209e-04
9.52080000000000e-08,0.00000000000000e+00,5.00000000000000e-01,-2.35780752915471e-05
9.52240000000000e-08,0.00000000000000e+00,5.00000000000000e-01,1.29922335318507e-04
9.52560000000000e-08,0.00000000000000e+00,5.00000000000000e-01,2.24971748794579e-04
9.53200000000000e-08,0.00000000000000e+00,5.00000000000000e-01,1.76702725945270e-04
9.54480000000000e-08,0.00000000000000e+00,5.00000000000000e-01,-9.92406146743917e-05
9.57040000000000e-08,0.00000000000000e+00,5.00000000000000e-01,-5.72557858565800e-04
9.62159999999999e-08,0.00000000000000e+00,5.00000000000000e-01,2.18519421716674e-04
9.70075084447847e-08,0.00000000000000e+00,5.00000000000000e-01,-1.70479599076675e-04
9.83884516409495e-08,0.00000000000000e+00,5.00000000000000e-01,1.74870580926434e-04
1.00495829470894e-07,0.00000000000000e+00,5.00000000000000e-01,-1.57625659836739e-04
1.03422812845577e-07,0.00000000000000e+00,5.00000000000000e-01,1.43217098074530e-04
1.05000000000000e-07,0.00000000000000e+00,5.00000000000000e-01,-1.17355287770340e-04
1.05010000000000e-07,4.99999999999905e-02,5.00000000000000e-01,-4.55917330211345e-05
1.05030000000000e-07,1.49999999999972e-01,5.00000000000000e-01,9.81219509034806e-05
1.05070000000000e-07,3.49999999999934e-01,5.00000000000000e-01,2.39335154788918e-04
1.05100000000000e-07,4.99999999999971e-01,5.00000000000000e-01,-1.70781173289281e-05
1.05108000000000e-07,5.00000000000000e-01,5.00000000000000e-01,-2.96029568295761e-04
1.05124000000000e-07,5.00000000000000e-01,5.00000000000000e-01,-1.01253491887091e-03
1.05156000000000e-07,5.00000000000000e-01,5.00000000000000e-01,-2.59642791593684e-03
1.05220000000000e-07,5.00000000000000e-01,5.00000000000000e-01,-4.74839875133123e-03
1.05348000000000e-07,5.00000000000000e-01,5.00000000000000e-01,1.59097092759108e-03
1.05604000000000e-07,5.00000000000000e-01,5.00000000000000e-01,1.88604853595905e-01
1.06116000000000e-07,5.00000000000000e-01,5.00000000000000e-01,4.98593646405772e-01
1.07073792949679e-07,5.00000000000000e-01,5.00000000000000e-01,4.99086917955935e-01
1.08240759372230e-07,5.00000000000000e-01,5.00000000000000e-01,5.01735745144043e-01
1.10100000000000e-07,5.00000000000000e-01,5.00000000000000e-01,4.98330519176400e-01
1.10110000000000e-07,5.00000000000000e-01,4.50000000000076e-01,4.99058255774650e-01
1.10130000000000e-07,5.00000000000000e-01,3.50000000000095e-01,5.00041940854209e-01
1.10170000000000e-07,5.00000000000000e-01,1.50000000000133e-01,5.00656520960501e-01
1.10200000000000e-07,5.00000000000000e-01,9.48130463029884e-14,5.00639375376468e-01
1.10208000000000e-07,5.00000000000000e-01,0.00000000000000e+00,5.00612613452126e-01
1.10224000000000e-07,5.00000000000000e-01,0.00000000000000e+00,5.00558964055641e-01
1.10256000000000e-07,5.00000000000000e-01,0.00000000000000e+00,5.00394142689427e-01
