Time,v(clk),v(data),v(out),v(reset)
1.00000000000000e-08,5.00000000000000e-01,0.00000000000000e+00,-3.80803795516039e-06,0.00000000000000e+00
1.00100000000000e-08,5.00000000000000e-01,4.99999999999988e-02,3.58585300969799e-06,0.00000000000000e+00
1.00300000000000e-08,5.00000000000000e-01,1.49999999999996e-01,1.08651614972796e-05,0.00000000000000e+00
1.00700000000000e-08,5.00000000000000e-01,3.49999999999992e-01,1.08832747435783e-05,0.00000000000000e+00
1.01000000000000e-08,5.00000000000000e-01,4.99999999999996e-01,7.93681553389741e-06,0.00000000000000e+00
1.01080000000000e-08,5.00000000000000e-01,5.00000000000000e-01,7.20084993682812e-06,0.00000000000000e+00
1.01240000000000e-08,5.00000000000000e-01,5.00000000000000e-01,6.13504665799430e-06,0.00000000000000e+00
1.01560000000000e-08,5.00000000000000e-01,5.00000000000000e-01,5.26670701139764e-06,0.00000000000000e+00
1.02200000000000e-08,5.00000000000000e-01,5.00000000000000e-01,4.77142315240611e-06,0.00000000000000e+00
1.03480000000000e-08,5.00000000000000e-01,5.00000000000000e-01,1.77450866628223e-06,0.00000000000000e+00
1.06040000000000e-08,5.00000000000000e-01,5.00000000000000e-01,1.63068166024634e-06,0.00000000000000e+00
1.11160000000000e-08,5.00000000000000e-01,5.00000000000000e-01,1.50886255065492e-06,0.00000000000000e+00
1.21400000000000e-08,5.00000000000000e-01,5.00000000000000e-01,1.50426477981726e-06,0.00000000000000e+00
1.41880000000000e-08,5.00000000000000e-01,5.00000000000000e-01,1.08539660887991e-06,0.00000000000000e+00
1.51000000000000e-08,5.00000000000000e-01,5.00000000000000e-01,1.28258224244178e-06,0.00000000000000e+00
1.51100000000000e-08,4.49999999999993e-01,5.00000000000000e-01,1.65037429807662e-04,5.00000000000071e-02
1.51300000000000e-08,3.49999999999995e-01,5.00000000000000e-01,3.63225835041829e-04,1.50000000000005e-01
1.51700000000000e-08,1.50000000000000e-01,5.00000000000000e-01,2.59336339759143e-04,3.50000000000000e-01
1.52000000000000e-08,0.00000000000000e+00,5.00000000000000e-01,8.18077035562442e-05,5.00000000000000e-01
1.52080000000000e-08,0.00000000000000e+00,5.00000000000000e-01,3.62923543004226e-05,5.00000000000000e-01
1.52240000000000e-08,0.00000000000000e+00,5.00000000000000e-01,-2.71907070960031e-05,5.00000000000000e-01
1.52560000000000e-08,0.00000000000000e+00,5.00000000000000e-01,-5.55635650487871e-05,5.00000000000000e-01
1.53200000000000e-08,0.00000000000000e+00,5.00000000000000e-01,-2.39656245547420e-05,5.00000000000000e-01
1.54480000000000e-08,0.00000000000000e+00,5.00000000000000e-01,-3.53771292783273e-06,5.00000000000000e-01
1.57040000000000e-08,0.00000000000000e+00,5.00000000000000e-01,-6.21068800694263e-05,5.00000000000000e-01
1.62160000000000e-08,0.00000000000000e+00,5.00000000000000e-01,-2.60228886326559e-05,5.00000000000000e-01
1.72093508572508e-08,0.00000000000000e+00,5.00000000000000e-01,-1.27032841125835e-05,5.00000000000000e-01
1.85232557635774e-08,0.00000000000000e+00,5.00000000000000e-01,5.78135529110480e-05,5.00000000000000e-01
2.08865812817398e-08,0.00000000000000e+00,5.00000000000000e-01,-6.17544563094416e-05,5.00000000000000e-01
2.39660059380829e-08,0.00000000000000e+00,5.00000000000000e-01,6.24106513427833e-05,5.00000000000000e-01
2.50000000000000e-08,0.00000000000000e+00,5.00000000000000e-01,-5.67747774704026e-05,5.00000000000000e-01
2.50100000000000e-08,4.99999999999905e-02,5.00000000000000e-01,4.34748331254314e-05,5.00000000000000e-01
2.50300000000000e-08,1.50000000000005e-01,5.00000000000000e-01,2.00944964036442e-04,5.00000000000000e-01
2.50700000000000e-08,3.50000000000000e-01,5.00000000000000e-01,3.01866359339882e-04,5.00000000000000e-01
2.51000000000000e-08,5.00000000000000e-01,5.00000000000000e-01,1.01882330182518e-05,5.00000000000000e-01
2.51080000000000e-08,5.00000000000000e-01,5.00000000000000e-01,-2.78746268795850e-04,5.00000000000000e-01
2.51240000000000e-08,5.00000000000000e-01,5.00000000000000e-01,-1.01006769755012e-03,5.00000000000000e-01
2.51560000000000e-08,5.00000000000000e-01,5.00000000000000e-01,-2.60228054305316e-03,5.00000000000000e-01
2.52200000000000e-08,5.00000000000000e-01,5.00000000000000e-01,-4.75216398767918e-03,5.00000000000000e-01
2.53480000000000e-08,5.00000000000000e-01,5.00000000000000e-01,1.62807393654132e-03,5.00000000000000e-01
2.56040000000000e-08,5.00000000000000e-01,5.00000000000000e-01,1.88759453510540e-01,5.00000000000000e-01
2.61160000000000e-08,5.00000000000000e-01,5.00000000000000e-01,4.98632606041754e-01,5.00000000000000e-01
2.70735158423942e-08,5.00000000000000e-01,5.00000000000000e-01,4.99068696650761e-01,5.00000000000000e-01
2.82406047039571e-08,5.00000000000000e-01,5.00000000000000e-01,5.01755846016609e-01,5.00000000000000e-01
3.04265199078355e-08,5.00000000000000e-01,5.00000000000000e-01,4.98268501323119e-01,5.00000000000000e-01
3.31737916889915e-08,5.00000000000000e-01,5.00000000000000e-01,5.02094344804594e-01,5.00000000000000e-01
3.51000000000000e-08,4.99999999999975e-01,5.00000000000000e-01,4.98017445323794e-01,5.00000000000000e-01
3.51100000000000e-08,4.49999999999985e-01,5.00000000000000e-01,4.98670002119849e-01,5.00000000000000e-01
3.51300000000000e-08,3.49999999999971e-01,5.00000000000000e-01,4.99554512211171e-01,5.00000000000000e-01
3.51700000000000e-08,1.49999999999975e-01,5.00000000000000e-01,5.00267920223392e-01,5.00000000000000e-01
3.52000000000000e-08,0.00000000000000e+00,5.00000000000000e-01,5.01003733979610e-01,5.00000000000000e-01
3.52080000000000e-08,0.00000000000000e+00,5.00000000000000e-01,5.01287331877854e-01,5.00000000000000e-01
3.52240000000000e-08,0.00000000000000e+00,5.00000000000000e-01,5.01738507043212e-01,5.00000000000000e-01
3.52560000000000e-08,0.00000000000000e+00,5.00000000000000e-01,5.02183780221456e-01,5.00000000000000e-01
3.53200000000000e-08,0.00000000000000e+00,5.00000000000000e-01,5.02251877674594e-01,5.00000000000000e-01
3.54480000000000e-08,0.00000000000000e+00,5.00000000000000e-01,4.98352385819533e-01,5.00000000000000e-01
3.57040000000000e-08,0.00000000000000e+00,5.00000000000000e-01,4.82138158869587e-01,5.00000000000000e-01
3.62160000000000e-08,0.00000000000000e+00,5.00000000000000e-01,4.88906528872793e-01,5.00000000000000e-01
3.72400000000000e-08,0.00000000000000e+00,5.00000000000000e-01,5.04888453355223e-01,5.00000000000000e-01
3.88072133402724e-08,0.00000000000000e+00,5.00000000000000e-01,4.95162605855578e-01,5.00000000000000e-01
4.16680969901579e-08,0.00000000000000e+00,5.00000000000000e-01,5.03647551779164e-01,5.00000000000000e-01
4.50000000000000e-08,0.00000000000000e+00,5.00000000000000e-01,4.96285302921636e-01,5.00000000000000e-01
4.50100000000000e-08,4.99999999999905e-02,5.00000000000000e-01,4.96590741042087e-01,4.50000000000010e-01
4.50300000000000e-08,1.50000000000005e-01,5.00000000000000e-01,4.97134338057104e-01,3.49999999999995e-01
4.50700000000000e-08,3.50000000000000e-01,5.00000000000000e-01,4.98150963601429e-01,1.50000000000000e-01
4.51000000000000e-08,5.00000000000000e-01,5.00000000000000e-01,5.00069135998784e-01,0.00000000000000e+00
4.51080000000000e-08,5.00000000000000e-01,5.00000000000000e-01,5.00887686715763e-01,0.00000000000000e+00
4.51240000000000e-08,5.00000000000000e-01,5.00000000000000e-01,5.02294554834920e-01,0.00000000000000e+00
4.51560000000000e-08,5.00000000000000e-01,5.00000000000000e-01,5.04374613731978e-01,0.00000000000000e+00
4.52200000000000e-08,5.00000000000000e-01,5.00000000000000e-01,5.07740651199793e-01,0.00000000000000e+00
4.53480000000000e-08,5.00000000000000e-01,5.00000000000000e-01,5.15294030625491e-01,0.00000000000000e+00
4.56040000000000e-08,5.00000000000000e-01,5.00000000000000e-01,3.35650245110067e-01,0.00000000000000e+00
4.61160000000000e-08,5.00000000000000e-01,5.00000000000000e-01,-1.24382427949522e-02,0.00000000000000e+00
4.67530204318573e-08,5.00000000000000e-01,5.00000000000000e-01,9.94053380461345e-03,0.00000000000000e+00
4.80270612955718e-08,5.00000000000000e-01,5.00000000000000e-01,-7.98814748032011e-03,0.00000000000000e+00
4.94566336219605e-08,5.00000000000000e-01,5.00000000000000e-01,7.39162121502415e-03,0.00000000000000e+00
5.01000000000000e-08,5.00000000000000e-01,4.99999999999971e-01,-5.10193805047025e-03,0.00000000000000e+00
5.03859144652777e-08,5.00000000000000e-01,5.00000000000000e-01,-7.83356425072968e-04,0.00000000000000e+00
5.09577433958332e-08,5.00000000000000e-01,5.00000000000000e-01,5.72893680849391e-04,0.00000000000000e+00
5.21014012569441e-08,5.00000000000000e-01,5.00000000000000e-01,-4.87214425116977e-04,0.00000000000000e+00
5.43887169791660e-08,5.00000000000000e-01,5.00000000000000e-01,4.51512097644153e-04,0.00000000000000e+00
5.51000000000000e-08,5.00000000000000e-01,5.00000000000000e-01,-3.47811782932875e-04,0.00000000000000e+00
5.51100000000000e-08,4.50000000000018e-01,5.00000000000000e-01,-1.26645541274159e-04,4.99999999999822e-02
5.51300000000000e-08,3.50000000000004e-01,5.00000000000000e-01,1.76772861144245e-04,1.49999999999996e-01
5.51700000000000e-08,1.50000000000008e-01,5.00000000000000e-01,1.90134465610996e-04,3.49999999999992e-01
5.52000000000000e-08,0.00000000000000e+00,5.00000000000000e-01,4.36139713402561e-05,5.00000000000000e-01
5.52080000000000e-08,0.00000000000000e+00,5.00000000000000e-01,3.14997431902220e-06,5.00000000000000e-01
5.52240000000000e-08,0.00000000000000e+00,5.00000000000000e-01,-5.14524044272838e-05,5.00000000000000e-01
5.52560000000000e-08,0.00000000000000e+00,5.00000000000000e-01,-7.16123722500420e-05,5.00000000000000e-01
5.53200000000000e-08,0.00000000000000e+00,5.00000000000000e-01,-2.76482660286105e-05,5.00000000000000e-01
5.54480000000000e-08,0.00000000000000e+00,5.00000000000000e-01,-7.85936854621853e-05,5.00000000000000e-01
5.57040000000000e-08,0.00000000000000e+00,5.00000000000000e-01,-4.01394225195525e-04,5.00000000000000e-01
5.62160000000000e-08,0.00000000000000e+00,5.00000000000000e-01,2.22668881873983e-04,5.00000000000000e-01
5.71646782674688e-08,0.00000000000000e+00,5.00000000000000e-01,-2.18812426481762e-04,5.00000000000000e-01
5.84926488732445e-08,0.00000000000000e+00,5.00000000000000e-01,1.89289969421772e-04,5.00000000000000e-01
6.07996065608198e-08,0.00000000000000e+00,5.00000000000000e-01,-1.58907434257065e-04,5.00000000000000e-01
6.38577758653431e-08,0.00000000000000e+00,5.00000000000000e-01,1.39682751350794e-04,5.00000000000000e-01
6.50000000000000e-08,0.00000000000000e+00,5.00000000000000e-01,-9.10742782890381e-05,5.00000000000000e-01
6.50100000000000e-08,4.99999999999905e-02,5.00000000000000e-01,-1.47014860790648e-05,5.00000000000000e-01
6.50300000000000e-08,1.49999999999972e-01,5.00000000000000e-01,1.26354906055184e-04,5.00000000000000e-01
6.50700000000000e-08,3.49999999999934e-01,5.00000000000000e-01,2.55694706682345e-04,5.00000000000000e-01
6.51000000000000e-08,4.99999999999971e-01,5.00000000000000e-01,-1.56416111107491e-05,5.00000000000000e-01
6.51080000000000e-08,5.00000000000000e-01,5.00000000000000e-01,-3.00682995807544e-04,5.00000000000000e-01
6.51240000000000e-08,5.00000000000000e-01,5.00000000000000e-01,-1.02506142498082e-03,5.00000000000000e-01
6.51560000000000e-08,5.00000000000000e-01,5.00000000000000e-01,-2.60807948895295e-03,5.00000000000000e-01
6.52200000000000e-08,5.00000000000000e-01,5.00000000000000e-01,-4.74474539469587e-03,5.00000000000000e-01
6.53480000000000e-08,5.00000000000000e-01,5.00000000000000e-01,1.43356216105612e-03,5.00000000000000e-01
6.56040000000000e-08,5.00000000000000e-01,5.00000000000000e-01,1.87953975779103e-01,5.00000000000000e-01
6.61159999999999e-08,5.00000000000000e-01,5.00000000000000e-01,4.98431807498132e-01,5.00000000000000e-01
6.70750068440030e-08,5.00000000000000e-01,5.00000000000000e-01,4.99162397016070e-01,5.00000000000000e-01
6.82414673755978e-08,5.00000000000000e-01,5.00000000000000e-01,5.01652522997925e-01,5.00000000000000e-01
7.04290673228349e-08,5.00000000000000e-01,5.00000000000000e-01,4.98346426166784e-01,5.00000000000000e-01
7.31752752617916e-08,5.00000000000000e-01,5.00000000000000e-01,5.02007932787296e-01,5.00000000000000e-01
7.51000000000000e-08,5.00000000000000e-01,5.00000000000000e-01,4.98085738135600e-01,5.00000000000000e-01
7.51100000000000e-08,4.50000000000051e-01,5.00000000000000e-01,4.98725149438722e-01,5.00000000000000e-01
7.51300000000000e-08,3.50000000000070e-01,5.00000000000000e-01,4.99588330687786e-01,5.00000000000000e-01
7.51700000000000e-08,1.50000000000108e-01,5.00000000000000e-01,5.00271179656554e-01,5.00000000000000e-01
7.52000000000000e-08,6.99995617026161e-14,5.00000000000000e-01,5.01005621196825e-01,5.00000000000000e-01
7.52080000000000e-08,0.00000000000000e+00,5.00000000000000e-01,5.01289012052594e-01,5.00000000000000e-01
7.52240000000000e-08,0.00000000000000e+00,5.00000000000000e-01,5.01739848013478e-01,5.00000000000000e-01
7.52560000000000e-08,0.00000000000000e+00,5.00000000000000e-01,5.02184646653739e-01,5.00000000000000e-01
7.53200000000000e-08,0.00000000000000e+00,5.00000000000000e-01,5.02252379461392e-01,5.00000000000000e-01
7.54480000000000e-08,0.00000000000000e+00,5.00000000000000e-01,4.98353039055755e-01,5.00000000000000e-01
7.57040000000000e-08,0.00000000000000e+00,5.00000000000000e-01,4.82138852294370e-01,5.00000000000000e-01
7.62159999999999e-08,0.00000000000000e+00,5.00000000000000e-01,4.88906557475918e-01,5.00000000000000e-01
7.72399999999999e-08,0.00000000000000e+00,5.00000000000000e-01,5.04888592344310e-01,5.00000000000000e-01
7.88071972531457e-08,0.00000000000000e+00,5.00000000000000e-01,4.95162476459749e-01,5.00000000000000e-01
8.16681494849726e-08,0.00000000000000e+00,5.00000000000000e-01,5.03647669578952e-01,5.00000000000000e-01
8.50000000000000e-08,0.00000000000000e+00,5.00000000000000e-01,4.96285197167367e-01,5.00000000000000e-01
8.50100000000000e-08,4.99999999999905e-02,5.00000000000000e-01,4.96590707107130e-01,4.50000000000010e-01
8.50300000000000e-08,1.49999999999972e-01,5.00000000000000e-01,4.97134268439643e-01,3.50000000000028e-01
8.50700000000000e-08,3.49999999999934e-01,5.00000000000000e-01,4.98150859467152e-01,1.50000000000066e-01
8.51000000000000e-08,4.99999999999971e-01,5.00000000000000e-01,5.00069095897750e-01,2.86437540353290e-14
8.51080000000000e-08,5.00000000000000e-01,5.00000000000000e-01,5.00887659670628e-01,0.00000000000000e+00
8.51240000000000e-08,5.00000000000000e-01,5.00000000000000e-01,5.02294546908120e-01,0.00000000000000e+00
8.51560000000000e-08,5.00000000000000e-01,5.00000000000000e-01,5.04374618744493e-01,0.00000000000000e+00
8.52200000000000e-08,5.00000000000000e-01,5.00000000000000e-01,5.07740650549721e-01,0.00000000000000e+00
8.53480000000000e-08,5.00000000000000e-01,5.00000000000000e-01,5.15294012035746e-01,0.00000000000000e+00
8.56040000000000e-08,5.00000000000000e-01,5.00000000000000e-01,3.35650265335875e-01,0.00000000000000e+00
8.61159999999999e-08,5.00000000000000e-01,5.00000000000000e-01,-1.24382892463021e-02,0.00000000000000e+00
8.67530196405240e-08,5.00000000000000e-01,5.00000000000000e-01,9.94056787495744e-03,0.00000000000000e+00
8.80270589215720e-08,5.00000000000000e-01,5.00000000000000e-01,-7.98817513679239e-03,0.00000000000000e+00
8.94566308795807e-08,5.00000000000000e-01,5.00000000000000e-01,7.39164814819352e-03,0.00000000000000e+00
9.01000000000000e-08,5.00000000000000e-01,4.99999999999971e-01,-5.10196511798215e-03,0.00000000000000e+00
9.03859143916017e-08,5.00000000000000e-01,5.00000000000000e-01,-7.83358900495836e-04,0.00000000000000e+00
9.09577431748052e-08,5.00000000000000e-01,5.00000000000000e-01,5.72895636123954e-04,0.00000000000000e+00
9.21014007412122e-08,5.00000000000000e-01,5.00000000000000e-01,-4.87216168271767e-04,0.00000000000000e+00
9.43887158740262e-08,5.00000000000000e-01,5.00000000000000e-01,4.51513756481811e-04,0.00000000000000e+00
9.51000000000000e-08,5.00000000000000e-01,5.00000000000000e-01,-3.47813423268291e-04,0.00000000000000e+00
9.51100000000000e-08,4.50000000000051e-01,5.00000000000000e-01,-1.26646698192075e-04,4.99999999999492e-02
9.51300000000000e-08,3.50000000000070e-01,5.00000000000000e-01,1.76772569531414e-04,1.49999999999930e-01
9.51700000000000e-08,1.50000000000108e-01,5.00000000000000e-01,1.90134768292001e-04,3.49999999999892e-01
9.52000000000000e-08,6.99995617026161e-14,5.00000000000000e-01,4.36140731554999e-05,4.99999999999930e-01
9.52080000000000e-08,0.00000000000000e+00,5.00000000000000e-01,3.14997500163589e-06,5.00000000000000e-01
9.52240000000000e-08,0.00000000000000e+00,5.00000000000000e-01,-5.14526750423974e-05,5.00000000000000e-01
9.52560000000000e-08,0.00000000000000e+00,5.00000000000000e-01,-7.16127808735173e-05,5.00000000000000e-01
9.53200000000000e-08,0.00000000000000e+00,5.00000000000000e-01,-2.76482475333045e-05,5.00000000000000e-01
9.54480000000000e-08,0.00000000000000e+00,5.00000000000000e-01,-7.85927160867061e-05,5.00000000000000e-01
9.57040000000000e-08,0.00000000000000e+00,5.00000000000000e-01,-4.01391466324957e-04,5.00000000000000e-01
9.62159999999999e-08,0.00000000000000e+00,5.00000000000000e-01,2.22667382650987e-04,5.00000000000000e-01
9.71646819321202e-08,0.00000000000000e+00,5.00000000000000e-01,-2.18812365356699e-04,5.00000000000000e-01
9.84926517922264e-08,0.00000000000000e+00,5.00000000000000e-01,1.89290490373977e-04,5.00000000000000e-01
1.00799614115676e-07,0.00000000000000e+00,5.00000000000000e-01,-1.58907799477816e-04,5.00000000000000e-01
1.03857786680227e-07,0.00000000000000e+00,5.00000000000000e-01,1.39683058218412e-04,5.00000000000000e-01
1.05000000000000e-07,0.00000000000000e+00,5.00000000000000e-01,-9.10739816562070e-05,5.00000000000000e-01
1.05010000000000e-07,4.99999999999905e-02,5.00000000000000e-01,-1.47010645005011e-05,5.00000000000000e-01
1.05030000000000e-07,1.49999999999972e-01,5.00000000000000e-01,1.26355419995595e-04,5.00000000000000e-01
1.05070000000000e-07,3.49999999999934e-01,5.00000000000000e-01,2.55695277243569e-04,5.00000000000000e-01
1.05100000000000e-07,4.99999999999971e-01,5.00000000000000e-01,-1.56380773330619e-05,5.00000000000000e-01
1.05108000000000e-07,5.00000000000000e-01,5.00000000000000e-01,-3.00677877340699e-04,5.00000000000000e-01
1.05124000000000e-07,5.00000000000000e-01,5.00000000000000e-01,-1.02505434569266e-03,5.00000000000000e-01
1.05156000000000e-07,5.00000000000000e-01,5.00000000000000e-01,-2.60807319350217e-03,5.00000000000000e-01
1.05220000000000e-07,5.00000000000000e-01,5.00000000000000e-01,-4.74474199353958e-03,5.00000000000000e-01
1.05348000000000e-07,5.00000000000000e-01,5.00000000000000e-01,1.43352169989514e-03,5.00000000000000e-01
1.05604000000000e-07,5.00000000000000e-01,5.00000000000000e-01,1.87953808531035e-01,5.00000000000000e-01
1.06116000000000e-07,5.00000000000000e-01,5.00000000000000e-01,4.98431765677519e-01,5.00000000000000e-01
1.07075007143177e-07,5.00000000000000e-01,5.00000000000000e-01,4.99162416492908e-01,5.00000000000000e-01
1.08241467547738e-07,5.00000000000000e-01,5.00000000000000e-01,5.01652501489452e-01,5.00000000000000e-01
1.10429067830418e-07,5.00000000000000e-01,5.00000000000000e-01,4.98346442240402e-01,5.00000000000000e-01
1.13175275545562e-07,5.00000000000000e-01,5.00000000000000e-01,5.02007915439439e-01,5.00000000000000e-01
1.15100000000000e-07,5.00000000000000e-01,5.00000000000000e-01,4.98085751842808e-01,5.00000000000000e-01
1.15110000000000e-07,4.50000000000051e-01,5.00000000000000e-01,4.98725160489831e-01,5.00000000000000e-01
1.15130000000000e-07,3.50000000000070e-01,5.00000000000000e-01,4.99588337448723e-01,5.00000000000000e-01
1.15170000000000e-07,1.50000000000108e-01,5.00000000000000e-01,5.00271182307783e-01,5.00000000000000e-01
1.15200000000000e-07,6.99995617026161e-14,5.00000000000000e-01,5.01005622439052e-01,5.00000000000000e-01
1.15208000000000e-07,0.00000000000000e+00,5.00000000000000e-01,5.01289013107146e-01,5.00000000000000e-01
1.15224000000000e-07,0.00000000000000e+00,5.00000000000000e-01,5.01739848756253e-01,5.00000000000000e-01
1.15256000000000e-07,0.00000000000000e+00,5.00000000000000e-01,5.02184647039139e-01,5.00000000000000e-01
1.15320000000000e-07,0.00000000000000e+00,5.00000000000000e-01,5.02252379569953e-01,5.00000000000000e-01
