Time,v(clk),v(data),v(out)
1.00000000000000e-08,6.00000000000000e-01,0.00000000000000e+00,-6.65372095279802e-06
1.00100000000000e-08,6.00000000000000e-01,5.99999999999985e-02,6.74935852335024e-06
1.00300000000000e-08,6.00000000000000e-01,1.79999999999996e-01,1.45934258197339e-05
1.00700000000000e-08,6.00000000000000e-01,4.19999999999990e-01,1.55809102983517e-06
1.01000000000000e-08,6.00000000000000e-01,5.99999999999995e-01,-2.65168800522853e-06
1.01080000000000e-08,6.00000000000000e-01,6.00000000000000e-01,-4.42855570020884e-06
1.01240000000000e-08,6.00000000000000e-01,6.00000000000000e-01,-1.58788689481881e-06
1.01560000000000e-08,6.00000000000000e-01,6.00000000000000e-01,7.75345406417438e-06
1.02200000000000e-08,6.00000000000000e-01,6.00000000000000e-01,9.25916454311282e-06
1.03480000000000e-08,6.00000000000000e-01,6.00000000000000e-01,1.36395427133285e-06
1.06040000000000e-08,6.00000000000000e-01,6.00000000000000e-01,2.17981666330441e-06
1.11160000000000e-08,6.00000000000000e-01,6.00000000000000e-01,2.22670550345527e-06
1.21400000000000e-08,6.00000000000000e-01,6.00000000000000e-01,1.98304233991857e-06
1.41880000000000e-08,6.00000000000000e-01,6.00000000000000e-01,1.99608094738485e-06
1.51000000000000e-08,6.00000000000000e-01,6.00000000000000e-01,1.75343591650966e-06
1.51100000000000e-08,5.39999999999991e-01,6.00000000000000e-01,-1.48083545495059e-04
1.51300000000000e-08,4.19999999999994e-01,6.00000000000000e-01,-3.30996016043347e-04
1.51700000000000e-08,1.80000000000000e-01,6.00000000000000e-01,-1.53469753364693e-04
1.52000000000000e-08,0.00000000000000e+00,6.00000000000000e-01,6.63284630498945e-04
1.52080000000000e-08,0.00000000000000e+00,6.00000000000000e-01,9.97133292728963e-04
1.52240000000000e-08,0.00000000000000e+00,6.00000000000000e-01,1.31969026224096e-03
1.52560000000000e-08,0.00000000000000e+00,6.00000000000000e-01,8.18400887632659e-04
1.53200000000000e-08,0.00000000000000e+00,6.00000000000000e-01,-6.46834580363714e-04
1.54480000000000e-08,0.00000000000000e+00,6.00000000000000e-01,-2.72055346150130e-04
1.57040000000000e-08,0.00000000000000e+00,6.00000000000000e-01,2.25142059282139e-04
1.60025989849361e-08,0.00000000000000e+00,6.00000000000000e-01,-3.53244968738529e-04
1.65406513044169e-08,0.00000000000000e+00,6.00000000000000e-01,4.14487803880169e-04
1.75364284255502e-08,0.00000000000000e+00,6.00000000000000e-01,-4.06724867278782e-04
1.84982080240190e-08,0.00000000000000e+00,6.00000000000000e-01,3.86757234174648e-04
2.04217672209567e-08,0.00000000000000e+00,6.00000000000000e-01,-3.74011407445663e-04
2.39115835625391e-08,0.00000000000000e+00,6.00000000000000e-01,3.66423236909187e-04
2.50000000000000e-08,0.00000000000000e+00,6.00000000000000e-01,-3.39737009632610e-04
2.50100000000000e-08,5.99999999999886e-02,6.00000000000000e-01,-1.73418662534480e-05
2.50300000000000e-08,1.80000000000006e-01,6.00000000000000e-01,5.02491306091035e-04
2.50700000000000e-08,4.20000000000000e-01,6.00000000000000e-01,1.07431243429654e-03
2.51000000000000e-08,6.00000000000000e-01,6.00000000000000e-01,6.45537801537283e-04
2.51080000000000e-08,6.00000000000000e-01,6.00000000000000e-01,8.41237892747621e-05
2.51240000000000e-08,6.00000000000000e-01,6.00000000000000e-01,-1.13027929268297e-03
2.51560000000000e-08,6.00000000000000e-01,6.00000000000000e-01,-3.41800858646887e-03
2.52200000000000e-08,6.00000000000000e-01,6.00000000000000e-01,-6.30063206160474e-03
2.53480000000000e-08,6.00000000000000e-01,6.00000000000000e-01,2.76438126682610e-03
2.56040000000000e-08,6.00000000000000e-01,6.00000000000000e-01,4.39348405304878e-01
2.61160000000000e-08,6.00000000000000e-01,6.00000000000000e-01,6.17627838263018e-01
2.66140994510685e-08,6.00000000000000e-01,6.00000000000000e-01,5.84739259613978e-01
2.76102983532054e-08,6.00000000000000e-01,6.00000000000000e-01,6.14828588923744e-01
2.89983344801122e-08,6.00000000000000e-01,6.00000000000000e-01,5.85324428913379e-01
3.01000000000000e-08,6.00000000000000e-01,6.00000000000000e-01,6.13914196220158e-01
3.01100000000000e-08,6.00000000000000e-01,5.40000000000031e-01,6.06415216459081e-01
3.01300000000000e-08,6.00000000000000e-01,4.20000000000014e-01,5.99541767758567e-01
3.01700000000000e-08,6.00000000000000e-01,1.80000000000020e-01,6.00110566984495e-01
3.02000000000000e-08,6.00000000000000e-01,1.44328993201270e-14,5.99964075076005e-01
3.02080000000000e-08,6.00000000000000e-01,0.00000000000000e+00,5.99970499420770e-01
3.02240000000000e-08,6.00000000000000e-01,0.00000000000000e+00,5.99959220160577e-01
3.02560000000000e-08,6.00000000000000e-01,0.00000000000000e+00,5.99920411975085e-01
3.03200000000000e-08,6.00000000000000e-01,0.00000000000000e+00,5.99945529897859e-01
3.04480000000000e-08,6.00000000000000e-01,0.00000000000000e+00,6.00026920205982e-01
3.06709279443868e-08,6.00000000000000e-01,0.00000000000000e+00,5.99969106588201e-01
3.09777118374900e-08,6.00000000000000e-01,0.00000000000000e+00,6.00005811091750e-01
3.15492674477016e-08,6.00000000000000e-01,0.00000000000000e+00,5.99979729737321e-01
3.26923786681249e-08,6.00000000000000e-01,0.00000000000000e+00,6.00002960325533e-01
3.49786011089714e-08,6.00000000000000e-01,0.00000000000000e+00,5.99983614062206e-01
3.51000000000000e-08,5.99999999999970e-01,0.00000000000000e+00,5.99995369339760e-01
3.51100000000000e-08,5.39999999999982e-01,0.00000000000000e+00,5.99867273435755e-01
3.51300000000000e-08,4.19999999999965e-01,0.00000000000000e+00,5.99757471840751e-01
3.51700000000000e-08,1.79999999999970e-01,0.00000000000000e+00,6.00806297570163e-01
3.52000000000000e-08,0.00000000000000e+00,0.00000000000000e+00,6.04132765179291e-01
3.52080000000000e-08,0.00000000000000e+00,0.00000000000000e+00,6.05003466554367e-01
3.52240000000000e-08,0.00000000000000e+00,0.00000000000000e+00,6.05613421540709e-01
3.52560000000000e-08,0.00000000000000e+00,0.00000000000000e+00,6.00069401639542e-01
3.53200000000000e-08,0.00000000000000e+00,0.00000000000000e+00,5.87366519949232e-01
3.54480000000000e-08,0.00000000000000e+00,0.00000000000000e+00,5.95648437859367e-01
3.56930821245487e-08,0.00000000000000e+00,0.00000000000000e+00,6.01903079099608e-01
3.60000280947521e-08,0.00000000000000e+00,0.00000000000000e+00,5.97932204339501e-01
3.66139200351590e-08,0.00000000000000e+00,0.00000000000000e+00,6.01446991052810e-01
3.74396696757583e-08,0.00000000000000e+00,0.00000000000000e+00,5.98468343370642e-01
3.90911689569571e-08,0.00000000000000e+00,0.00000000000000e+00,6.01318866944817e-01
3.91000000000000e-08,0.00000000000000e+00,0.00000000000000e+00,6.01308887533835e-01
3.91176620860857e-08,0.00000000000000e+00,0.00000000000000e+00,6.00563921041687e-01
3.91529862582572e-08,0.00000000000000e+00,0.00000000000000e+00,5.99868885925537e-01
3.92236346026002e-08,0.00000000000000e+00,0.00000000000000e+00,5.99939587577482e-01
3.93649312912862e-08,0.00000000000000e+00,0.00000000000000e+00,5.99938470989277e-01
3.96475246686581e-08,0.00000000000000e+00,0.00000000000000e+00,5.99959256758102e-01
4.02127114234019e-08,0.00000000000000e+00,0.00000000000000e+00,5.99958742507339e-01
4.13430849328895e-08,0.00000000000000e+00,0.00000000000000e+00,5.99966678014427e-01
4.36038319518647e-08,0.00000000000000e+00,0.00000000000000e+00,5.99973039339000e-01
4.50000000000000e-08,0.00000000000000e+00,0.00000000000000e+00,5.99976739458866e-01
4.50100000000000e-08,5.99999999999886e-02,0.00000000000000e+00,6.00115577989589e-01
4.50300000000000e-08,1.80000000000006e-01,0.00000000000000e+00,6.00200753197634e-01
4.50700000000000e-08,4.20000000000000e-01,0.00000000000000e+00,6.00038683265435e-01
4.51000000000000e-08,6.00000000000000e-01,0.00000000000000e+00,5.99874476022581e-01
4.51080000000000e-08,6.00000000000000e-01,0.00000000000000e+00,5.99761654853449e-01
4.51240000000000e-08,6.00000000000000e-01,0.00000000000000e+00,5.99661103250226e-01
4.51560000000000e-08,6.00000000000000e-01,0.00000000000000e+00,5.99678160770654e-01
4.52200000000000e-08,6.00000000000000e-01,0.00000000000000e+00,5.99814293263387e-01
4.53480000000000e-08,6.00000000000000e-01,0.00000000000000e+00,6.00840722039926e-01
4.56040000000000e-08,6.00000000000000e-01,0.00000000000000e+00,5.13155982120716e-01
4.61160000000000e-08,6.00000000000000e-01,0.00000000000000e+00,2.39050757277193e-02
4.66066074234009e-08,6.00000000000000e-01,0.00000000000000e+00,-1.55362097986960e-02
4.75878222702026e-08,6.00000000000000e-01,0.00000000000000e+00,1.37223954965060e-02
4.88928806979315e-08,6.00000000000000e-01,0.00000000000000e+00,-1.16344389940394e-02
5.00000000000000e-08,6.00000000000000e-01,0.00000000000000e+00,1.06663207323249e-02
5.00100000000000e-08,6.00000000000000e-01,5.99999999999886e-02,7.05010232800693e-03
5.00300000000000e-08,6.00000000000000e-01,1.79999999999966e-01,3.16768511691286e-03
5.00700000000000e-08,6.00000000000000e-01,4.20000000000000e-01,1.76813508314519e-03
5.01000000000000e-08,6.00000000000000e-01,6.00000000000000e-01,9.68943060819905e-04
5.01080000000000e-08,6.00000000000000e-01,6.00000000000000e-01,8.73875547894920e-04
5.01240000000000e-08,6.00000000000000e-01,6.00000000000000e-01,6.87103489962801e-04
5.01560000000000e-08,6.00000000000000e-01,6.00000000000000e-01,3.88927858411076e-04
5.02200000000000e-08,6.00000000000000e-01,6.00000000000000e-01,1.27660821228490e-04
5.03480000000000e-08,6.00000000000000e-01,6.00000000000000e-01,4.85005689444817e-06
5.06040000000000e-08,6.00000000000000e-01,6.00000000000000e-01,-1.71696565914176e-06
5.11160000000001e-08,6.00000000000000e-01,6.00000000000000e-01,6.93306070956301e-07
5.21400000000002e-08,6.00000000000000e-01,6.00000000000000e-01,-5.13612979567007e-07
5.41880000000003e-08,6.00000000000000e-01,6.00000000000000e-01,2.22651105613245e-07
5.51000000000000e-08,6.00000000000000e-01,6.00000000000000e-01,-3.41180063706190e-07
5.51100000000000e-08,5.40000000000021e-01,6.00000000000000e-01,-1.53541775362559e-04
5.51300000000000e-08,4.20000000000004e-01,6.00000000000000e-01,-3.35634890998956e-04
5.51700000000000e-08,1.80000000000010e-01,6.00000000000000e-01,-1.48970951664898e-04
5.52000000000000e-08,0.00000000000000e+00,6.00000000000000e-01,6.53979517217657e-04
5.52080000000000e-08,0.00000000000000e+00,6.00000000000000e-01,9.78850902141393e-04
5.52240000000000e-08,0.00000000000000e+00,6.00000000000000e-01,1.24533175751337e-03
5.52560000000000e-08,0.00000000000000e+00,6.00000000000000e-01,2.99481266800738e-04
5.53200000000000e-08,0.00000000000000e+00,6.00000000000000e-01,-2.14780881461199e-03
5.54480000000000e-08,0.00000000000000e+00,6.00000000000000e-01,-8.88860869252925e-04
5.56788456918340e-08,0.00000000000000e+00,6.00000000000000e-01,5.59340628051519e-04
5.59847528691345e-08,0.00000000000000e+00,6.00000000000000e-01,-5.84940592158922e-04
5.65035895759055e-08,0.00000000000000e+00,6.00000000000000e-01,5.76638079822993e-04
5.74166238328173e-08,0.00000000000000e+00,6.00000000000000e-01,-5.29991673913445e-04
5.83519478113022e-08,0.00000000000000e+00,6.00000000000000e-01,4.80682402672090e-04
6.02225957682718e-08,0.00000000000000e+00,6.00000000000000e-01,-4.55848674114004e-04
6.38915629372382e-08,0.00000000000000e+00,6.00000000000000e-01,4.43882837981691e-04
6.50000000000000e-08,0.00000000000000e+00,6.00000000000000e-01,-4.03270839444947e-04
6.50100000000000e-08,5.99999999999886e-02,6.00000000000000e-01,-4.75304977040625e-05
6.50300000000000e-08,1.79999999999966e-01,6.00000000000000e-01,4.94368956411029e-04
6.50700000000000e-08,4.19999999999920e-01,6.00000000000000e-01,1.06636898684233e-03
6.51000000000000e-08,5.99999999999966e-01,6.00000000000000e-01,6.47154641482406e-04
6.51080000000000e-08,6.00000000000000e-01,6.00000000000000e-01,8.63881277608503e-05
6.51240000000000e-08,6.00000000000000e-01,6.00000000000000e-01,-1.12753554105988e-03
6.51560000000000e-08,6.00000000000000e-01,6.00000000000000e-01,-3.41392563943296e-03
6.52200000000000e-08,6.00000000000000e-01,6.00000000000000e-01,-6.29772367405283e-03
6.53480000000000e-08,6.00000000000000e-01,6.00000000000000e-01,2.64013732456443e-03
6.56040000000000e-08,6.00000000000000e-01,6.00000000000000e-01,4.38759477032333e-01
6.61159999999999e-08,6.00000000000000e-01,6.00000000000000e-01,6.17607669417364e-01
6.66142909391569e-08,6.00000000000000e-01,6.00000000000000e-01,5.84766102506646e-01
6.76108728174709e-08,6.00000000000000e-01,6.00000000000000e-01,6.14809684703225e-01
6.89984268498022e-08,6.00000000000000e-01,6.00000000000000e-01,5.85347241584501e-01
7.01000000000000e-08,6.00000000000000e-01,6.00000000000000e-01,6.13895916591085e-01
7.01100000000000e-08,6.00000000000000e-01,5.40000000000011e-01,6.06406764773061e-01
7.01300000000000e-08,6.00000000000000e-01,4.20000000000034e-01,5.99541808338010e-01
7.01700000000000e-08,6.00000000000000e-01,1.80000000000080e-01,6.00110059140152e-01
7.02000000000000e-08,6.00000000000000e-01,3.44169137633799e-14,5.99964037329467e-01
7.02080000000000e-08,6.00000000000000e-01,0.00000000000000e+00,5.99970334692173e-01
7.02240000000000e-08,6.00000000000000e-01,0.00000000000000e+00,5.99958955571716e-01
7.02560000000000e-08,6.00000000000000e-01,0.00000000000000e+00,5.99920230599721e-01
7.03200000000000e-08,6.00000000000000e-01,0.00000000000000e+00,5.99945450230811e-01
7.04480000000000e-08,6.00000000000000e-01,0.00000000000000e+00,6.00026871399249e-01
7.06708773280367e-08,6.00000000000000e-01,0.00000000000000e+00,5.99969174937825e-01
7.09776806789809e-08,6.00000000000000e-01,0.00000000000000e+00,6.00005752994739e-01
7.15489918008563e-08,6.00000000000000e-01,0.00000000000000e+00,5.99979792946246e-01
7.26916140446072e-08,6.00000000000000e-01,0.00000000000000e+00,6.00002899651603e-01
7.49768585321090e-08,6.00000000000000e-01,0.00000000000000e+00,5.99983677007890e-01
7.51000000000000e-08,6.00000000000000e-01,0.00000000000000e+00,5.99995399383347e-01
7.51100000000000e-08,5.40000000000061e-01,0.00000000000000e+00,5.99867290706394e-01
7.51300000000000e-08,4.20000000000084e-01,0.00000000000000e+00,5.99757453780152e-01
7.51700000000000e-08,1.80000000000129e-01,0.00000000000000e+00,6.00806282405704e-01
7.52000000000000e-08,8.40438829641244e-14,0.00000000000000e+00,6.04132779057319e-01
7.52080000000000e-08,0.00000000000000e+00,0.00000000000000e+00,6.05003502692878e-01
7.52240000000000e-08,0.00000000000000e+00,0.00000000000000e+00,6.05613571733209e-01
7.52560000000000e-08,0.00000000000000e+00,0.00000000000000e+00,6.00069895578681e-01
7.53200000000000e-08,0.00000000000000e+00,0.00000000000000e+00,5.87366789405804e-01
7.54480000000000e-08,0.00000000000000e+00,0.00000000000000e+00,5.95648307590022e-01
7.56930823331450e-08,0.00000000000000e+00,0.00000000000000e+00,6.01903178586903e-01
7.60000283009880e-08,0.00000000000000e+00,0.00000000000000e+00,5.97932123949328e-01
7.66139202366742e-08,0.00000000000000e+00,0.00000000000000e+00,6.01447062916210e-01
7.74396701620429e-08,0.00000000000000e+00,0.00000000000000e+00,5.98468276456045e-01
7.81000000000000e-08,0.00000000000000e+00,0.00000000000000e+00,6.01212586540567e-01
7.82651499850738e-08,0.00000000000000e+00,0.00000000000000e+00,6.00065318646043e-01
7.85954499552213e-08,0.00000000000000e+00,0.00000000000000e+00,5.99839114721244e-01
7.92560498955163e-08,0.00000000000000e+00,0.00000000000000e+00,6.00040686458520e-01
8.05772497761062e-08,0.00000000000000e+00,0.00000000000000e+00,5.99876110843881e-01
8.32196495372862e-08,0.00000000000000e+00,0.00000000000000e+00,6.00054905811802e-01
8.50000000000000e-08,0.00000000000000e+00,0.00000000000000e+00,5.99897097239509e-01
8.50100000000000e-08,5.99999999999886e-02,0.00000000000000e+00,6.00051403759675e-01
8.50300000000000e-08,1.79999999999966e-01,0.00000000000000e+00,6.00170246827428e-01
8.50700000000000e-08,4.19999999999920e-01,0.00000000000000e+00,6.00065407521764e-01
8.51000000000000e-08,5.99999999999966e-01,0.00000000000000e+00,5.99870665716199e-01
8.51080000000000e-08,6.00000000000000e-01,0.00000000000000e+00,5.99755657422064e-01
8.51240000000000e-08,6.00000000000000e-01,0.00000000000000e+00,5.99651472357284e-01
8.51560000000000e-08,6.00000000000000e-01,0.00000000000000e+00,5.99678510753286e-01
8.52200000000000e-08,6.00000000000000e-01,0.00000000000000e+00,5.99819439868119e-01
8.53480000000000e-08,6.00000000000000e-01,0.00000000000000e+00,6.00836609032825e-01
8.56040000000000e-08,6.00000000000000e-01,0.00000000000000e+00,5.12975250072925e-01
8.61159999999999e-08,6.00000000000000e-01,0.00000000000000e+00,2.38033460634814e-02
8.66066502941289e-08,6.00000000000000e-01,0.00000000000000e+00,-1.54806104089061e-02
8.75879508823868e-08,6.00000000000000e-01,0.00000000000000e+00,1.36768161062998e-02
8.88929558627165e-08,6.00000000000000e-01,0.00000000000000e+00,-1.15980096475325e-02
9.00000000000000e-08,6.00000000000000e-01,0.00000000000000e+00,1.06356788330163e-02
9.00100000000000e-08,6.00000000000000e-01,5.99999999999886e-02,7.02463501240344e-03
9.00300000000000e-08,6.00000000000000e-01,1.79999999999966e-01,3.15009363724293e-03
9.00700000000000e-08,6.00000000000000e-01,4.19999999999920e-01,1.75907264693034e-03
9.01000000000000e-08,6.00000000000000e-01,5.99999999999966e-01,9.63527006956552e-04
9.01080000000000e-08,6.00000000000000e-01,6.00000000000000e-01,8.69071794464757e-04
9.01240000000000e-08,6.00000000000000e-01,6.00000000000000e-01,6.83393495738607e-04
9.01560000000000e-08,6.00000000000000e-01,6.00000000000000e-01,3.86814018189657e-04
9.02200000000000e-08,6.00000000000000e-01,6.00000000000000e-01,1.26998139151360e-04
9.03480000000000e-08,6.00000000000000e-01,6.00000000000000e-01,4.85039078724353e-06
9.06040000000000e-08,6.00000000000000e-01,6.00000000000000e-01,-1.71492487406610e-06
9.11159999999999e-08,6.00000000000000e-01,6.00000000000000e-01,6.93792252239034e-07
9.21399999999999e-08,6.00000000000000e-01,6.00000000000000e-01,-5.12460431898593e-07
9.41879999999998e-08,6.00000000000000e-01,6.00000000000000e-01,2.23291524447528e-07
9.51000000000000e-08,6.00000000000000e-01,6.00000000000000e-01,-3.40490945081179e-07
9.51100000000000e-08,5.40000000000061e-01,6.00000000000000e-01,-1.53538416371959e-04
9.51300000000000e-08,4.20000000000084e-01,6.00000000000000e-01,-3.35632412517911e-04
9.51700000000000e-08,1.80000000000129e-01,6.00000000000000e-01,-1.48976348073537e-04
9.52000000000000e-08,8.40438829641244e-14,6.00000000000000e-01,6.53974150040204e-04
9.52080000000000e-08,0.00000000000000e+00,6.00000000000000e-01,9.78854089796852e-04
9.52240000000000e-08,0.00000000000000e+00,6.00000000000000e-01,1.24537090979059e-03
9.52560000000000e-08,0.00000000000000e+00,6.00000000000000e-01,2.99652281143384e-04
9.53200000000000e-08,0.00000000000000e+00,6.00000000000000e-01,-2.14716638321125e-03
9.54480000000000e-08,0.00000000000000e+00,6.00000000000000e-01,-8.88468731307039e-04
9.56788908613451e-08,0.00000000000000e+00,6.00000000000000e-01,5.59197046288776e-04
9.59847835883121e-08,0.00000000000000e+00,6.00000000000000e-01,-5.84828310294775e-04
9.65036419618853e-08,0.00000000000000e+00,6.00000000000000e-01,5.76596580872495e-04
9.74167201933655e-08,0.00000000000000e+00,6.00000000000000e-01,-5.30004617411768e-04
9.83520847793669e-08,0.00000000000000e+00,6.00000000000000e-01,4.80727283295098e-04
1.00222813951370e-07,0.00000000000000e+00,6.00000000000000e-01,-4.55906540764442e-04
1.03891003690035e-07,0.00000000000000e+00,6.00000000000000e-01,4.43940279838902e-04
1.05000000000000e-07,0.00000000000000e+00,6.00000000000000e-01,-4.03359148556713e-04
1.05010000000000e-07,5.99999999999886e-02,6.00000000000000e-01,-4.76104725542215e-05
1.05030000000000e-07,1.79999999999966e-01,6.00000000000000e-01,4.94327515766724e-04
1.05070000000000e-07,4.19999999999920e-01,6.00000000000000e-01,1.06636183366821e-03
1.05100000000000e-07,5.99999999999966e-01,6.00000000000000e-01,6.47099516990032e-04
1.05108000000000e-07,6.00000000000000e-01,6.00000000000000e-01,8.63166310100943e-05
1.05124000000000e-07,6.00000000000000e-01,6.00000000000000e-01,-1.12762543741182e-03
1.05156000000000e-07,6.00000000000000e-01,6.00000000000000e-01,-3.41400536341428e-03
1.05220000000000e-07,6.00000000000000e-01,6.00000000000000e-01,-6.29775943059714e-03
1.05348000000000e-07,6.00000000000000e-01,6.00000000000000e-01,2.64086615868836e-03
