Time,v(clk),v(data),v(out)
1.00000000000000e-08,6.00000000000000e-01,0.00000000000000e+00,5.44348727871645e-06
1.00100000000000e-08,6.00000000000000e-01,5.99999999999985e-02,1.31697424666372e-05
1.00300000000000e-08,6.00000000000000e-01,1.79999999999996e-01,1.84555652378432e-05
1.00700000000000e-08,6.00000000000000e-01,4.19999999999990e-01,1.39242851573268e-05
1.01000000000000e-08,6.00000000000000e-01,5.99999999999995e-01,9.63586615451706e-06
1.01080000000000e-08,6.00000000000000e-01,6.00000000000000e-01,7.21347325603749e-06
1.01240000000000e-08,6.00000000000000e-01,6.00000000000000e-01,8.52491381102272e-06
1.01560000000000e-08,6.00000000000000e-01,6.00000000000000e-01,1.80782568989096e-05
1.02200000000000e-08,6.00000000000000e-01,6.00000000000000e-01,2.32483795421651e-05
1.03480000000000e-08,6.00000000000000e-01,6.00000000000000e-01,2.30218418873218e-05
1.06040000000000e-08,6.00000000000000e-01,6.00000000000000e-01,2.10442630785498e-05
1.11139686185370e-08,6.00000000000000e-01,6.00000000000000e-01,2.24949992604292e-05
1.21339058556111e-08,6.00000000000000e-01,6.00000000000000e-01,2.01632707229841e-05
1.41737803297593e-08,6.00000000000000e-01,6.00000000000000e-01,2.15466970942720e-05
1.51000000000000e-08,6.00000000000000e-01,6.00000000000000e-01,1.92728970367373e-05
1.51100000000000e-08,5.39999999999991e-01,6.00000000000000e-01,-1.41561886565361e-04
1.51300000000000e-08,4.19999999999994e-01,6.00000000000000e-01,-3.73333052493763e-04
1.51700000000000e-08,1.80000000000000e-01,6.00000000000000e-01,-2.38216454125292e-04
1.52000000000000e-08,0.00000000000000e+00,6.00000000000000e-01,5.77490356771404e-04
1.52080000000000e-08,0.00000000000000e+00,6.00000000000000e-01,9.40039726518460e-04
1.52240000000000e-08,0.00000000000000e+00,6.00000000000000e-01,1.36568626737844e-03
1.52560000000000e-08,0.00000000000000e+00,6.00000000000000e-01,1.19947642806822e-03
1.53200000000000e-08,0.00000000000000e+00,6.00000000000000e-01,-2.26844156719225e-04
1.54480000000000e-08,0.00000000000000e+00,6.00000000000000e-01,-7.09198915052264e-04
1.57040000000000e-08,0.00000000000000e+00,6.00000000000000e-01,3.28053137753949e-04
1.60414953194005e-08,0.00000000000000e+00,6.00000000000000e-01,-3.48787725751983e-04
1.67164859582014e-08,0.00000000000000e+00,6.00000000000000e-01,2.78504410669813e-04
1.75333312298908e-08,0.00000000000000e+00,6.00000000000000e-01,-5.80727276886586e-05
1.87726374149061e-08,0.00000000000000e+00,6.00000000000000e-01,2.40715152807613e-05
2.11133150230223e-08,0.00000000000000e+00,6.00000000000000e-01,3.88562613730086e-05
2.49133150230223e-08,0.00000000000000e+00,6.00000000000000e-01,-1.57382875549958e-05
2.50000000000000e-08,0.00000000000000e+00,6.00000000000000e-01,1.06492248030096e-04
2.50100000000000e-08,5.99999999999886e-02,6.00000000000000e-01,3.85322171184921e-04
2.50300000000000e-08,1.80000000000006e-01,6.00000000000000e-01,8.18522838118993e-04
2.50700000000000e-08,4.20000000000000e-01,6.00000000000000e-01,1.37855698922901e-03
2.51000000000000e-08,6.00000000000000e-01,6.00000000000000e-01,1.49619938570320e-03
2.51080000000000e-08,6.00000000000000e-01,6.00000000000000e-01,1.26066699110948e-03
2.51240000000000e-08,6.00000000000000e-01,6.00000000000000e-01,7.10737745929141e-04
2.51560000000000e-08,6.00000000000000e-01,6.00000000000000e-01,-7.76865439365379e-04
2.52200000000000e-08,6.00000000000000e-01,6.00000000000000e-01,-3.76370021778168e-03
2.53480000000000e-08,6.00000000000000e-01,6.00000000000000e-01,-6.23147314393105e-03
2.56040000000000e-08,6.00000000000000e-01,6.00000000000000e-01,1.32617956212235e-01
2.61160000000000e-08,6.00000000000000e-01,6.00000000000000e-01,5.81646189924918e-01
2.71400000000000e-08,6.00000000000000e-01,6.00000000000000e-01,6.05301706196710e-01
2.81881714926582e-08,6.00000000000000e-01,6.00000000000000e-01,5.94388862375511e-01
2.99589347434085e-08,6.00000000000000e-01,6.00000000000000e-01,6.04864638524710e-01
3.01000000000000e-08,6.00000000000000e-01,6.00000000000000e-01,5.96640841622885e-01
3.01100000000000e-08,6.00000000000000e-01,5.40000000000031e-01,5.98118973614611e-01
3.01300000000000e-08,6.00000000000000e-01,4.20000000000014e-01,5.99756450402981e-01
3.01700000000000e-08,6.00000000000000e-01,1.80000000000020e-01,6.00070642040319e-01
3.02000000000000e-08,6.00000000000000e-01,1.44328993201270e-14,6.00064845162277e-01
3.02080000000000e-08,6.00000000000000e-01,0.00000000000000e+00,6.00062564586095e-01
3.02240000000000e-08,6.00000000000000e-01,0.00000000000000e+00,6.00045140655641e-01
3.02560000000000e-08,6.00000000000000e-01,0.00000000000000e+00,5.99999040768480e-01
3.03200000000000e-08,6.00000000000000e-01,0.00000000000000e+00,5.99947639769456e-01
3.04480000000000e-08,6.00000000000000e-01,0.00000000000000e+00,6.00021987708924e-01
3.07007747188279e-08,6.00000000000000e-01,0.00000000000000e+00,5.99973968299921e-01
3.10403100347645e-08,6.00000000000000e-01,0.00000000000000e+00,5.99986275528811e-01
3.16499088980870e-08,6.00000000000000e-01,0.00000000000000e+00,5.99978437442065e-01
3.28691066247319e-08,6.00000000000000e-01,0.00000000000000e+00,5.99987324371107e-01
3.51000000000000e-08,5.99999999999970e-01,0.00000000000000e+00,5.99983976437204e-01
3.51100000000000e-08,5.39999999999982e-01,0.00000000000000e+00,5.99845142548524e-01
3.51300000000000e-08,4.19999999999965e-01,0.00000000000000e+00,5.99718844932028e-01
3.51700000000000e-08,1.79999999999970e-01,0.00000000000000e+00,6.00909409592579e-01
3.52000000000000e-08,0.00000000000000e+00,0.00000000000000e+00,6.04183931830773e-01
3.52080000000000e-08,0.00000000000000e+00,0.00000000000000e+00,6.05060581746255e-01
3.52240000000000e-08,0.00000000000000e+00,0.00000000000000e+00,6.06009238808255e-01
3.52560000000000e-08,0.00000000000000e+00,0.00000000000000e+00,6.03563212010277e-01
3.53200000000000e-08,0.00000000000000e+00,0.00000000000000e+00,5.90919248502614e-01
3.54480000000000e-08,0.00000000000000e+00,0.00000000000000e+00,5.91013122928453e-01
3.56879817025271e-08,0.00000000000000e+00,0.00000000000000e+00,6.02524015054947e-01
3.60349578006201e-08,0.00000000000000e+00,0.00000000000000e+00,5.97081347995219e-01
3.66803338054245e-08,0.00000000000000e+00,0.00000000000000e+00,6.01902067116917e-01
3.75724608993537e-08,0.00000000000000e+00,0.00000000000000e+00,5.97931805711243e-01
3.91000000000000e-08,0.00000000000000e+00,0.00000000000000e+00,6.01704326761245e-01
3.92784254187859e-08,0.00000000000000e+00,0.00000000000000e+00,6.00107644745778e-01
3.96352762563575e-08,0.00000000000000e+00,0.00000000000000e+00,5.99762169034452e-01
4.03489779315009e-08,0.00000000000000e+00,0.00000000000000e+00,6.00054423495417e-01
4.17763812817876e-08,0.00000000000000e+00,0.00000000000000e+00,5.99809743017325e-01
4.46311879823611e-08,0.00000000000000e+00,0.00000000000000e+00,6.00063995079631e-01
4.50000000000000e-08,0.00000000000000e+00,0.00000000000000e+00,5.99852641106766e-01
4.50100000000000e-08,5.99999999999886e-02,0.00000000000000e+00,6.00021941612421e-01
4.50300000000000e-08,1.80000000000006e-01,0.00000000000000e+00,6.00181551945642e-01
4.50700000000000e-08,4.20000000000000e-01,0.00000000000000e+00,6.00105221899282e-01
4.51000000000000e-08,6.00000000000000e-01,0.00000000000000e+00,5.99927470024296e-01
4.51080000000000e-08,6.00000000000000e-01,0.00000000000000e+00,5.99805926186938e-01
4.51240000000000e-08,6.00000000000000e-01,0.00000000000000e+00,5.99674266284298e-01
4.51560000000000e-08,6.00000000000000e-01,0.00000000000000e+00,5.99642475910828e-01
4.52200000000000e-08,6.00000000000000e-01,0.00000000000000e+00,5.99750207798517e-01
4.53480000000000e-08,6.00000000000000e-01,0.00000000000000e+00,5.99974518913411e-01
4.56040000000000e-08,6.00000000000000e-01,0.00000000000000e+00,6.08393858013290e-01
4.61160000000000e-08,6.00000000000000e-01,0.00000000000000e+00,2.32861718760268e-01
4.68548336710534e-08,6.00000000000000e-01,0.00000000000000e+00,-6.62004804368767e-02
4.77737612470632e-08,6.00000000000000e-01,0.00000000000000e+00,5.12987371487955e-02
4.92776075819136e-08,6.00000000000000e-01,0.00000000000000e+00,-3.43540171963843e-02
5.00000000000000e-08,6.00000000000000e-01,0.00000000000000e+00,2.16670990995747e-02
5.00100000000000e-08,6.00000000000000e-01,5.99999999999886e-02,2.00837353135085e-02
5.00300000000000e-08,6.00000000000000e-01,1.79999999999966e-01,1.67780857612127e-02
5.00700000000000e-08,6.00000000000000e-01,4.20000000000000e-01,1.09701204616471e-02
5.01000000000000e-08,6.00000000000000e-01,6.00000000000000e-01,7.95821119912674e-03
5.01080000000000e-08,6.00000000000000e-01,6.00000000000000e-01,7.33149478078694e-03
5.01240000000000e-08,6.00000000000000e-01,6.00000000000000e-01,6.17768076289243e-03
5.01560000000000e-08,6.00000000000000e-01,6.00000000000000e-01,4.39211538256215e-03
5.02200000000000e-08,6.00000000000000e-01,6.00000000000000e-01,2.16301537229829e-03
5.03480000000000e-08,6.00000000000000e-01,6.00000000000000e-01,4.18874591400359e-04
5.06040000000000e-08,6.00000000000000e-01,6.00000000000000e-01,-4.95488495048449e-05
5.11160000000001e-08,6.00000000000000e-01,6.00000000000000e-01,4.40623082217755e-05
5.21400000000002e-08,6.00000000000000e-01,6.00000000000000e-01,-4.76613092497725e-06
5.41880000000003e-08,6.00000000000000e-01,6.00000000000000e-01,3.36596526360564e-05
5.51000000000000e-08,6.00000000000000e-01,6.00000000000000e-01,3.41945956029710e-06
5.51100000000000e-08,5.40000000000021e-01,6.00000000000000e-01,-1.57366153669208e-04
5.51300000000000e-08,4.20000000000004e-01,6.00000000000000e-01,-3.83346146962713e-04
5.51700000000000e-08,1.80000000000010e-01,6.00000000000000e-01,-2.34291556474558e-04
5.52000000000000e-08,0.00000000000000e+00,6.00000000000000e-01,5.66321764258360e-04
5.52080000000000e-08,0.00000000000000e+00,6.00000000000000e-01,9.24057028960576e-04
5.52240000000000e-08,0.00000000000000e+00,6.00000000000000e-01,1.32641238403999e-03
5.52560000000000e-08,0.00000000000000e+00,6.00000000000000e-01,9.56668514767792e-04
5.53200000000000e-08,0.00000000000000e+00,6.00000000000000e-01,-1.18518716091312e-03
5.54480000000000e-08,0.00000000000000e+00,6.00000000000000e-01,-1.60314422073954e-03
5.57040000000000e-08,0.00000000000000e+00,6.00000000000000e-01,4.72006821612317e-04
5.60400654855073e-08,0.00000000000000e+00,6.00000000000000e-01,-4.07391406610766e-04
5.67121964565219e-08,0.00000000000000e+00,6.00000000000000e-01,3.23023196035718e-04
5.75256904173096e-08,0.00000000000000e+00,6.00000000000000e-01,-9.54693343760311e-05
5.87620424379462e-08,0.00000000000000e+00,6.00000000000000e-01,5.94208293168107e-05
6.10925676510346e-08,0.00000000000000e+00,6.00000000000000e-01,4.53306911308519e-06
6.48925676510346e-08,0.00000000000000e+00,6.00000000000000e-01,1.82259648887177e-05
6.50000000000000e-08,0.00000000000000e+00,6.00000000000000e-01,8.69599120640607e-05
6.50100000000000e-08,5.99999999999886e-02,6.00000000000000e-01,3.80445360618806e-04
6.50300000000000e-08,1.79999999999966e-01,6.00000000000000e-01,8.24038226149043e-04
6.50700000000000e-08,4.19999999999920e-01,6.00000000000000e-01,1.37910883387886e-03
6.51000000000000e-08,5.99999999999966e-01,6.00000000000000e-01,1.49723991376098e-03
6.51080000000000e-08,6.00000000000000e-01,6.00000000000000e-01,1.26092379366724e-03
6.51240000000000e-08,6.00000000000000e-01,6.00000000000000e-01,7.09254493214295e-04
6.51560000000000e-08,6.00000000000000e-01,6.00000000000000e-01,-7.80707486202750e-04
6.52200000000000e-08,6.00000000000000e-01,6.00000000000000e-01,-3.76702354372584e-03
6.53480000000000e-08,6.00000000000000e-01,6.00000000000000e-01,-6.23363343776287e-03
6.56040000000000e-08,6.00000000000000e-01,6.00000000000000e-01,1.32535414732068e-01
6.61159999999999e-08,6.00000000000000e-01,6.00000000000000e-01,5.81626621463917e-01
6.71399999999999e-08,6.00000000000000e-01,6.00000000000000e-01,6.05307721624876e-01
6.81881081811865e-08,6.00000000000000e-01,6.00000000000000e-01,5.94382180044243e-01
6.99589266789176e-08,6.00000000000000e-01,6.00000000000000e-01,6.04870592674032e-01
7.01000000000000e-08,6.00000000000000e-01,6.00000000000000e-01,5.96636277814525e-01
7.01100000000000e-08,6.00000000000000e-01,5.40000000000011e-01,5.98116459316581e-01
7.01300000000000e-08,6.00000000000000e-01,4.20000000000034e-01,5.99756144291796e-01
7.01700000000000e-08,6.00000000000000e-01,1.80000000000080e-01,6.00070701095735e-01
7.02000000000000e-08,6.00000000000000e-01,3.44169137633799e-14,6.00064823020385e-01
7.02080000000000e-08,6.00000000000000e-01,0.00000000000000e+00,6.00062540154110e-01
7.02240000000000e-08,6.00000000000000e-01,0.00000000000000e+00,6.00045113948340e-01
7.02560000000000e-08,6.00000000000000e-01,0.00000000000000e+00,5.99999016569355e-01
7.03200000000000e-08,6.00000000000000e-01,0.00000000000000e+00,5.99947624656315e-01
7.04480000000000e-08,6.00000000000000e-01,0.00000000000000e+00,6.00021995180366e-01
7.07007686269525e-08,6.00000000000000e-01,0.00000000000000e+00,5.99973956178067e-01
7.10402982856642e-08,6.00000000000000e-01,0.00000000000000e+00,5.99986282302926e-01
7.16498787533522e-08,6.00000000000000e-01,0.00000000000000e+00,5.99978423567886e-01
7.28690396887282e-08,6.00000000000000e-01,0.00000000000000e+00,5.99987333165470e-01
7.51000000000000e-08,6.00000000000000e-01,0.00000000000000e+00,5.99983964060192e-01
7.51100000000000e-08,5.40000000000061e-01,0.00000000000000e+00,5.99845113441195e-01
7.51300000000000e-08,4.20000000000084e-01,0.00000000000000e+00,5.99718808943027e-01
7.51700000000000e-08,1.80000000000129e-01,0.00000000000000e+00,6.00909401322283e-01
7.52000000000000e-08,8.40438829641244e-14,0.00000000000000e+00,6.04183917417789e-01
7.52080000000000e-08,0.00000000000000e+00,0.00000000000000e+00,6.05060565086046e-01
7.52240000000000e-08,0.00000000000000e+00,0.00000000000000e+00,6.06009202498729e-01
7.52560000000000e-08,0.00000000000000e+00,0.00000000000000e+00,6.03563034957127e-01
7.53200000000000e-08,0.00000000000000e+00,0.00000000000000e+00,5.90918999378471e-01
7.54480000000000e-08,0.00000000000000e+00,0.00000000000000e+00,5.91013167775304e-01
7.56879816684954e-08,0.00000000000000e+00,0.00000000000000e+00,6.02524008450787e-01
7.60349577602824e-08,0.00000000000000e+00,0.00000000000000e+00,5.97081353578326e-01
7.66803336863971e-08,0.00000000000000e+00,0.00000000000000e+00,6.01902062041202e-01
7.75724607405448e-08,0.00000000000000e+00,0.00000000000000e+00,5.97931810361107e-01
7.81000000000000e-08,0.00000000000000e+00,0.00000000000000e+00,6.01480978072368e-01
7.82784254108296e-08,0.00000000000000e+00,0.00000000000000e+00,6.00061216402062e-01
7.86352762324887e-08,0.00000000000000e+00,0.00000000000000e+00,5.99758461469127e-01
7.93489778758068e-08,0.00000000000000e+00,0.00000000000000e+00,6.00024790249163e-01
8.07763811624432e-08,0.00000000000000e+00,0.00000000000000e+00,5.99816389785903e-01
8.36311877357159e-08,0.00000000000000e+00,0.00000000000000e+00,6.00046901629887e-01
8.50000000000000e-08,0.00000000000000e+00,0.00000000000000e+00,5.99846871536943e-01
8.50100000000000e-08,5.99999999999886e-02,0.00000000000000e+00,6.00010477524667e-01
8.50300000000000e-08,1.79999999999966e-01,0.00000000000000e+00,6.00195597472243e-01
8.50700000000000e-08,4.19999999999920e-01,0.00000000000000e+00,6.00102391058206e-01
8.51000000000000e-08,5.99999999999966e-01,0.00000000000000e+00,5.99930888058101e-01
8.51080000000000e-08,6.00000000000000e-01,0.00000000000000e+00,5.99812804407793e-01
8.51240000000000e-08,6.00000000000000e-01,0.00000000000000e+00,5.99649560548925e-01
8.51560000000000e-08,6.00000000000000e-01,0.00000000000000e+00,5.99641157035704e-01
8.52200000000000e-08,6.00000000000000e-01,0.00000000000000e+00,5.99772387905529e-01
8.53480000000000e-08,6.00000000000000e-01,0.00000000000000e+00,5.99956762770815e-01
8.56040000000000e-08,6.00000000000000e-01,0.00000000000000e+00,6.08422255498521e-01
8.61159999999999e-08,6.00000000000000e-01,0.00000000000000e+00,2.32768835556674e-01
8.68548237291892e-08,6.00000000000000e-01,0.00000000000000e+00,-6.61939895198802e-02
8.77737007096611e-08,6.00000000000000e-01,0.00000000000000e+00,5.12919005940461e-02
8.92769898044331e-08,6.00000000000000e-01,0.00000000000000e+00,-3.43466250495743e-02
9.00000000000000e-08,6.00000000000000e-01,0.00000000000000e+00,2.16733919438162e-02
9.00100000000000e-08,6.00000000000000e-01,5.99999999999886e-02,2.00890634798370e-02
9.00300000000000e-08,6.00000000000000e-01,1.79999999999966e-01,1.67821110008941e-02
9.00700000000000e-08,6.00000000000000e-01,4.19999999999920e-01,1.09728162643687e-02
9.01000000000000e-08,6.00000000000000e-01,5.99999999999966e-01,7.96017564612256e-03
9.01080000000000e-08,6.00000000000000e-01,6.00000000000000e-01,7.33330675062037e-03
9.01240000000000e-08,6.00000000000000e-01,6.00000000000000e-01,6.17920985001691e-03
9.01560000000000e-08,6.00000000000000e-01,6.00000000000000e-01,4.39320076898246e-03
9.02200000000000e-08,6.00000000000000e-01,6.00000000000000e-01,2.16354546920969e-03
9.03480000000000e-08,6.00000000000000e-01,6.00000000000000e-01,4.18968191123657e-04
9.06040000000000e-08,6.00000000000000e-01,6.00000000000000e-01,-4.95701284632874e-05
9.11159999999999e-08,6.00000000000000e-01,6.00000000000000e-01,4.40624835287874e-05
9.21399999999999e-08,6.00000000000000e-01,6.00000000000000e-01,-4.77622162494903e-06
9.41879999999998e-08,6.00000000000000e-01,6.00000000000000e-01,3.36581047423387e-05
9.51000000000000e-08,6.00000000000000e-01,6.00000000000000e-01,3.41152060823885e-06
9.51100000000000e-08,5.40000000000061e-01,6.00000000000000e-01,-1.57373187501586e-04
9.51300000000000e-08,4.20000000000084e-01,6.00000000000000e-01,-3.83352528337308e-04
9.51700000000000e-08,1.80000000000129e-01,6.00000000000000e-01,-2.34299226986992e-04
9.52000000000000e-08,8.40438829641244e-14,6.00000000000000e-01,5.66305501887729e-04
9.52080000000000e-08,0.00000000000000e+00,6.00000000000000e-01,9.24031257203903e-04
9.52240000000000e-08,0.00000000000000e+00,6.00000000000000e-01,1.32634399983260e-03
9.52560000000000e-08,0.00000000000000e+00,6.00000000000000e-01,9.56371193545122e-04
9.53200000000000e-08,0.00000000000000e+00,6.00000000000000e-01,-1.18663417407004e-03
9.54480000000000e-08,0.00000000000000e+00,6.00000000000000e-01,-1.60483890463470e-03
9.57040000000000e-08,0.00000000000000e+00,6.00000000000000e-01,4.72056258117484e-04
9.60400624353250e-08,0.00000000000000e+00,6.00000000000000e-01,-4.07341464076699e-04
9.67121873059750e-08,0.00000000000000e+00,6.00000000000000e-01,3.22979712090742e-04
9.75256743045486e-08,0.00000000000000e+00,6.00000000000000e-01,-9.54357028842348e-05
9.87620200515749e-08,0.00000000000000e+00,6.00000000000000e-01,5.93951883831531e-05
1.01092523974365e-07,0.00000000000000e+00,6.00000000000000e-01,4.55441627367735e-06
1.04892523974365e-07,0.00000000000000e+00,6.00000000000000e-01,1.82073176728768e-05
1.05000000000000e-07,0.00000000000000e+00,6.00000000000000e-01,8.69345122826159e-05
1.05010000000000e-07,5.99999999999886e-02,6.00000000000000e-01,3.80440755583161e-04
1.05030000000000e-07,1.79999999999966e-01,6.00000000000000e-01,8.24048872945959e-04
1.05070000000000e-07,4.19999999999920e-01,6.00000000000000e-01,1.37910995277774e-03
1.05100000000000e-07,5.99999999999966e-01,6.00000000000000e-01,1.49724145476010e-03
1.05108000000000e-07,6.00000000000000e-01,6.00000000000000e-01,1.26092373762314e-03
1.05124000000000e-07,6.00000000000000e-01,6.00000000000000e-01,7.09250818667462e-04
1.05156000000000e-07,6.00000000000000e-01,6.00000000000000e-01,-7.80716110979060e-04
1.05220000000000e-07,6.00000000000000e-01,6.00000000000000e-01,-3.76703096034613e-03
1.05348000000000e-07,6.00000000000000e-01,6.00000000000000e-01,-6.23363707836032e-03
1.05604000000000e-07,6.00000000000000e-01,6.00000000000000e-01,1.32535297298941e-01
1.06116000000000e-07,6.00000000000000e-01,6.00000000000000e-01,5.81626593570853e-01
1.07140000000000e-07,6.00000000000000e-01,6.00000000000000e-01,6.05307730178174e-01
1.08188108092695e-07,6.00000000000000e-01,6.00000000000000e-01,5.94382170542764e-01
1.09958926669279e-07,6.00000000000000e-01,6.00000000000000e-01,6.04870601142594e-01
1.10100000000000e-07,6.00000000000000e-01,6.00000000000000e-01,5.96636271347267e-01
