Time,v(clk),v(data),v(out)
1.00000000000000e-08,5.00000000000000e-01,0.00000000000000e+00,1.85439145214700e-05
1.00100000000000e-08,5.00000000000000e-01,4.99999999999988e-02,1.65558945867672e-05
1.00300000000000e-08,5.00000000000000e-01,1.49999999999996e-01,1.49278979106326e-05
1.00700000000000e-08,5.00000000000000e-01,3.49999999999992e-01,1.06221062958628e-05
1.01000000000000e-08,5.00000000000000e-01,4.99999999999996e-01,7.63018848497915e-06
1.01080000000000e-08,5.00000000000000e-01,5.00000000000000e-01,7.32627256905954e-06
1.01240000000000e-08,5.00000000000000e-01,5.00000000000000e-01,6.18593356756236e-06
1.01560000000000e-08,5.00000000000000e-01,5.00000000000000e-01,5.52471888435463e-06
1.02200000000000e-08,5.00000000000000e-01,5.00000000000000e-01,6.33311975065803e-06
1.03480000000000e-08,5.00000000000000e-01,5.00000000000000e-01,1.05690092305280e-05
1.06040000000000e-08,5.00000000000000e-01,5.00000000000000e-01,1.11301820420982e-05
1.11160000000000e-08,5.00000000000000e-01,5.00000000000000e-01,1.16767345742768e-05
1.21085921180214e-08,5.00000000000000e-01,5.00000000000000e-01,1.10386118931235e-05
1.40937763540642e-08,5.00000000000000e-01,5.00000000000000e-01,1.06210864525731e-05
1.51000000000000e-08,5.00000000000000e-01,5.00000000000000e-01,1.00097803054193e-05
1.51100000000000e-08,4.49999999999993e-01,5.00000000000000e-01,-4.34886147663502e-05
1.51300000000000e-08,3.49999999999995e-01,5.00000000000000e-01,-1.39130034781471e-04
1.51700000000000e-08,1.50000000000000e-01,5.00000000000000e-01,-2.41338141895441e-04
1.52000000000000e-08,0.00000000000000e+00,5.00000000000000e-01,-1.44386987857278e-04
1.52080000000000e-08,0.00000000000000e+00,5.00000000000000e-01,-3.27018710571877e-05
1.52240000000000e-08,0.00000000000000e+00,5.00000000000000e-01,1.44610797210232e-04
1.52560000000000e-08,0.00000000000000e+00,5.00000000000000e-01,3.11924103571337e-04
1.53200000000000e-08,0.00000000000000e+00,5.00000000000000e-01,3.10305501139994e-04
1.54480000000000e-08,0.00000000000000e+00,5.00000000000000e-01,1.82783245392670e-05
1.57040000000000e-08,0.00000000000000e+00,5.00000000000000e-01,-2.23572241727581e-04
1.62160000000000e-08,0.00000000000000e+00,5.00000000000000e-01,3.00715915198483e-05
1.72400000000000e-08,0.00000000000000e+00,5.00000000000000e-01,-5.76124365082916e-05
1.86273349645959e-08,0.00000000000000e+00,5.00000000000000e-01,1.17203915821923e-04
2.14020048937878e-08,0.00000000000000e+00,5.00000000000000e-01,-9.44336585203321e-05
2.45925609543212e-08,0.00000000000000e+00,5.00000000000000e-01,9.89667043853975e-05
2.50000000000000e-08,0.00000000000000e+00,5.00000000000000e-01,-1.73984703365684e-05
2.50100000000000e-08,4.99999999999905e-02,5.00000000000000e-01,7.49046890322277e-05
2.50300000000000e-08,1.50000000000005e-01,5.00000000000000e-01,2.35185283293166e-04
2.50700000000000e-08,3.50000000000000e-01,5.00000000000000e-01,4.31270191367239e-04
2.51000000000000e-08,5.00000000000000e-01,5.00000000000000e-01,4.41311247457846e-04
2.51080000000000e-08,5.00000000000000e-01,5.00000000000000e-01,3.73046183652560e-04
2.51240000000000e-08,5.00000000000000e-01,5.00000000000000e-01,2.11071546957098e-04
2.51560000000000e-08,5.00000000000000e-01,5.00000000000000e-01,-2.89225484417316e-04
2.52200000000000e-08,5.00000000000000e-01,5.00000000000000e-01,-1.68411271061314e-03
2.53480000000000e-08,5.00000000000000e-01,5.00000000000000e-01,-3.86407824402372e-03
2.56040000000000e-08,5.00000000000000e-01,5.00000000000000e-01,1.20547462154992e-02
2.61160000000000e-08,5.00000000000000e-01,5.00000000000000e-01,3.55331531126655e-01
2.71400000000000e-08,5.00000000000000e-01,5.00000000000000e-01,5.22721232273730e-01
2.83610474897038e-08,5.00000000000000e-01,5.00000000000000e-01,4.79533692033484e-01
3.08031424691112e-08,5.00000000000000e-01,5.00000000000000e-01,5.18801141296555e-01
3.44063973298700e-08,5.00000000000000e-01,5.00000000000000e-01,4.80965356499056e-01
3.51000000000000e-08,4.99999999999975e-01,5.00000000000000e-01,5.15038845548068e-01
3.51100000000000e-08,4.49999999999985e-01,5.00000000000000e-01,5.11234368509777e-01
3.51300000000000e-08,3.49999999999971e-01,5.00000000000000e-01,5.05536995820562e-01
3.51700000000000e-08,1.49999999999975e-01,5.00000000000000e-01,5.01175537139419e-01
3.52000000000000e-08,0.00000000000000e+00,5.00000000000000e-01,5.01322963356399e-01
3.52080000000000e-08,0.00000000000000e+00,5.00000000000000e-01,5.01581115869966e-01
3.52240000000000e-08,0.00000000000000e+00,5.00000000000000e-01,5.01966569873021e-01
3.52560000000000e-08,0.00000000000000e+00,5.00000000000000e-01,5.02319286841234e-01
3.53200000000000e-08,0.00000000000000e+00,5.00000000000000e-01,5.01999473543915e-01
3.54480000000000e-08,0.00000000000000e+00,5.00000000000000e-01,4.95118405969995e-01
3.57040000000000e-08,0.00000000000000e+00,5.00000000000000e-01,4.83066472797680e-01
3.62160000000000e-08,0.00000000000000e+00,5.00000000000000e-01,4.96054767638208e-01
3.72400000000000e-08,0.00000000000000e+00,5.00000000000000e-01,5.01521209916240e-01
3.86125031117197e-08,0.00000000000000e+00,5.00000000000000e-01,4.97954834309377e-01
4.13575093351591e-08,0.00000000000000e+00,5.00000000000000e-01,5.01247807593525e-01
4.50000000000000e-08,0.00000000000000e+00,5.00000000000000e-01,4.98436987969643e-01
4.50100000000000e-08,4.99999999999905e-02,5.00000000000000e-01,4.98679626483252e-01
4.50300000000000e-08,1.50000000000005e-01,5.00000000000000e-01,4.99093230554164e-01
4.50700000000000e-08,3.50000000000000e-01,5.00000000000000e-01,4.99598386763584e-01
4.51000000000000e-08,5.00000000000000e-01,5.00000000000000e-01,4.99748505707282e-01
4.51080000000000e-08,5.00000000000000e-01,4.60000000000021e-01,4.99721860422822e-01
4.51240000000000e-08,5.00000000000000e-01,3.79999999999996e-01,4.99652664896933e-01
4.51560000000000e-08,5.00000000000000e-01,2.20000000000013e-01,4.99404795842988e-01
4.52000000000000e-08,5.00000000000000e-01,2.86437540353290e-14,4.98961409205547e-01
4.52064000000000e-08,5.00000000000000e-01,0.00000000000000e+00,4.98899950103279e-01
4.52192000000000e-08,5.00000000000000e-01,0.00000000000000e+00,4.98781804740146e-01
4.52448000000000e-08,5.00000000000000e-01,0.00000000000000e+00,4.98582998893768e-01
4.52960000000000e-08,5.00000000000000e-01,0.00000000000000e+00,4.98325265837491e-01
4.53984000000000e-08,5.00000000000000e-01,0.00000000000000e+00,4.98173423201633e-01
4.56032000000000e-08,5.00000000000000e-01,0.00000000000000e+00,4.98561053694814e-01
4.60128000000000e-08,5.00000000000000e-01,0.00000000000000e+00,4.99283115900550e-01
4.66035922619268e-08,5.00000000000000e-01,0.00000000000000e+00,4.99847978774080e-01
4.77851767857803e-08,5.00000000000000e-01,0.00000000000000e+00,5.00039681592058e-01
4.91176576717633e-08,5.00000000000000e-01,0.00000000000000e+00,4.99991637218612e-01
5.17826194437292e-08,5.00000000000000e-01,0.00000000000000e+00,5.00001003267875e-01
5.51000000000000e-08,5.00000000000000e-01,0.00000000000000e+00,5.00002551331428e-01
5.51100000000000e-08,4.50000000000018e-01,0.00000000000000e+00,4.99953509340695e-01
5.51300000000000e-08,3.50000000000004e-01,0.00000000000000e+00,4.99872964097557e-01
5.51700000000000e-08,1.50000000000008e-01,0.00000000000000e+00,5.00033648666594e-01
5.52000000000000e-08,0.00000000000000e+00,0.00000000000000e+00,5.00980186453261e-01
5.52080000000000e-08,0.00000000000000e+00,0.00000000000000e+00,5.01331732792506e-01
5.52240000000000e-08,0.00000000000000e+00,0.00000000000000e+00,5.01882348184874e-01
5.52560000000000e-08,0.00000000000000e+00,0.00000000000000e+00,5.02461994471066e-01
5.53200000000000e-08,0.00000000000000e+00,0.00000000000000e+00,5.02989892737868e-01
5.54480000000000e-08,0.00000000000000e+00,0.00000000000000e+00,5.03285080760265e-01
5.57040000000000e-08,0.00000000000000e+00,0.00000000000000e+00,5.00977409195168e-01
5.62160000000000e-08,0.00000000000000e+00,0.00000000000000e+00,4.99007565729233e-01
5.69754394386851e-08,0.00000000000000e+00,0.00000000000000e+00,4.99920383882622e-01
5.83720100912629e-08,0.00000000000000e+00,0.00000000000000e+00,4.99470123619193e-01
5.99834016860435e-08,0.00000000000000e+00,0.00000000000000e+00,4.99941087204185e-01
6.32061848756048e-08,0.00000000000000e+00,0.00000000000000e+00,4.99652955313494e-01
6.50000000000000e-08,0.00000000000000e+00,0.00000000000000e+00,4.99953104762721e-01
6.50100000000000e-08,4.99999999999905e-02,0.00000000000000e+00,5.00002632224890e-01
6.50300000000000e-08,1.49999999999972e-01,0.00000000000000e+00,5.00071480085274e-01
6.50700000000000e-08,3.49999999999934e-01,0.00000000000000e+00,5.00059279721692e-01
6.51000000000000e-08,4.99999999999971e-01,0.00000000000000e+00,4.99962841757245e-01
6.51080000000000e-08,5.00000000000000e-01,0.00000000000000e+00,4.99903920751425e-01
6.51240000000000e-08,5.00000000000000e-01,0.00000000000000e+00,4.99807421418294e-01
6.51560000000000e-08,5.00000000000000e-01,0.00000000000000e+00,4.99706089585118e-01
6.52200000000000e-08,5.00000000000000e-01,0.00000000000000e+00,4.99661568483140e-01
6.53480000000000e-08,5.00000000000000e-01,0.00000000000000e+00,4.99698604212207e-01
6.56040000000000e-08,5.00000000000000e-01,0.00000000000000e+00,5.00554697805419e-01
6.61159999999999e-08,5.00000000000000e-01,0.00000000000000e+00,4.93671697130354e-01
6.71399999999999e-08,5.00000000000000e-01,0.00000000000000e+00,6.56254517023333e-02
6.82914048691741e-08,5.00000000000000e-01,0.00000000000000e+00,-3.87524531973279e-02
7.05721537200169e-08,5.00000000000000e-01,0.00000000000000e+00,3.67962880325357e-02
7.33844554305781e-08,5.00000000000000e-01,0.00000000000000e+00,-2.91463158788883e-02
7.51000000000000e-08,5.00000000000000e-01,0.00000000000000e+00,2.54455708788362e-02
7.51100000000000e-08,4.50000000000051e-01,0.00000000000000e+00,2.23001915714328e-02
7.51300000000000e-08,3.50000000000070e-01,0.00000000000000e+00,1.72519283325127e-02
7.51700000000000e-08,1.50000000000108e-01,0.00000000000000e+00,1.10951897321693e-02
7.52000000000000e-08,6.99995617026161e-14,0.00000000000000e+00,8.26453385250057e-03
7.52080000000000e-08,0.00000000000000e+00,0.00000000000000e+00,7.75472559122566e-03
7.52240000000000e-08,0.00000000000000e+00,0.00000000000000e+00,6.78782379047650e-03
7.52560000000000e-08,0.00000000000000e+00,0.00000000000000e+00,5.12509297707599e-03
7.53200000000000e-08,0.00000000000000e+00,0.00000000000000e+00,2.77121206062543e-03
7.54480000000000e-08,0.00000000000000e+00,0.00000000000000e+00,1.43741779729537e-04
7.57040000000000e-08,0.00000000000000e+00,0.00000000000000e+00,-1.36911290732171e-03
7.62159999999999e-08,0.00000000000000e+00,0.00000000000000e+00,2.22558036873698e-04
7.70503466074136e-08,0.00000000000000e+00,0.00000000000000e+00,3.24825122791500e-05
7.84187250502308e-08,0.00000000000000e+00,0.00000000000000e+00,-8.41321339350816e-05
8.07765511690212e-08,0.00000000000000e+00,0.00000000000000e+00,1.21644312219446e-04
8.45765511690212e-08,0.00000000000000e+00,0.00000000000000e+00,-1.16906602489648e-04
8.50000000000000e-08,0.00000000000000e+00,0.00000000000000e+00,1.60451147801078e-04
8.50100000000000e-08,4.99999999999905e-02,0.00000000000000e+00,2.10222922134330e-04
8.50300000000000e-08,1.49999999999972e-01,0.00000000000000e+00,2.90161156788947e-04
8.50700000000000e-08,3.49999999999934e-01,0.00000000000000e+00,3.28981654334183e-04
8.51000000000000e-08,4.99999999999971e-01,0.00000000000000e+00,2.34531156338903e-04
8.51080000000000e-08,5.00000000000000e-01,0.00000000000000e+00,1.58365253241165e-04
8.51240000000000e-08,5.00000000000000e-01,0.00000000000000e+00,2.56798349023216e-05
8.51560000000000e-08,5.00000000000000e-01,0.00000000000000e+00,-1.35433100843040e-04
8.52200000000000e-08,5.00000000000000e-01,0.00000000000000e+00,-2.24694105538464e-04
8.53480000000000e-08,5.00000000000000e-01,0.00000000000000e+00,-1.39860026395506e-04
8.56040000000000e-08,5.00000000000000e-01,0.00000000000000e+00,3.63549173151498e-06
8.61159999999999e-08,5.00000000000000e-01,0.00000000000000e+00,5.93524834212773e-05
8.71399999999999e-08,5.00000000000000e-01,0.00000000000000e+00,4.95534855544759e-06
8.91879999999998e-08,5.00000000000000e-01,0.00000000000000e+00,1.56777992631014e-05
9.00000000000000e-08,5.00000000000000e-01,0.00000000000000e+00,1.81232306584612e-05
9.00100000000000e-08,5.00000000000000e-01,4.99999999999905e-02,1.62229533938602e-05
9.00300000000000e-08,5.00000000000000e-01,1.49999999999972e-01,1.47001177417116e-05
9.00700000000000e-08,5.00000000000000e-01,3.49999999999934e-01,1.05671883558200e-05
9.01000000000000e-08,5.00000000000000e-01,4.99999999999971e-01,7.64819399512451e-06
9.01080000000000e-08,5.00000000000000e-01,5.00000000000000e-01,7.33508274033956e-06
9.01240000000000e-08,5.00000000000000e-01,5.00000000000000e-01,6.21200924576237e-06
9.01560000000000e-08,5.00000000000000e-01,5.00000000000000e-01,5.63611232619332e-06
9.02200000000000e-08,5.00000000000000e-01,5.00000000000000e-01,6.46971488495185e-06
9.03480000000000e-08,5.00000000000000e-01,5.00000000000000e-01,1.05844533381146e-05
9.06040000000000e-08,5.00000000000000e-01,5.00000000000000e-01,1.03702889514036e-05
9.11159999999999e-08,5.00000000000000e-01,5.00000000000000e-01,1.12213903182175e-05
9.21399999999999e-08,5.00000000000000e-01,5.00000000000000e-01,1.15816346335177e-05
9.41879999999998e-08,5.00000000000000e-01,5.00000000000000e-01,9.95213477085390e-06
9.51000000000000e-08,5.00000000000000e-01,5.00000000000000e-01,1.07437459623012e-05
9.51100000000000e-08,4.50000000000051e-01,5.00000000000000e-01,-4.28186115676715e-05
9.51300000000000e-08,3.50000000000070e-01,5.00000000000000e-01,-1.38875060708796e-04
9.51700000000000e-08,1.50000000000108e-01,5.00000000000000e-01,-2.41432418640247e-04
9.52000000000000e-08,6.99995617026161e-14,5.00000000000000e-01,-1.44549628378225e-04
9.52080000000000e-08,0.00000000000000e+00,5.00000000000000e-01,-3.28714606825722e-05
9.52240000000000e-08,0.00000000000000e+00,5.00000000000000e-01,1.44437698499568e-04
9.52560000000000e-08,0.00000000000000e+00,5.00000000000000e-01,3.11766357709437e-04
9.53200000000000e-08,0.00000000000000e+00,5.00000000000000e-01,3.10198605808089e-04
9.54480000000000e-08,0.00000000000000e+00,5.00000000000000e-01,1.82293962159852e-05
9.57040000000000e-08,0.00000000000000e+00,5.00000000000000e-01,-2.23558987288080e-04
9.62159999999999e-08,0.00000000000000e+00,5.00000000000000e-01,3.00740235826789e-05
9.72399999999999e-08,0.00000000000000e+00,5.00000000000000e-01,-5.76123334433132e-05
9.86274046666366e-08,0.00000000000000e+00,5.00000000000000e-01,1.17208472141383e-04
1.01402213999910e-07,0.00000000000000e+00,5.00000000000000e-01,-9.44459707177461e-05
1.04592807844651e-07,0.00000000000000e+00,5.00000000000000e-01,9.89822440866203e-05
1.05000000000000e-07,0.00000000000000e+00,5.00000000000000e-01,-1.73894051831557e-05
1.05010000000000e-07,4.99999999999905e-02,5.00000000000000e-01,7.49139445325175e-05
1.05030000000000e-07,1.49999999999972e-01,5.00000000000000e-01,2.35194163732140e-04
1.05070000000000e-07,3.49999999999934e-01,5.00000000000000e-01,4.31278270701295e-04
1.05100000000000e-07,4.99999999999971e-01,5.00000000000000e-01,4.41318043435876e-04
1.05108000000000e-07,5.00000000000000e-01,5.00000000000000e-01,3.73052331152306e-04
1.05124000000000e-07,5.00000000000000e-01,5.00000000000000e-01,2.11075934808021e-04
1.05156000000000e-07,5.00000000000000e-01,5.00000000000000e-01,-2.89225723875845e-04
1.05220000000000e-07,5.00000000000000e-01,5.00000000000000e-01,-1.68411755506127e-03
1.05348000000000e-07,5.00000000000000e-01,5.00000000000000e-01,-3.86408062691945e-03
1.05604000000000e-07,5.00000000000000e-01,5.00000000000000e-01,1.20547793345695e-02
1.06116000000000e-07,5.00000000000000e-01,5.00000000000000e-01,3.55331619254645e-01
1.07140000000000e-07,5.00000000000000e-01,5.00000000000000e-01,5.22721233806652e-01
1.08361047412639e-07,5.00000000000000e-01,5.00000000000000e-01,4.79533687813517e-01
1.10803142237918e-07,5.00000000000000e-01,5.00000000000000e-01,5.18801143360478e-01
1.14406397318833e-07,5.00000000000000e-01,5.00000000000000e-01,4.80965353021080e-01
1.15100000000000e-07,5.00000000000000e-01,5.00000000000000e-01,5.15038847471728e-01
1.15110000000000e-07,4.50000000000051e-01,5.00000000000000e-01,5.11234369927427e-01
1.15130000000000e-07,3.50000000000070e-01,5.00000000000000e-01,5.05536996550103e-01
1.15170000000000e-07,1.50000000000108e-01,5.00000000000000e-01,5.01175537396227e-01
1.15200000000000e-07,6.99995617026161e-14,5.00000000000000e-01,5.01322963461853e-01
1.15208000000000e-07,0.00000000000000e+00,5.00000000000000e-01,5.01581115956583e-01
1.15224000000000e-07,0.00000000000000e+00,5.00000000000000e-01,5.01966569929442e-01
1.15256000000000e-07,0.00000000000000e+00,5.00000000000000e-01,5.02319286879400e-01
1.15320000000000e-07,0.00000000000000e+00,5.00000000000000e-01,5.01999473606855e-01
1.15448000000000e-07,0.00000000000000e+00,5.00000000000000e-01,4.95118406141167e-01
1.15704000000000e-07,0.00000000000000e+00,5.00000000000000e-01,4.83066472939724e-01
1.16216000000000e-07,0.00000000000000e+00,5.00000000000000e-01,4.96054767584984e-01
1.17240000000000e-07,0.00000000000000e+00,5.00000000000000e-01,5.01521209962823e-01
1.18612503113819e-07,0.00000000000000e+00,5.00000000000000e-01,4.97954834268218e-01
1.21357509341457e-07,0.00000000000000e+00,5.00000000000000e-01,5.01247807631977e-01
1.25000000000000e-07,0.00000000000000e+00,5.00000000000000e-01,4.98436987933589e-01
1.25010000000000e-07,4.99999999999243e-02,5.00000000000000e-01,4.98679626432060e-01
1.25030000000000e-07,1.49999999999905e-01,5.00000000000000e-01,4.99093230503337e-01
1.25070000000000e-07,3.49999999999867e-01,5.00000000000000e-01,4.99598386752955e-01
1.25100000000000e-07,4.99999999999905e-01,5.00000000000000e-01,4.99748505712209e-01
1.25108000000000e-07,5.00000000000000e-01,4.59999999999955e-01,4.99721860427750e-01
1.25124000000000e-07,5.00000000000000e-01,3.79999999999996e-01,4.99652664910094e-01
1.25156000000000e-07,5.00000000000000e-01,2.19999999999947e-01,4.99404795862332e-01
1.25200000000000e-07,5.00000000000000e-01,0.00000000000000e+00,4.98961409198060e-01
1.25206400000000e-07,5.00000000000000e-01,0.00000000000000e+00,4.98899950093645e-01
1.25219200000000e-07,5.00000000000000e-01,0.00000000000000e+00,4.98781804727414e-01
1.25244800000000e-07,5.00000000000000e-01,0.00000000000000e+00,4.98582998877021e-01
1.25296000000000e-07,5.00000000000000e-01,0.00000000000000e+00,4.98325265810016e-01
1.25398400000000e-07,5.00000000000000e-01,0.00000000000000e+00,4.98173423067499e-01
1.25603200000000e-07,5.00000000000000e-01,0.00000000000000e+00,4.98561053305344e-01
1.26012800000000e-07,5.00000000000000e-01,0.00000000000000e+00,4.99283115668236e-01
1.26603592280122e-07,5.00000000000000e-01,0.00000000000000e+00,4.99847979243540e-01
1.27785176840367e-07,5.00000000000000e-01,0.00000000000000e+00,5.00039681418415e-01
1.29117657644098e-07,5.00000000000000e-01,0.00000000000000e+00,4.99991637321636e-01
1.31782619251560e-07,5.00000000000000e-01,0.00000000000000e+00,5.00001003187628e-01
1.35100000000000e-07,4.99999999999909e-01,0.00000000000000e+00,5.00002551399143e-01
1.35110000000000e-07,4.49999999999852e-01,0.00000000000000e+00,4.99953509389189e-01
1.35130000000000e-07,3.49999999999871e-01,0.00000000000000e+00,4.99872964147534e-01
1.35170000000000e-07,1.49999999999909e-01,0.00000000000000e+00,5.00033648683458e-01
1.35200000000000e-07,0.00000000000000e+00,0.00000000000000e+00,5.00980186453886e-01
1.35208000000000e-07,0.00000000000000e+00,0.00000000000000e+00,5.01331732796070e-01
1.35224000000000e-07,0.00000000000000e+00,0.00000000000000e+00,5.01882348183867e-01
1.35256000000000e-07,0.00000000000000e+00,0.00000000000000e+00,5.02461994451248e-01
1.35320000000000e-07,0.00000000000000e+00,0.00000000000000e+00,5.02989892719071e-01
1.35448000000000e-07,0.00000000000000e+00,0.00000000000000e+00,5.03285080753900e-01
1.35704000000000e-07,0.00000000000000e+00,0.00000000000000e+00,5.00977409246042e-01
1.36216000000000e-07,0.00000000000000e+00,0.00000000000000e+00,4.99007565710669e-01
1.36975439434464e-07,0.00000000000000e+00,0.00000000000000e+00,4.99920383887934e-01
