Time,v(clk),v(data),v(out),v(reset)
1.00000000000000e-08,6.00000000000000e-01,0.00000000000000e+00,-1.69605407463368e-03,0.00000000000000e+00
1.00100000000000e-08,6.00000000000000e-01,5.99999999999985e-02,-2.10689101701186e-03,0.00000000000000e+00
1.00300000000000e-08,6.00000000000000e-01,1.79999999999996e-01,-2.17265227264078e-03,0.00000000000000e+00
1.00700000000000e-08,6.00000000000000e-01,4.19999999999990e-01,-1.26387675013344e-03,0.00000000000000e+00
1.01000000000000e-08,6.00000000000000e-01,5.99999999999995e-01,-8.68223439710436e-04,0.00000000000000e+00
1.01080000000000e-08,6.00000000000000e-01,6.00000000000000e-01,-7.86396775438930e-04,0.00000000000000e+00
1.01240000000000e-08,6.00000000000000e-01,6.00000000000000e-01,-6.27467212138771e-04,0.00000000000000e+00
1.01560000000000e-08,6.00000000000000e-01,6.00000000000000e-01,-4.06829387534891e-04,0.00000000000000e+00
1.02200000000000e-08,6.00000000000000e-01,6.00000000000000e-01,-1.51352568358722e-04,0.00000000000000e+00
1.03480000000000e-08,6.00000000000000e-01,6.00000000000000e-01,-5.06158854182703e-06,0.00000000000000e+00
1.06040000000000e-08,6.00000000000000e-01,6.00000000000000e-01,9.37267505823208e-06,0.00000000000000e+00
1.11160000000000e-08,6.00000000000000e-01,6.00000000000000e-01,1.17615894816119e-05,0.00000000000000e+00
1.21400000000000e-08,6.00000000000000e-01,6.00000000000000e-01,1.03661029394984e-05,0.00000000000000e+00
1.41880000000000e-08,6.00000000000000e-01,6.00000000000000e-01,1.12451259830313e-05,0.00000000000000e+00
1.51000000000000e-08,6.00000000000000e-01,6.00000000000000e-01,1.05845433400129e-05,0.00000000000000e+00
1.51100000000000e-08,5.39999999999991e-01,6.00000000000000e-01,2.81563410619190e-04,6.00000000000085e-02
1.51300000000000e-08,4.19999999999994e-01,6.00000000000000e-01,5.56953390752915e-04,1.80000000000006e-01
1.51700000000000e-08,1.80000000000000e-01,6.00000000000000e-01,4.58954651293267e-04,4.20000000000000e-01
1.52000000000000e-08,0.00000000000000e+00,6.00000000000000e-01,4.12831589914384e-04,6.00000000000000e-01
1.52080000000000e-08,0.00000000000000e+00,6.00000000000000e-01,3.56017711598475e-04,6.00000000000000e-01
1.52240000000000e-08,0.00000000000000e+00,6.00000000000000e-01,2.69769718784563e-04,6.00000000000000e-01
1.52560000000000e-08,0.00000000000000e+00,6.00000000000000e-01,1.38279674098157e-04,6.00000000000000e-01
1.53200000000000e-08,0.00000000000000e+00,6.00000000000000e-01,-6.18652357119429e-04,6.00000000000000e-01
1.54480000000000e-08,0.00000000000000e+00,6.00000000000000e-01,-1.34452431915465e-03,6.00000000000000e-01
1.57040000000000e-08,0.00000000000000e+00,6.00000000000000e-01,1.13493071706921e-04,6.00000000000000e-01
1.61421264674438e-08,0.00000000000000e+00,6.00000000000000e-01,-1.43001307218338e-04,6.00000000000000e-01
1.67795550772429e-08,0.00000000000000e+00,6.00000000000000e-01,1.16961266887795e-04,6.00000000000000e-01
1.79137431030831e-08,0.00000000000000e+00,6.00000000000000e-01,2.53462436785121e-05,6.00000000000000e-01
1.92869553676569e-08,0.00000000000000e+00,6.00000000000000e-01,-6.29058075644513e-05,6.00000000000000e-01
2.20333798968045e-08,0.00000000000000e+00,6.00000000000000e-01,1.05389144496176e-04,6.00000000000000e-01
2.50000000000000e-08,0.00000000000000e+00,6.00000000000000e-01,-9.92062708811687e-05,6.00000000000000e-01
2.50100000000000e-08,5.99999999999886e-02,6.00000000000000e-01,9.00244901181763e-05,6.00000000000000e-01
2.50300000000000e-08,1.80000000000006e-01,6.00000000000000e-01,4.09391932967684e-04,6.00000000000000e-01
2.50700000000000e-08,4.20000000000000e-01,6.00000000000000e-01,7.61063196597654e-04,6.00000000000000e-01
2.51000000000000e-08,6.00000000000000e-01,6.00000000000000e-01,6.95252438646661e-04,6.00000000000000e-01
2.51080000000000e-08,6.00000000000000e-01,6.00000000000000e-01,4.83372425111303e-04,6.00000000000000e-01
2.51240000000000e-08,6.00000000000000e-01,6.00000000000000e-01,-4.93378680950368e-05,6.00000000000000e-01
2.51560000000000e-08,6.00000000000000e-01,6.00000000000000e-01,-1.46901449610030e-03,6.00000000000000e-01
2.52200000000000e-08,6.00000000000000e-01,6.00000000000000e-01,-4.04724538079042e-03,6.00000000000000e-01
2.53480000000000e-08,6.00000000000000e-01,6.00000000000000e-01,-3.46891471460828e-03,6.00000000000000e-01
2.56040000000000e-08,6.00000000000000e-01,6.00000000000000e-01,2.29694852230282e-01,6.00000000000000e-01
2.61160000000000e-08,6.00000000000000e-01,6.00000000000000e-01,6.02615352936968e-01,6.00000000000000e-01
2.69040236311643e-08,6.00000000000000e-01,6.00000000000000e-01,5.97150808065627e-01,6.00000000000000e-01
2.81213295395367e-08,6.00000000000000e-01,6.00000000000000e-01,6.03167055089969e-01,6.00000000000000e-01
2.97288224930818e-08,6.00000000000000e-01,6.00000000000000e-01,5.96971764945211e-01,6.00000000000000e-01
3.21997859054636e-08,6.00000000000000e-01,6.00000000000000e-01,6.03081573622026e-01,6.00000000000000e-01
3.51000000000000e-08,5.99999999999970e-01,6.00000000000000e-01,5.96993976743609e-01,6.00000000000000e-01
3.51100000000000e-08,5.39999999999982e-01,6.00000000000000e-01,5.98150680582696e-01,6.00000000000000e-01
3.51300000000000e-08,4.19999999999965e-01,6.00000000000000e-01,5.99537209939818e-01,6.00000000000000e-01
3.51700000000000e-08,1.79999999999970e-01,6.00000000000000e-01,6.00672804726216e-01,6.00000000000000e-01
3.52000000000000e-08,0.00000000000000e+00,6.00000000000000e-01,6.02682155886156e-01,6.00000000000000e-01
3.52080000000000e-08,0.00000000000000e+00,6.00000000000000e-01,6.03271014773467e-01,6.00000000000000e-01
3.52240000000000e-08,0.00000000000000e+00,6.00000000000000e-01,6.04007834336120e-01,6.00000000000000e-01
3.52560000000000e-08,0.00000000000000e+00,6.00000000000000e-01,6.03484918515697e-01,6.00000000000000e-01
3.53200000000000e-08,0.00000000000000e+00,6.00000000000000e-01,5.94075043034104e-01,6.00000000000000e-01
3.54480000000000e-08,0.00000000000000e+00,6.00000000000000e-01,5.82411872464637e-01,6.00000000000000e-01
3.57040000000000e-08,0.00000000000000e+00,6.00000000000000e-01,5.98064892655229e-01,6.00000000000000e-01
3.62053677281546e-08,0.00000000000000e+00,6.00000000000000e-01,6.00134368697137e-01,6.00000000000000e-01
3.68265664455543e-08,0.00000000000000e+00,6.00000000000000e-01,5.99202916510333e-01,6.00000000000000e-01
3.80689638803538e-08,0.00000000000000e+00,6.00000000000000e-01,6.00192149904422e-01,6.00000000000000e-01
4.05537587499528e-08,0.00000000000000e+00,6.00000000000000e-01,5.99504578561895e-01,6.00000000000000e-01
4.43537587499528e-08,0.00000000000000e+00,6.00000000000000e-01,6.00252394804417e-01,6.00000000000000e-01
4.50000000000000e-08,0.00000000000000e+00,6.00000000000000e-01,5.99635660183764e-01,6.00000000000000e-01
4.50100000000000e-08,5.99999999999886e-02,6.00000000000000e-01,5.99544451233084e-01,5.40000000000011e-01
4.50300000000000e-08,1.80000000000006e-01,6.00000000000000e-01,5.99437144529280e-01,4.19999999999994e-01
4.50700000000000e-08,4.20000000000000e-01,6.00000000000000e-01,6.01478306481188e-01,1.80000000000000e-01
4.51000000000000e-08,6.00000000000000e-01,6.00000000000000e-01,6.07961457037797e-01,0.00000000000000e+00
4.51080000000000e-08,6.00000000000000e-01,6.00000000000000e-01,6.10352479926417e-01,0.00000000000000e+00
4.51240000000000e-08,6.00000000000000e-01,6.00000000000000e-01,6.14609566398961e-01,0.00000000000000e+00
4.51560000000000e-08,6.00000000000000e-01,6.00000000000000e-01,6.22726702402525e-01,0.00000000000000e+00
4.52200000000000e-08,6.00000000000000e-01,6.00000000000000e-01,6.33365510448482e-01,0.00000000000000e+00
4.53480000000000e-08,6.00000000000000e-01,6.00000000000000e-01,4.57083296003417e-01,0.00000000000000e+00
4.56040000000000e-08,6.00000000000000e-01,6.00000000000000e-01,5.15392742008543e-02,0.00000000000000e+00
4.60196053037047e-08,6.00000000000000e-01,6.00000000000000e-01,-1.82590314854230e-02,0.00000000000000e+00
4.66662570878754e-08,6.00000000000000e-01,6.00000000000000e-01,1.09220174239457e-02,0.00000000000000e+00
4.76423411217118e-08,6.00000000000000e-01,6.00000000000000e-01,-7.24161749002544e-03,0.00000000000000e+00
4.95763422418091e-08,6.00000000000000e-01,6.00000000000000e-01,6.04301061974849e-03,0.00000000000000e+00
5.01000000000000e-08,6.00000000000000e-01,5.99999999999966e-01,-2.56363440099136e-03,0.00000000000000e+00
5.04106669427699e-08,6.00000000000000e-01,6.00000000000000e-01,-7.44119445875047e-04,0.00000000000000e+00
5.10320008283096e-08,6.00000000000000e-01,6.00000000000000e-01,4.45738085660239e-04,0.00000000000000e+00
5.22746685993890e-08,6.00000000000000e-01,6.00000000000000e-01,-3.17101279390487e-04,0.00000000000000e+00
5.47600041415478e-08,6.00000000000000e-01,6.00000000000000e-01,2.94463961050515e-04,0.00000000000000e+00
5.51000000000000e-08,6.00000000000000e-01,6.00000000000000e-01,-7.31728283809505e-05,0.00000000000000e+00
5.51100000000000e-08,5.40000000000021e-01,6.00000000000000e-01,2.89517247759594e-04,5.99999999999787e-02
5.51300000000000e-08,4.20000000000004e-01,6.00000000000000e-01,5.43512545397876e-04,1.79999999999996e-01
5.51700000000000e-08,1.80000000000010e-01,6.00000000000000e-01,4.54250584698571e-04,4.19999999999990e-01
5.52000000000000e-08,0.00000000000000e+00,6.00000000000000e-01,4.08764394976641e-04,6.00000000000000e-01
5.52080000000000e-08,0.00000000000000e+00,6.00000000000000e-01,3.52614725056780e-04,6.00000000000000e-01
5.52240000000000e-08,0.00000000000000e+00,6.00000000000000e-01,2.68430246665896e-04,6.00000000000000e-01
5.52560000000000e-08,0.00000000000000e+00,6.00000000000000e-01,1.51190883854929e-04,6.00000000000000e-01
5.53200000000000e-08,0.00000000000000e+00,6.00000000000000e-01,-5.59836196784610e-04,6.00000000000000e-01
5.54480000000000e-08,0.00000000000000e+00,6.00000000000000e-01,-1.21379812075840e-03,6.00000000000000e-01
5.57040000000000e-08,0.00000000000000e+00,6.00000000000000e-01,1.49463299545703e-04,6.00000000000000e-01
5.60941322817923e-08,0.00000000000000e+00,6.00000000000000e-01,-3.23027653024582e-05,6.00000000000000e-01
5.67493937454225e-08,0.00000000000000e+00,6.00000000000000e-01,-3.44767147943750e-05,6.00000000000000e-01
5.77489354952898e-08,0.00000000000000e+00,6.00000000000000e-01,1.09681600297252e-04,6.00000000000000e-01
5.91142045437710e-08,0.00000000000000e+00,6.00000000000000e-01,-1.03791984693424e-04,6.00000000000000e-01
6.18447426407333e-08,0.00000000000000e+00,6.00000000000000e-01,1.29777661377692e-04,6.00000000000000e-01
6.50000000000000e-08,0.00000000000000e+00,6.00000000000000e-01,-1.09693476323504e-04,6.00000000000000e-01
6.50100000000000e-08,5.99999999999886e-02,6.00000000000000e-01,6.47512450277499e-05,6.00000000000000e-01
6.50300000000000e-08,1.79999999999966e-01,6.00000000000000e-01,3.63049688110795e-04,6.00000000000000e-01
6.50700000000000e-08,4.19999999999920e-01,6.00000000000000e-01,7.12651170380413e-04,6.00000000000000e-01
6.51000000000000e-08,5.99999999999966e-01,6.00000000000000e-01,5.96414982174269e-04,6.00000000000000e-01
6.51080000000000e-08,6.00000000000000e-01,6.00000000000000e-01,3.49432970073352e-04,6.00000000000000e-01
6.51240000000000e-08,6.00000000000000e-01,6.00000000000000e-01,-2.51351271664729e-04,6.00000000000000e-01
6.51560000000000e-08,6.00000000000000e-01,6.00000000000000e-01,-1.72464825702297e-03,6.00000000000000e-01
6.52200000000000e-08,6.00000000000000e-01,6.00000000000000e-01,-4.21500977035644e-03,6.00000000000000e-01
6.53480000000000e-08,6.00000000000000e-01,6.00000000000000e-01,-3.00484170969284e-03,6.00000000000000e-01
6.56040000000000e-08,6.00000000000000e-01,6.00000000000000e-01,2.37027167537215e-01,6.00000000000000e-01
6.61159999999999e-08,6.00000000000000e-01,6.00000000000000e-01,6.04061060650635e-01,6.00000000000000e-01
6.68898549644224e-08,6.00000000000000e-01,6.00000000000000e-01,5.96386523422661e-01,6.00000000000000e-01
6.81108384937816e-08,6.00000000000000e-01,6.00000000000000e-01,6.03942113916404e-01,6.00000000000000e-01
6.97052326348513e-08,6.00000000000000e-01,6.00000000000000e-01,5.96264323740885e-01,6.00000000000000e-01
7.21717075271707e-08,6.00000000000000e-01,6.00000000000000e-01,6.03789907464521e-01,6.00000000000000e-01
7.51000000000000e-08,6.00000000000000e-01,6.00000000000000e-01,5.96318823086628e-01,6.00000000000000e-01
7.51100000000000e-08,5.40000000000061e-01,6.00000000000000e-01,5.97723613516784e-01,6.00000000000000e-01
7.51300000000000e-08,4.20000000000084e-01,6.00000000000000e-01,5.99423040277290e-01,6.00000000000000e-01
7.51700000000000e-08,1.80000000000129e-01,6.00000000000000e-01,6.00678007874260e-01,6.00000000000000e-01
7.52000000000000e-08,8.40438829641244e-14,6.00000000000000e-01,6.02680881230831e-01,6.00000000000000e-01
7.52080000000000e-08,0.00000000000000e+00,6.00000000000000e-01,6.03269805239722e-01,6.00000000000000e-01
7.52240000000000e-08,0.00000000000000e+00,6.00000000000000e-01,6.04006656322978e-01,6.00000000000000e-01
7.52560000000000e-08,0.00000000000000e+00,6.00000000000000e-01,6.03483335377207e-01,6.00000000000000e-01
7.53200000000000e-08,0.00000000000000e+00,6.00000000000000e-01,5.94071434785868e-01,6.00000000000000e-01
7.54480000000000e-08,0.00000000000000e+00,6.00000000000000e-01,5.82409685439626e-01,6.00000000000000e-01
7.57040000000000e-08,0.00000000000000e+00,6.00000000000000e-01,5.98065634708978e-01,6.00000000000000e-01
7.62053774398392e-08,0.00000000000000e+00,6.00000000000000e-01,6.00134049711010e-01,6.00000000000000e-01
7.68265809932076e-08,0.00000000000000e+00,6.00000000000000e-01,5.99203132451693e-01,6.00000000000000e-01
7.80689880999445e-08,0.00000000000000e+00,6.00000000000000e-01,6.00191972960910e-01,6.00000000000000e-01
8.05538023134181e-08,0.00000000000000e+00,6.00000000000000e-01,5.99504744235177e-01,6.00000000000000e-01
8.43538023134181e-08,0.00000000000000e+00,6.00000000000000e-01,6.00252246516676e-01,6.00000000000000e-01
8.50000000000000e-08,0.00000000000000e+00,6.00000000000000e-01,5.99635770937791e-01,6.00000000000000e-01
8.50100000000000e-08,5.99999999999886e-02,6.00000000000000e-01,5.99544829532363e-01,5.40000000000011e-01
8.50300000000000e-08,1.79999999999966e-01,6.00000000000000e-01,5.99437313907578e-01,4.20000000000034e-01
8.50700000000000e-08,4.19999999999920e-01,6.00000000000000e-01,6.01478288623827e-01,1.80000000000080e-01
8.51000000000000e-08,5.99999999999966e-01,6.00000000000000e-01,6.07961405810222e-01,3.44169137633799e-14
8.51080000000000e-08,6.00000000000000e-01,6.00000000000000e-01,6.10352425020826e-01,0.00000000000000e+00
8.51240000000000e-08,6.00000000000000e-01,6.00000000000000e-01,6.14609523165282e-01,0.00000000000000e+00
8.51560000000000e-08,6.00000000000000e-01,6.00000000000000e-01,6.22726740754152e-01,0.00000000000000e+00
8.52200000000000e-08,6.00000000000000e-01,6.00000000000000e-01,6.33365586397755e-01,0.00000000000000e+00
8.53480000000000e-08,6.00000000000000e-01,6.00000000000000e-01,4.57082868224412e-01,0.00000000000000e+00
8.56040000000000e-08,6.00000000000000e-01,6.00000000000000e-01,5.15394467960292e-02,0.00000000000000e+00
8.60201692090972e-08,6.00000000000000e-01,6.00000000000000e-01,-1.82857337531965e-02,0.00000000000000e+00
8.66670300219738e-08,6.00000000000000e-01,6.00000000000000e-01,1.09414936557214e-02,0.00000000000000e+00
8.76435757564736e-08,6.00000000000000e-01,6.00000000000000e-01,-7.25605728616784e-03,0.00000000000000e+00
8.95786545356533e-08,6.00000000000000e-01,6.00000000000000e-01,6.05635065034069e-03,0.00000000000000e+00
9.01000000000000e-08,6.00000000000000e-01,5.99999999999966e-01,-2.55890008637059e-03,0.00000000000000e+00
9.04113256971255e-08,6.00000000000000e-01,6.00000000000000e-01,-7.41881948348757e-04,0.00000000000000e+00
9.10339770913766e-08,6.00000000000000e-01,6.00000000000000e-01,4.44980027296699e-04,0.00000000000000e+00
9.22792798798788e-08,6.00000000000000e-01,6.00000000000000e-01,-3.16731051736439e-04,0.00000000000000e+00
9.47698854568831e-08,6.00000000000000e-01,6.00000000000000e-01,2.94240110649570e-04,0.00000000000000e+00
9.51000000000000e-08,6.00000000000000e-01,6.00000000000000e-01,-6.91388702644298e-05,0.00000000000000e+00
9.51100000000000e-08,5.40000000000061e-01,6.00000000000000e-01,2.91703406349306e-04,5.99999999999390e-02
9.51300000000000e-08,4.20000000000084e-01,6.00000000000000e-01,5.45372727197915e-04,1.79999999999916e-01
9.51700000000000e-08,1.80000000000129e-01,6.00000000000000e-01,4.55357845500617e-04,4.19999999999871e-01
9.52000000000000e-08,8.40438829641244e-14,6.00000000000000e-01,4.09524147348614e-04,5.99999999999916e-01
9.52080000000000e-08,0.00000000000000e+00,6.00000000000000e-01,3.53304640840171e-04,6.00000000000000e-01
9.52240000000000e-08,0.00000000000000e+00,6.00000000000000e-01,2.68993460427261e-04,6.00000000000000e-01
9.52560000000000e-08,0.00000000000000e+00,6.00000000000000e-01,1.51563594910142e-04,6.00000000000000e-01
9.53200000000000e-08,0.00000000000000e+00,6.00000000000000e-01,-5.59677838475478e-04,6.00000000000000e-01
9.54480000000000e-08,0.00000000000000e+00,6.00000000000000e-01,-1.21378823457476e-03,6.00000000000000e-01
9.57040000000000e-08,0.00000000000000e+00,6.00000000000000e-01,1.49462057122376e-04,6.00000000000000e-01
9.60941843015574e-08,0.00000000000000e+00,6.00000000000000e-01,-3.23279654033601e-05,6.00000000000000e-01
9.67494238046863e-08,0.00000000000000e+00,6.00000000000000e-01,-3.44466659658090e-05,6.00000000000000e-01
9.77491089737086e-08,0.00000000000000e+00,6.00000000000000e-01,1.09637224725597e-04,6.00000000000000e-01
9.91143782128192e-08,0.00000000000000e+00,6.00000000000000e-01,-1.03754235148719e-04,6.00000000000000e-01
1.01844916691040e-07,0.00000000000000e+00,6.00000000000000e-01,1.29743082965933e-04,6.00000000000000e-01
1.05000000000000e-07,0.00000000000000e+00,6.00000000000000e-01,-1.09661524300688e-04,6.00000000000000e-01
1.05010000000000e-07,5.99999999999886e-02,6.00000000000000e-01,6.47825766349197e-05,6.00000000000000e-01
1.05030000000000e-07,1.79999999999966e-01,6.00000000000000e-01,3.63078281461468e-04,6.00000000000000e-01
1.05070000000000e-07,4.19999999999920e-01,6.00000000000000e-01,7.12671187266305e-04,6.00000000000000e-01
1.05100000000000e-07,5.99999999999966e-01,6.00000000000000e-01,5.96428901664232e-04,6.00000000000000e-01
1.05108000000000e-07,6.00000000000000e-01,6.00000000000000e-01,3.49444956359690e-04,6.00000000000000e-01
1.05124000000000e-07,6.00000000000000e-01,6.00000000000000e-01,-2.51342733162851e-04,6.00000000000000e-01
1.05156000000000e-07,6.00000000000000e-01,6.00000000000000e-01,-1.72464399193191e-03,6.00000000000000e-01
1.05220000000000e-07,6.00000000000000e-01,6.00000000000000e-01,-4.21500855395883e-03,6.00000000000000e-01
1.05348000000000e-07,6.00000000000000e-01,6.00000000000000e-01,-3.00485978314158e-03,6.00000000000000e-01
1.05604000000000e-07,6.00000000000000e-01,6.00000000000000e-01,2.37026909460104e-01,6.00000000000000e-01
1.06116000000000e-07,6.00000000000000e-01,6.00000000000000e-01,6.04061010708640e-01,6.00000000000000e-01
1.06889855453715e-07,6.00000000000000e-01,6.00000000000000e-01,5.96386550168450e-01,6.00000000000000e-01
1.08110838848885e-07,6.00000000000000e-01,6.00000000000000e-01,6.03942086936550e-01,6.00000000000000e-01
1.09705233437906e-07,6.00000000000000e-01,6.00000000000000e-01,5.96264348472366e-01,6.00000000000000e-01
1.12171708462862e-07,6.00000000000000e-01,6.00000000000000e-01,6.03789882778746e-01,6.00000000000000e-01
1.15100000000000e-07,6.00000000000000e-01,6.00000000000000e-01,5.96318846665856e-01,6.00000000000000e-01
1.15110000000000e-07,5.40000000000061e-01,6.00000000000000e-01,5.97723628443603e-01,6.00000000000000e-01
1.15130000000000e-07,4.20000000000084e-01,6.00000000000000e-01,5.99423044276291e-01,6.00000000000000e-01
1.15170000000000e-07,1.80000000000129e-01,6.00000000000000e-01,6.00678007690746e-01,6.00000000000000e-01
1.15200000000000e-07,8.40438829641244e-14,6.00000000000000e-01,6.02680881272702e-01,6.00000000000000e-01
1.15208000000000e-07,0.00000000000000e+00,6.00000000000000e-01,6.03269805270191e-01,6.00000000000000e-01
1.15224000000000e-07,0.00000000000000e+00,6.00000000000000e-01,6.04006656358611e-01,6.00000000000000e-01
