Time,v(clk),v(data),v(out)
1.00000000000000e-08,5.25000000000000e-01,0.00000000000000e+00,-1.87227745040656e-05
1.00100000000000e-08,5.25000000000000e-01,5.24999999999987e-02,-1.13245852556912e-05
1.00300000000000e-08,5.25000000000000e-01,1.57499999999996e-01,-2.04132160420284e-06
1.00700000000000e-08,5.25000000000000e-01,3.67499999999991e-01,-9.77752896487438e-07
1.01000000000000e-08,5.25000000000000e-01,5.24999999999996e-01,-5.07727109579081e-06
1.01080000000000e-08,5.25000000000000e-01,5.25000000000000e-01,-5.99397972698285e-06
1.01240000000000e-08,5.25000000000000e-01,5.25000000000000e-01,-6.29798358570827e-06
1.01560000000000e-08,5.25000000000000e-01,5.25000000000000e-01,-2.14694567006457e-07
1.02200000000000e-08,5.25000000000000e-01,5.25000000000000e-01,6.00175285369459e-06
1.03480000000000e-08,5.25000000000000e-01,5.25000000000000e-01,3.79655497766834e-06
1.06040000000000e-08,5.25000000000000e-01,5.25000000000000e-01,4.49990270219580e-07
1.11076630479666e-08,5.25000000000000e-01,5.25000000000000e-01,2.68514412378636e-06
1.21149891438998e-08,5.25000000000000e-01,5.25000000000000e-01,1.04171360790217e-06
1.41296413357662e-08,5.25000000000000e-01,5.25000000000000e-01,2.42823646650616e-06
1.51000000000000e-08,5.25000000000000e-01,5.25000000000000e-01,8.63273319110652e-07
1.51100000000000e-08,4.72499999999993e-01,5.25000000000000e-01,-8.30516580565821e-05
1.51300000000000e-08,3.67499999999995e-01,5.25000000000000e-01,-2.07333314318617e-04
1.51700000000000e-08,1.57500000000000e-01,5.25000000000000e-01,-2.54453582580326e-04
1.52000000000000e-08,0.00000000000000e+00,5.25000000000000e-01,4.45299051818129e-05
1.52080000000000e-08,0.00000000000000e+00,5.25000000000000e-01,2.39554389204880e-04
1.52240000000000e-08,0.00000000000000e+00,5.25000000000000e-01,4.92186173813372e-04
1.52560000000000e-08,0.00000000000000e+00,5.25000000000000e-01,5.53582676100735e-04
1.53200000000000e-08,0.00000000000000e+00,5.25000000000000e-01,2.37037590232803e-04
1.54480000000000e-08,0.00000000000000e+00,5.25000000000000e-01,-2.82749146115403e-04
1.57040000000000e-08,0.00000000000000e+00,5.25000000000000e-01,-1.73213330227073e-05
1.62160000000000e-08,0.00000000000000e+00,5.25000000000000e-01,-6.49919505828350e-05
1.69208463770261e-08,0.00000000000000e+00,5.25000000000000e-01,4.41083835686241e-05
1.81329827677971e-08,0.00000000000000e+00,5.25000000000000e-01,3.46609277121230e-05
1.98979978257363e-08,0.00000000000000e+00,5.25000000000000e-01,-7.00476976936643e-05
2.30648862035881e-08,0.00000000000000e+00,5.25000000000000e-01,8.56662949236639e-05
2.50000000000000e-08,0.00000000000000e+00,5.25000000000000e-01,-1.04181073081407e-04
2.50100000000000e-08,5.24999999999900e-02,5.25000000000000e-01,7.09741926542204e-05
2.50300000000000e-08,1.57500000000005e-01,5.25000000000000e-01,3.59476724313620e-04
2.50700000000000e-08,3.67500000000000e-01,5.25000000000000e-01,6.34591837759518e-04
2.51000000000000e-08,5.25000000000000e-01,5.25000000000000e-01,5.81248929894890e-04
2.51080000000000e-08,5.25000000000000e-01,5.25000000000000e-01,4.30894182956297e-04
2.51240000000000e-08,5.25000000000000e-01,5.25000000000000e-01,2.19255853673647e-05
2.51560000000000e-08,5.25000000000000e-01,5.25000000000000e-01,-1.26229688712459e-03
2.52200000000000e-08,5.25000000000000e-01,5.25000000000000e-01,-3.72409958391657e-03
2.53480000000000e-08,5.25000000000000e-01,5.25000000000000e-01,-5.81257412112798e-03
2.56040000000000e-08,5.25000000000000e-01,5.25000000000000e-01,1.58553003541571e-01
2.61160000000000e-08,5.25000000000000e-01,5.25000000000000e-01,5.17774841982666e-01
2.71400000000000e-08,5.25000000000000e-01,5.25000000000000e-01,5.27100907959057e-01
2.83233856946929e-08,5.25000000000000e-01,5.25000000000000e-01,5.22881923694394e-01
3.01000000000000e-08,5.25000000000000e-01,5.25000000000000e-01,5.26552904572928e-01
3.01100000000000e-08,5.25000000000000e-01,4.72500000000027e-01,5.26192949332257e-01
3.01300000000000e-08,5.25000000000000e-01,3.67500000000012e-01,5.25652191116845e-01
3.01700000000000e-08,5.25000000000000e-01,1.57500000000018e-01,5.25273643744693e-01
3.02000000000000e-08,5.25000000000000e-01,1.26565424807268e-14,5.25236043332616e-01
3.02080000000000e-08,5.25000000000000e-01,0.00000000000000e+00,5.25224025703774e-01
3.02240000000000e-08,5.25000000000000e-01,0.00000000000000e+00,5.25198375170900e-01
3.02560000000000e-08,5.25000000000000e-01,0.00000000000000e+00,5.25148931910479e-01
3.03200000000000e-08,5.25000000000000e-01,0.00000000000000e+00,5.25053994455544e-01
3.04480000000000e-08,5.25000000000000e-01,0.00000000000000e+00,5.25004774200132e-01
3.07040000000000e-08,5.25000000000000e-01,0.00000000000000e+00,5.25008326616162e-01
3.11072868484334e-08,5.25000000000000e-01,0.00000000000000e+00,5.24975130214855e-01
3.18530881077470e-08,5.25000000000000e-01,0.00000000000000e+00,5.24997098148553e-01
3.28849505780752e-08,5.25000000000000e-01,0.00000000000000e+00,5.24983218377545e-01
3.49486755187316e-08,5.25000000000000e-01,0.00000000000000e+00,5.24995314669630e-01
3.51000000000000e-08,5.24999999999974e-01,0.00000000000000e+00,5.24992326855421e-01
3.51100000000000e-08,4.72499999999984e-01,0.00000000000000e+00,5.24902522935380e-01
3.51300000000000e-08,3.67499999999969e-01,0.00000000000000e+00,5.24803656105571e-01
3.51700000000000e-08,1.57499999999974e-01,0.00000000000000e+00,5.25138531405656e-01
3.52000000000000e-08,0.00000000000000e+00,0.00000000000000e+00,5.26798461467778e-01
3.52080000000000e-08,0.00000000000000e+00,0.00000000000000e+00,5.27345836838715e-01
3.52240000000000e-08,0.00000000000000e+00,0.00000000000000e+00,5.28097580147135e-01
3.52560000000000e-08,0.00000000000000e+00,0.00000000000000e+00,5.28480129744813e-01
3.53200000000000e-08,0.00000000000000e+00,0.00000000000000e+00,5.24445307869630e-01
3.54480000000000e-08,0.00000000000000e+00,0.00000000000000e+00,5.10795279446045e-01
3.57040000000000e-08,0.00000000000000e+00,0.00000000000000e+00,5.18768284653709e-01
3.61300579536404e-08,0.00000000000000e+00,0.00000000000000e+00,5.28122723237328e-01
3.67791474268515e-08,0.00000000000000e+00,0.00000000000000e+00,5.21785967734319e-01
3.78216472015803e-08,0.00000000000000e+00,0.00000000000000e+00,5.27347524957584e-01
3.91000000000000e-08,0.00000000000000e+00,0.00000000000000e+00,5.22605478909394e-01
3.92991850810863e-08,0.00000000000000e+00,0.00000000000000e+00,5.24539612983989e-01
3.96975552432588e-08,0.00000000000000e+00,0.00000000000000e+00,5.25139426400655e-01
4.04942955676038e-08,0.00000000000000e+00,0.00000000000000e+00,5.24705279382646e-01
4.20877762162939e-08,0.00000000000000e+00,0.00000000000000e+00,5.25115287851015e-01
4.50000000000000e-08,0.00000000000000e+00,0.00000000000000e+00,5.24768448428826e-01
4.50100000000000e-08,5.24999999999900e-02,0.00000000000000e+00,5.24896390477101e-01
4.50300000000000e-08,1.57500000000005e-01,0.00000000000000e+00,5.25059769029820e-01
4.50700000000000e-08,3.67500000000000e-01,0.00000000000000e+00,5.25062463994535e-01
4.51000000000000e-08,5.25000000000000e-01,0.00000000000000e+00,5.24922349335580e-01
4.51080000000000e-08,5.25000000000000e-01,0.00000000000000e+00,5.24840651038253e-01
4.51240000000000e-08,5.25000000000000e-01,0.00000000000000e+00,5.24728772797377e-01
4.51560000000000e-08,5.25000000000000e-01,0.00000000000000e+00,5.24687062294007e-01
4.52200000000000e-08,5.25000000000000e-01,0.00000000000000e+00,5.24734981983059e-01
4.53480000000000e-08,5.25000000000000e-01,0.00000000000000e+00,5.24951372206101e-01
4.56040000000000e-08,5.25000000000000e-01,0.00000000000000e+00,5.34845615743543e-01
4.61160000000000e-08,5.25000000000000e-01,0.00000000000000e+00,1.58792657565292e-01
4.69235393122445e-08,5.25000000000000e-01,0.00000000000000e+00,-6.04551766265307e-02
4.78292219300191e-08,5.25000000000000e-01,0.00000000000000e+00,5.70925434462563e-02
4.95655812424795e-08,5.25000000000000e-01,0.00000000000000e+00,-3.91370989545612e-02
5.00000000000000e-08,5.25000000000000e-01,0.00000000000000e+00,2.37721985685072e-02
5.00100000000000e-08,5.25000000000000e-01,5.24999999999900e-02,2.10542711471987e-02
5.00300000000000e-08,5.25000000000000e-01,1.57499999999970e-01,1.59941464905508e-02
5.00700000000000e-08,5.25000000000000e-01,3.67500000000000e-01,8.67974084881858e-03
5.01000000000000e-08,5.25000000000000e-01,5.25000000000000e-01,5.49165641252618e-03
5.01080000000000e-08,5.25000000000000e-01,5.25000000000000e-01,4.89457015924366e-03
5.01240000000000e-08,5.25000000000000e-01,5.25000000000000e-01,3.82566636006049e-03
5.01560000000000e-08,5.25000000000000e-01,5.25000000000000e-01,2.33708701660083e-03
5.02200000000000e-08,5.25000000000000e-01,5.25000000000000e-01,8.06619308395672e-04
5.03480000000000e-08,5.25000000000000e-01,5.25000000000000e-01,1.41257820130969e-05
5.06040000000000e-08,5.25000000000000e-01,5.25000000000000e-01,-6.11473061789755e-06
5.11160000000001e-08,5.25000000000000e-01,5.25000000000000e-01,2.75332016569547e-06
5.21400000000002e-08,5.25000000000000e-01,5.25000000000000e-01,-2.80155011878492e-06
5.41880000000003e-08,5.25000000000000e-01,5.25000000000000e-01,1.90026746589144e-06
5.51000000000000e-08,5.25000000000000e-01,5.25000000000000e-01,-1.72241526892776e-06
5.51100000000000e-08,4.72500000000019e-01,5.25000000000000e-01,-8.39083015056197e-05
5.51300000000000e-08,3.67500000000004e-01,5.25000000000000e-01,-2.02693001374959e-04
5.51700000000000e-08,1.57500000000009e-01,5.25000000000000e-01,-2.41147751031484e-04
5.52000000000000e-08,0.00000000000000e+00,5.25000000000000e-01,4.60512481182396e-05
5.52080000000000e-08,0.00000000000000e+00,5.25000000000000e-01,2.39389093775744e-04
5.52240000000000e-08,0.00000000000000e+00,5.25000000000000e-01,4.83081782102171e-04
5.52560000000000e-08,0.00000000000000e+00,5.25000000000000e-01,5.22519049111700e-04
5.53200000000000e-08,0.00000000000000e+00,5.25000000000000e-01,-2.36242891005628e-05
5.54480000000000e-08,0.00000000000000e+00,5.25000000000000e-01,-1.27597732546193e-03
5.57040000000000e-08,0.00000000000000e+00,5.25000000000000e-01,-5.89685614432560e-05
5.61483724317012e-08,0.00000000000000e+00,5.25000000000000e-01,6.41155786648105e-05
5.68794445012022e-08,0.00000000000000e+00,5.25000000000000e-01,-1.12182718126711e-04
5.79366875004798e-08,0.00000000000000e+00,5.25000000000000e-01,2.11454252260339e-04
5.96699843723797e-08,0.00000000000000e+00,5.25000000000000e-01,-2.49426457889374e-04
6.25544804651499e-08,0.00000000000000e+00,5.25000000000000e-01,2.63693554659660e-04
6.50000000000000e-08,0.00000000000000e+00,5.25000000000000e-01,-2.77741965577494e-04
6.50100000000000e-08,5.24999999999900e-02,5.25000000000000e-01,-4.44073810127107e-05
6.50300000000000e-08,1.57499999999970e-01,5.25000000000000e-01,3.15394076848538e-04
6.50700000000000e-08,3.67499999999930e-01,5.25000000000000e-01,6.30602113351336e-04
6.51000000000000e-08,5.24999999999970e-01,5.25000000000000e-01,6.00590854356500e-04
6.51080000000000e-08,5.25000000000000e-01,5.25000000000000e-01,4.67833128819081e-04
6.51240000000000e-08,5.25000000000000e-01,5.25000000000000e-01,1.11045709199231e-04
6.51560000000000e-08,5.25000000000000e-01,5.25000000000000e-01,-1.09587593497794e-03
6.52200000000000e-08,5.25000000000000e-01,5.25000000000000e-01,-3.60092469163014e-03
6.53480000000000e-08,5.25000000000000e-01,5.25000000000000e-01,-5.86954491463930e-03
6.56040000000000e-08,5.25000000000000e-01,5.25000000000000e-01,1.54547544862896e-01
6.61159999999999e-08,5.25000000000000e-01,5.25000000000000e-01,5.16697916918927e-01
6.71399999999999e-08,5.25000000000000e-01,5.25000000000000e-01,5.27577017440607e-01
6.83212386584063e-08,5.25000000000000e-01,5.25000000000000e-01,5.22353658313886e-01
7.01000000000000e-08,5.25000000000000e-01,5.25000000000000e-01,5.26951331870239e-01
7.01100000000000e-08,5.25000000000000e-01,4.72500000000010e-01,5.26438829327393e-01
7.01300000000000e-08,5.25000000000000e-01,3.67500000000030e-01,5.25705803208356e-01
7.01700000000000e-08,5.25000000000000e-01,1.57500000000070e-01,5.25267017511569e-01
7.02000000000000e-08,5.25000000000000e-01,2.99760216648792e-14,5.25235035198202e-01
7.02080000000000e-08,5.25000000000000e-01,0.00000000000000e+00,5.25223007827597e-01
7.02240000000000e-08,5.25000000000000e-01,0.00000000000000e+00,5.25197539271743e-01
7.02560000000000e-08,5.25000000000000e-01,0.00000000000000e+00,5.25147975317521e-01
7.03200000000000e-08,5.25000000000000e-01,0.00000000000000e+00,5.25046042225087e-01
7.04480000000000e-08,5.25000000000000e-01,0.00000000000000e+00,5.25005042714291e-01
7.07040000000000e-08,5.25000000000000e-01,0.00000000000000e+00,5.25007294642347e-01
7.11066138701384e-08,5.25000000000000e-01,0.00000000000000e+00,5.24975951097037e-01
7.18527338852882e-08,5.25000000000000e-01,0.00000000000000e+00,5.24996446181950e-01
7.28815236561326e-08,5.25000000000000e-01,0.00000000000000e+00,5.24983828143554e-01
7.49391031978214e-08,5.25000000000000e-01,0.00000000000000e+00,5.24994777913803e-01
7.51000000000000e-08,5.25000000000000e-01,0.00000000000000e+00,5.24992138024006e-01
7.51100000000000e-08,4.72500000000053e-01,0.00000000000000e+00,5.24901838456758e-01
7.51300000000000e-08,3.67500000000073e-01,0.00000000000000e+00,5.24802806659564e-01
7.51700000000000e-08,1.57500000000113e-01,0.00000000000000e+00,5.25138208878400e-01
7.52000000000000e-08,7.34967642301854e-14,0.00000000000000e+00,5.26798385478624e-01
7.52080000000000e-08,0.00000000000000e+00,0.00000000000000e+00,5.27345554266394e-01
7.52240000000000e-08,0.00000000000000e+00,0.00000000000000e+00,5.28097111414236e-01
7.52560000000000e-08,0.00000000000000e+00,0.00000000000000e+00,5.28480281878266e-01
7.53200000000000e-08,0.00000000000000e+00,0.00000000000000e+00,5.24449280643551e-01
7.54480000000000e-08,0.00000000000000e+00,0.00000000000000e+00,5.10800228200100e-01
7.57040000000000e-08,0.00000000000000e+00,0.00000000000000e+00,5.18767458403168e-01
7.61300601645695e-08,0.00000000000000e+00,0.00000000000000e+00,5.28123273725926e-01
7.67791493934438e-08,0.00000000000000e+00,0.00000000000000e+00,5.21785479197917e-01
7.78216545778055e-08,0.00000000000000e+00,0.00000000000000e+00,5.27347945773247e-01
7.81000000000000e-08,0.00000000000000e+00,0.00000000000000e+00,5.23319083599560e-01
7.82991840568758e-08,0.00000000000000e+00,0.00000000000000e+00,5.24617450442879e-01
7.86975521706272e-08,0.00000000000000e+00,0.00000000000000e+00,5.25034509009605e-01
7.94942883981302e-08,0.00000000000000e+00,0.00000000000000e+00,5.24753156516609e-01
8.10877608531361e-08,0.00000000000000e+00,0.00000000000000e+00,5.25043512034199e-01
8.42747057631479e-08,0.00000000000000e+00,0.00000000000000e+00,5.24823737515406e-01
8.50000000000000e-08,0.00000000000000e+00,0.00000000000000e+00,5.25044425590574e-01
8.50100000000000e-08,5.24999999999900e-02,0.00000000000000e+00,5.25113287480480e-01
8.50300000000000e-08,1.57499999999970e-01,0.00000000000000e+00,5.25178837656192e-01
8.50700000000000e-08,3.67499999999930e-01,0.00000000000000e+00,5.25091793039064e-01
8.51000000000000e-08,5.24999999999970e-01,0.00000000000000e+00,5.24933857184507e-01
8.51080000000000e-08,5.25000000000000e-01,0.00000000000000e+00,5.24849622665014e-01
8.51240000000000e-08,5.25000000000000e-01,0.00000000000000e+00,5.24734184478095e-01
8.51560000000000e-08,5.25000000000000e-01,0.00000000000000e+00,5.24689028931850e-01
8.52200000000000e-08,5.25000000000000e-01,0.00000000000000e+00,5.24737396567599e-01
8.53480000000000e-08,5.25000000000000e-01,0.00000000000000e+00,5.24952486849203e-01
8.56040000000000e-08,5.25000000000000e-01,0.00000000000000e+00,5.34829986167227e-01
8.61159999999999e-08,5.25000000000000e-01,0.00000000000000e+00,1.58819244035948e-01
8.69241008192738e-08,5.25000000000000e-01,0.00000000000000e+00,-6.04692290181824e-02
8.78296422729565e-08,5.25000000000000e-01,0.00000000000000e+00,5.71096784262093e-02
8.95668504682428e-08,5.25000000000000e-01,0.00000000000000e+00,-3.91465910665795e-02
9.00000000000000e-08,5.25000000000000e-01,0.00000000000000e+00,2.37312328244894e-02
9.00100000000000e-08,5.25000000000000e-01,5.24999999999900e-02,2.10190270503895e-02
9.00300000000000e-08,5.25000000000000e-01,1.57499999999970e-01,1.59682528076256e-02
9.00700000000000e-08,5.25000000000000e-01,3.67499999999930e-01,8.66565748082986e-03
9.01000000000000e-08,5.25000000000000e-01,5.24999999999970e-01,5.48270818768201e-03
9.01080000000000e-08,5.25000000000000e-01,5.25000000000000e-01,4.88657798633706e-03
9.01240000000000e-08,5.25000000000000e-01,5.25000000000000e-01,3.81939701797099e-03
9.01560000000000e-08,5.25000000000000e-01,5.25000000000000e-01,2.33324526040184e-03
9.02200000000000e-08,5.25000000000000e-01,5.25000000000000e-01,8.05290548860971e-04
9.03480000000000e-08,5.25000000000000e-01,5.25000000000000e-01,1.41077555107089e-05
9.06040000000000e-08,5.25000000000000e-01,5.25000000000000e-01,-6.10943657451679e-06
9.11159999999999e-08,5.25000000000000e-01,5.25000000000000e-01,2.75426712714397e-06
9.21399999999999e-08,5.25000000000000e-01,5.25000000000000e-01,-2.80070600480048e-06
9.41879999999998e-08,5.25000000000000e-01,5.25000000000000e-01,1.90164519619541e-06
9.51000000000000e-08,5.25000000000000e-01,5.25000000000000e-01,-1.72245813812900e-06
9.51100000000000e-08,4.72500000000053e-01,5.25000000000000e-01,-8.39093725584494e-05
9.51300000000000e-08,3.67500000000073e-01,5.25000000000000e-01,-2.02695268055532e-04
9.51700000000000e-08,1.57500000000113e-01,5.25000000000000e-01,-2.41152843522462e-04
9.52000000000000e-08,7.34967642301854e-14,5.25000000000000e-01,4.60460379484717e-05
9.52080000000000e-08,0.00000000000000e+00,5.25000000000000e-01,2.39384828829986e-04
9.52240000000000e-08,0.00000000000000e+00,5.25000000000000e-01,4.83080111587889e-04
9.52560000000000e-08,0.00000000000000e+00,5.25000000000000e-01,5.22532450360998e-04
9.53200000000000e-08,0.00000000000000e+00,5.25000000000000e-01,-2.34897741381440e-05
9.54480000000000e-08,0.00000000000000e+00,5.25000000000000e-01,-1.27530914251252e-03
9.57040000000000e-08,0.00000000000000e+00,5.25000000000000e-01,-5.88743420768395e-05
9.61485100286470e-08,0.00000000000000e+00,5.25000000000000e-01,6.39949093991302e-05
9.68795217691724e-08,0.00000000000000e+00,5.25000000000000e-01,-1.12052129858712e-04
9.79370620712783e-08,0.00000000000000e+00,5.25000000000000e-01,2.11290251457712e-04
9.96704039515860e-08,0.00000000000000e+00,5.25000000000000e-01,-2.49263248132365e-04
1.02555453685704e-07,0.00000000000000e+00,5.25000000000000e-01,2.63532834220527e-04
1.05000000000000e-07,0.00000000000000e+00,5.25000000000000e-01,-2.77589124514708e-04
1.05010000000000e-07,5.24999999999900e-02,5.25000000000000e-01,-4.42975519532388e-05
1.05030000000000e-07,1.57499999999970e-01,5.25000000000000e-01,3.15453068036667e-04
1.05070000000000e-07,3.67499999999930e-01,5.25000000000000e-01,6.30628285474069e-04
1.05100000000000e-07,5.24999999999970e-01,5.25000000000000e-01,6.00570189255585e-04
1.05108000000000e-07,5.25000000000000e-01,5.25000000000000e-01,4.67764668256827e-04
1.05124000000000e-07,5.25000000000000e-01,5.25000000000000e-01,1.10821073037067e-04
1.05156000000000e-07,5.25000000000000e-01,5.25000000000000e-01,-1.09635543994483e-03
1.05220000000000e-07,5.25000000000000e-01,5.25000000000000e-01,-3.60130355440676e-03
1.05348000000000e-07,5.25000000000000e-01,5.25000000000000e-01,-5.86937979443129e-03
1.05604000000000e-07,5.25000000000000e-01,5.25000000000000e-01,1.54559979067533e-01
1.06116000000000e-07,5.25000000000000e-01,5.25000000000000e-01,5.16701281729136e-01
1.07140000000000e-07,5.25000000000000e-01,5.25000000000000e-01,5.27575561900041e-01
1.08321245153622e-07,5.25000000000000e-01,5.25000000000000e-01,5.22355306643131e-01
1.10100000000000e-07,5.25000000000000e-01,5.25000000000000e-01,5.26950014674599e-01
1.10110000000000e-07,5.25000000000000e-01,4.72500000000079e-01,5.26438022331484e-01
1.10130000000000e-07,5.25000000000000e-01,3.67500000000099e-01,5.25705623532707e-01
1.10170000000000e-07,5.25000000000000e-01,1.57500000000139e-01,5.25267038423054e-01
1.10200000000000e-07,5.25000000000000e-01,9.95870053088765e-14,5.25235038105469e-01
1.10208000000000e-07,5.25000000000000e-01,0.00000000000000e+00,5.25223011625820e-01
