Time,v(clk),v(data),v(out)
1.00000000000000e-08,6.00000000000000e-01,0.00000000000000e+00,-1.22688004798241e-06
1.00100000000000e-08,6.00000000000000e-01,5.99999999999985e-02,3.81275599781183e-06
1.00300000000000e-08,6.00000000000000e-01,1.79999999999996e-01,8.33684535751777e-06
1.00700000000000e-08,6.00000000000000e-01,4.19999999999990e-01,7.09309126241398e-06
1.01000000000000e-08,6.00000000000000e-01,5.99999999999995e-01,3.55480154810850e-06
1.01080000000000e-08,6.00000000000000e-01,6.00000000000000e-01,2.96683948997067e-06
1.01240000000000e-08,6.00000000000000e-01,6.00000000000000e-01,3.11859998083919e-06
1.01560000000000e-08,6.00000000000000e-01,6.00000000000000e-01,5.22919083600221e-06
1.02200000000000e-08,6.00000000000000e-01,6.00000000000000e-01,7.57174431235963e-06
1.03480000000000e-08,6.00000000000000e-01,6.00000000000000e-01,4.64255930046273e-06
1.06040000000000e-08,6.00000000000000e-01,6.00000000000000e-01,2.47368078183652e-06
1.11035244486488e-08,6.00000000000000e-01,6.00000000000000e-01,4.17589058609481e-06
1.21025733459463e-08,6.00000000000000e-01,6.00000000000000e-01,2.57097648588209e-06
1.41006711405415e-08,6.00000000000000e-01,6.00000000000000e-01,3.52089308824867e-06
1.51000000000000e-08,6.00000000000000e-01,6.00000000000000e-01,2.28273422831805e-06
1.51100000000000e-08,5.39999999999991e-01,6.00000000000000e-01,-5.65288963368035e-05
1.51300000000000e-08,4.19999999999994e-01,6.00000000000000e-01,-1.48909136309841e-04
1.51700000000000e-08,1.80000000000000e-01,6.00000000000000e-01,-1.69761203888209e-04
1.52000000000000e-08,0.00000000000000e+00,6.00000000000000e-01,4.46092132146136e-05
1.52080000000000e-08,0.00000000000000e+00,6.00000000000000e-01,1.75706651459259e-04
1.52240000000000e-08,0.00000000000000e+00,6.00000000000000e-01,3.47147470499909e-04
1.52560000000000e-08,0.00000000000000e+00,6.00000000000000e-01,3.79787543435602e-04
1.53200000000000e-08,0.00000000000000e+00,6.00000000000000e-01,1.15442672282078e-04
1.54480000000000e-08,0.00000000000000e+00,6.00000000000000e-01,-2.36664566162972e-04
1.57040000000000e-08,0.00000000000000e+00,6.00000000000000e-01,-2.23028058392895e-05
1.62160000000000e-08,0.00000000000000e+00,6.00000000000000e-01,-9.42770753112419e-05
1.68703138979100e-08,0.00000000000000e+00,6.00000000000000e-01,1.48773927463363e-04
1.81789416937300e-08,0.00000000000000e+00,6.00000000000000e-01,-9.71431729996329e-05
1.96488575893494e-08,0.00000000000000e+00,6.00000000000000e-01,6.67603153770239e-05
2.25886893805881e-08,0.00000000000000e+00,6.00000000000000e-01,-4.95788186513401e-05
2.50000000000000e-08,0.00000000000000e+00,6.00000000000000e-01,3.78421085231589e-05
2.50100000000000e-08,5.99999999999886e-02,6.00000000000000e-01,1.50358494592676e-04
2.50300000000000e-08,1.80000000000006e-01,6.00000000000000e-01,3.27931787619071e-04
2.50700000000000e-08,4.20000000000000e-01,6.00000000000000e-01,4.72673367842520e-04
2.51000000000000e-08,6.00000000000000e-01,6.00000000000000e-01,2.20874550163272e-04
2.51080000000000e-08,6.00000000000000e-01,6.00000000000000e-01,-5.26872774141707e-05
2.51240000000000e-08,6.00000000000000e-01,6.00000000000000e-01,-7.57265058848773e-04
2.51560000000000e-08,6.00000000000000e-01,6.00000000000000e-01,-2.45478528029813e-03
2.52200000000000e-08,6.00000000000000e-01,6.00000000000000e-01,-4.87708435384944e-03
2.53480000000000e-08,6.00000000000000e-01,6.00000000000000e-01,1.33854423698988e-02
2.56040000000000e-08,6.00000000000000e-01,6.00000000000000e-01,3.85446701956657e-01
2.61160000000000e-08,6.00000000000000e-01,6.00000000000000e-01,6.25889109525293e-01
2.67309817345559e-08,6.00000000000000e-01,6.00000000000000e-01,5.78404747298685e-01
2.79609452036678e-08,6.00000000000000e-01,6.00000000000000e-01,6.20421914056954e-01
2.95608563313456e-08,6.00000000000000e-01,6.00000000000000e-01,5.80144918557084e-01
3.01000000000000e-08,6.00000000000000e-01,6.00000000000000e-01,6.16849996150077e-01
3.01100000000000e-08,6.00000000000000e-01,5.40000000000031e-01,6.10836920238282e-01
3.01300000000000e-08,6.00000000000000e-01,4.20000000000014e-01,6.03105799521158e-01
3.01700000000000e-08,6.00000000000000e-01,1.80000000000020e-01,5.99775084927643e-01
3.02000000000000e-08,6.00000000000000e-01,1.44328993201270e-14,5.99946734257212e-01
3.02080000000000e-08,6.00000000000000e-01,0.00000000000000e+00,5.99935241204113e-01
3.02240000000000e-08,6.00000000000000e-01,0.00000000000000e+00,5.99915215426604e-01
3.02560000000000e-08,6.00000000000000e-01,0.00000000000000e+00,5.99931730846238e-01
3.03200000000000e-08,6.00000000000000e-01,0.00000000000000e+00,5.99937214760401e-01
3.04480000000000e-08,6.00000000000000e-01,0.00000000000000e+00,5.99955334061672e-01
3.07040000000000e-08,6.00000000000000e-01,0.00000000000000e+00,5.99981779549058e-01
3.10822270000384e-08,6.00000000000000e-01,0.00000000000000e+00,5.99955754467446e-01
3.17918185441234e-08,6.00000000000000e-01,0.00000000000000e+00,5.99977119698789e-01
3.27705717726043e-08,6.00000000000000e-01,0.00000000000000e+00,5.99966738964967e-01
3.47280782295663e-08,6.00000000000000e-01,0.00000000000000e+00,5.99980662110207e-01
3.51000000000000e-08,5.99999999999970e-01,0.00000000000000e+00,5.99975419670195e-01
3.51100000000000e-08,5.39999999999982e-01,0.00000000000000e+00,5.99909171544100e-01
3.51300000000000e-08,4.19999999999965e-01,0.00000000000000e+00,5.99836319655690e-01
3.51700000000000e-08,1.79999999999970e-01,0.00000000000000e+00,6.00292747451818e-01
3.52000000000000e-08,0.00000000000000e+00,0.00000000000000e+00,6.01747966575005e-01
3.52080000000000e-08,0.00000000000000e+00,0.00000000000000e+00,6.02165256314358e-01
3.52240000000000e-08,0.00000000000000e+00,0.00000000000000e+00,6.02697623738951e-01
3.52560000000000e-08,0.00000000000000e+00,0.00000000000000e+00,6.02438721531001e-01
3.53200000000000e-08,0.00000000000000e+00,0.00000000000000e+00,5.94988851203584e-01
3.54480000000000e-08,0.00000000000000e+00,0.00000000000000e+00,5.77964272041750e-01
3.57040000000000e-08,0.00000000000000e+00,0.00000000000000e+00,5.92272264868496e-01
3.60863846836963e-08,0.00000000000000e+00,0.00000000000000e+00,6.03245223829575e-01
3.67549531335347e-08,0.00000000000000e+00,0.00000000000000e+00,5.96436026922279e-01
3.75636527541463e-08,0.00000000000000e+00,0.00000000000000e+00,6.02284715895926e-01
3.91000000000000e-08,0.00000000000000e+00,0.00000000000000e+00,5.97504348121417e-01
3.92617399241223e-08,0.00000000000000e+00,0.00000000000000e+00,5.99377666293809e-01
3.95852197723670e-08,0.00000000000000e+00,0.00000000000000e+00,6.00122166327100e-01
4.02321794688562e-08,0.00000000000000e+00,0.00000000000000e+00,5.99637760200623e-01
4.15260988618348e-08,0.00000000000000e+00,0.00000000000000e+00,6.00077258925788e-01
4.41139376477918e-08,0.00000000000000e+00,0.00000000000000e+00,5.99721881455623e-01
4.50000000000000e-08,0.00000000000000e+00,0.00000000000000e+00,6.00067100942263e-01
4.50100000000000e-08,5.99999999999886e-02,0.00000000000000e+00,6.00101058521861e-01
4.50300000000000e-08,1.80000000000006e-01,0.00000000000000e+00,6.00123998952688e-01
4.50700000000000e-08,4.20000000000000e-01,0.00000000000000e+00,6.00034364384408e-01
4.51000000000000e-08,6.00000000000000e-01,0.00000000000000e+00,5.99884317596632e-01
4.51080000000000e-08,6.00000000000000e-01,0.00000000000000e+00,5.99821971879708e-01
4.51240000000000e-08,6.00000000000000e-01,0.00000000000000e+00,5.99736115284541e-01
4.51560000000000e-08,6.00000000000000e-01,0.00000000000000e+00,5.99667895877217e-01
4.52200000000000e-08,6.00000000000000e-01,0.00000000000000e+00,5.99720092979679e-01
4.53480000000000e-08,6.00000000000000e-01,0.00000000000000e+00,6.00974179017308e-01
4.56040000000000e-08,6.00000000000000e-01,0.00000000000000e+00,6.08720549904511e-01
4.61160000000000e-08,6.00000000000000e-01,0.00000000000000e+00,1.07493571142098e-01
4.66854480563984e-08,6.00000000000000e-01,0.00000000000000e+00,-5.54725420809888e-02
4.77152291653512e-08,6.00000000000000e-01,0.00000000000000e+00,5.04487022338488e-02
4.90264374077869e-08,6.00000000000000e-01,0.00000000000000e+00,-3.83082159777996e-02
5.00000000000000e-08,6.00000000000000e-01,0.00000000000000e+00,3.31656067450219e-02
5.00100000000000e-08,6.00000000000000e-01,5.99999999999886e-02,2.72724219677973e-02
5.00300000000000e-08,6.00000000000000e-01,1.79999999999966e-01,1.83129138475519e-02
5.00700000000000e-08,6.00000000000000e-01,4.20000000000000e-01,8.85907098797948e-03
5.01000000000000e-08,6.00000000000000e-01,6.00000000000000e-01,5.16038973707723e-03
5.01080000000000e-08,6.00000000000000e-01,6.00000000000000e-01,4.53792041461607e-03
5.01240000000000e-08,6.00000000000000e-01,6.00000000000000e-01,3.42329828037791e-03
5.01560000000000e-08,6.00000000000000e-01,6.00000000000000e-01,1.94048147447588e-03
5.02200000000000e-08,6.00000000000000e-01,6.00000000000000e-01,5.59835488646618e-04
5.03480000000000e-08,6.00000000000000e-01,6.00000000000000e-01,-2.79203107134973e-05
5.06040000000000e-08,6.00000000000000e-01,6.00000000000000e-01,8.96252523970020e-06
5.11160000000001e-08,6.00000000000000e-01,6.00000000000000e-01,-7.43892127052712e-06
5.21400000000002e-08,6.00000000000000e-01,6.00000000000000e-01,4.52392619786426e-06
5.41880000000003e-08,6.00000000000000e-01,6.00000000000000e-01,-5.49965893758848e-06
5.51000000000000e-08,6.00000000000000e-01,6.00000000000000e-01,3.03571850656346e-06
5.51100000000000e-08,5.40000000000021e-01,6.00000000000000e-01,-5.62844096313950e-05
5.51300000000000e-08,4.20000000000004e-01,6.00000000000000e-01,-1.48439186432286e-04
5.51700000000000e-08,1.80000000000010e-01,6.00000000000000e-01,-1.63728259633102e-04
5.52000000000000e-08,0.00000000000000e+00,6.00000000000000e-01,4.79008006966791e-05
5.52080000000000e-08,0.00000000000000e+00,6.00000000000000e-01,1.76707988232362e-04
5.52240000000000e-08,0.00000000000000e+00,6.00000000000000e-01,3.35331100395346e-04
5.52560000000000e-08,0.00000000000000e+00,6.00000000000000e-01,3.20610334192013e-04
5.53200000000000e-08,0.00000000000000e+00,6.00000000000000e-01,-3.95806242465137e-04
5.54480000000000e-08,0.00000000000000e+00,6.00000000000000e-01,-1.73595260267854e-03
5.57040000000000e-08,0.00000000000000e+00,6.00000000000000e-01,7.84707925880965e-06
5.60756032185298e-08,0.00000000000000e+00,6.00000000000000e-01,2.78184423604336e-05
5.67905979667680e-08,0.00000000000000e+00,6.00000000000000e-01,-3.25244351071473e-05
5.77167176201305e-08,0.00000000000000e+00,6.00000000000000e-01,1.48132345502038e-04
5.91392245109021e-08,0.00000000000000e+00,6.00000000000000e-01,-1.92273275075110e-04
6.18576656170235e-08,0.00000000000000e+00,6.00000000000000e-01,2.12231739818424e-04
6.50000000000000e-08,0.00000000000000e+00,6.00000000000000e-01,-2.22859611268487e-04
6.50100000000000e-08,5.99999999999886e-02,6.00000000000000e-01,-1.14080751916629e-05
6.50300000000000e-08,1.79999999999966e-01,6.00000000000000e-01,2.81873456581941e-04
6.50700000000000e-08,4.19999999999920e-01,6.00000000000000e-01,4.85118607497600e-04
6.51000000000000e-08,5.99999999999966e-01,6.00000000000000e-01,3.62659917313060e-04
6.51080000000000e-08,6.00000000000000e-01,6.00000000000000e-01,1.79705220103139e-04
6.51240000000000e-08,6.00000000000000e-01,6.00000000000000e-01,-3.67659784438028e-04
6.51560000000000e-08,6.00000000000000e-01,6.00000000000000e-01,-1.98888508090975e-03
6.52200000000000e-08,6.00000000000000e-01,6.00000000000000e-01,-4.65801416517241e-03
6.53480000000000e-08,6.00000000000000e-01,6.00000000000000e-01,9.21537734915870e-03
6.56040000000000e-08,6.00000000000000e-01,6.00000000000000e-01,3.70995350203344e-01
6.61159999999999e-08,6.00000000000000e-01,6.00000000000000e-01,6.25060273255468e-01
6.67401053975610e-08,6.00000000000000e-01,6.00000000000000e-01,5.79432444368617e-01
6.79883161926831e-08,6.00000000000000e-01,6.00000000000000e-01,6.19687624251553e-01
6.95757848915349e-08,6.00000000000000e-01,6.00000000000000e-01,5.81012962111458e-01
7.01000000000000e-08,6.00000000000000e-01,6.00000000000000e-01,6.16168675216995e-01
7.01100000000000e-08,6.00000000000000e-01,5.40000000000011e-01,6.10396080121445e-01
7.01300000000000e-08,6.00000000000000e-01,4.20000000000034e-01,6.02969987600809e-01
7.01700000000000e-08,6.00000000000000e-01,1.80000000000080e-01,5.99777417555226e-01
7.02000000000000e-08,6.00000000000000e-01,3.44169137633799e-14,5.99940536990579e-01
7.02080000000000e-08,6.00000000000000e-01,0.00000000000000e+00,5.99930046669094e-01
7.02240000000000e-08,6.00000000000000e-01,0.00000000000000e+00,5.99911578483938e-01
7.02560000000000e-08,6.00000000000000e-01,0.00000000000000e+00,5.99929691930352e-01
7.03200000000000e-08,6.00000000000000e-01,0.00000000000000e+00,5.99935988292109e-01
7.04480000000000e-08,6.00000000000000e-01,0.00000000000000e+00,5.99954675025098e-01
7.07040000000000e-08,6.00000000000000e-01,0.00000000000000e+00,5.99981712510181e-01
7.10803157074046e-08,6.00000000000000e-01,0.00000000000000e+00,5.99955640726243e-01
7.17909994530816e-08,6.00000000000000e-01,0.00000000000000e+00,5.99977019581299e-01
7.27610583526939e-08,6.00000000000000e-01,0.00000000000000e+00,5.99966678827247e-01
7.47011761519185e-08,6.00000000000000e-01,0.00000000000000e+00,5.99980539464526e-01
7.51000000000000e-08,6.00000000000000e-01,0.00000000000000e+00,5.99975198362939e-01
7.51100000000000e-08,5.40000000000061e-01,0.00000000000000e+00,5.99908841270595e-01
7.51300000000000e-08,4.20000000000084e-01,0.00000000000000e+00,5.99836161430966e-01
7.51700000000000e-08,1.80000000000129e-01,0.00000000000000e+00,6.00292688261453e-01
7.52000000000000e-08,8.40438829641244e-14,0.00000000000000e+00,6.01747862269796e-01
7.52080000000000e-08,0.00000000000000e+00,0.00000000000000e+00,6.02165109630939e-01
7.52240000000000e-08,0.00000000000000e+00,0.00000000000000e+00,6.02697310731539e-01
7.52560000000000e-08,0.00000000000000e+00,0.00000000000000e+00,6.02437192164469e-01
7.53200000000000e-08,0.00000000000000e+00,0.00000000000000e+00,5.94982443576370e-01
7.54480000000000e-08,0.00000000000000e+00,0.00000000000000e+00,5.77959518923225e-01
7.57040000000000e-08,0.00000000000000e+00,0.00000000000000e+00,5.92274945585009e-01
7.60863875223741e-08,0.00000000000000e+00,0.00000000000000e+00,6.03243335369572e-01
7.67549543793984e-08,0.00000000000000e+00,0.00000000000000e+00,5.96437546464600e-01
7.75636587152011e-08,0.00000000000000e+00,0.00000000000000e+00,6.02283450455216e-01
7.81000000000000e-08,0.00000000000000e+00,0.00000000000000e+00,5.97848648361614e-01
7.82617408671605e-08,0.00000000000000e+00,0.00000000000000e+00,5.99405114588601e-01
7.85852226014816e-08,0.00000000000000e+00,0.00000000000000e+00,6.00034631587855e-01
7.92321860701237e-08,0.00000000000000e+00,0.00000000000000e+00,5.99647148173092e-01
8.05261130074079e-08,0.00000000000000e+00,0.00000000000000e+00,6.00024838871138e-01
8.31139668819763e-08,0.00000000000000e+00,0.00000000000000e+00,5.99748151733137e-01
8.50000000000000e-08,0.00000000000000e+00,0.00000000000000e+00,6.00050354483780e-01
8.50100000000000e-08,5.99999999999886e-02,0.00000000000000e+00,6.00084806247969e-01
8.50300000000000e-08,1.79999999999966e-01,0.00000000000000e+00,6.00109970432964e-01
8.50700000000000e-08,4.19999999999920e-01,0.00000000000000e+00,6.00028406895911e-01
8.51000000000000e-08,5.99999999999966e-01,0.00000000000000e+00,5.99881963625936e-01
8.51080000000000e-08,6.00000000000000e-01,0.00000000000000e+00,5.99818841536944e-01
8.51240000000000e-08,6.00000000000000e-01,0.00000000000000e+00,5.99732267108520e-01
8.51560000000000e-08,6.00000000000000e-01,0.00000000000000e+00,5.99692466253548e-01
8.52200000000000e-08,6.00000000000000e-01,0.00000000000000e+00,5.99717995018999e-01
8.53480000000000e-08,6.00000000000000e-01,0.00000000000000e+00,6.00984164619564e-01
8.56040000000000e-08,6.00000000000000e-01,0.00000000000000e+00,6.08625314630571e-01
8.61159999999999e-08,6.00000000000000e-01,0.00000000000000e+00,1.07401440895524e-01
8.66856346137635e-08,6.00000000000000e-01,0.00000000000000e+00,-5.54573291213570e-02
8.77156536356566e-08,6.00000000000000e-01,0.00000000000000e+00,5.04323168855744e-02
8.90283919300965e-08,6.00000000000000e-01,0.00000000000000e+00,-3.83085865772409e-02
9.00000000000000e-08,6.00000000000000e-01,0.00000000000000e+00,3.31495555878233e-02
9.00100000000000e-08,6.00000000000000e-01,5.99999999999886e-02,2.72569849742050e-02
9.00300000000000e-08,6.00000000000000e-01,1.79999999999966e-01,1.82996713895195e-02
9.00700000000000e-08,6.00000000000000e-01,4.19999999999920e-01,8.84953376964636e-03
9.01000000000000e-08,6.00000000000000e-01,5.99999999999966e-01,5.15477966428263e-03
9.01080000000000e-08,6.00000000000000e-01,6.00000000000000e-01,4.53297997068543e-03
9.01240000000000e-08,6.00000000000000e-01,6.00000000000000e-01,3.41956048235664e-03
9.01560000000000e-08,6.00000000000000e-01,6.00000000000000e-01,1.93836058188021e-03
9.02200000000000e-08,6.00000000000000e-01,6.00000000000000e-01,5.59232796056859e-04
9.03480000000000e-08,6.00000000000000e-01,6.00000000000000e-01,-2.78796319963491e-05
9.06040000000000e-08,6.00000000000000e-01,6.00000000000000e-01,8.96109388403080e-06
9.11159999999999e-08,6.00000000000000e-01,6.00000000000000e-01,-7.42031728732072e-06
9.21399999999999e-08,6.00000000000000e-01,6.00000000000000e-01,4.52701459805697e-06
9.41879999999998e-08,6.00000000000000e-01,6.00000000000000e-01,-5.48413938901730e-06
9.51000000000000e-08,6.00000000000000e-01,6.00000000000000e-01,3.04000032731559e-06
9.51100000000000e-08,5.40000000000061e-01,6.00000000000000e-01,-5.62793781217971e-05
9.51300000000000e-08,4.20000000000084e-01,6.00000000000000e-01,-1.48432996378338e-04
9.51700000000000e-08,1.80000000000129e-01,6.00000000000000e-01,-1.63720224584059e-04
9.52000000000000e-08,8.40438829641244e-14,6.00000000000000e-01,4.79162669237213e-05
9.52080000000000e-08,0.00000000000000e+00,6.00000000000000e-01,1.76729490119813e-04
9.52240000000000e-08,0.00000000000000e+00,6.00000000000000e-01,3.35379617963733e-04
9.52560000000000e-08,0.00000000000000e+00,6.00000000000000e-01,3.20816377943046e-04
9.53200000000000e-08,0.00000000000000e+00,6.00000000000000e-01,-3.94854903643986e-04
9.54480000000000e-08,0.00000000000000e+00,6.00000000000000e-01,-1.73285930653056e-03
9.57040000000000e-08,0.00000000000000e+00,6.00000000000000e-01,8.06981003690851e-06
9.60759468401414e-08,0.00000000000000e+00,6.00000000000000e-01,2.74705638603351e-05
9.67907464153914e-08,0.00000000000000e+00,6.00000000000000e-01,-3.21266028596905e-05
9.77183500513278e-08,0.00000000000000e+00,6.00000000000000e-01,1.47462533448418e-04
9.91406449927946e-08,0.00000000000000e+00,6.00000000000000e-01,-1.91622934674892e-04
1.01861997181669e-07,0.00000000000000e+00,6.00000000000000e-01,2.11579379548312e-04
1.05000000000000e-07,0.00000000000000e+00,6.00000000000000e-01,-2.22233787496342e-04
1.05010000000000e-07,5.99999999999886e-02,6.00000000000000e-01,-1.09915299375471e-05
1.05030000000000e-07,1.79999999999966e-01,6.00000000000000e-01,2.82075922892325e-04
1.05070000000000e-07,4.19999999999920e-01,6.00000000000000e-01,4.85195517444838e-04
1.05100000000000e-07,5.99999999999966e-01,6.00000000000000e-01,3.62391369093211e-04
1.05108000000000e-07,6.00000000000000e-01,6.00000000000000e-01,1.79132234966899e-04
1.05124000000000e-07,6.00000000000000e-01,6.00000000000000e-01,-3.68869113779834e-04
1.05156000000000e-07,6.00000000000000e-01,6.00000000000000e-01,-1.99057593467076e-03
1.05220000000000e-07,6.00000000000000e-01,6.00000000000000e-01,-4.65887822595932e-03
1.05348000000000e-07,6.00000000000000e-01,6.00000000000000e-01,9.22958456053059e-03
1.05604000000000e-07,6.00000000000000e-01,6.00000000000000e-01,3.71048451757658e-01
1.06116000000000e-07,6.00000000000000e-01,6.00000000000000e-01,6.25063687674959e-01
1.06740068785467e-07,6.00000000000000e-01,6.00000000000000e-01,5.79428357694160e-01
1.07988206356402e-07,6.00000000000000e-01,6.00000000000000e-01,6.19690627905960e-01
1.09575714441344e-07,6.00000000000000e-01,6.00000000000000e-01,5.81009488194502e-01
1.10100000000000e-07,6.00000000000000e-01,6.00000000000000e-01,6.16171485689407e-01
1.10110000000000e-07,6.00000000000000e-01,5.40000000000091e-01,6.10397899336314e-01
