Time,v(clk),v(data),v(out)
1.00000000000000e-08,7.50000000000000e-01,0.00000000000000e+00,1.70119850108185e-05
1.00100000000000e-08,7.50000000000000e-01,7.49999999999982e-02,1.46724579768165e-05
1.00300000000000e-08,7.50000000000000e-01,2.24999999999995e-01,1.19710621857144e-05
1.00700000000000e-08,7.50000000000000e-01,5.24999999999987e-01,8.36409473913002e-06
1.01000000000000e-08,7.50000000000000e-01,7.49999999999994e-01,8.13017479186356e-06
1.01080000000000e-08,7.50000000000000e-01,7.50000000000000e-01,8.76258702709604e-06
1.01240000000000e-08,7.50000000000000e-01,7.50000000000000e-01,1.05795576240408e-05
1.01560000000000e-08,7.50000000000000e-01,7.50000000000000e-01,1.32087576687687e-05
1.02200000000000e-08,7.50000000000000e-01,7.50000000000000e-01,1.34989112023504e-05
1.03480000000000e-08,7.50000000000000e-01,7.50000000000000e-01,1.15789002181413e-05
1.06040000000000e-08,7.50000000000000e-01,7.50000000000000e-01,1.04596187266819e-05
1.11160000000000e-08,7.50000000000000e-01,7.50000000000000e-01,1.21598825381167e-05
1.21400000000000e-08,7.50000000000000e-01,7.50000000000000e-01,1.03195530549794e-05
1.41880000000000e-08,7.50000000000000e-01,7.50000000000000e-01,1.12164028328830e-05
1.51000000000000e-08,7.50000000000000e-01,7.50000000000000e-01,9.88989360303262e-06
1.51100000000000e-08,6.74999999999989e-01,7.50000000000000e-01,-5.22337394867067e-05
1.51300000000000e-08,5.24999999999993e-01,7.50000000000000e-01,-1.34810170011504e-04
1.51700000000000e-08,2.25000000000000e-01,7.50000000000000e-01,-1.36135878256449e-05
1.52000000000000e-08,0.00000000000000e+00,7.50000000000000e-01,2.62332567399347e-04
1.52080000000000e-08,0.00000000000000e+00,7.50000000000000e-01,3.52799678030417e-04
1.52240000000000e-08,0.00000000000000e+00,7.50000000000000e-01,3.82674344448879e-04
1.52560000000000e-08,0.00000000000000e+00,7.50000000000000e-01,3.89522501817591e-05
1.53200000000000e-08,0.00000000000000e+00,7.50000000000000e-01,-3.86454727811410e-04
1.54480000000000e-08,0.00000000000000e+00,7.50000000000000e-01,-1.05550604307107e-04
1.57040000000000e-08,0.00000000000000e+00,7.50000000000000e-01,-9.87121618714025e-05
1.60150332832194e-08,0.00000000000000e+00,7.50000000000000e-01,2.21866533237200e-04
1.66370998496583e-08,0.00000000000000e+00,7.50000000000000e-01,-1.11342887885365e-04
1.72803348975258e-08,0.00000000000000e+00,7.50000000000000e-01,7.06806501366824e-05
1.85668049932608e-08,0.00000000000000e+00,7.50000000000000e-01,-2.94674311559786e-05
2.11397451847308e-08,0.00000000000000e+00,7.50000000000000e-01,3.85053963493269e-05
2.49397451847308e-08,0.00000000000000e+00,7.50000000000000e-01,-1.36510780775611e-05
2.50000000000000e-08,0.00000000000000e+00,7.50000000000000e-01,-6.25709373561142e-05
2.50100000000000e-08,7.49999999999858e-02,7.50000000000000e-01,6.12385210089425e-05
2.50300000000000e-08,2.25000000000007e-01,7.50000000000000e-01,2.28417848282376e-04
2.50700000000000e-08,5.25000000000000e-01,7.50000000000000e-01,1.35464848735674e-04
2.51000000000000e-08,7.50000000000000e-01,7.50000000000000e-01,-1.60305647006600e-03
2.51080000000000e-08,7.50000000000000e-01,7.50000000000000e-01,-2.49269175989462e-03
2.51240000000000e-08,7.50000000000000e-01,7.50000000000000e-01,-4.10435489106164e-03
2.51560000000000e-08,7.50000000000000e-01,7.50000000000000e-01,-5.47849655543277e-03
2.52200000000000e-08,7.50000000000000e-01,7.50000000000000e-01,3.25177433380511e-02
2.53480000000000e-08,7.50000000000000e-01,7.50000000000000e-01,4.71963718453038e-01
2.56040000000000e-08,7.50000000000000e-01,7.50000000000000e-01,7.78321652097217e-01
2.58972608194185e-08,7.50000000000000e-01,7.50000000000000e-01,7.26869623283301e-01
2.64837824582556e-08,7.50000000000000e-01,7.50000000000000e-01,7.71372353630205e-01
2.71785699263412e-08,7.50000000000000e-01,7.50000000000000e-01,7.29448812337070e-01
2.83826448259004e-08,7.50000000000000e-01,7.50000000000000e-01,7.69351599296207e-01
3.07907946250188e-08,7.50000000000000e-01,7.50000000000000e-01,7.30514267061303e-01
3.45907946250188e-08,7.50000000000000e-01,7.50000000000000e-01,7.68807392013676e-01
3.51000000000000e-08,7.49999999999963e-01,7.50000000000000e-01,7.32295176599516e-01
3.51100000000000e-08,6.74999999999977e-01,7.50000000000000e-01,7.40525274321533e-01
3.51300000000000e-08,5.24999999999956e-01,7.50000000000000e-01,7.49283628405875e-01
3.51700000000000e-08,2.24999999999963e-01,7.50000000000000e-01,7.51187604928557e-01
3.52000000000000e-08,0.00000000000000e+00,7.50000000000000e-01,7.52830932299787e-01
3.52080000000000e-08,0.00000000000000e+00,7.50000000000000e-01,7.52915085441661e-01
3.52240000000000e-08,0.00000000000000e+00,7.50000000000000e-01,7.51538183582452e-01
3.52560000000000e-08,0.00000000000000e+00,7.50000000000000e-01,7.40649085769571e-01
3.53200000000000e-08,0.00000000000000e+00,7.50000000000000e-01,7.22449308237021e-01
3.54480000000000e-08,0.00000000000000e+00,7.50000000000000e-01,7.40368655145614e-01
3.57040000000000e-08,0.00000000000000e+00,7.50000000000000e-01,7.53351871000517e-01
3.60204583544729e-08,0.00000000000000e+00,7.50000000000000e-01,7.46434711776054e-01
3.66533750634186e-08,0.00000000000000e+00,7.50000000000000e-01,7.52274798266691e-01
3.79192084813102e-08,0.00000000000000e+00,7.50000000000000e-01,7.47393801669354e-01
4.04508753170932e-08,0.00000000000000e+00,7.50000000000000e-01,7.52155475863113e-01
4.42508753170932e-08,0.00000000000000e+00,7.50000000000000e-01,7.47605052992359e-01
4.50000000000000e-08,0.00000000000000e+00,7.50000000000000e-01,7.51855274893622e-01
4.50100000000000e-08,7.49999999999858e-02,7.50000000000000e-01,7.51274836260190e-01
4.50300000000000e-08,2.25000000000007e-01,7.50000000000000e-01,7.50470752061203e-01
4.50700000000000e-08,5.25000000000000e-01,7.50000000000000e-01,7.49910924812265e-01
4.51000000000000e-08,7.50000000000000e-01,7.50000000000000e-01,7.49020714812892e-01
4.51080000000000e-08,7.50000000000000e-01,6.90000000000031e-01,7.48588199762996e-01
4.51240000000000e-08,7.50000000000000e-01,5.69999999999994e-01,7.47840330795073e-01
4.51560000000000e-08,7.50000000000000e-01,3.30000000000020e-01,7.46970862988825e-01
4.52000000000000e-08,7.50000000000000e-01,4.29656310529936e-14,7.46671574212429e-01
4.52064000000000e-08,7.50000000000000e-01,0.00000000000000e+00,7.46729625770536e-01
4.52192000000000e-08,7.50000000000000e-01,0.00000000000000e+00,7.46889818968044e-01
4.52448000000000e-08,7.50000000000000e-01,0.00000000000000e+00,7.47390463054396e-01
4.52960000000000e-08,7.50000000000000e-01,0.00000000000000e+00,7.48368492996144e-01
4.53984000000000e-08,7.50000000000000e-01,0.00000000000000e+00,7.49444035396341e-01
4.55467806167932e-08,7.50000000000000e-01,0.00000000000000e+00,7.49897859719423e-01
4.58435418503795e-08,7.50000000000000e-01,0.00000000000000e+00,7.50021141125217e-01
4.61479386011495e-08,7.50000000000000e-01,0.00000000000000e+00,7.49997061822129e-01
4.67567321026894e-08,7.50000000000000e-01,0.00000000000000e+00,7.49999617452749e-01
4.79743191057693e-08,7.50000000000000e-01,0.00000000000000e+00,7.50001525328224e-01
5.04094931119292e-08,7.50000000000000e-01,0.00000000000000e+00,7.49998022199542e-01
5.42094931119292e-08,7.50000000000000e-01,0.00000000000000e+00,7.50002224370292e-01
5.51000000000000e-08,7.50000000000000e-01,0.00000000000000e+00,7.49996848623580e-01
5.51100000000000e-08,6.75000000000027e-01,0.00000000000000e+00,7.49942619054000e-01
5.51300000000000e-08,5.25000000000005e-01,0.00000000000000e+00,7.49906444057942e-01
5.51700000000000e-08,2.25000000000013e-01,0.00000000000000e+00,7.51019512418345e-01
5.52000000000000e-08,0.00000000000000e+00,0.00000000000000e+00,7.53209290774815e-01
5.52080000000000e-08,0.00000000000000e+00,0.00000000000000e+00,7.53703012514560e-01
5.52240000000000e-08,0.00000000000000e+00,0.00000000000000e+00,7.54422559874061e-01
5.52560000000000e-08,0.00000000000000e+00,0.00000000000000e+00,7.55113531171486e-01
5.53200000000000e-08,0.00000000000000e+00,0.00000000000000e+00,7.52943512845392e-01
5.54480000000000e-08,0.00000000000000e+00,0.00000000000000e+00,7.47605247617970e-01
5.56705859738616e-08,0.00000000000000e+00,0.00000000000000e+00,7.49213853021749e-01
5.59770494614516e-08,0.00000000000000e+00,0.00000000000000e+00,7.49459556125437e-01
5.64198051931969e-08,0.00000000000000e+00,0.00000000000000e+00,7.49570938437423e-01
5.73053166566874e-08,0.00000000000000e+00,0.00000000000000e+00,7.49847046744482e-01
5.90072135889715e-08,0.00000000000000e+00,0.00000000000000e+00,7.49735811932880e-01
6.24110074535396e-08,0.00000000000000e+00,0.00000000000000e+00,7.49960907482497e-01
6.50000000000000e-08,0.00000000000000e+00,0.00000000000000e+00,7.49758859444464e-01
6.50100000000000e-08,7.49999999999858e-02,0.00000000000000e+00,7.49885716027355e-01
6.50300000000000e-08,2.24999999999957e-01,0.00000000000000e+00,7.49992454152637e-01
6.50700000000000e-08,5.24999999999900e-01,0.00000000000000e+00,7.49872403085600e-01
6.51000000000000e-08,7.49999999999957e-01,0.00000000000000e+00,7.49707498251260e-01
6.51080000000000e-08,7.50000000000000e-01,0.00000000000000e+00,7.49653391113971e-01
6.51240000000000e-08,7.50000000000000e-01,0.00000000000000e+00,7.49610442296994e-01
6.51560000000000e-08,7.50000000000000e-01,0.00000000000000e+00,7.49712959345659e-01
6.52200000000000e-08,7.50000000000000e-01,0.00000000000000e+00,7.51848651307938e-01
6.53480000000000e-08,7.50000000000000e-01,0.00000000000000e+00,7.43765186547541e-01
6.56040000000000e-08,7.50000000000000e-01,0.00000000000000e+00,1.57482523223213e-01
6.58734375006773e-08,7.50000000000000e-01,0.00000000000000e+00,-6.65700833678883e-02
6.63730025631227e-08,7.50000000000000e-01,0.00000000000000e+00,5.40564240601009e-02
6.69628382628826e-08,7.50000000000000e-01,0.00000000000000e+00,-3.93523835523305e-02
6.78956795484297e-08,7.50000000000000e-01,0.00000000000000e+00,3.57164924407330e-02
6.95816721043394e-08,7.50000000000000e-01,0.00000000000000e+00,-3.13451156050472e-02
7.21528345630446e-08,7.50000000000000e-01,0.00000000000000e+00,3.10584412721049e-02
7.51000000000000e-08,7.50000000000000e-01,0.00000000000000e+00,-2.84219804431807e-02
7.51100000000000e-08,6.75000000000076e-01,0.00000000000000e+00,-2.08221193276645e-02
7.51300000000000e-08,5.25000000000105e-01,0.00000000000000e+00,-1.09274692948934e-02
7.51700000000000e-08,2.25000000000162e-01,0.00000000000000e+00,-3.42239684765139e-03
7.52000000000000e-08,1.05027098129540e-13,0.00000000000000e+00,-1.03296298372621e-03
7.52080000000000e-08,0.00000000000000e+00,0.00000000000000e+00,-7.96416030689737e-04
7.52240000000000e-08,0.00000000000000e+00,0.00000000000000e+00,-5.38484092086081e-04
7.52560000000000e-08,0.00000000000000e+00,0.00000000000000e+00,-1.06428071938488e-03
7.53200000000000e-08,0.00000000000000e+00,0.00000000000000e+00,-1.89532352281729e-03
7.54480000000000e-08,0.00000000000000e+00,0.00000000000000e+00,-2.18981041169526e-04
7.56707004684783e-08,0.00000000000000e+00,0.00000000000000e+00,3.50741042688729e-04
7.59956802328009e-08,0.00000000000000e+00,0.00000000000000e+00,-2.97012660482095e-04
7.65765250529536e-08,0.00000000000000e+00,0.00000000000000e+00,2.92769006078838e-04
7.77382146932589e-08,0.00000000000000e+00,0.00000000000000e+00,-2.60941539742644e-04
8.00615939738697e-08,0.00000000000000e+00,0.00000000000000e+00,2.73212658236625e-04
8.38615939738697e-08,0.00000000000000e+00,0.00000000000000e+00,-2.50270587900979e-04
8.50000000000000e-08,0.00000000000000e+00,0.00000000000000e+00,2.55689994095117e-04
8.50100000000000e-08,7.49999999999858e-02,0.00000000000000e+00,2.56251388415243e-04
8.50300000000000e-08,2.24999999999957e-01,0.00000000000000e+00,2.28394286148695e-04
8.50700000000000e-08,5.24999999999900e-01,0.00000000000000e+00,6.82677626575243e-05
8.51000000000000e-08,7.49999999999957e-01,0.00000000000000e+00,-1.50164010293850e-04
8.51080000000000e-08,7.50000000000000e-01,0.00000000000000e+00,-2.20384697210758e-04
8.51240000000000e-08,7.50000000000000e-01,0.00000000000000e+00,-2.92118759626828e-04
8.51560000000000e-08,7.50000000000000e-01,0.00000000000000e+00,-2.41693228206261e-04
8.52200000000000e-08,7.50000000000000e-01,0.00000000000000e+00,-5.29774352519483e-05
8.53480000000000e-08,7.50000000000000e-01,0.00000000000000e+00,1.09910843690279e-04
8.56040000000000e-08,7.50000000000000e-01,0.00000000000000e+00,1.83302984843627e-05
8.61159999999999e-08,7.50000000000000e-01,0.00000000000000e+00,1.55030610921175e-05
8.67581314021386e-08,7.50000000000000e-01,0.00000000000000e+00,2.05257996808081e-05
8.80423942064159e-08,7.50000000000000e-01,0.00000000000000e+00,8.53027213434899e-06
9.00000000000000e-08,7.50000000000000e-01,0.00000000000000e+00,1.69054699670395e-05
9.00100000000000e-08,7.50000000000000e-01,7.49999999999858e-02,1.46200746652531e-05
9.00300000000000e-08,7.50000000000000e-01,2.24999999999957e-01,1.19639853698797e-05
9.00700000000000e-08,7.50000000000000e-01,5.24999999999900e-01,8.39137941167217e-06
9.01000000000000e-08,7.50000000000000e-01,7.49999999999957e-01,8.18473778969181e-06
9.01080000000000e-08,7.50000000000000e-01,7.50000000000000e-01,8.80101183624998e-06
9.01240000000000e-08,7.50000000000000e-01,7.50000000000000e-01,1.05716258157820e-05
9.01560000000000e-08,7.50000000000000e-01,7.50000000000000e-01,1.31803506428566e-05
9.02200000000000e-08,7.50000000000000e-01,7.50000000000000e-01,1.34642024838469e-05
9.03480000000000e-08,7.50000000000000e-01,7.50000000000000e-01,1.15805722806055e-05
9.06040000000000e-08,7.50000000000000e-01,7.50000000000000e-01,1.04765974193038e-05
9.11159999999999e-08,7.50000000000000e-01,7.50000000000000e-01,1.21484387635672e-05
9.21399999999999e-08,7.50000000000000e-01,7.50000000000000e-01,1.03294334650441e-05
9.41879999999998e-08,7.50000000000000e-01,7.50000000000000e-01,1.12076941447504e-05
9.51000000000000e-08,7.50000000000000e-01,7.50000000000000e-01,9.89702168822243e-06
9.51100000000000e-08,6.75000000000076e-01,7.50000000000000e-01,-5.22321166708528e-05
9.51300000000000e-08,5.25000000000105e-01,7.50000000000000e-01,-1.34803164445696e-04
9.51700000000000e-08,2.25000000000162e-01,7.50000000000000e-01,-1.36106206617415e-05
9.52000000000000e-08,1.05027098129540e-13,7.50000000000000e-01,2.62333616565240e-04
9.52080000000000e-08,0.00000000000000e+00,7.50000000000000e-01,3.52800908600903e-04
9.52240000000000e-08,0.00000000000000e+00,7.50000000000000e-01,3.82676849121744e-04
9.52560000000000e-08,0.00000000000000e+00,7.50000000000000e-01,3.89586279986240e-05
9.53200000000000e-08,0.00000000000000e+00,7.50000000000000e-01,-3.86449608947029e-04
9.54480000000000e-08,0.00000000000000e+00,7.50000000000000e-01,-1.05551916342671e-04
9.57040000000000e-08,0.00000000000000e+00,7.50000000000000e-01,-9.87117314505230e-05
9.60150330201377e-08,0.00000000000000e+00,7.50000000000000e-01,2.21866064046106e-04
9.66370990604132e-08,0.00000000000000e+00,7.50000000000000e-01,-1.11342116136929e-04
9.72803341971173e-08,0.00000000000000e+00,7.50000000000000e-01,7.06797869985459e-05
9.85668044705255e-08,0.00000000000000e+00,7.50000000000000e-01,-2.94665534877861e-05
1.01139745017342e-07,0.00000000000000e+00,7.50000000000000e-01,3.85045136502510e-05
1.04939745017342e-07,0.00000000000000e+00,7.50000000000000e-01,-1.36501961316227e-05
1.05000000000000e-07,0.00000000000000e+00,7.50000000000000e-01,-6.25712499035813e-05
1.05010000000000e-07,7.49999999999858e-02,7.50000000000000e-01,6.12383153659815e-05
1.05030000000000e-07,2.24999999999957e-01,7.50000000000000e-01,2.28417736207520e-04
1.05070000000000e-07,5.24999999999900e-01,7.50000000000000e-01,1.35464889427082e-04
1.05100000000000e-07,7.49999999999957e-01,7.50000000000000e-01,-1.60305629308936e-03
1.05108000000000e-07,7.50000000000000e-01,7.50000000000000e-01,-2.49269158751499e-03
1.05124000000000e-07,7.50000000000000e-01,7.50000000000000e-01,-4.10435474704657e-03
1.05156000000000e-07,7.50000000000000e-01,7.50000000000000e-01,-5.47849662113626e-03
1.05220000000000e-07,7.50000000000000e-01,7.50000000000000e-01,3.25177404870759e-02
1.05348000000000e-07,7.50000000000000e-01,7.50000000000000e-01,4.71963710438118e-01
1.05604000000000e-07,7.50000000000000e-01,7.50000000000000e-01,7.78321651620896e-01
1.05897260821168e-07,7.50000000000000e-01,7.50000000000000e-01,7.26869623776489e-01
1.06483782463504e-07,7.50000000000000e-01,7.50000000000000e-01,7.71372353281517e-01
1.07178569929517e-07,7.50000000000000e-01,7.50000000000000e-01,7.29448812735874e-01
1.08382644821299e-07,7.50000000000000e-01,7.50000000000000e-01,7.69351598977724e-01
1.10790794604862e-07,7.50000000000000e-01,7.50000000000000e-01,7.30514267409749e-01
1.14590794604862e-07,7.50000000000000e-01,7.50000000000000e-01,7.68807391703206e-01
1.15100000000000e-07,7.50000000000000e-01,7.50000000000000e-01,7.32295176868955e-01
1.15110000000000e-07,6.75000000000076e-01,7.50000000000000e-01,7.40525274468253e-01
1.15130000000000e-07,5.25000000000105e-01,7.50000000000000e-01,7.49283628426428e-01
1.15170000000000e-07,2.25000000000162e-01,7.50000000000000e-01,7.51187604925567e-01
1.15200000000000e-07,1.05027098129540e-13,7.50000000000000e-01,7.52830932303589e-01
1.15208000000000e-07,0.00000000000000e+00,7.50000000000000e-01,7.52915085449909e-01
1.15224000000000e-07,0.00000000000000e+00,7.50000000000000e-01,7.51538183575329e-01
1.15256000000000e-07,0.00000000000000e+00,7.50000000000000e-01,7.40649085776159e-01
1.15320000000000e-07,0.00000000000000e+00,7.50000000000000e-01,7.22449308192760e-01
1.15448000000000e-07,0.00000000000000e+00,7.50000000000000e-01,7.40368655176276e-01
1.15704000000000e-07,0.00000000000000e+00,7.50000000000000e-01,7.53351870987712e-01
1.16020458354101e-07,0.00000000000000e+00,7.50000000000000e-01,7.46434711786572e-01
1.16653375062302e-07,0.00000000000000e+00,7.50000000000000e-01,7.52274798257086e-01
1.17919208478704e-07,0.00000000000000e+00,7.50000000000000e-01,7.47393801674686e-01
1.20450875311509e-07,0.00000000000000e+00,7.50000000000000e-01,7.52155475854204e-01
1.24250875311509e-07,0.00000000000000e+00,7.50000000000000e-01,7.47605053001108e-01
1.25000000000000e-07,0.00000000000000e+00,7.50000000000000e-01,7.51855274885301e-01
1.25010000000000e-07,7.49999999998865e-02,7.50000000000000e-01,7.51274836252096e-01
1.25030000000000e-07,2.24999999999858e-01,7.50000000000000e-01,7.50470752058096e-01
1.25070000000000e-07,5.24999999999801e-01,7.50000000000000e-01,7.49910924815899e-01
1.25100000000000e-07,7.49999999999858e-01,7.50000000000000e-01,7.49020714812279e-01
1.25108000000000e-07,7.50000000000000e-01,6.89999999999932e-01,7.48588199761480e-01
1.25124000000000e-07,7.50000000000000e-01,5.69999999999994e-01,7.47840330794186e-01
1.25156000000000e-07,7.50000000000000e-01,3.29999999999921e-01,7.46970862985491e-01
1.25200000000000e-07,7.50000000000000e-01,0.00000000000000e+00,7.46671574207627e-01
1.25206400000000e-07,7.50000000000000e-01,0.00000000000000e+00,7.46729625769099e-01
1.25219200000000e-07,7.50000000000000e-01,0.00000000000000e+00,7.46889818966234e-01
1.25244800000000e-07,7.50000000000000e-01,0.00000000000000e+00,7.47390463052473e-01
1.25296000000000e-07,7.50000000000000e-01,0.00000000000000e+00,7.48368492994334e-01
1.25398400000000e-07,7.50000000000000e-01,0.00000000000000e+00,7.49444035398499e-01
1.25546780615998e-07,7.50000000000000e-01,0.00000000000000e+00,7.49897859720728e-01
1.25843541847995e-07,7.50000000000000e-01,0.00000000000000e+00,7.50021141123312e-01
1.26147938595597e-07,7.50000000000000e-01,0.00000000000000e+00,7.49997061823734e-01
1.26756732090801e-07,7.50000000000000e-01,0.00000000000000e+00,7.49999617451254e-01
1.27974319081209e-07,7.50000000000000e-01,0.00000000000000e+00,7.50001525329632e-01
1.30409493062025e-07,7.50000000000000e-01,0.00000000000000e+00,7.49998022198225e-01
1.34209493062025e-07,7.50000000000000e-01,0.00000000000000e+00,7.50002224371602e-01
1.35100000000000e-07,7.49999999999864e-01,0.00000000000000e+00,7.49996848622398e-01
1.35110000000000e-07,6.74999999999778e-01,0.00000000000000e+00,7.49942619053258e-01
1.35130000000000e-07,5.24999999999807e-01,0.00000000000000e+00,7.49906444057827e-01
1.35170000000000e-07,2.24999999999864e-01,0.00000000000000e+00,7.51019512418107e-01
