Time,v(clk),v(data),v(out)
1.00000000000000e-08,7.50000000000000e-01,0.00000000000000e+00,-2.38599109956552e-05
1.00100000000000e-08,7.50000000000000e-01,7.49999999999982e-02,-1.82742604541222e-05
1.00300000000000e-08,7.50000000000000e-01,2.24999999999995e-01,-1.11477028516757e-05
1.00700000000000e-08,7.50000000000000e-01,5.24999999999987e-01,-5.58058099127401e-06
1.01000000000000e-08,7.50000000000000e-01,7.49999999999994e-01,-2.72146786794991e-06
1.01080000000000e-08,7.50000000000000e-01,7.50000000000000e-01,-1.70083757905504e-06
1.01240000000000e-08,7.50000000000000e-01,7.50000000000000e-01,4.90634979803672e-07
1.01560000000000e-08,7.50000000000000e-01,7.50000000000000e-01,4.41028556712186e-06
1.02200000000000e-08,7.50000000000000e-01,7.50000000000000e-01,2.32404164330832e-06
1.03480000000000e-08,7.50000000000000e-01,7.50000000000000e-01,-4.77336317073612e-07
1.06040000000000e-08,7.50000000000000e-01,7.50000000000000e-01,1.90499638432276e-06
1.11160000000000e-08,7.50000000000000e-01,7.50000000000000e-01,9.06882299936407e-07
1.21400000000000e-08,7.50000000000000e-01,7.50000000000000e-01,1.20558724173723e-06
1.41880000000000e-08,7.50000000000000e-01,7.50000000000000e-01,7.97253775441280e-07
1.51000000000000e-08,7.50000000000000e-01,7.50000000000000e-01,7.87132662861956e-07
1.51100000000000e-08,6.74999999999989e-01,7.50000000000000e-01,-6.29168090728188e-05
1.51300000000000e-08,5.24999999999993e-01,7.50000000000000e-01,-1.44830107774704e-04
1.51700000000000e-08,2.25000000000000e-01,7.50000000000000e-01,-8.96831719106525e-05
1.52000000000000e-08,0.00000000000000e+00,7.50000000000000e-01,1.47389231749270e-04
1.52080000000000e-08,0.00000000000000e+00,7.50000000000000e-01,2.59510988165901e-04
1.52240000000000e-08,0.00000000000000e+00,7.50000000000000e-01,3.58267316301113e-04
1.52560000000000e-08,0.00000000000000e+00,7.50000000000000e-01,2.02165214859752e-04
1.53200000000000e-08,0.00000000000000e+00,7.50000000000000e-01,-1.14432519357208e-04
1.54480000000000e-08,0.00000000000000e+00,7.50000000000000e-01,-9.20471619355878e-05
1.57040000000000e-08,0.00000000000000e+00,7.50000000000000e-01,-2.55422805978548e-04
1.60864519730434e-08,0.00000000000000e+00,7.50000000000000e-01,2.58224691964157e-04
1.66611120714855e-08,0.00000000000000e+00,7.50000000000000e-01,-6.83270811469832e-05
1.74525715283325e-08,0.00000000000000e+00,7.50000000000000e-01,-1.45429724789578e-05
1.87677777879680e-08,0.00000000000000e+00,7.50000000000000e-01,5.04601538780344e-05
2.13137897183448e-08,0.00000000000000e+00,7.50000000000000e-01,-6.67843182730003e-05
2.50000000000000e-08,0.00000000000000e+00,7.50000000000000e-01,7.58078318375026e-05
2.50100000000000e-08,7.49999999999858e-02,7.50000000000000e-01,1.30657557829372e-04
2.50300000000000e-08,2.25000000000007e-01,7.50000000000000e-01,2.11007622130249e-04
2.50700000000000e-08,5.25000000000000e-01,7.50000000000000e-01,1.58099071334482e-04
2.51000000000000e-08,7.50000000000000e-01,7.50000000000000e-01,-2.34819862632519e-03
2.51080000000000e-08,7.50000000000000e-01,7.50000000000000e-01,-3.49561205202207e-03
2.51240000000000e-08,7.50000000000000e-01,7.50000000000000e-01,-5.44136695336422e-03
2.51560000000000e-08,7.50000000000000e-01,7.50000000000000e-01,-6.13644807128481e-03
2.52200000000000e-08,7.50000000000000e-01,7.50000000000000e-01,7.01017480343230e-02
2.53480000000000e-08,7.50000000000000e-01,7.50000000000000e-01,5.06607660860450e-01
2.56040000000000e-08,7.50000000000000e-01,7.50000000000000e-01,7.80668692804958e-01
2.59200450819136e-08,7.50000000000000e-01,7.50000000000000e-01,7.24731931727224e-01
2.64977453809664e-08,7.50000000000000e-01,7.50000000000000e-01,7.71796212405996e-01
2.72562172990759e-08,7.50000000000000e-01,7.50000000000000e-01,7.29518466621342e-01
2.87731611352949e-08,7.50000000000000e-01,7.50000000000000e-01,7.68991947491302e-01
3.18070488077330e-08,7.50000000000000e-01,7.50000000000000e-01,7.30922380834790e-01
3.51000000000000e-08,7.49999999999963e-01,7.50000000000000e-01,7.68216047876015e-01
3.51100000000000e-08,6.74999999999977e-01,7.50000000000000e-01,7.61405406329946e-01
3.51300000000000e-08,5.24999999999956e-01,7.50000000000000e-01,7.52804978106939e-01
3.51700000000000e-08,2.24999999999963e-01,7.50000000000000e-01,7.50187123353158e-01
3.52000000000000e-08,0.00000000000000e+00,7.50000000000000e-01,7.52250333013525e-01
3.52080000000000e-08,0.00000000000000e+00,7.50000000000000e-01,7.52685684119659e-01
3.52240000000000e-08,0.00000000000000e+00,7.50000000000000e-01,7.52992984362914e-01
3.52560000000000e-08,0.00000000000000e+00,7.50000000000000e-01,7.49373956722757e-01
3.53200000000000e-08,0.00000000000000e+00,7.50000000000000e-01,7.29925768995524e-01
3.54480000000000e-08,0.00000000000000e+00,7.50000000000000e-01,7.18840311572420e-01
3.57040000000000e-08,0.00000000000000e+00,7.50000000000000e-01,7.49828285908375e-01
3.62160000000000e-08,0.00000000000000e+00,7.50000000000000e-01,7.48724802783898e-01
3.67782007874372e-08,0.00000000000000e+00,7.50000000000000e-01,7.50554435353015e-01
3.79026023623116e-08,0.00000000000000e+00,7.50000000000000e-01,7.48966343645778e-01
4.01514055120605e-08,0.00000000000000e+00,7.50000000000000e-01,7.50680150062514e-01
4.39514055120605e-08,0.00000000000000e+00,7.50000000000000e-01,7.49085403609083e-01
4.50000000000000e-08,0.00000000000000e+00,7.50000000000000e-01,7.50647556458687e-01
4.50100000000000e-08,7.49999999999858e-02,7.50000000000000e-01,7.50525689094907e-01
4.50300000000000e-08,2.25000000000007e-01,7.50000000000000e-01,7.50336528973247e-01
4.50700000000000e-08,5.25000000000000e-01,7.50000000000000e-01,7.49822383769621e-01
4.51000000000000e-08,7.50000000000000e-01,7.50000000000000e-01,7.47823215581506e-01
4.51080000000000e-08,7.50000000000000e-01,6.90000000000031e-01,7.46969416008837e-01
4.51240000000000e-08,7.50000000000000e-01,5.69999999999994e-01,7.45423950481011e-01
4.51560000000000e-08,7.50000000000000e-01,3.30000000000020e-01,7.43286584663308e-01
4.52000000000000e-08,7.50000000000000e-01,4.29656310529936e-14,7.43353232788246e-01
4.52064000000000e-08,7.50000000000000e-01,0.00000000000000e+00,7.43737607461125e-01
4.52192000000000e-08,7.50000000000000e-01,0.00000000000000e+00,7.44522961503356e-01
4.52448000000000e-08,7.50000000000000e-01,0.00000000000000e+00,7.46038126057910e-01
4.52960000000000e-08,7.50000000000000e-01,0.00000000000000e+00,7.48173188266782e-01
4.53984000000000e-08,7.50000000000000e-01,0.00000000000000e+00,7.49812196627201e-01
4.56032000000000e-08,7.50000000000000e-01,0.00000000000000e+00,7.50063919593010e-01
4.58412489272854e-08,7.50000000000000e-01,0.00000000000000e+00,7.49967050186718e-01
4.62478470517491e-08,7.50000000000000e-01,0.00000000000000e+00,7.50020981521184e-01
4.69743935729958e-08,7.50000000000000e-01,0.00000000000000e+00,7.49983262191979e-01
4.81735437208984e-08,7.50000000000000e-01,0.00000000000000e+00,7.50014481702599e-01
5.04851611295883e-08,7.50000000000000e-01,0.00000000000000e+00,7.49986504275503e-01
5.42851611295883e-08,7.50000000000000e-01,0.00000000000000e+00,7.50012878005897e-01
5.51000000000000e-08,7.50000000000000e-01,0.00000000000000e+00,7.49989625330146e-01
5.51100000000000e-08,6.75000000000027e-01,0.00000000000000e+00,7.49912784551231e-01
5.51300000000000e-08,5.25000000000005e-01,0.00000000000000e+00,7.49842002668303e-01
5.51700000000000e-08,2.25000000000013e-01,0.00000000000000e+00,7.50604437304005e-01
5.52000000000000e-08,0.00000000000000e+00,0.00000000000000e+00,7.52446042762490e-01
5.52080000000000e-08,0.00000000000000e+00,0.00000000000000e+00,7.52961994135742e-01
5.52240000000000e-08,0.00000000000000e+00,0.00000000000000e+00,7.53709908698258e-01
5.52560000000000e-08,0.00000000000000e+00,0.00000000000000e+00,7.54414876616943e-01
5.53200000000000e-08,0.00000000000000e+00,0.00000000000000e+00,7.55329426723295e-01
5.54480000000000e-08,0.00000000000000e+00,0.00000000000000e+00,7.52515895730447e-01
5.56958437245893e-08,0.00000000000000e+00,0.00000000000000e+00,7.48451188053963e-01
5.59616939450692e-08,0.00000000000000e+00,0.00000000000000e+00,7.49902132497387e-01
5.64933943860291e-08,0.00000000000000e+00,0.00000000000000e+00,7.49623672790374e-01
5.71095021048543e-08,0.00000000000000e+00,0.00000000000000e+00,7.49762090824645e-01
5.83231966518845e-08,0.00000000000000e+00,0.00000000000000e+00,7.49876405415627e-01
6.02590964103788e-08,0.00000000000000e+00,0.00000000000000e+00,7.49799868110313e-01
6.35362237958165e-08,0.00000000000000e+00,0.00000000000000e+00,7.49970453451681e-01
6.50000000000000e-08,0.00000000000000e+00,0.00000000000000e+00,7.49804816739953e-01
6.50100000000000e-08,7.49999999999858e-02,0.00000000000000e+00,7.49917124104710e-01
6.50300000000000e-08,2.24999999999957e-01,0.00000000000000e+00,7.50055625235682e-01
6.50700000000000e-08,5.24999999999900e-01,0.00000000000000e+00,7.49964705247516e-01
6.51000000000000e-08,7.49999999999957e-01,0.00000000000000e+00,7.49633665782367e-01
6.51080000000000e-08,7.50000000000000e-01,0.00000000000000e+00,7.49536166869662e-01
6.51240000000000e-08,7.50000000000000e-01,0.00000000000000e+00,7.49434185514876e-01
6.51560000000000e-08,7.50000000000000e-01,0.00000000000000e+00,7.49789629414096e-01
6.52200000000000e-08,7.50000000000000e-01,0.00000000000000e+00,7.54865657131536e-01
6.53480000000000e-08,7.50000000000000e-01,0.00000000000000e+00,6.83197370874180e-01
6.56040000000000e-08,7.50000000000000e-01,0.00000000000000e+00,6.71882079553910e-02
6.59123803682641e-08,7.50000000000000e-01,0.00000000000000e+00,-4.38140846217530e-02
6.64138000404341e-08,7.50000000000000e-01,0.00000000000000e+00,3.87657094035173e-02
6.71030164015565e-08,7.50000000000000e-01,0.00000000000000e+00,-3.19724345747121e-02
6.84288961211862e-08,7.50000000000000e-01,0.00000000000000e+00,3.13348464057951e-02
7.05646019277817e-08,7.50000000000000e-01,0.00000000000000e+00,-2.86560940951976e-02
7.43646019277817e-08,7.50000000000000e-01,0.00000000000000e+00,2.92508711058930e-02
7.51000000000000e-08,7.50000000000000e-01,0.00000000000000e+00,-2.47822135880229e-02
7.51100000000000e-08,6.75000000000076e-01,0.00000000000000e+00,-1.64057827594342e-02
7.51300000000000e-08,5.25000000000105e-01,0.00000000000000e+00,-6.14149894184764e-03
7.51700000000000e-08,2.25000000000162e-01,0.00000000000000e+00,-7.27051332388422e-04
7.52000000000000e-08,1.05027098129540e-13,0.00000000000000e+00,2.21231538345898e-05
7.52080000000000e-08,0.00000000000000e+00,0.00000000000000e+00,1.09875907496775e-04
7.52240000000000e-08,0.00000000000000e+00,0.00000000000000e+00,2.29238909434118e-04
7.52560000000000e-08,0.00000000000000e+00,0.00000000000000e+00,-1.76770547144350e-05
7.53200000000000e-08,0.00000000000000e+00,0.00000000000000e+00,-1.25081135980123e-03
7.54480000000000e-08,0.00000000000000e+00,0.00000000000000e+00,-2.74922096772250e-04
7.56413971127630e-08,0.00000000000000e+00,0.00000000000000e+00,2.21375098016407e-04
7.60281913382890e-08,0.00000000000000e+00,0.00000000000000e+00,-2.11453721106624e-04
7.64931522677509e-08,0.00000000000000e+00,0.00000000000000e+00,2.04809518351791e-04
7.74230741266747e-08,0.00000000000000e+00,0.00000000000000e+00,-2.00420128327859e-04
7.92829178445222e-08,0.00000000000000e+00,0.00000000000000e+00,1.98828786082204e-04
8.30026052802174e-08,0.00000000000000e+00,0.00000000000000e+00,-1.97169230832531e-04
8.50000000000000e-08,0.00000000000000e+00,0.00000000000000e+00,1.95654846240987e-04
8.50100000000000e-08,7.49999999999858e-02,0.00000000000000e+00,1.83412003503025e-04
8.50300000000000e-08,2.24999999999957e-01,0.00000000000000e+00,1.76588478153147e-04
8.50700000000000e-08,5.24999999999900e-01,0.00000000000000e+00,3.37323572840789e-05
8.51000000000000e-08,7.49999999999957e-01,0.00000000000000e+00,-2.45000486408818e-04
8.51080000000000e-08,7.50000000000000e-01,0.00000000000000e+00,-3.06982823330207e-04
8.51240000000000e-08,7.50000000000000e-01,0.00000000000000e+00,-3.66326701591237e-04
8.51560000000000e-08,7.50000000000000e-01,0.00000000000000e+00,-3.00405775936256e-04
8.52200000000000e-08,7.50000000000000e-01,0.00000000000000e+00,-3.92532208417368e-06
8.53480000000000e-08,7.50000000000000e-01,0.00000000000000e+00,1.68734544475573e-04
8.56040000000000e-08,7.50000000000000e-01,0.00000000000000e+00,-6.53451039011148e-05
8.60602850623295e-08,7.50000000000000e-01,0.00000000000000e+00,4.76837828565710e-05
8.66458629443011e-08,7.50000000000000e-01,0.00000000000000e+00,-2.93199273952160e-05
8.78170187082443e-08,7.50000000000000e-01,0.00000000000000e+00,2.92331705719043e-05
9.00000000000000e-08,7.50000000000000e-01,0.00000000000000e+00,-2.36524680718457e-05
9.00100000000000e-08,7.50000000000000e-01,7.49999999999858e-02,-1.81529980960091e-05
9.00300000000000e-08,7.50000000000000e-01,2.24999999999957e-01,-1.10810211525272e-05
9.00700000000000e-08,7.50000000000000e-01,5.24999999999900e-01,-5.54827843668448e-06
9.01000000000000e-08,7.50000000000000e-01,7.49999999999957e-01,-2.59185855013000e-06
9.01080000000000e-08,7.50000000000000e-01,7.50000000000000e-01,-1.60253356615292e-06
9.01240000000000e-08,7.50000000000000e-01,7.50000000000000e-01,4.14900647283112e-07
9.01560000000000e-08,7.50000000000000e-01,7.50000000000000e-01,4.25099009781355e-06
9.02200000000000e-08,7.50000000000000e-01,7.50000000000000e-01,2.29797147550601e-06
9.03480000000000e-08,7.50000000000000e-01,7.50000000000000e-01,-4.07390236999844e-07
9.06040000000000e-08,7.50000000000000e-01,7.50000000000000e-01,1.87413328138486e-06
9.11159999999999e-08,7.50000000000000e-01,7.50000000000000e-01,9.21569395119677e-07
9.21399999999999e-08,7.50000000000000e-01,7.50000000000000e-01,1.19550560615444e-06
9.41879999999998e-08,7.50000000000000e-01,7.50000000000000e-01,8.03732529094199e-07
9.51000000000000e-08,7.50000000000000e-01,7.50000000000000e-01,7.85719853498967e-07
9.51100000000000e-08,6.75000000000076e-01,7.50000000000000e-01,-6.29439389193479e-05
9.51300000000000e-08,5.25000000000105e-01,7.50000000000000e-01,-1.44847810565653e-04
9.51700000000000e-08,2.25000000000162e-01,7.50000000000000e-01,-8.96878737966442e-05
9.52000000000000e-08,1.05027098129540e-13,7.50000000000000e-01,1.47393236476591e-04
9.52080000000000e-08,0.00000000000000e+00,7.50000000000000e-01,2.59514172258522e-04
9.52240000000000e-08,0.00000000000000e+00,7.50000000000000e-01,3.58268416570655e-04
9.52560000000000e-08,0.00000000000000e+00,7.50000000000000e-01,2.02154859271671e-04
9.53200000000000e-08,0.00000000000000e+00,7.50000000000000e-01,-1.14461999281057e-04
9.54480000000000e-08,0.00000000000000e+00,7.50000000000000e-01,-9.20434083367637e-05
9.57040000000000e-08,0.00000000000000e+00,7.50000000000000e-01,-2.55422921939155e-04
9.60864522429701e-08,0.00000000000000e+00,7.50000000000000e-01,2.58223603307333e-04
9.66611128942313e-08,0.00000000000000e+00,7.50000000000000e-01,-6.83255699880474e-05
9.74525734024677e-08,0.00000000000000e+00,7.50000000000000e-01,-1.45448009445989e-05
9.87677803956540e-08,0.00000000000000e+00,7.50000000000000e-01,5.04621910347039e-05
1.01313803065377e-07,0.00000000000000e+00,7.50000000000000e-01,-6.67865717493906e-05
1.05000000000000e-07,0.00000000000000e+00,7.50000000000000e-01,7.58101825453886e-05
1.05010000000000e-07,7.49999999999858e-02,7.50000000000000e-01,1.30657655830493e-04
1.05030000000000e-07,2.24999999999957e-01,7.50000000000000e-01,2.11006062672263e-04
1.05070000000000e-07,5.24999999999900e-01,7.50000000000000e-01,1.58098269144015e-04
1.05100000000000e-07,7.49999999999957e-01,7.50000000000000e-01,-2.34819735320700e-03
1.05108000000000e-07,7.50000000000000e-01,7.50000000000000e-01,-3.49561074246812e-03
1.05124000000000e-07,7.50000000000000e-01,7.50000000000000e-01,-5.44136585825988e-03
1.05156000000000e-07,7.50000000000000e-01,7.50000000000000e-01,-6.13644977590686e-03
1.05220000000000e-07,7.50000000000000e-01,7.50000000000000e-01,7.01017174347972e-02
1.05348000000000e-07,7.50000000000000e-01,7.50000000000000e-01,5.06607609320229e-01
1.05604000000000e-07,7.50000000000000e-01,7.50000000000000e-01,7.80668692958310e-01
1.05920045081891e-07,7.50000000000000e-01,7.50000000000000e-01,7.24731932155515e-01
1.06497745391903e-07,7.50000000000000e-01,7.50000000000000e-01,7.71796212643556e-01
1.07256217277862e-07,7.50000000000000e-01,7.50000000000000e-01,7.29518466692046e-01
1.08773161049778e-07,7.50000000000000e-01,7.50000000000000e-01,7.68991947649556e-01
1.11807048593612e-07,7.50000000000000e-01,7.50000000000000e-01,7.30922380900021e-01
1.15100000000000e-07,7.50000000000000e-01,7.50000000000000e-01,7.68216048024057e-01
1.15110000000000e-07,6.75000000000076e-01,7.50000000000000e-01,7.61405406367857e-01
1.15130000000000e-07,5.25000000000105e-01,7.50000000000000e-01,7.52804978081002e-01
1.15170000000000e-07,2.25000000000162e-01,7.50000000000000e-01,7.50187123247391e-01
1.15200000000000e-07,1.05027098129540e-13,7.50000000000000e-01,7.52250332945241e-01
1.15208000000000e-07,0.00000000000000e+00,7.50000000000000e-01,7.52685684052332e-01
1.15224000000000e-07,0.00000000000000e+00,7.50000000000000e-01,7.52992984275396e-01
1.15256000000000e-07,0.00000000000000e+00,7.50000000000000e-01,7.49373956486799e-01
1.15320000000000e-07,0.00000000000000e+00,7.50000000000000e-01,7.29925768632378e-01
1.15448000000000e-07,0.00000000000000e+00,7.50000000000000e-01,7.18840311596364e-01
1.15704000000000e-07,0.00000000000000e+00,7.50000000000000e-01,7.49828285974519e-01
1.16216000000000e-07,0.00000000000000e+00,7.50000000000000e-01,7.48724802720543e-01
1.16778200787293e-07,0.00000000000000e+00,7.50000000000000e-01,7.50554435403220e-01
1.17902602361878e-07,0.00000000000000e+00,7.50000000000000e-01,7.48966343598402e-01
1.20151405511049e-07,0.00000000000000e+00,7.50000000000000e-01,7.50680150106998e-01
1.23951405511049e-07,0.00000000000000e+00,7.50000000000000e-01,7.49085403565927e-01
1.25000000000000e-07,0.00000000000000e+00,7.50000000000000e-01,7.50647556497489e-01
1.25010000000000e-07,7.49999999998865e-02,7.50000000000000e-01,7.50525689123349e-01
1.25030000000000e-07,2.24999999999858e-01,7.50000000000000e-01,7.50336528987167e-01
1.25070000000000e-07,5.24999999999801e-01,7.50000000000000e-01,7.49822383772493e-01
1.25100000000000e-07,7.49999999999858e-01,7.50000000000000e-01,7.47823215583370e-01
1.25108000000000e-07,7.50000000000000e-01,6.89999999999932e-01,7.46969416011010e-01
1.25124000000000e-07,7.50000000000000e-01,5.69999999999994e-01,7.45423950483318e-01
1.25156000000000e-07,7.50000000000000e-01,3.29999999999921e-01,7.43286584664120e-01
1.25200000000000e-07,7.50000000000000e-01,0.00000000000000e+00,7.43353232786888e-01
1.25206400000000e-07,7.50000000000000e-01,0.00000000000000e+00,7.43737607458209e-01
1.25219200000000e-07,7.50000000000000e-01,0.00000000000000e+00,7.44522961503196e-01
1.25244800000000e-07,7.50000000000000e-01,0.00000000000000e+00,7.46038126057312e-01
1.25296000000000e-07,7.50000000000000e-01,0.00000000000000e+00,7.48173188266383e-01
1.25398400000000e-07,7.50000000000000e-01,0.00000000000000e+00,7.49812196627641e-01
1.25603200000000e-07,7.50000000000000e-01,0.00000000000000e+00,7.50063919592685e-01
1.25841248925724e-07,7.50000000000000e-01,0.00000000000000e+00,7.49967050187035e-01
1.26247847049949e-07,7.50000000000000e-01,0.00000000000000e+00,7.50020981520911e-01
1.26974393562498e-07,7.50000000000000e-01,0.00000000000000e+00,7.49983262192440e-01
1.28173543699161e-07,7.50000000000000e-01,0.00000000000000e+00,7.50014481702302e-01
1.30485161076323e-07,7.50000000000000e-01,0.00000000000000e+00,7.49986504275533e-01
1.34285161076323e-07,7.50000000000000e-01,0.00000000000000e+00,7.50012878005699e-01
1.35100000000000e-07,7.49999999999864e-01,0.00000000000000e+00,7.49989625330026e-01
1.35110000000000e-07,6.74999999999778e-01,0.00000000000000e+00,7.49912784549892e-01
1.35130000000000e-07,5.24999999999807e-01,0.00000000000000e+00,7.49842002666186e-01
1.35170000000000e-07,2.24999999999864e-01,0.00000000000000e+00,7.50604437303711e-01
1.35200000000000e-07,0.00000000000000e+00,0.00000000000000e+00,7.52446042762492e-01
1.35208000000000e-07,0.00000000000000e+00,0.00000000000000e+00,7.52961994144048e-01
1.35224000000000e-07,0.00000000000000e+00,0.00000000000000e+00,7.53709908702722e-01
