Time,v(clk),v(data),v(out)
1.00000000000000e-08,7.50000000000000e-01,0.00000000000000e+00,-2.38397101486735e-05
1.00100000000000e-08,7.50000000000000e-01,7.49999999999982e-02,-1.82575491870021e-05
1.00300000000000e-08,7.50000000000000e-01,2.24999999999995e-01,-1.11379630629155e-05
1.00700000000000e-08,7.50000000000000e-01,5.24999999999987e-01,-5.57802550266856e-06
1.01000000000000e-08,7.50000000000000e-01,7.49999999999994e-01,-2.71968534501510e-06
1.01080000000000e-08,7.50000000000000e-01,7.50000000000000e-01,-1.70246232831378e-06
1.01240000000000e-08,7.50000000000000e-01,7.50000000000000e-01,4.89647425612472e-07
1.01560000000000e-08,7.50000000000000e-01,7.50000000000000e-01,4.41869644590004e-06
1.02200000000000e-08,7.50000000000000e-01,7.50000000000000e-01,2.32152753147988e-06
1.03480000000000e-08,7.50000000000000e-01,7.50000000000000e-01,-4.74400727375202e-07
1.06040000000000e-08,7.50000000000000e-01,7.50000000000000e-01,1.90305475649376e-06
1.11160000000000e-08,7.50000000000000e-01,7.50000000000000e-01,9.08239722291482e-07
1.21400000000000e-08,7.50000000000000e-01,7.50000000000000e-01,1.20426492789590e-06
1.41880000000000e-08,7.50000000000000e-01,7.50000000000000e-01,7.98398214416508e-07
1.51000000000000e-08,7.50000000000000e-01,7.50000000000000e-01,7.86079186194076e-07
1.51100000000000e-08,6.74999999999989e-01,7.50000000000000e-01,-6.29177078437307e-05
1.51300000000000e-08,5.24999999999993e-01,7.50000000000000e-01,-1.44830555938683e-04
1.51700000000000e-08,2.25000000000000e-01,7.50000000000000e-01,-8.96833196283794e-05
1.52000000000000e-08,0.00000000000000e+00,7.50000000000000e-01,1.47389210215162e-04
1.52080000000000e-08,0.00000000000000e+00,7.50000000000000e-01,2.59510926447132e-04
1.52240000000000e-08,0.00000000000000e+00,7.50000000000000e-01,3.58267155482463e-04
1.52560000000000e-08,0.00000000000000e+00,7.50000000000000e-01,2.02163963098953e-04
1.53200000000000e-08,0.00000000000000e+00,7.50000000000000e-01,-1.14435955502534e-04
1.54480000000000e-08,0.00000000000000e+00,7.50000000000000e-01,-9.20467334264950e-05
1.57040000000000e-08,0.00000000000000e+00,7.50000000000000e-01,-2.55422807043642e-04
1.60864519760578e-08,0.00000000000000e+00,7.50000000000000e-01,2.58224519287807e-04
1.66611120774508e-08,0.00000000000000e+00,7.50000000000000e-01,-6.83268317013238e-05
1.74525715451530e-08,0.00000000000000e+00,7.50000000000000e-01,-1.45432652027544e-05
1.87677778085665e-08,0.00000000000000e+00,7.50000000000000e-01,5.04604666877778e-05
2.13137898055719e-08,0.00000000000000e+00,7.50000000000000e-01,-6.67846422757513e-05
2.50000000000000e-08,0.00000000000000e+00,7.50000000000000e-01,7.58081611480374e-05
2.50100000000000e-08,7.49999999999858e-02,7.50000000000000e-01,1.30657612315642e-04
2.50300000000000e-08,2.25000000000007e-01,7.50000000000000e-01,2.11007466694127e-04
2.50700000000000e-08,5.25000000000000e-01,7.50000000000000e-01,1.58098912094111e-04
2.51000000000000e-08,7.50000000000000e-01,7.50000000000000e-01,-2.34819864708478e-03
2.51080000000000e-08,7.50000000000000e-01,7.50000000000000e-01,-3.49561206312069e-03
2.51240000000000e-08,7.50000000000000e-01,7.50000000000000e-01,-5.44136695478921e-03
2.51560000000000e-08,7.50000000000000e-01,7.50000000000000e-01,-6.13644808912146e-03
2.52200000000000e-08,7.50000000000000e-01,7.50000000000000e-01,7.01017477719956e-02
2.53480000000000e-08,7.50000000000000e-01,7.50000000000000e-01,5.06607660424734e-01
2.56040000000000e-08,7.50000000000000e-01,7.50000000000000e-01,7.80668692806766e-01
2.59200450819175e-08,7.50000000000000e-01,7.50000000000000e-01,7.24731931730739e-01
2.64977453811783e-08,7.50000000000000e-01,7.50000000000000e-01,7.71796212424511e-01
2.72562172989880e-08,7.50000000000000e-01,7.50000000000000e-01,7.29518466606267e-01
2.87731611346074e-08,7.50000000000000e-01,7.50000000000000e-01,7.68991947506139e-01
3.01000000000000e-08,7.50000000000000e-01,7.50000000000000e-01,7.31476079470133e-01
3.01100000000000e-08,7.50000000000000e-01,6.75000000000039e-01,7.37961785786178e-01
3.01300000000000e-08,7.50000000000000e-01,5.25000000000018e-01,7.46416464459615e-01
3.01700000000000e-08,7.50000000000000e-01,2.25000000000025e-01,7.50158326018457e-01
3.02000000000000e-08,7.50000000000000e-01,1.80966353013901e-14,7.50053502048476e-01
3.02080000000000e-08,7.50000000000000e-01,0.00000000000000e+00,7.50035470148567e-01
3.02240000000000e-08,7.50000000000000e-01,0.00000000000000e+00,7.50002606621372e-01
3.02560000000000e-08,7.50000000000000e-01,0.00000000000000e+00,7.49965368441167e-01
3.03200000000000e-08,7.50000000000000e-01,0.00000000000000e+00,7.49950743016699e-01
3.04480000000000e-08,7.50000000000000e-01,0.00000000000000e+00,7.49981163460544e-01
3.06355266810769e-08,7.50000000000000e-01,0.00000000000000e+00,7.49964123518674e-01
3.10105800432308e-08,7.50000000000000e-01,0.00000000000000e+00,7.49956090662581e-01
3.14224396281125e-08,7.50000000000000e-01,0.00000000000000e+00,7.49979805571120e-01
3.22461587978760e-08,7.50000000000000e-01,0.00000000000000e+00,7.49956668085596e-01
3.38935971374029e-08,7.50000000000000e-01,0.00000000000000e+00,7.49987805835677e-01
3.51000000000000e-08,7.49999999999963e-01,0.00000000000000e+00,7.49962943526991e-01
3.51100000000000e-08,6.74999999999977e-01,0.00000000000000e+00,7.49890115490704e-01
3.51300000000000e-08,5.24999999999956e-01,0.00000000000000e+00,7.49811535911615e-01
3.51700000000000e-08,2.24999999999963e-01,0.00000000000000e+00,7.50565043614641e-01
3.52000000000000e-08,0.00000000000000e+00,0.00000000000000e+00,7.52332523870514e-01
3.52080000000000e-08,0.00000000000000e+00,0.00000000000000e+00,7.52745993544992e-01
3.52240000000000e-08,0.00000000000000e+00,0.00000000000000e+00,7.53012307194755e-01
3.52560000000000e-08,0.00000000000000e+00,0.00000000000000e+00,7.49397178045070e-01
3.53200000000000e-08,0.00000000000000e+00,0.00000000000000e+00,7.29931410687802e-01
3.54480000000000e-08,0.00000000000000e+00,0.00000000000000e+00,7.17915065738383e-01
3.57004230441599e-08,0.00000000000000e+00,0.00000000000000e+00,7.49292151330077e-01
3.59661281755134e-08,0.00000000000000e+00,0.00000000000000e+00,7.49298558068076e-01
3.64975384382206e-08,0.00000000000000e+00,0.00000000000000e+00,7.50070720189842e-01
3.71167236628568e-08,0.00000000000000e+00,0.00000000000000e+00,7.49373698692435e-01
3.83200930393347e-08,0.00000000000000e+00,0.00000000000000e+00,7.50217243645006e-01
3.91000000000000e-08,0.00000000000000e+00,0.00000000000000e+00,7.49467194646610e-01
3.92929233836616e-08,0.00000000000000e+00,0.00000000000000e+00,7.49823555487689e-01
3.96787701509846e-08,0.00000000000000e+00,0.00000000000000e+00,7.49884354025425e-01
4.04504636856308e-08,0.00000000000000e+00,0.00000000000000e+00,7.49838910190221e-01
4.19938507549232e-08,0.00000000000000e+00,0.00000000000000e+00,7.49909418932215e-01
4.50000000000000e-08,0.00000000000000e+00,0.00000000000000e+00,7.49868510566780e-01
4.50100000000000e-08,7.49999999999858e-02,0.00000000000000e+00,7.49947944387638e-01
4.50300000000000e-08,2.25000000000007e-01,0.00000000000000e+00,7.50035393084270e-01
4.50700000000000e-08,5.25000000000000e-01,0.00000000000000e+00,7.49919447157998e-01
4.51000000000000e-08,7.50000000000000e-01,0.00000000000000e+00,7.49600051703734e-01
4.51080000000000e-08,7.50000000000000e-01,0.00000000000000e+00,7.49504267132056e-01
4.51240000000000e-08,7.50000000000000e-01,0.00000000000000e+00,7.49404390737875e-01
4.51560000000000e-08,7.50000000000000e-01,0.00000000000000e+00,7.49773360939398e-01
4.52200000000000e-08,7.50000000000000e-01,0.00000000000000e+00,7.54870543142588e-01
4.53480000000000e-08,7.50000000000000e-01,0.00000000000000e+00,6.82638444360148e-01
4.56040000000000e-08,7.50000000000000e-01,0.00000000000000e+00,6.68721840039449e-02
4.59124882472614e-08,7.50000000000000e-01,0.00000000000000e+00,-4.36482260427961e-02
4.64143350638789e-08,7.50000000000000e-01,0.00000000000000e+00,3.86169851174562e-02
4.71029499662388e-08,7.50000000000000e-01,0.00000000000000e+00,-3.18567329993488e-02
4.84328912615714e-08,7.50000000000000e-01,0.00000000000000e+00,3.12222034920138e-02
5.00000000000000e-08,7.50000000000000e-01,0.00000000000000e+00,-2.81300772018437e-02
5.00100000000000e-08,7.50000000000000e-01,7.49999999999858e-02,-1.86434308490148e-02
5.00300000000000e-08,7.50000000000000e-01,2.24999999999957e-01,-6.88610351751204e-03
5.00700000000000e-08,7.50000000000000e-01,5.25000000000000e-01,-7.05787782567732e-04
5.01000000000000e-08,7.50000000000000e-01,7.50000000000000e-01,-8.89482463592439e-05
5.01080000000000e-08,7.50000000000000e-01,7.50000000000000e-01,-1.21608701528199e-04
5.01240000000000e-08,7.50000000000000e-01,7.50000000000000e-01,-8.14723039713888e-05
5.01560000000000e-08,7.50000000000000e-01,7.50000000000000e-01,-4.92517341668663e-06
5.02200000000000e-08,7.50000000000000e-01,7.50000000000000e-01,-2.29849069847340e-05
5.03480000000000e-08,7.50000000000000e-01,7.50000000000000e-01,1.16175711956240e-05
5.06040000000000e-08,7.50000000000000e-01,7.50000000000000e-01,-1.13639574720516e-05
5.11160000000001e-08,7.50000000000000e-01,7.50000000000000e-01,9.61711464868720e-06
5.21400000000002e-08,7.50000000000000e-01,7.50000000000000e-01,-1.08939200832376e-05
5.41880000000003e-08,7.50000000000000e-01,7.50000000000000e-01,8.79050276215206e-06
5.51000000000000e-08,7.50000000000000e-01,7.50000000000000e-01,-1.00158835683326e-05
5.51100000000000e-08,6.75000000000027e-01,7.50000000000000e-01,-6.61837360020068e-05
5.51300000000000e-08,5.25000000000005e-01,7.50000000000000e-01,-1.41816507374617e-04
5.51700000000000e-08,2.25000000000013e-01,7.50000000000000e-01,-8.23531952688916e-05
5.52000000000000e-08,0.00000000000000e+00,7.50000000000000e-01,1.40523148222313e-04
5.52080000000000e-08,0.00000000000000e+00,7.50000000000000e-01,2.48175300755521e-04
5.52240000000000e-08,0.00000000000000e+00,7.50000000000000e-01,3.25509511188683e-04
5.52560000000000e-08,0.00000000000000e+00,7.50000000000000e-01,-4.85034887763580e-06
5.53200000000000e-08,0.00000000000000e+00,7.50000000000000e-01,-1.21552353350414e-03
5.54480000000000e-08,0.00000000000000e+00,7.50000000000000e-01,-2.75526345663159e-04
5.56451123823290e-08,0.00000000000000e+00,7.50000000000000e-01,-1.35521944560298e-04
5.60393371469870e-08,0.00000000000000e+00,7.50000000000000e-01,8.96447400573087e-05
5.64962870959233e-08,0.00000000000000e+00,7.50000000000000e-01,1.79824087712922e-04
5.72867395016169e-08,0.00000000000000e+00,7.50000000000000e-01,-2.62152515969114e-04
5.83989602694170e-08,0.00000000000000e+00,7.50000000000000e-01,2.96879964829724e-04
6.03689525711326e-08,0.00000000000000e+00,7.50000000000000e-01,-3.13691841435324e-04
6.36376449908978e-08,0.00000000000000e+00,7.50000000000000e-01,3.19294922245749e-04
6.50000000000000e-08,0.00000000000000e+00,7.50000000000000e-01,-3.33723806732679e-04
6.50100000000000e-08,7.49999999999858e-02,7.50000000000000e-01,-4.75399939922627e-05
6.50300000000000e-08,2.24999999999957e-01,7.50000000000000e-01,2.64632964635164e-04
6.50700000000000e-08,5.24999999999900e-01,7.50000000000000e-01,2.36285489377056e-04
6.51000000000000e-08,7.49999999999957e-01,7.50000000000000e-01,-2.20753926387742e-03
6.51080000000000e-08,7.50000000000000e-01,7.50000000000000e-01,-3.35959554526437e-03
6.51240000000000e-08,7.50000000000000e-01,7.50000000000000e-01,-5.33421877058894e-03
6.51560000000000e-08,7.50000000000000e-01,7.50000000000000e-01,-6.04828867977867e-03
6.52200000000000e-08,7.50000000000000e-01,7.50000000000000e-01,7.08683078781204e-02
6.53480000000000e-08,7.50000000000000e-01,7.50000000000000e-01,5.07878675748078e-01
6.56040000000000e-08,7.50000000000000e-01,7.50000000000000e-01,7.80663703276607e-01
6.59200117175398e-08,7.50000000000000e-01,7.50000000000000e-01,7.24723005543879e-01
6.64974259387212e-08,7.50000000000000e-01,7.50000000000000e-01,7.71789744088114e-01
6.72566611857696e-08,7.50000000000000e-01,7.50000000000000e-01,7.29517942845029e-01
6.87751316798665e-08,7.50000000000000e-01,7.50000000000000e-01,7.68986956608801e-01
7.01000000000000e-08,7.50000000000000e-01,7.50000000000000e-01,7.31478527520713e-01
7.01100000000000e-08,7.50000000000000e-01,6.75000000000014e-01,7.37961104455529e-01
7.01300000000000e-08,7.50000000000000e-01,5.25000000000043e-01,7.46412575947669e-01
7.01700000000000e-08,7.50000000000000e-01,2.25000000000100e-01,7.50156005882349e-01
7.02000000000000e-08,7.50000000000000e-01,4.29656310529936e-14,7.50050442296410e-01
7.02080000000000e-08,7.50000000000000e-01,0.00000000000000e+00,7.50033972217567e-01
7.02240000000000e-08,7.50000000000000e-01,0.00000000000000e+00,7.50003557956712e-01
7.02560000000000e-08,7.50000000000000e-01,0.00000000000000e+00,7.49967747823676e-01
7.03200000000000e-08,7.50000000000000e-01,0.00000000000000e+00,7.49951667889338e-01
7.04480000000000e-08,7.50000000000000e-01,0.00000000000000e+00,7.49979288108585e-01
7.06356072952089e-08,7.50000000000000e-01,0.00000000000000e+00,7.49965167712240e-01
7.10108218856266e-08,7.50000000000000e-01,0.00000000000000e+00,7.49955914492283e-01
7.14232432224823e-08,7.50000000000000e-01,0.00000000000000e+00,7.49979917133130e-01
7.22480858961938e-08,7.50000000000000e-01,0.00000000000000e+00,7.49956864264668e-01
7.38977712436167e-08,7.50000000000000e-01,0.00000000000000e+00,7.49987743143986e-01
7.51000000000000e-08,7.50000000000000e-01,0.00000000000000e+00,7.49963185787055e-01
7.51100000000000e-08,6.75000000000076e-01,0.00000000000000e+00,7.49894941916240e-01
7.51300000000000e-08,5.25000000000105e-01,0.00000000000000e+00,7.49819084709464e-01
7.51700000000000e-08,2.25000000000162e-01,0.00000000000000e+00,7.50565834845170e-01
7.52000000000000e-08,1.05027098129540e-13,0.00000000000000e+00,7.52332025545531e-01
7.52080000000000e-08,0.00000000000000e+00,0.00000000000000e+00,7.52748235988242e-01
7.52240000000000e-08,0.00000000000000e+00,0.00000000000000e+00,7.53017699700730e-01
7.52560000000000e-08,0.00000000000000e+00,0.00000000000000e+00,7.49403203042631e-01
7.53200000000000e-08,0.00000000000000e+00,0.00000000000000e+00,7.29933168583877e-01
7.54480000000000e-08,0.00000000000000e+00,0.00000000000000e+00,7.17906821557863e-01
7.57004235823081e-08,0.00000000000000e+00,0.00000000000000e+00,7.49303876189395e-01
7.59661286971615e-08,0.00000000000000e+00,0.00000000000000e+00,7.49290235225273e-01
7.64975389268683e-08,0.00000000000000e+00,0.00000000000000e+00,7.50077922864609e-01
7.71167243280332e-08,0.00000000000000e+00,0.00000000000000e+00,7.49367656524000e-01
7.81000000000000e-08,0.00000000000000e+00,0.00000000000000e+00,7.50211846150591e-01
7.82203368156260e-08,0.00000000000000e+00,0.00000000000000e+00,7.49859305429648e-01
7.84610104468779e-08,0.00000000000000e+00,0.00000000000000e+00,7.49783830081512e-01
7.89423577093819e-08,0.00000000000000e+00,0.00000000000000e+00,7.49882150050945e-01
7.99050522343897e-08,0.00000000000000e+00,0.00000000000000e+00,7.49820591759999e-01
8.18304412844053e-08,0.00000000000000e+00,0.00000000000000e+00,7.49918932393694e-01
8.50000000000000e-08,0.00000000000000e+00,0.00000000000000e+00,7.49858672109704e-01
8.50100000000000e-08,7.49999999999858e-02,0.00000000000000e+00,7.49941184796652e-01
8.50300000000000e-08,2.24999999999957e-01,0.00000000000000e+00,7.50032305581442e-01
8.50700000000000e-08,5.24999999999900e-01,0.00000000000000e+00,7.49918999268704e-01
8.51000000000000e-08,7.49999999999957e-01,0.00000000000000e+00,7.49599909388694e-01
8.51080000000000e-08,7.50000000000000e-01,0.00000000000000e+00,7.49504020798743e-01
8.51240000000000e-08,7.50000000000000e-01,0.00000000000000e+00,7.49403827453884e-01
8.51560000000000e-08,7.50000000000000e-01,0.00000000000000e+00,7.49772976079354e-01
8.52200000000000e-08,7.50000000000000e-01,0.00000000000000e+00,7.54870442496763e-01
8.53480000000000e-08,7.50000000000000e-01,0.00000000000000e+00,6.82645290133899e-01
8.56040000000000e-08,7.50000000000000e-01,0.00000000000000e+00,6.68744482863377e-02
8.59124867168115e-08,7.50000000000000e-01,0.00000000000000e+00,-4.36494047976450e-02
8.64143356555043e-08,7.50000000000000e-01,0.00000000000000e+00,3.86181679628875e-02
8.71029478282368e-08,7.50000000000000e-01,0.00000000000000e+00,-3.18576170404668e-02
8.84328753862961e-08,7.50000000000000e-01,0.00000000000000e+00,3.12231156223793e-02
9.00000000000000e-08,7.50000000000000e-01,0.00000000000000e+00,-2.81308646692328e-02
9.00100000000000e-08,7.50000000000000e-01,7.49999999999858e-02,-1.86438905229743e-02
9.00300000000000e-08,7.50000000000000e-01,2.24999999999957e-01,-6.88624817261953e-03
9.00700000000000e-08,7.50000000000000e-01,5.24999999999900e-01,-7.05822977115522e-04
9.01000000000000e-08,7.50000000000000e-01,7.49999999999957e-01,-8.89470315852681e-05
9.01080000000000e-08,7.50000000000000e-01,7.50000000000000e-01,-1.21613164785823e-04
9.01240000000000e-08,7.50000000000000e-01,7.50000000000000e-01,-8.14768953552522e-05
9.01560000000000e-08,7.50000000000000e-01,7.50000000000000e-01,-4.92527222115124e-06
9.02200000000000e-08,7.50000000000000e-01,7.50000000000000e-01,-2.29873805625627e-05
9.03480000000000e-08,7.50000000000000e-01,7.50000000000000e-01,1.16192103984288e-05
9.06040000000000e-08,7.50000000000000e-01,7.50000000000000e-01,-1.13653803879218e-05
9.11159999999999e-08,7.50000000000000e-01,7.50000000000000e-01,9.61837361518076e-06
9.21399999999999e-08,7.50000000000000e-01,7.50000000000000e-01,-1.08952183068512e-05
9.41879999999998e-08,7.50000000000000e-01,7.50000000000000e-01,8.79167427132298e-06
9.51000000000000e-08,7.50000000000000e-01,7.50000000000000e-01,-1.00170846582112e-05
9.51100000000000e-08,6.75000000000076e-01,7.50000000000000e-01,-6.61839932781724e-05
9.51300000000000e-08,5.25000000000105e-01,7.50000000000000e-01,-1.41816137039015e-04
9.51700000000000e-08,2.25000000000162e-01,7.50000000000000e-01,-8.23530440729747e-05
9.52000000000000e-08,1.05027098129540e-13,7.50000000000000e-01,1.40522926068400e-04
9.52080000000000e-08,0.00000000000000e+00,7.50000000000000e-01,2.48174883495281e-04
9.52240000000000e-08,0.00000000000000e+00,7.50000000000000e-01,3.25508321989833e-04
9.52560000000000e-08,0.00000000000000e+00,7.50000000000000e-01,-4.85561277742408e-06
9.53200000000000e-08,0.00000000000000e+00,7.50000000000000e-01,-1.21553743281776e-03
9.54480000000000e-08,0.00000000000000e+00,7.50000000000000e-01,-2.75535536644590e-04
9.56451117697289e-08,0.00000000000000e+00,7.50000000000000e-01,-1.35518787940346e-04
9.60393353091868e-08,0.00000000000000e+00,7.50000000000000e-01,8.96423599942471e-05
9.64962843151529e-08,0.00000000000000e+00,7.50000000000000e-01,1.79826373867133e-04
9.72867351793373e-08,0.00000000000000e+00,7.50000000000000e-01,-2.62154530258716e-04
9.83989535177349e-08,0.00000000000000e+00,7.50000000000000e-01,2.96881681361761e-04
1.00368940032910e-07,0.00000000000000e+00,7.50000000000000e-01,-3.13693420962135e-04
1.03637623601586e-07,0.00000000000000e+00,7.50000000000000e-01,3.19296393687290e-04
1.05000000000000e-07,0.00000000000000e+00,7.50000000000000e-01,-3.33724864748967e-04
1.05010000000000e-07,7.49999999999858e-02,7.50000000000000e-01,-4.75413916066827e-05
1.05030000000000e-07,2.24999999999957e-01,7.50000000000000e-01,2.64631759567056e-04
1.05070000000000e-07,5.24999999999900e-01,7.50000000000000e-01,2.36284026074091e-04
1.05100000000000e-07,7.49999999999957e-01,7.50000000000000e-01,-2.20754363911132e-03
1.05108000000000e-07,7.50000000000000e-01,7.50000000000000e-01,-3.35959994871711e-03
1.05124000000000e-07,7.50000000000000e-01,7.50000000000000e-01,-5.33422240144476e-03
1.05156000000000e-07,7.50000000000000e-01,7.50000000000000e-01,-6.04828365059143e-03
1.05220000000000e-07,7.50000000000000e-01,7.50000000000000e-01,7.08684211800552e-02
1.05348000000000e-07,7.50000000000000e-01,7.50000000000000e-01,5.07878873281577e-01
1.05604000000000e-07,7.50000000000000e-01,7.50000000000000e-01,7.80663702602254e-01
1.05920011710994e-07,7.50000000000000e-01,7.50000000000000e-01,7.24723004035475e-01
1.06497425894320e-07,7.50000000000000e-01,7.50000000000000e-01,7.71789743209882e-01
1.07256661256614e-07,7.50000000000000e-01,7.50000000000000e-01,7.29517942627541e-01
