Time,v(clk),v(data),v(out)
1.00000000000000e-08,7.50000000000000e-01,0.00000000000000e+00,1.33410236404846e-05
1.00100000000000e-08,7.50000000000000e-01,7.49999999999982e-02,1.10680341150610e-05
1.00300000000000e-08,7.50000000000000e-01,2.24999999999995e-01,7.45776937319254e-06
1.00700000000000e-08,7.50000000000000e-01,5.24999999999987e-01,4.14252283383737e-06
1.01000000000000e-08,7.50000000000000e-01,7.49999999999994e-01,1.97959640230172e-06
1.01080000000000e-08,7.50000000000000e-01,7.50000000000000e-01,1.86224844096750e-06
1.01240000000000e-08,7.50000000000000e-01,7.50000000000000e-01,2.94131233216643e-06
1.01560000000000e-08,7.50000000000000e-01,7.50000000000000e-01,5.35992514726080e-06
1.02200000000000e-08,7.50000000000000e-01,7.50000000000000e-01,5.84780346802455e-06
1.03480000000000e-08,7.50000000000000e-01,7.50000000000000e-01,2.65699262394503e-06
1.06040000000000e-08,7.50000000000000e-01,7.50000000000000e-01,2.98416044521368e-06
1.10643824167328e-08,7.50000000000000e-01,7.50000000000000e-01,2.90825421475627e-06
1.19851472501984e-08,7.50000000000000e-01,7.50000000000000e-01,2.92985059112058e-06
1.38266769171296e-08,7.50000000000000e-01,7.50000000000000e-01,2.53057812672243e-06
1.51000000000000e-08,7.50000000000000e-01,7.50000000000000e-01,2.68681443351283e-06
1.51100000000000e-08,6.74999999999989e-01,7.50000000000000e-01,-5.90132344366751e-05
1.51300000000000e-08,5.24999999999993e-01,7.50000000000000e-01,-1.45290149084751e-04
1.51700000000000e-08,2.25000000000000e-01,7.50000000000000e-01,-2.00278733601122e-05
1.52000000000000e-08,0.00000000000000e+00,7.50000000000000e-01,3.20790135160981e-04
1.52080000000000e-08,0.00000000000000e+00,7.50000000000000e-01,4.38908955016817e-04
1.52240000000000e-08,0.00000000000000e+00,7.50000000000000e-01,5.34594365008620e-04
1.52560000000000e-08,0.00000000000000e+00,7.50000000000000e-01,2.82907601900355e-04
1.53200000000000e-08,0.00000000000000e+00,7.50000000000000e-01,-3.07283095882321e-04
1.54480000000000e-08,0.00000000000000e+00,7.50000000000000e-01,-7.84663691852996e-05
1.56967605370412e-08,0.00000000000000e+00,7.50000000000000e-01,-2.09694846593951e-04
1.60147545613722e-08,0.00000000000000e+00,7.50000000000000e-01,1.83296117258858e-04
1.65630992847178e-08,0.00000000000000e+00,7.50000000000000e-01,3.58514389579116e-05
1.73446820816121e-08,0.00000000000000e+00,7.50000000000000e-01,-1.08566763185399e-04
1.85924614004425e-08,0.00000000000000e+00,7.50000000000000e-01,1.40983151446732e-04
2.10880200381035e-08,0.00000000000000e+00,7.50000000000000e-01,-1.49981715757006e-04
2.48880200381035e-08,0.00000000000000e+00,7.50000000000000e-01,1.58526032675876e-04
2.50000000000000e-08,0.00000000000000e+00,7.50000000000000e-01,-1.62936755201071e-04
2.50100000000000e-08,7.49999999999858e-02,7.50000000000000e-01,-1.22413888367506e-05
2.50300000000000e-08,2.25000000000007e-01,7.50000000000000e-01,2.11631951314739e-04
2.50700000000000e-08,5.25000000000000e-01,7.50000000000000e-01,4.53969143479400e-04
2.51000000000000e-08,7.50000000000000e-01,7.50000000000000e-01,2.43776558174966e-05
2.51080000000000e-08,7.50000000000000e-01,7.50000000000000e-01,-4.13694627302771e-04
2.51240000000000e-08,7.50000000000000e-01,7.50000000000000e-01,-1.45195548265563e-03
2.51560000000000e-08,7.50000000000000e-01,7.50000000000000e-01,-3.68498073105698e-03
2.52200000000000e-08,7.50000000000000e-01,7.50000000000000e-01,-5.64136115014152e-03
2.53480000000000e-08,7.50000000000000e-01,7.50000000000000e-01,1.42352040546081e-01
2.56040000000000e-08,7.50000000000000e-01,7.50000000000000e-01,7.08968481867082e-01
2.61160000000000e-08,7.50000000000000e-01,7.50000000000000e-01,7.62835647796385e-01
2.66520603999114e-08,7.50000000000000e-01,7.50000000000000e-01,7.37134563583707e-01
2.76001285186079e-08,7.50000000000000e-01,7.50000000000000e-01,7.61670635454559e-01
2.89372247768328e-08,7.50000000000000e-01,7.50000000000000e-01,7.38135635474663e-01
3.01000000000000e-08,7.50000000000000e-01,7.50000000000000e-01,7.61029900542895e-01
3.01100000000000e-08,7.50000000000000e-01,6.75000000000039e-01,7.55076936246937e-01
3.01300000000000e-08,7.50000000000000e-01,5.25000000000018e-01,7.49638149308282e-01
3.01700000000000e-08,7.50000000000000e-01,2.25000000000025e-01,7.50174469091468e-01
3.02000000000000e-08,7.50000000000000e-01,1.80966353013901e-14,7.49948154774253e-01
3.02080000000000e-08,7.50000000000000e-01,0.00000000000000e+00,7.49970190023884e-01
3.02240000000000e-08,7.50000000000000e-01,0.00000000000000e+00,7.49989144956914e-01
3.02560000000000e-08,7.50000000000000e-01,0.00000000000000e+00,7.49981223988632e-01
3.03200000000000e-08,7.50000000000000e-01,0.00000000000000e+00,7.49995202380846e-01
3.04480000000000e-08,7.50000000000000e-01,0.00000000000000e+00,7.49992649791904e-01
3.06797470995742e-08,7.50000000000000e-01,0.00000000000000e+00,7.49984960974076e-01
3.10010119081485e-08,7.50000000000000e-01,0.00000000000000e+00,7.49989843967768e-01
3.15718835082543e-08,7.50000000000000e-01,0.00000000000000e+00,7.49989209729644e-01
3.27136267084660e-08,7.50000000000000e-01,0.00000000000000e+00,7.49990292263685e-01
3.49971131088893e-08,7.50000000000000e-01,0.00000000000000e+00,7.49992152164886e-01
3.51000000000000e-08,7.49999999999963e-01,0.00000000000000e+00,7.49990345874203e-01
3.51100000000000e-08,6.74999999999977e-01,0.00000000000000e+00,7.49940657814929e-01
3.51300000000000e-08,5.24999999999956e-01,0.00000000000000e+00,7.49900083692296e-01
3.51700000000000e-08,2.24999999999963e-01,0.00000000000000e+00,7.51041265834361e-01
3.52000000000000e-08,0.00000000000000e+00,0.00000000000000e+00,7.52948575602511e-01
3.52080000000000e-08,0.00000000000000e+00,0.00000000000000e+00,7.52773406066777e-01
3.52240000000000e-08,0.00000000000000e+00,0.00000000000000e+00,7.50195347125756e-01
3.52560000000000e-08,0.00000000000000e+00,0.00000000000000e+00,7.37049465426664e-01
3.53200000000000e-08,0.00000000000000e+00,0.00000000000000e+00,7.24961918458300e-01
3.54480000000000e-08,0.00000000000000e+00,0.00000000000000e+00,7.46777465034887e-01
3.56994675292054e-08,0.00000000000000e+00,0.00000000000000e+00,7.50775444219855e-01
3.59956304037088e-08,0.00000000000000e+00,0.00000000000000e+00,7.48640335540182e-01
3.65879561527156e-08,0.00000000000000e+00,0.00000000000000e+00,7.50695567698305e-01
3.73531298970042e-08,0.00000000000000e+00,0.00000000000000e+00,7.49085023342865e-01
3.88834773855813e-08,0.00000000000000e+00,0.00000000000000e+00,7.50680393786904e-01
3.91000000000000e-08,0.00000000000000e+00,0.00000000000000e+00,7.49407864257222e-01
3.94060694977154e-08,0.00000000000000e+00,0.00000000000000e+00,7.49905694952606e-01
4.00182084931463e-08,0.00000000000000e+00,0.00000000000000e+00,7.49973244577959e-01
4.12424864840080e-08,0.00000000000000e+00,0.00000000000000e+00,7.49927754379714e-01
4.36910424657314e-08,0.00000000000000e+00,0.00000000000000e+00,7.49991995094711e-01
4.50000000000000e-08,0.00000000000000e+00,0.00000000000000e+00,7.49944929664646e-01
4.50100000000000e-08,7.49999999999858e-02,0.00000000000000e+00,7.50002723587862e-01
4.50300000000000e-08,2.25000000000007e-01,0.00000000000000e+00,7.50040919554450e-01
4.50700000000000e-08,5.25000000000000e-01,0.00000000000000e+00,7.49981546013625e-01
4.51000000000000e-08,7.50000000000000e-01,0.00000000000000e+00,7.49884950802350e-01
4.51080000000000e-08,7.50000000000000e-01,0.00000000000000e+00,7.49851440547337e-01
4.51240000000000e-08,7.50000000000000e-01,0.00000000000000e+00,7.49828931118927e-01
4.51560000000000e-08,7.50000000000000e-01,0.00000000000000e+00,7.49836283901885e-01
4.52200000000000e-08,7.50000000000000e-01,0.00000000000000e+00,7.49975139270151e-01
4.53480000000000e-08,7.50000000000000e-01,0.00000000000000e+00,7.54608489572128e-01
4.56040000000000e-08,7.50000000000000e-01,0.00000000000000e+00,3.81449096843199e-01
4.60716767770308e-08,7.50000000000000e-01,0.00000000000000e+00,-8.01951313754833e-02
4.65139003107926e-08,7.50000000000000e-01,0.00000000000000e+00,5.34928085176972e-02
4.73753453219765e-08,7.50000000000000e-01,0.00000000000000e+00,-3.47013262178117e-02
4.82469946849201e-08,7.50000000000000e-01,0.00000000000000e+00,2.85902012826417e-02
4.99902934108072e-08,7.50000000000000e-01,0.00000000000000e+00,-2.24284680279833e-02
5.00000000000000e-08,7.50000000000000e-01,0.00000000000000e+00,-2.11082638105806e-02
5.00100000000000e-08,7.50000000000000e-01,7.49999999999858e-02,-1.82206224901555e-02
5.00300000000000e-08,7.50000000000000e-01,2.24999999999957e-01,-1.29761850357764e-02
5.00700000000000e-08,7.50000000000000e-01,5.25000000000000e-01,-6.11548525281883e-03
5.01000000000000e-08,7.50000000000000e-01,7.50000000000000e-01,-3.55233128493207e-03
5.01080000000000e-08,7.50000000000000e-01,7.50000000000000e-01,-3.10778073782983e-03
5.01240000000000e-08,7.50000000000000e-01,7.50000000000000e-01,-2.21963397966159e-03
5.01560000000000e-08,7.50000000000000e-01,7.50000000000000e-01,-1.24352631343987e-03
5.02200000000000e-08,7.50000000000000e-01,7.50000000000000e-01,-3.35341154263126e-04
5.03480000000000e-08,7.50000000000000e-01,7.50000000000000e-01,2.02525160025585e-05
5.06040000000000e-08,7.50000000000000e-01,7.50000000000000e-01,-5.38259249909315e-06
5.10965627082964e-08,7.50000000000000e-01,7.50000000000000e-01,4.37455880304694e-06
5.20816881248891e-08,7.50000000000000e-01,7.50000000000000e-01,-1.62286844086756e-06
5.40519389580745e-08,7.50000000000000e-01,7.50000000000000e-01,2.75344561352642e-06
5.51000000000000e-08,7.50000000000000e-01,7.50000000000000e-01,1.19705160811501e-07
5.51100000000000e-08,6.75000000000027e-01,7.50000000000000e-01,-6.04806588955648e-05
5.51300000000000e-08,5.25000000000005e-01,7.50000000000000e-01,-1.42549329077243e-04
5.51700000000000e-08,2.25000000000013e-01,7.50000000000000e-01,-1.08603400304913e-05
5.52000000000000e-08,0.00000000000000e+00,7.50000000000000e-01,3.07295783584682e-04
5.52080000000000e-08,0.00000000000000e+00,7.50000000000000e-01,4.03848462850895e-04
5.52240000000000e-08,0.00000000000000e+00,7.50000000000000e-01,3.83637128905837e-04
5.52560000000000e-08,0.00000000000000e+00,7.50000000000000e-01,-4.83239732555034e-04
5.53200000000000e-08,0.00000000000000e+00,7.50000000000000e-01,-1.45418009550023e-03
5.54480000000000e-08,0.00000000000000e+00,7.50000000000000e-01,-2.95368477809269e-04
5.56951996864167e-08,0.00000000000000e+00,7.50000000000000e-01,-8.66536945317853e-05
5.60148796342319e-08,0.00000000000000e+00,7.50000000000000e-01,1.08829166031648e-04
5.65593296336715e-08,0.00000000000000e+00,7.50000000000000e-01,7.33110209333449e-05
5.73416538298100e-08,0.00000000000000e+00,7.50000000000000e-01,-1.38764447955887e-04
5.85842994989978e-08,0.00000000000000e+00,7.50000000000000e-01,1.67626636782118e-04
6.10695908373732e-08,0.00000000000000e+00,7.50000000000000e-01,-1.74812695100641e-04
6.48695908373732e-08,0.00000000000000e+00,7.50000000000000e-01,1.82156282685957e-04
6.50000000000000e-08,0.00000000000000e+00,7.50000000000000e-01,-1.70706291356522e-04
6.50100000000000e-08,7.49999999999858e-02,7.50000000000000e-01,-2.15678852454743e-05
6.50300000000000e-08,2.24999999999957e-01,7.50000000000000e-01,2.06689191948148e-04
6.50700000000000e-08,5.24999999999900e-01,7.50000000000000e-01,4.56922333525019e-04
6.51000000000000e-08,7.49999999999957e-01,7.50000000000000e-01,3.24682907538038e-05
6.51080000000000e-08,7.50000000000000e-01,7.50000000000000e-01,-4.02428819200787e-04
6.51240000000000e-08,7.50000000000000e-01,7.50000000000000e-01,-1.43687335748235e-03
6.51560000000000e-08,7.50000000000000e-01,7.50000000000000e-01,-3.67122223848315e-03
6.52200000000000e-08,7.50000000000000e-01,7.50000000000000e-01,-5.64668012807418e-03
6.53480000000000e-08,7.50000000000000e-01,7.50000000000000e-01,1.41908080247746e-01
6.56040000000000e-08,7.50000000000000e-01,7.50000000000000e-01,7.08792841873858e-01
6.61159999999999e-08,7.50000000000000e-01,7.50000000000000e-01,7.62884369188118e-01
6.66516210158647e-08,7.50000000000000e-01,7.50000000000000e-01,7.37085486784759e-01
6.76001134769814e-08,7.50000000000000e-01,7.50000000000000e-01,7.61715267124965e-01
6.89369396962293e-08,7.50000000000000e-01,7.50000000000000e-01,7.38089619945852e-01
7.01000000000000e-08,7.50000000000000e-01,7.50000000000000e-01,7.61072242174004e-01
7.01100000000000e-08,7.50000000000000e-01,6.75000000000014e-01,7.55095982171107e-01
7.01300000000000e-08,7.50000000000000e-01,5.25000000000043e-01,7.49636227641123e-01
7.01700000000000e-08,7.50000000000000e-01,2.25000000000100e-01,7.50175239400188e-01
7.02000000000000e-08,7.50000000000000e-01,4.29656310529936e-14,7.49947831208406e-01
7.02080000000000e-08,7.50000000000000e-01,0.00000000000000e+00,7.49970003087875e-01
7.02240000000000e-08,7.50000000000000e-01,0.00000000000000e+00,7.49989093492290e-01
7.02560000000000e-08,7.50000000000000e-01,0.00000000000000e+00,7.49981163956032e-01
7.03200000000000e-08,7.50000000000000e-01,0.00000000000000e+00,7.49995181519563e-01
7.04480000000000e-08,7.50000000000000e-01,0.00000000000000e+00,7.49992607478492e-01
7.06798083373275e-08,7.50000000000000e-01,0.00000000000000e+00,7.49984947505157e-01
7.10010867812241e-08,7.50000000000000e-01,0.00000000000000e+00,7.49989816036544e-01
7.15720938329361e-08,7.50000000000000e-01,0.00000000000000e+00,7.49989195226796e-01
7.27141079363601e-08,7.50000000000000e-01,0.00000000000000e+00,7.49990272839077e-01
7.49981361432082e-08,7.50000000000000e-01,0.00000000000000e+00,7.49992144804885e-01
7.51000000000000e-08,7.50000000000000e-01,0.00000000000000e+00,7.49990346573092e-01
7.51100000000000e-08,6.75000000000076e-01,0.00000000000000e+00,7.49940697458024e-01
7.51300000000000e-08,5.25000000000105e-01,0.00000000000000e+00,7.49900037134347e-01
7.51700000000000e-08,2.25000000000162e-01,0.00000000000000e+00,7.51041150967414e-01
7.52000000000000e-08,1.05027098129540e-13,0.00000000000000e+00,7.52948096951384e-01
7.52080000000000e-08,0.00000000000000e+00,0.00000000000000e+00,7.52772345462820e-01
7.52240000000000e-08,0.00000000000000e+00,0.00000000000000e+00,7.50192750315026e-01
7.52560000000000e-08,0.00000000000000e+00,0.00000000000000e+00,7.37045367952896e-01
7.53200000000000e-08,0.00000000000000e+00,0.00000000000000e+00,7.24960633064599e-01
7.54480000000000e-08,0.00000000000000e+00,0.00000000000000e+00,7.46778119525386e-01
7.56994671559206e-08,0.00000000000000e+00,0.00000000000000e+00,7.50774940727525e-01
7.59956297935346e-08,0.00000000000000e+00,0.00000000000000e+00,7.48640743909527e-01
7.65879550687628e-08,0.00000000000000e+00,0.00000000000000e+00,7.50695201817420e-01
7.73531283508181e-08,0.00000000000000e+00,0.00000000000000e+00,7.49085361164085e-01
7.81000000000000e-08,0.00000000000000e+00,0.00000000000000e+00,7.50623288653743e-01
7.82530346564111e-08,0.00000000000000e+00,0.00000000000000e+00,7.49992512995681e-01
7.85591039692332e-08,0.00000000000000e+00,0.00000000000000e+00,7.49858980130357e-01
7.91712425948774e-08,0.00000000000000e+00,0.00000000000000e+00,7.49988343795878e-01
8.03955198461659e-08,0.00000000000000e+00,0.00000000000000e+00,7.49895155450747e-01
8.28440743487428e-08,0.00000000000000e+00,0.00000000000000e+00,7.50013379591300e-01
8.50000000000000e-08,0.00000000000000e+00,0.00000000000000e+00,7.49920395679537e-01
8.50100000000000e-08,7.49999999999858e-02,0.00000000000000e+00,7.49990706207825e-01
8.50300000000000e-08,2.24999999999957e-01,0.00000000000000e+00,7.50043156467934e-01
8.50700000000000e-08,5.24999999999900e-01,0.00000000000000e+00,7.49983414048175e-01
8.51000000000000e-08,7.49999999999957e-01,0.00000000000000e+00,7.49885038521241e-01
8.51080000000000e-08,7.50000000000000e-01,0.00000000000000e+00,7.49852834529199e-01
8.51240000000000e-08,7.50000000000000e-01,0.00000000000000e+00,7.49831353154411e-01
8.51560000000000e-08,7.50000000000000e-01,0.00000000000000e+00,7.49832619315190e-01
8.52200000000000e-08,7.50000000000000e-01,0.00000000000000e+00,7.49969907657324e-01
8.53480000000000e-08,7.50000000000000e-01,0.00000000000000e+00,7.54613655726020e-01
8.56040000000000e-08,7.50000000000000e-01,0.00000000000000e+00,3.81395397657644e-01
8.60710569489486e-08,7.50000000000000e-01,0.00000000000000e+00,-8.00918720304677e-02
8.65134377484812e-08,7.50000000000000e-01,0.00000000000000e+00,5.34418986909057e-02
8.73740546151301e-08,7.50000000000000e-01,0.00000000000000e+00,-3.46615078176049e-02
8.82455603833644e-08,7.50000000000000e-01,0.00000000000000e+00,2.85565654205194e-02
8.99885719198331e-08,7.50000000000000e-01,0.00000000000000e+00,-2.24028710582092e-02
9.00000000000000e-08,7.50000000000000e-01,0.00000000000000e+00,-2.07003790841052e-02
9.00100000000000e-08,7.50000000000000e-01,7.49999999999858e-02,-1.77557702295222e-02
9.00300000000000e-08,7.50000000000000e-01,2.24999999999957e-01,-1.25506492311546e-02
9.00700000000000e-08,7.50000000000000e-01,5.24999999999900e-01,-5.92943497508873e-03
9.01000000000000e-08,7.50000000000000e-01,7.49999999999957e-01,-3.43744856942052e-03
9.01080000000000e-08,7.50000000000000e-01,7.50000000000000e-01,-3.00847010684392e-03
9.01240000000000e-08,7.50000000000000e-01,7.50000000000000e-01,-2.14790979448702e-03
9.01560000000000e-08,7.50000000000000e-01,7.50000000000000e-01,-1.20355527239571e-03
9.02200000000000e-08,7.50000000000000e-01,7.50000000000000e-01,-3.24078502689208e-04
9.03480000000000e-08,7.50000000000000e-01,7.50000000000000e-01,1.94224998823489e-05
9.06040000000000e-08,7.50000000000000e-01,7.50000000000000e-01,-5.03887441807849e-06
9.10966934362106e-08,7.50000000000000e-01,7.50000000000000e-01,4.16002722375929e-06
9.20820803086317e-08,7.50000000000000e-01,7.50000000000000e-01,-1.44286888284322e-06
9.40528540534741e-08,7.50000000000000e-01,7.50000000000000e-01,2.59902541948145e-06
9.51000000000000e-08,7.50000000000000e-01,7.50000000000000e-01,2.47658306937702e-07
9.51100000000000e-08,6.75000000000076e-01,7.50000000000000e-01,-6.04555289578229e-05
9.51300000000000e-08,5.25000000000105e-01,7.50000000000000e-01,-1.42620951127354e-04
9.51700000000000e-08,2.25000000000162e-01,7.50000000000000e-01,-1.09226921536504e-05
9.52000000000000e-08,1.05027098129540e-13,7.50000000000000e-01,3.07336984107287e-04
9.52080000000000e-08,0.00000000000000e+00,7.50000000000000e-01,4.03866710187481e-04
9.52240000000000e-08,0.00000000000000e+00,7.50000000000000e-01,3.83595944799670e-04
9.52560000000000e-08,0.00000000000000e+00,7.50000000000000e-01,-4.83560086395739e-04
9.53200000000000e-08,0.00000000000000e+00,7.50000000000000e-01,-1.45493188489811e-03
9.54480000000000e-08,0.00000000000000e+00,7.50000000000000e-01,-2.95647269199541e-04
9.56951993721322e-08,0.00000000000000e+00,7.50000000000000e-01,-8.64902145915891e-05
9.60148793219261e-08,0.00000000000000e+00,7.50000000000000e-01,1.08722385722595e-04
9.65593286499592e-08,0.00000000000000e+00,7.50000000000000e-01,7.33956474372535e-05
9.73416527095973e-08,0.00000000000000e+00,7.50000000000000e-01,-1.38837232279580e-04
9.85842971856491e-08,0.00000000000000e+00,7.50000000000000e-01,1.67693031861364e-04
1.01069586137753e-07,0.00000000000000e+00,7.50000000000000e-01,-1.74876216528710e-04
1.04869586137753e-07,0.00000000000000e+00,7.50000000000000e-01,1.82217699478025e-04
1.05000000000000e-07,0.00000000000000e+00,7.50000000000000e-01,-1.70734352070122e-04
1.05010000000000e-07,7.49999999999858e-02,7.50000000000000e-01,-2.15834617210142e-05
1.05030000000000e-07,2.24999999999957e-01,7.50000000000000e-01,2.06685652283684e-04
1.05070000000000e-07,5.24999999999900e-01,7.50000000000000e-01,4.56920887089096e-04
1.05100000000000e-07,7.49999999999957e-01,7.50000000000000e-01,3.24689967694941e-05
1.05108000000000e-07,7.50000000000000e-01,7.50000000000000e-01,-4.02428084644260e-04
1.05124000000000e-07,7.50000000000000e-01,7.50000000000000e-01,-1.43687249286921e-03
1.05156000000000e-07,7.50000000000000e-01,7.50000000000000e-01,-3.67122132340519e-03
1.05220000000000e-07,7.50000000000000e-01,7.50000000000000e-01,-5.64667997705334e-03
1.05348000000000e-07,7.50000000000000e-01,7.50000000000000e-01,1.41908070904520e-01
1.05604000000000e-07,7.50000000000000e-01,7.50000000000000e-01,7.08792838096145e-01
