Time,v(clk),v(data),v(out),v(reset)
1.00000000000000e-08,7.50000000000000e-01,0.00000000000000e+00,2.09791512580815e-05,0.00000000000000e+00
1.00100000000000e-08,7.50000000000000e-01,7.49999999999982e-02,2.36975090339708e-05,0.00000000000000e+00
1.00300000000000e-08,7.50000000000000e-01,2.24999999999995e-01,2.60219571365516e-05,0.00000000000000e+00
1.00700000000000e-08,7.50000000000000e-01,5.24999999999987e-01,2.55366935728724e-05,0.00000000000000e+00
1.01000000000000e-08,7.50000000000000e-01,7.49999999999994e-01,2.60078383003681e-05,0.00000000000000e+00
1.01080000000000e-08,7.50000000000000e-01,7.50000000000000e-01,2.59870469054568e-05,0.00000000000000e+00
1.01240000000000e-08,7.50000000000000e-01,7.50000000000000e-01,2.66957947772511e-05,0.00000000000000e+00
1.01560000000000e-08,7.50000000000000e-01,7.50000000000000e-01,2.83826616328808e-05,0.00000000000000e+00
1.02200000000000e-08,7.50000000000000e-01,7.50000000000000e-01,2.95104921749362e-05,0.00000000000000e+00
1.03480000000000e-08,7.50000000000000e-01,7.50000000000000e-01,2.86449546826675e-05,0.00000000000000e+00
1.06040000000000e-08,7.50000000000000e-01,7.50000000000000e-01,2.86925046121024e-05,0.00000000000000e+00
1.11160000000000e-08,7.50000000000000e-01,7.50000000000000e-01,2.79910341788175e-05,0.00000000000000e+00
1.21400000000000e-08,7.50000000000000e-01,7.50000000000000e-01,2.74787938395835e-05,0.00000000000000e+00
1.41880000000000e-08,7.50000000000000e-01,7.50000000000000e-01,2.62180338992868e-05,0.00000000000000e+00
1.51000000000000e-08,7.50000000000000e-01,7.50000000000000e-01,2.61489509290076e-05,0.00000000000000e+00
1.51100000000000e-08,6.74999999999989e-01,7.50000000000000e-01,1.96080806396270e-04,7.50000000000106e-02
1.51300000000000e-08,5.24999999999993e-01,7.50000000000000e-01,3.30710580975321e-04,2.25000000000007e-01
1.51700000000000e-08,2.25000000000000e-01,7.50000000000000e-01,3.39834252181120e-04,5.25000000000000e-01
1.52000000000000e-08,0.00000000000000e+00,7.50000000000000e-01,4.22765025711383e-04,7.50000000000000e-01
1.52080000000000e-08,0.00000000000000e+00,7.50000000000000e-01,4.01964663211796e-04,7.50000000000000e-01
1.52240000000000e-08,0.00000000000000e+00,7.50000000000000e-01,3.61472121083534e-04,7.50000000000000e-01
1.52560000000000e-08,0.00000000000000e+00,7.50000000000000e-01,2.18466118682953e-04,7.50000000000000e-01
1.53200000000000e-08,0.00000000000000e+00,7.50000000000000e-01,-2.55297765152492e-04,7.50000000000000e-01
1.54480000000000e-08,0.00000000000000e+00,7.50000000000000e-01,-3.30106138594799e-04,7.50000000000000e-01
1.56956953907636e-08,0.00000000000000e+00,7.50000000000000e-01,4.22517988061116e-05,7.50000000000000e-01
1.60246848687887e-08,0.00000000000000e+00,7.50000000000000e-01,-1.42881669813074e-04,7.50000000000000e-01
1.65717921867745e-08,0.00000000000000e+00,7.50000000000000e-01,2.86269455480877e-04,7.50000000000000e-01
1.76660068227460e-08,0.00000000000000e+00,7.50000000000000e-01,-2.09140355867495e-04,7.50000000000000e-01
1.86739223116643e-08,0.00000000000000e+00,7.50000000000000e-01,2.13498874872459e-04,7.50000000000000e-01
2.06897532895008e-08,0.00000000000000e+00,7.50000000000000e-01,-1.50089304425468e-04,7.50000000000000e-01
2.44897532895008e-08,0.00000000000000e+00,7.50000000000000e-01,1.86548862668318e-04,7.50000000000000e-01
2.50000000000000e-08,0.00000000000000e+00,7.50000000000000e-01,-8.52980391179668e-05,7.50000000000000e-01
2.50100000000000e-08,7.49999999999858e-02,7.50000000000000e-01,3.85820343450499e-05,7.50000000000000e-01
2.50300000000000e-08,2.25000000000007e-01,7.50000000000000e-01,2.40875162169973e-04,7.50000000000000e-01
2.50700000000000e-08,5.25000000000000e-01,7.50000000000000e-01,5.19954923246302e-04,7.50000000000000e-01
2.51000000000000e-08,7.50000000000000e-01,7.50000000000000e-01,3.63927534265583e-04,7.50000000000000e-01
2.51080000000000e-08,7.50000000000000e-01,7.50000000000000e-01,1.06112151465734e-04,7.50000000000000e-01
2.51240000000000e-08,7.50000000000000e-01,7.50000000000000e-01,-5.18904899141345e-04,7.50000000000000e-01
2.51560000000000e-08,7.50000000000000e-01,7.50000000000000e-01,-2.07404472814987e-03,7.50000000000000e-01
2.52200000000000e-08,7.50000000000000e-01,7.50000000000000e-01,-4.60991002741385e-03,7.50000000000000e-01
2.53480000000000e-08,7.50000000000000e-01,7.50000000000000e-01,1.51418360770914e-02,7.50000000000000e-01
2.56040000000000e-08,7.50000000000000e-01,7.50000000000000e-01,5.22973861776735e-01,7.50000000000000e-01
2.61160000000000e-08,7.50000000000000e-01,7.50000000000000e-01,7.75490197908155e-01,7.50000000000000e-01
2.66210696796933e-08,7.50000000000000e-01,7.50000000000000e-01,7.28906962207289e-01,7.50000000000000e-01
2.76312090390798e-08,7.50000000000000e-01,7.50000000000000e-01,7.69650317565304e-01,7.50000000000000e-01
2.90566174194932e-08,7.50000000000000e-01,7.50000000000000e-01,7.30310380436467e-01,7.50000000000000e-01
3.12276449603942e-08,7.50000000000000e-01,7.50000000000000e-01,7.68697676657549e-01,7.50000000000000e-01
3.50276449603942e-08,7.50000000000000e-01,7.50000000000000e-01,7.30934930928277e-01,7.50000000000000e-01
3.51000000000000e-08,7.49999999999963e-01,7.50000000000000e-01,7.59652058112979e-01,7.50000000000000e-01
3.51100000000000e-08,6.74999999999977e-01,7.50000000000000e-01,7.54874186765881e-01,7.50000000000000e-01
3.51300000000000e-08,5.24999999999956e-01,7.50000000000000e-01,7.50029929034000e-01,7.50000000000000e-01
3.51700000000000e-08,2.24999999999963e-01,7.50000000000000e-01,7.51074646737393e-01,7.50000000000000e-01
3.52000000000000e-08,0.00000000000000e+00,7.50000000000000e-01,7.53193328786106e-01,7.50000000000000e-01
3.52080000000000e-08,0.00000000000000e+00,7.50000000000000e-01,7.53387923491946e-01,7.50000000000000e-01
3.52240000000000e-08,0.00000000000000e+00,7.50000000000000e-01,7.52487294924052e-01,7.50000000000000e-01
3.52560000000000e-08,0.00000000000000e+00,7.50000000000000e-01,7.43846859762519e-01,7.50000000000000e-01
3.53200000000000e-08,0.00000000000000e+00,7.50000000000000e-01,7.26362658899311e-01,7.50000000000000e-01
3.54480000000000e-08,0.00000000000000e+00,7.50000000000000e-01,7.38805225085735e-01,7.50000000000000e-01
3.57040000000000e-08,0.00000000000000e+00,7.50000000000000e-01,7.52992406979261e-01,7.50000000000000e-01
3.60318267874199e-08,0.00000000000000e+00,7.50000000000000e-01,7.46533662695756e-01,7.50000000000000e-01
3.66874803622598e-08,0.00000000000000e+00,7.50000000000000e-01,7.52209282545075e-01,7.50000000000000e-01
3.79987875119395e-08,0.00000000000000e+00,7.50000000000000e-01,7.47506109484890e-01,7.50000000000000e-01
4.06214018112990e-08,0.00000000000000e+00,7.50000000000000e-01,7.52151148040499e-01,7.50000000000000e-01
4.44214018112990e-08,0.00000000000000e+00,7.50000000000000e-01,7.47739576529872e-01,7.50000000000000e-01
4.50000000000000e-08,0.00000000000000e+00,7.50000000000000e-01,7.51813269721630e-01,7.50000000000000e-01
4.50100000000000e-08,7.49999999999858e-02,7.50000000000000e-01,7.51102999056285e-01,6.75000000000014e-01
4.50300000000000e-08,2.25000000000007e-01,7.50000000000000e-01,7.50207765721661e-01,5.24999999999993e-01
4.50700000000000e-08,5.25000000000000e-01,7.50000000000000e-01,7.53362004843794e-01,2.25000000000000e-01
4.51000000000000e-08,7.50000000000000e-01,7.50000000000000e-01,7.61651178632418e-01,0.00000000000000e+00
4.51080000000000e-08,7.50000000000000e-01,7.50000000000000e-01,7.64406414765318e-01,0.00000000000000e+00
4.51240000000000e-08,7.50000000000000e-01,7.50000000000000e-01,7.69781993840753e-01,0.00000000000000e+00
4.51560000000000e-08,7.50000000000000e-01,7.50000000000000e-01,7.80945786350079e-01,0.00000000000000e+00
4.52200000000000e-08,7.50000000000000e-01,7.50000000000000e-01,7.27529409156773e-01,0.00000000000000e+00
4.53480000000000e-08,7.50000000000000e-01,7.50000000000000e-01,3.81386159391131e-01,0.00000000000000e+00
4.55793287220076e-08,7.50000000000000e-01,7.50000000000000e-01,2.49932512065649e-02,0.00000000000000e+00
4.59184854304713e-08,7.50000000000000e-01,7.50000000000000e-01,-3.88020707400461e-03,0.00000000000000e+00
4.64612402749518e-08,7.50000000000000e-01,7.50000000000000e-01,6.83142169571240e-05,0.00000000000000e+00
4.73237048909868e-08,7.50000000000000e-01,7.50000000000000e-01,1.34793889136758e-03,0.00000000000000e+00
4.89481637419633e-08,7.50000000000000e-01,7.50000000000000e-01,-1.69795434848648e-03,0.00000000000000e+00
5.01000000000000e-08,7.50000000000000e-01,7.49999999999957e-01,2.27553683368471e-03,0.00000000000000e+00
5.03699326550679e-08,7.50000000000000e-01,7.50000000000000e-01,-1.92425336204533e-04,0.00000000000000e+00
5.09097979652039e-08,7.50000000000000e-01,7.50000000000000e-01,5.89789666777252e-05,0.00000000000000e+00
5.19895285854757e-08,7.50000000000000e-01,7.50000000000000e-01,3.44018205990695e-05,0.00000000000000e+00
5.41489898260192e-08,7.50000000000000e-01,7.50000000000000e-01,-4.41578912909781e-06,0.00000000000000e+00
5.51000000000000e-08,7.50000000000000e-01,7.50000000000000e-01,7.44309810327016e-05,0.00000000000000e+00
5.51100000000000e-08,6.75000000000027e-01,7.50000000000000e-01,1.91111614499057e-04,7.49999999999734e-02
5.51300000000000e-08,5.25000000000005e-01,7.50000000000000e-01,2.87030102795113e-04,2.24999999999995e-01
5.51700000000000e-08,2.25000000000013e-01,7.50000000000000e-01,3.03384135205462e-04,5.24999999999987e-01
5.52000000000000e-08,0.00000000000000e+00,7.50000000000000e-01,3.85128766257417e-04,7.50000000000000e-01
5.52080000000000e-08,0.00000000000000e+00,7.50000000000000e-01,3.60465277535291e-04,7.50000000000000e-01
5.52240000000000e-08,0.00000000000000e+00,7.50000000000000e-01,2.92752262950474e-04,7.50000000000000e-01
5.52560000000000e-08,0.00000000000000e+00,7.50000000000000e-01,-1.97832000652529e-04,7.50000000000000e-01
5.53200000000000e-08,0.00000000000000e+00,7.50000000000000e-01,-1.44998634722449e-03,7.50000000000000e-01
5.54480000000000e-08,0.00000000000000e+00,7.50000000000000e-01,-1.23082782242836e-03,7.50000000000000e-01
5.56925688764953e-08,0.00000000000000e+00,7.50000000000000e-01,3.42921329008476e-04,7.50000000000000e-01
5.60223069836478e-08,0.00000000000000e+00,7.50000000000000e-01,-3.28994759050360e-04,7.50000000000000e-01
5.65802041264668e-08,0.00000000000000e+00,7.50000000000000e-01,3.05013126574282e-04,7.50000000000000e-01
5.76959984121050e-08,0.00000000000000e+00,7.50000000000000e-01,-1.81139239795916e-04,7.50000000000000e-01
5.87054748916591e-08,0.00000000000000e+00,7.50000000000000e-01,1.63284624546079e-04,7.50000000000000e-01
6.07244278507674e-08,0.00000000000000e+00,7.50000000000000e-01,-9.33060644950261e-05,7.50000000000000e-01
6.45244278507674e-08,0.00000000000000e+00,7.50000000000000e-01,1.27278409979956e-04,7.50000000000000e-01
6.50000000000000e-08,0.00000000000000e+00,7.50000000000000e-01,-1.69425985216271e-05,7.50000000000000e-01
6.50100000000000e-08,7.49999999999858e-02,7.50000000000000e-01,9.83930343668449e-05,7.50000000000000e-01
6.50300000000000e-08,2.24999999999957e-01,7.50000000000000e-01,2.79570753538988e-04,7.50000000000000e-01
6.50700000000000e-08,5.24999999999900e-01,7.50000000000000e-01,5.30947043997962e-04,7.50000000000000e-01
6.51000000000000e-08,7.49999999999957e-01,7.50000000000000e-01,3.70290372144415e-04,7.50000000000000e-01
6.51080000000000e-08,7.50000000000000e-01,7.50000000000000e-01,1.10901758700016e-04,7.50000000000000e-01
6.51240000000000e-08,7.50000000000000e-01,7.50000000000000e-01,-5.17027654053065e-04,7.50000000000000e-01
6.51560000000000e-08,7.50000000000000e-01,7.50000000000000e-01,-2.07554747886071e-03,7.50000000000000e-01
6.52200000000000e-08,7.50000000000000e-01,7.50000000000000e-01,-4.61370454824203e-03,7.50000000000000e-01
6.53480000000000e-08,7.50000000000000e-01,7.50000000000000e-01,1.50100383941548e-02,7.50000000000000e-01
6.56040000000000e-08,7.50000000000000e-01,7.50000000000000e-01,5.22448672738273e-01,7.50000000000000e-01
6.61159999999999e-08,7.50000000000000e-01,7.50000000000000e-01,7.75469587959219e-01,7.50000000000000e-01
6.66211940092938e-08,7.50000000000000e-01,7.50000000000000e-01,7.28932816509377e-01,7.50000000000000e-01
6.76315820278816e-08,7.50000000000000e-01,7.50000000000000e-01,7.69628521662043e-01,7.50000000000000e-01
6.90565351078641e-08,7.50000000000000e-01,7.50000000000000e-01,7.30334072747536e-01,7.50000000000000e-01
7.12267869217101e-08,7.50000000000000e-01,7.50000000000000e-01,7.68675803300286e-01,7.50000000000000e-01
7.50267869217101e-08,7.50000000000000e-01,7.50000000000000e-01,7.30957781300053e-01,7.50000000000000e-01
7.51000000000000e-08,7.50000000000000e-01,7.50000000000000e-01,7.59721566594787e-01,7.50000000000000e-01
7.51100000000000e-08,6.75000000000076e-01,7.50000000000000e-01,7.54909681039326e-01,7.50000000000000e-01
7.51300000000000e-08,5.25000000000105e-01,7.50000000000000e-01,7.50030919129847e-01,7.50000000000000e-01
7.51700000000000e-08,2.25000000000162e-01,7.50000000000000e-01,7.51074553799673e-01,7.50000000000000e-01
7.52000000000000e-08,1.05027098129540e-13,7.50000000000000e-01,7.53193468710891e-01,7.50000000000000e-01
7.52080000000000e-08,0.00000000000000e+00,7.50000000000000e-01,7.53388157484630e-01,7.50000000000000e-01
7.52240000000000e-08,0.00000000000000e+00,7.50000000000000e-01,7.52488004807659e-01,7.50000000000000e-01
7.52560000000000e-08,0.00000000000000e+00,7.50000000000000e-01,7.43848587799119e-01,7.50000000000000e-01
7.53200000000000e-08,0.00000000000000e+00,7.50000000000000e-01,7.26363864720650e-01,7.50000000000000e-01
7.54480000000000e-08,0.00000000000000e+00,7.50000000000000e-01,7.38804853583962e-01,7.50000000000000e-01
7.57040000000000e-08,0.00000000000000e+00,7.50000000000000e-01,7.52992707672129e-01,7.50000000000000e-01
7.60318270121678e-08,0.00000000000000e+00,7.50000000000000e-01,7.46533391427980e-01,7.50000000000000e-01
7.66874810365034e-08,0.00000000000000e+00,7.50000000000000e-01,7.52209519115992e-01,7.50000000000000e-01
7.79987890851747e-08,0.00000000000000e+00,7.50000000000000e-01,7.47505881040566e-01,7.50000000000000e-01
8.06214051825174e-08,0.00000000000000e+00,7.50000000000000e-01,7.52151369373124e-01,7.50000000000000e-01
8.44214051825174e-08,0.00000000000000e+00,7.50000000000000e-01,7.47739357552946e-01,7.50000000000000e-01
8.50000000000000e-08,0.00000000000000e+00,7.50000000000000e-01,7.51813460128250e-01,7.50000000000000e-01
8.50100000000000e-08,7.49999999999858e-02,7.50000000000000e-01,7.51103096180222e-01,6.75000000000014e-01
8.50300000000000e-08,2.24999999999957e-01,7.50000000000000e-01,7.50207818529016e-01,5.25000000000043e-01
8.50700000000000e-08,5.24999999999900e-01,7.50000000000000e-01,7.53361955305097e-01,2.25000000000100e-01
8.51000000000000e-08,7.49999999999957e-01,7.50000000000000e-01,7.61651210631758e-01,4.29656310529936e-14
8.51080000000000e-08,7.50000000000000e-01,7.50000000000000e-01,7.64406434158955e-01,0.00000000000000e+00
8.51240000000000e-08,7.50000000000000e-01,7.50000000000000e-01,7.69781982256522e-01,0.00000000000000e+00
8.51560000000000e-08,7.50000000000000e-01,7.50000000000000e-01,7.80945738187734e-01,0.00000000000000e+00
8.52200000000000e-08,7.50000000000000e-01,7.50000000000000e-01,7.27529845025807e-01,0.00000000000000e+00
8.53480000000000e-08,7.50000000000000e-01,7.50000000000000e-01,3.81387472101880e-01,0.00000000000000e+00
8.55792863725904e-08,7.50000000000000e-01,7.50000000000000e-01,2.50209905639218e-02,0.00000000000000e+00
8.59184605627633e-08,7.50000000000000e-01,7.50000000000000e-01,-3.88863095593230e-03,0.00000000000000e+00
8.64609946051665e-08,7.50000000000000e-01,7.50000000000000e-01,7.15620539821623e-05,0.00000000000000e+00
8.73235339530561e-08,7.50000000000000e-01,7.50000000000000e-01,1.34552627407623e-03,0.00000000000000e+00
8.89480044912230e-08,7.50000000000000e-01,7.50000000000000e-01,-1.69596637213901e-03,0.00000000000000e+00
9.01000000000000e-08,7.50000000000000e-01,7.49999999999957e-01,2.27388314162515e-03,0.00000000000000e+00
9.03698228672475e-08,7.50000000000000e-01,7.50000000000000e-01,-1.92799576075996e-04,0.00000000000000e+00
9.09094686017426e-08,7.50000000000000e-01,7.50000000000000e-01,5.91115082131839e-05,0.00000000000000e+00
9.19887600707329e-08,7.50000000000000e-01,7.50000000000000e-01,3.43324994870990e-05,0.00000000000000e+00
9.41473430087133e-08,7.50000000000000e-01,7.50000000000000e-01,-4.36706010036730e-06,0.00000000000000e+00
9.51000000000000e-08,7.50000000000000e-01,7.50000000000000e-01,7.43669403256864e-05,0.00000000000000e+00
9.51100000000000e-08,6.75000000000076e-01,7.50000000000000e-01,1.91018729932532e-04,7.49999999999237e-02
9.51300000000000e-08,5.25000000000105e-01,7.50000000000000e-01,2.86944786307017e-04,2.24999999999895e-01
9.51700000000000e-08,2.25000000000162e-01,7.50000000000000e-01,3.03330657724865e-04,5.24999999999838e-01
9.52000000000000e-08,1.05027098129540e-13,7.50000000000000e-01,3.85090739391317e-04,7.49999999999895e-01
9.52080000000000e-08,0.00000000000000e+00,7.50000000000000e-01,3.60430276762191e-04,7.50000000000000e-01
9.52240000000000e-08,0.00000000000000e+00,7.50000000000000e-01,2.92722648016261e-04,7.50000000000000e-01
9.52560000000000e-08,0.00000000000000e+00,7.50000000000000e-01,-1.97852756207442e-04,7.50000000000000e-01
9.53200000000000e-08,0.00000000000000e+00,7.50000000000000e-01,-1.44999138231365e-03,7.50000000000000e-01
9.54480000000000e-08,0.00000000000000e+00,7.50000000000000e-01,-1.23082447294327e-03,7.50000000000000e-01
9.56925689063501e-08,0.00000000000000e+00,7.50000000000000e-01,3.42923992584284e-04,7.50000000000000e-01
9.60223069447808e-08,0.00000000000000e+00,7.50000000000000e-01,-3.28976689397704e-04,7.50000000000000e-01
9.65802054273406e-08,0.00000000000000e+00,7.50000000000000e-01,3.04992051188339e-04,7.50000000000000e-01
9.76960023924603e-08,0.00000000000000e+00,7.50000000000000e-01,-1.81127653851440e-04,7.50000000000000e-01
9.87054791785964e-08,0.00000000000000e+00,7.50000000000000e-01,1.63279718786382e-04,7.50000000000000e-01
1.00724432750869e-07,0.00000000000000e+00,7.50000000000000e-01,-9.33034473479437e-05,7.50000000000000e-01
1.04524432750869e-07,0.00000000000000e+00,7.50000000000000e-01,1.27276815272191e-04,7.50000000000000e-01
1.05000000000000e-07,0.00000000000000e+00,7.50000000000000e-01,-1.69455369000912e-05,7.50000000000000e-01
1.05010000000000e-07,7.49999999999858e-02,7.50000000000000e-01,9.83917941394380e-05,7.50000000000000e-01
1.05030000000000e-07,2.24999999999957e-01,7.50000000000000e-01,2.79571636454395e-04,7.50000000000000e-01
1.05070000000000e-07,5.24999999999900e-01,7.50000000000000e-01,5.30947445080934e-04,7.50000000000000e-01
1.05100000000000e-07,7.49999999999957e-01,7.50000000000000e-01,3.70281686091517e-04,7.50000000000000e-01
1.05108000000000e-07,7.50000000000000e-01,7.50000000000000e-01,1.10888428599867e-04,7.50000000000000e-01
1.05124000000000e-07,7.50000000000000e-01,7.50000000000000e-01,-5.17048480228363e-04,7.50000000000000e-01
1.05156000000000e-07,7.50000000000000e-01,7.50000000000000e-01,-2.07557461392183e-03,7.50000000000000e-01
1.05220000000000e-07,7.50000000000000e-01,7.50000000000000e-01,-4.61371848820580e-03,7.50000000000000e-01
1.05348000000000e-07,7.50000000000000e-01,7.50000000000000e-01,1.50103599964063e-02,7.50000000000000e-01
1.05604000000000e-07,7.50000000000000e-01,7.50000000000000e-01,5.22449986572128e-01,7.50000000000000e-01
1.06116000000000e-07,7.50000000000000e-01,7.50000000000000e-01,7.75469639808993e-01,7.50000000000000e-01
1.06621193705860e-07,7.50000000000000e-01,7.50000000000000e-01,7.28932751605705e-01,7.50000000000000e-01
1.07631581117580e-07,7.50000000000000e-01,7.50000000000000e-01,7.69628576447938e-01,7.50000000000000e-01
1.09056535336885e-07,7.50000000000000e-01,7.50000000000000e-01,7.30334013215705e-01,7.50000000000000e-01
1.11226789110627e-07,7.50000000000000e-01,7.50000000000000e-01,7.68675858253018e-01,7.50000000000000e-01
1.15026789110627e-07,7.50000000000000e-01,7.50000000000000e-01,7.30957723883376e-01,7.50000000000000e-01
1.15100000000000e-07,7.50000000000000e-01,7.50000000000000e-01,7.59721390964553e-01,7.50000000000000e-01
