Time,v(clk),v(data),v(out),v(reset)
1.00000000000000e-08,7.50000000000000e-01,0.00000000000000e+00,2.46854113597683e-05,0.00000000000000e+00
1.00100000000000e-08,7.50000000000000e-01,7.49999999999982e-02,1.86669739048115e-05,0.00000000000000e+00
1.00300000000000e-08,7.50000000000000e-01,2.24999999999995e-01,1.08250042190824e-05,0.00000000000000e+00
1.00700000000000e-08,7.50000000000000e-01,5.24999999999987e-01,5.13824345934472e-06,0.00000000000000e+00
1.01000000000000e-08,7.50000000000000e-01,7.49999999999994e-01,4.68354168721430e-06,0.00000000000000e+00
1.01080000000000e-08,7.50000000000000e-01,7.50000000000000e-01,4.94858786453251e-06,0.00000000000000e+00
1.01240000000000e-08,7.50000000000000e-01,7.50000000000000e-01,5.90916884991161e-06,0.00000000000000e+00
1.01560000000000e-08,7.50000000000000e-01,7.50000000000000e-01,6.26478921771090e-06,0.00000000000000e+00
1.02200000000000e-08,7.50000000000000e-01,7.50000000000000e-01,4.46503876513904e-06,0.00000000000000e+00
1.03480000000000e-08,7.50000000000000e-01,7.50000000000000e-01,4.28787737301317e-06,0.00000000000000e+00
1.06040000000000e-08,7.50000000000000e-01,7.50000000000000e-01,4.44436177440485e-06,0.00000000000000e+00
1.11160000000000e-08,7.50000000000000e-01,7.50000000000000e-01,4.05053341670340e-06,0.00000000000000e+00
1.21400000000000e-08,7.50000000000000e-01,7.50000000000000e-01,3.92518120338140e-06,0.00000000000000e+00
1.41880000000000e-08,7.50000000000000e-01,7.50000000000000e-01,3.28298375051796e-06,0.00000000000000e+00
1.51000000000000e-08,7.50000000000000e-01,7.50000000000000e-01,3.35752898741448e-06,0.00000000000000e+00
1.51100000000000e-08,6.74999999999989e-01,7.50000000000000e-01,1.73467417520549e-04,7.50000000000106e-02
1.51300000000000e-08,5.24999999999993e-01,7.50000000000000e-01,3.00921376319256e-04,2.25000000000007e-01
1.51700000000000e-08,2.25000000000000e-01,7.50000000000000e-01,2.03239101322715e-04,5.25000000000000e-01
1.52000000000000e-08,0.00000000000000e+00,7.50000000000000e-01,1.86884702056661e-04,7.50000000000000e-01
1.52080000000000e-08,0.00000000000000e+00,7.50000000000000e-01,1.63163147821485e-04,7.50000000000000e-01
1.52240000000000e-08,0.00000000000000e+00,7.50000000000000e-01,1.22276728321866e-04,7.50000000000000e-01
1.52560000000000e-08,0.00000000000000e+00,7.50000000000000e-01,2.50635206109420e-05,7.50000000000000e-01
1.53200000000000e-08,0.00000000000000e+00,7.50000000000000e-01,-2.09784359516803e-04,7.50000000000000e-01
1.54480000000000e-08,0.00000000000000e+00,7.50000000000000e-01,-1.76320755211581e-04,7.50000000000000e-01
1.56623229755936e-08,0.00000000000000e+00,7.50000000000000e-01,-1.98062651707673e-04,7.50000000000000e-01
1.60233519979313e-08,0.00000000000000e+00,7.50000000000000e-01,1.48014442357495e-04,7.50000000000000e-01
1.64854061719931e-08,0.00000000000000e+00,7.50000000000000e-01,1.06492929740269e-04,7.50000000000000e-01
1.73420532983588e-08,0.00000000000000e+00,7.50000000000000e-01,-1.70100722911955e-04,7.50000000000000e-01
1.84704583693024e-08,0.00000000000000e+00,7.50000000000000e-01,2.02738628219932e-04,7.50000000000000e-01
2.05666947520205e-08,0.00000000000000e+00,7.50000000000000e-01,-2.10291987660057e-04,7.50000000000000e-01
2.39007640998599e-08,0.00000000000000e+00,7.50000000000000e-01,2.17625043657272e-04,7.50000000000000e-01
2.50000000000000e-08,0.00000000000000e+00,7.50000000000000e-01,-2.23209861618454e-04,7.50000000000000e-01
2.50100000000000e-08,7.49999999999858e-02,7.50000000000000e-01,-4.38522240355579e-05,7.50000000000000e-01
2.50300000000000e-08,2.25000000000007e-01,7.50000000000000e-01,2.16902647107664e-04,7.50000000000000e-01
2.50700000000000e-08,5.25000000000000e-01,7.50000000000000e-01,3.81726370730216e-04,7.50000000000000e-01
2.51000000000000e-08,7.50000000000000e-01,7.50000000000000e-01,-7.79397382242232e-04,7.50000000000000e-01
2.51080000000000e-08,7.50000000000000e-01,7.50000000000000e-01,-1.53061313346150e-03,7.50000000000000e-01
2.51240000000000e-08,7.50000000000000e-01,7.50000000000000e-01,-3.04310895259884e-03,7.50000000000000e-01
2.51560000000000e-08,7.50000000000000e-01,7.50000000000000e-01,-5.40093437616524e-03,7.50000000000000e-01
2.52200000000000e-08,7.50000000000000e-01,7.50000000000000e-01,2.67061441557019e-03,7.50000000000000e-01
2.53480000000000e-08,7.50000000000000e-01,7.50000000000000e-01,2.82391490246261e-01,7.50000000000000e-01
2.56040000000000e-08,7.50000000000000e-01,7.50000000000000e-01,7.49676741755882e-01,7.50000000000000e-01
2.59854217822178e-08,7.50000000000000e-01,7.50000000000000e-01,7.47772903858249e-01,7.50000000000000e-01
2.65731345372694e-08,7.50000000000000e-01,7.50000000000000e-01,7.52624850317922e-01,7.50000000000000e-01
2.73453385868947e-08,7.50000000000000e-01,7.50000000000000e-01,7.47425099286604e-01,7.50000000000000e-01
2.84661697637743e-08,7.50000000000000e-01,7.50000000000000e-01,7.52563466151489e-01,7.50000000000000e-01
3.07078321175334e-08,7.50000000000000e-01,7.50000000000000e-01,7.47478608137753e-01,7.50000000000000e-01
3.45078321175334e-08,7.50000000000000e-01,7.50000000000000e-01,7.52526471480185e-01,7.50000000000000e-01
3.51000000000000e-08,7.49999999999963e-01,7.50000000000000e-01,7.47610661782215e-01,7.50000000000000e-01
3.51100000000000e-08,6.74999999999977e-01,7.50000000000000e-01,7.48703987544728e-01,7.50000000000000e-01
3.51300000000000e-08,5.24999999999956e-01,7.50000000000000e-01,7.49833049597152e-01,7.50000000000000e-01
3.51700000000000e-08,2.24999999999963e-01,7.50000000000000e-01,7.50890293441372e-01,7.50000000000000e-01
3.52000000000000e-08,0.00000000000000e+00,7.50000000000000e-01,7.52836090966309e-01,7.50000000000000e-01
3.52080000000000e-08,0.00000000000000e+00,7.50000000000000e-01,7.53153198580007e-01,7.50000000000000e-01
3.52240000000000e-08,0.00000000000000e+00,7.50000000000000e-01,7.52853772327739e-01,7.50000000000000e-01
3.52560000000000e-08,0.00000000000000e+00,7.50000000000000e-01,7.45922482419525e-01,7.50000000000000e-01
3.53200000000000e-08,0.00000000000000e+00,7.50000000000000e-01,7.24477537917110e-01,7.50000000000000e-01
3.54480000000000e-08,0.00000000000000e+00,7.50000000000000e-01,7.31006073117827e-01,7.50000000000000e-01
3.57040000000000e-08,0.00000000000000e+00,7.50000000000000e-01,7.55190605836261e-01,7.50000000000000e-01
3.60651036687190e-08,0.00000000000000e+00,7.50000000000000e-01,7.45061978299039e-01,7.50000000000000e-01
3.66917351699779e-08,0.00000000000000e+00,7.50000000000000e-01,7.53461403245056e-01,7.50000000000000e-01
3.79449981724957e-08,0.00000000000000e+00,7.50000000000000e-01,7.46360587085861e-01,7.50000000000000e-01
4.04515241775312e-08,0.00000000000000e+00,7.50000000000000e-01,7.53208757637403e-01,7.50000000000000e-01
4.42515241775312e-08,0.00000000000000e+00,7.50000000000000e-01,7.46684621134233e-01,7.50000000000000e-01
4.50000000000000e-08,0.00000000000000e+00,7.50000000000000e-01,7.52740204558760e-01,7.50000000000000e-01
4.50100000000000e-08,7.49999999999858e-02,7.50000000000000e-01,7.51824626361131e-01,6.75000000000014e-01
4.50300000000000e-08,2.25000000000007e-01,7.50000000000000e-01,7.50530229043976e-01,5.24999999999993e-01
4.50700000000000e-08,5.25000000000000e-01,7.50000000000000e-01,7.52550764936870e-01,2.25000000000000e-01
4.51000000000000e-08,7.50000000000000e-01,7.50000000000000e-01,7.59136432277763e-01,0.00000000000000e+00
4.51080000000000e-08,7.50000000000000e-01,7.50000000000000e-01,7.61250289488837e-01,0.00000000000000e+00
4.51240000000000e-08,7.50000000000000e-01,7.50000000000000e-01,7.65057411688703e-01,0.00000000000000e+00
4.51560000000000e-08,7.50000000000000e-01,7.50000000000000e-01,7.72734310466693e-01,0.00000000000000e+00
4.52200000000000e-08,7.50000000000000e-01,7.50000000000000e-01,6.76604024116786e-01,0.00000000000000e+00
4.53480000000000e-08,7.50000000000000e-01,7.50000000000000e-01,1.82820855770521e-01,0.00000000000000e+00
4.55505328861487e-08,7.50000000000000e-01,7.50000000000000e-01,-4.76656180124514e-02,0.00000000000000e+00
4.58580977410510e-08,7.50000000000000e-01,7.50000000000000e-01,3.06329635982550e-02,0.00000000000000e+00
4.64130413068434e-08,7.50000000000000e-01,7.50000000000000e-01,-2.23420337556667e-02,0.00000000000000e+00
4.70867305276638e-08,7.50000000000000e-01,7.50000000000000e-01,1.87991488543825e-02,0.00000000000000e+00
4.84341089693044e-08,7.50000000000000e-01,7.50000000000000e-01,-1.64482484141728e-02,0.00000000000000e+00
5.01000000000000e-08,7.50000000000000e-01,7.49999999999957e-01,1.56282699449204e-02,0.00000000000000e+00
5.03694756883281e-08,7.50000000000000e-01,7.50000000000000e-01,1.66681164488164e-03,0.00000000000000e+00
5.09084270649844e-08,7.50000000000000e-01,7.50000000000000e-01,-1.23119058257563e-03,0.00000000000000e+00
5.19863298182969e-08,7.50000000000000e-01,7.50000000000000e-01,1.06946395783783e-03,0.00000000000000e+00
5.41421353249220e-08,7.50000000000000e-01,7.50000000000000e-01,-9.89656329814466e-04,0.00000000000000e+00
5.51000000000000e-08,7.50000000000000e-01,7.50000000000000e-01,8.44215464991885e-04,0.00000000000000e+00
5.51100000000000e-08,6.75000000000027e-01,7.50000000000000e-01,8.21267104184648e-04,7.49999999999734e-02
5.51300000000000e-08,5.25000000000005e-01,7.50000000000000e-01,6.76769164792528e-04,2.24999999999995e-01
5.51700000000000e-08,2.25000000000013e-01,7.50000000000000e-01,3.36754900231280e-04,5.24999999999987e-01
5.52000000000000e-08,0.00000000000000e+00,7.50000000000000e-01,2.39068963118670e-04,7.50000000000000e-01
5.52080000000000e-08,0.00000000000000e+00,7.50000000000000e-01,2.02955255952805e-04,7.50000000000000e-01
5.52240000000000e-08,0.00000000000000e+00,7.50000000000000e-01,1.19862245041000e-04,7.50000000000000e-01
5.52560000000000e-08,0.00000000000000e+00,7.50000000000000e-01,-2.87881093292523e-04,7.50000000000000e-01
5.53200000000000e-08,0.00000000000000e+00,7.50000000000000e-01,-1.22417858245847e-03,7.50000000000000e-01
5.54480000000000e-08,0.00000000000000e+00,7.50000000000000e-01,-4.62327629414866e-04,7.50000000000000e-01
5.56412388283569e-08,0.00000000000000e+00,7.50000000000000e-01,3.87143983943784e-04,7.50000000000000e-01
5.60142394373885e-08,0.00000000000000e+00,7.50000000000000e-01,-4.49346135715496e-04,7.50000000000000e-01
5.64376438138986e-08,0.00000000000000e+00,7.50000000000000e-01,4.33378130451295e-04,7.50000000000000e-01
5.72844525669188e-08,0.00000000000000e+00,7.50000000000000e-01,-3.76732972242492e-04,7.50000000000000e-01
5.83094919947631e-08,0.00000000000000e+00,7.50000000000000e-01,3.39067057608783e-04,7.50000000000000e-01
6.02500916916575e-08,0.00000000000000e+00,7.50000000000000e-01,-3.13741595991427e-04,7.50000000000000e-01
6.32837672948650e-08,0.00000000000000e+00,7.50000000000000e-01,3.04524179807924e-04,7.50000000000000e-01
6.50000000000000e-08,0.00000000000000e+00,7.50000000000000e-01,-2.77914057002975e-04,7.50000000000000e-01
6.50100000000000e-08,7.49999999999858e-02,7.50000000000000e-01,-1.02503744684464e-04,7.50000000000000e-01
6.50300000000000e-08,2.24999999999957e-01,7.50000000000000e-01,1.44895509700621e-04,7.50000000000000e-01
6.50700000000000e-08,5.24999999999900e-01,7.50000000000000e-01,2.77988470974433e-04,7.50000000000000e-01
6.51000000000000e-08,7.49999999999957e-01,7.50000000000000e-01,-1.01763517222409e-03,7.50000000000000e-01
6.51080000000000e-08,7.50000000000000e-01,7.50000000000000e-01,-1.79865792245588e-03,7.50000000000000e-01
6.51240000000000e-08,7.50000000000000e-01,7.50000000000000e-01,-3.31898203187318e-03,7.50000000000000e-01
6.51560000000000e-08,7.50000000000000e-01,7.50000000000000e-01,-5.55828771717493e-03,7.50000000000000e-01
6.52200000000000e-08,7.50000000000000e-01,7.50000000000000e-01,4.01008505426743e-03,7.50000000000000e-01
6.53480000000000e-08,7.50000000000000e-01,7.50000000000000e-01,2.90771173763716e-01,7.50000000000000e-01
6.56040000000000e-08,7.50000000000000e-01,7.50000000000000e-01,7.51566957627357e-01,7.50000000000000e-01
6.59805779020354e-08,7.50000000000000e-01,7.50000000000000e-01,7.46641885565624e-01,7.50000000000000e-01
6.65701911331759e-08,7.50000000000000e-01,7.50000000000000e-01,7.53590062256326e-01,7.50000000000000e-01
6.73373045126708e-08,7.50000000000000e-01,7.50000000000000e-01,7.46558233142633e-01,7.50000000000000e-01
6.84581544405883e-08,7.50000000000000e-01,7.50000000000000e-01,7.53407425148607e-01,7.50000000000000e-01
7.06998542964233e-08,7.50000000000000e-01,7.50000000000000e-01,7.46669135721173e-01,7.50000000000000e-01
7.44998542964233e-08,7.50000000000000e-01,7.50000000000000e-01,7.53336599419507e-01,7.50000000000000e-01
7.51000000000000e-08,7.50000000000000e-01,7.50000000000000e-01,7.46877271121988e-01,7.50000000000000e-01
7.51100000000000e-08,6.75000000000076e-01,7.50000000000000e-01,7.48273201714541e-01,7.50000000000000e-01
7.51300000000000e-08,5.25000000000105e-01,7.50000000000000e-01,7.49766706736595e-01,7.50000000000000e-01
7.51700000000000e-08,2.25000000000162e-01,7.50000000000000e-01,7.50901773705949e-01,7.50000000000000e-01
7.52000000000000e-08,1.05027098129540e-13,7.50000000000000e-01,7.52836185538310e-01,7.50000000000000e-01
7.52080000000000e-08,0.00000000000000e+00,7.50000000000000e-01,7.53154029488523e-01,7.50000000000000e-01
7.52240000000000e-08,0.00000000000000e+00,7.50000000000000e-01,7.52857220197202e-01,7.50000000000000e-01
7.52560000000000e-08,0.00000000000000e+00,7.50000000000000e-01,7.45933838378177e-01,7.50000000000000e-01
7.53200000000000e-08,0.00000000000000e+00,7.50000000000000e-01,7.24486346943510e-01,7.50000000000000e-01
7.54480000000000e-08,0.00000000000000e+00,7.50000000000000e-01,7.30994658109948e-01,7.50000000000000e-01
7.57040000000000e-08,0.00000000000000e+00,7.50000000000000e-01,7.55192564516245e-01,7.50000000000000e-01
7.60651263400810e-08,0.00000000000000e+00,7.50000000000000e-01,7.45060878128441e-01,7.50000000000000e-01
7.66916041657045e-08,0.00000000000000e+00,7.50000000000000e-01,7.53462469076459e-01,7.50000000000000e-01
7.79445598169517e-08,0.00000000000000e+00,7.50000000000000e-01,7.46359671638868e-01,7.50000000000000e-01
8.04504711194460e-08,0.00000000000000e+00,7.50000000000000e-01,7.53209595670564e-01,7.50000000000000e-01
8.42504711194460e-08,0.00000000000000e+00,7.50000000000000e-01,7.46683783221949e-01,7.50000000000000e-01
8.50000000000000e-08,0.00000000000000e+00,7.50000000000000e-01,7.52741490301245e-01,7.50000000000000e-01
8.50100000000000e-08,7.49999999999858e-02,7.50000000000000e-01,7.51825529531904e-01,6.75000000000014e-01
8.50300000000000e-08,2.24999999999957e-01,7.50000000000000e-01,7.50530565848944e-01,5.25000000000043e-01
8.50700000000000e-08,5.24999999999900e-01,7.50000000000000e-01,7.52550757577425e-01,2.25000000000100e-01
8.51000000000000e-08,7.49999999999957e-01,7.50000000000000e-01,7.59136314082638e-01,4.29656310529936e-14
8.51080000000000e-08,7.50000000000000e-01,7.50000000000000e-01,7.61250153678360e-01,0.00000000000000e+00
8.51240000000000e-08,7.50000000000000e-01,7.50000000000000e-01,7.65057272988047e-01,0.00000000000000e+00
8.51560000000000e-08,7.50000000000000e-01,7.50000000000000e-01,7.72734296511987e-01,0.00000000000000e+00
8.52200000000000e-08,7.50000000000000e-01,7.50000000000000e-01,6.76606364360250e-01,0.00000000000000e+00
8.53480000000000e-08,7.50000000000000e-01,7.50000000000000e-01,1.82824122020416e-01,0.00000000000000e+00
8.55508397671249e-08,7.50000000000000e-01,7.50000000000000e-01,-4.77604866152333e-02,0.00000000000000e+00
8.58583226824740e-08,7.50000000000000e-01,7.50000000000000e-01,3.06913197355099e-02,0.00000000000000e+00
8.64135038901721e-08,7.50000000000000e-01,7.50000000000000e-01,-2.23834103716640e-02,0.00000000000000e+00
8.70873569720543e-08,7.50000000000000e-01,7.50000000000000e-01,1.88347327454375e-02,0.00000000000000e+00
8.84350631358188e-08,7.50000000000000e-01,7.50000000000000e-01,-1.64783638683547e-02,0.00000000000000e+00
9.01000000000000e-08,7.50000000000000e-01,7.49999999999957e-01,1.56563300458622e-02,0.00000000000000e+00
9.03695412327529e-08,7.50000000000000e-01,7.50000000000000e-01,1.67007903306391e-03,0.00000000000000e+00
9.09086236982587e-08,7.50000000000000e-01,7.50000000000000e-01,-1.23366510731112e-03,0.00000000000000e+00
9.19867886292703e-08,7.50000000000000e-01,7.50000000000000e-01,1.07162873740275e-03,0.00000000000000e+00
9.41431184912934e-08,7.50000000000000e-01,7.50000000000000e-01,-9.91672605794502e-04,0.00000000000000e+00
9.51000000000000e-08,7.50000000000000e-01,7.50000000000000e-01,8.45765783598426e-04,0.00000000000000e+00
9.51100000000000e-08,6.75000000000076e-01,7.50000000000000e-01,8.22512210962016e-04,7.49999999999237e-02
9.51300000000000e-08,5.25000000000105e-01,7.50000000000000e-01,6.77532512176497e-04,2.24999999999895e-01
9.51700000000000e-08,2.25000000000162e-01,7.50000000000000e-01,3.37025287348969e-04,5.24999999999838e-01
9.52000000000000e-08,1.05027098129540e-13,7.50000000000000e-01,2.39197410694184e-04,7.49999999999895e-01
9.52080000000000e-08,0.00000000000000e+00,7.50000000000000e-01,2.03063732941933e-04,7.50000000000000e-01
9.52240000000000e-08,0.00000000000000e+00,7.50000000000000e-01,1.19935965164075e-04,7.50000000000000e-01
9.52560000000000e-08,0.00000000000000e+00,7.50000000000000e-01,-2.87842838024577e-04,7.50000000000000e-01
9.53200000000000e-08,0.00000000000000e+00,7.50000000000000e-01,-1.22415189867140e-03,7.50000000000000e-01
9.54480000000000e-08,0.00000000000000e+00,7.50000000000000e-01,-4.62315899887603e-04,7.50000000000000e-01
9.56412712554518e-08,0.00000000000000e+00,7.50000000000000e-01,3.87229355554044e-04,7.50000000000000e-01
9.60142491983739e-08,0.00000000000000e+00,7.50000000000000e-01,-4.49413368896902e-04,7.50000000000000e-01
9.64377123147501e-08,0.00000000000000e+00,7.50000000000000e-01,4.33374280947574e-04,7.50000000000000e-01
9.72846385475027e-08,0.00000000000000e+00,7.50000000000000e-01,-3.76721208981707e-04,7.50000000000000e-01
9.83098210186744e-08,0.00000000000000e+00,7.50000000000000e-01,3.39054807683651e-04,7.50000000000000e-01
1.00250841814625e-07,0.00000000000000e+00,7.50000000000000e-01,-3.13731282764713e-04,7.50000000000000e-01
1.03285117483649e-07,0.00000000000000e+00,7.50000000000000e-01,3.04515389171665e-04,7.50000000000000e-01
1.05000000000000e-07,0.00000000000000e+00,7.50000000000000e-01,-2.77885580048775e-04,7.50000000000000e-01
1.05010000000000e-07,7.49999999999858e-02,7.50000000000000e-01,-1.02481983680645e-04,7.50000000000000e-01
1.05030000000000e-07,2.24999999999957e-01,7.50000000000000e-01,1.44904459347332e-04,7.50000000000000e-01
1.05070000000000e-07,5.24999999999900e-01,7.50000000000000e-01,2.77987791584493e-04,7.50000000000000e-01
1.05100000000000e-07,7.49999999999957e-01,7.50000000000000e-01,-1.01763941660725e-03,7.50000000000000e-01
1.05108000000000e-07,7.50000000000000e-01,7.50000000000000e-01,-1.79866296853826e-03,7.50000000000000e-01
1.05124000000000e-07,7.50000000000000e-01,7.50000000000000e-01,-3.31898764129048e-03,7.50000000000000e-01
1.05156000000000e-07,7.50000000000000e-01,7.50000000000000e-01,-5.55829212655334e-03,7.50000000000000e-01
1.05220000000000e-07,7.50000000000000e-01,7.50000000000000e-01,4.01005354876960e-03,7.50000000000000e-01
1.05348000000000e-07,7.50000000000000e-01,7.50000000000000e-01,2.90770996096411e-01,7.50000000000000e-01
1.05604000000000e-07,7.50000000000000e-01,7.50000000000000e-01,7.51566918343882e-01,7.50000000000000e-01
1.05980578007148e-07,7.50000000000000e-01,7.50000000000000e-01,7.46641906215521e-01,7.50000000000000e-01
1.06570191199539e-07,7.50000000000000e-01,7.50000000000000e-01,7.53590041605575e-01,7.50000000000000e-01
1.07337304681052e-07,7.50000000000000e-01,7.50000000000000e-01,7.46558251740181e-01,7.50000000000000e-01
1.08458154623860e-07,7.50000000000000e-01,7.50000000000000e-01,7.53407407062826e-01,7.50000000000000e-01
1.10699854509477e-07,7.50000000000000e-01,7.50000000000000e-01,7.46669153097229e-01,7.50000000000000e-01
1.14499854509477e-07,7.50000000000000e-01,7.50000000000000e-01,7.53336582054459e-01,7.50000000000000e-01
1.15100000000000e-07,7.50000000000000e-01,7.50000000000000e-01,7.46877286905880e-01,7.50000000000000e-01
