Time,v(clk),v(data),v(out)
1.00000000000000e-08,7.50000000000000e-01,0.00000000000000e+00,2.78178941371726e-05
1.00100000000000e-08,7.50000000000000e-01,7.49999999999982e-02,2.50116361894606e-05
1.00300000000000e-08,7.50000000000000e-01,2.24999999999995e-01,2.02634353758391e-05
1.00700000000000e-08,7.50000000000000e-01,5.24999999999987e-01,1.39505124737288e-05
1.01000000000000e-08,7.50000000000000e-01,7.49999999999994e-01,1.05791811450678e-05
1.01080000000000e-08,7.50000000000000e-01,7.50000000000000e-01,1.04882619067007e-05
1.01240000000000e-08,7.50000000000000e-01,7.50000000000000e-01,1.15295321272760e-05
1.01560000000000e-08,7.50000000000000e-01,7.50000000000000e-01,1.47941656882117e-05
1.02200000000000e-08,7.50000000000000e-01,7.50000000000000e-01,1.70971746025483e-05
1.03480000000000e-08,7.50000000000000e-01,7.50000000000000e-01,1.48961795096714e-05
1.06040000000000e-08,7.50000000000000e-01,7.50000000000000e-01,9.78731379790154e-06
1.11044704445776e-08,7.50000000000000e-01,7.50000000000000e-01,1.40732470601500e-05
1.21054113337329e-08,7.50000000000000e-01,7.50000000000000e-01,9.68960332465175e-06
1.41072931120435e-08,7.50000000000000e-01,7.50000000000000e-01,1.28054351413846e-05
1.51000000000000e-08,7.50000000000000e-01,7.50000000000000e-01,9.14040424729833e-06
1.51100000000000e-08,6.74999999999989e-01,7.50000000000000e-01,-5.99931115104271e-05
1.51300000000000e-08,5.24999999999993e-01,7.50000000000000e-01,-1.66745335721349e-04
1.51700000000000e-08,2.25000000000000e-01,7.50000000000000e-01,-1.11156214723400e-04
1.52000000000000e-08,0.00000000000000e+00,7.50000000000000e-01,1.87764875488945e-04
1.52080000000000e-08,0.00000000000000e+00,7.50000000000000e-01,3.23037890244737e-04
1.52240000000000e-08,0.00000000000000e+00,7.50000000000000e-01,4.50870108591295e-04
1.52560000000000e-08,0.00000000000000e+00,7.50000000000000e-01,3.48637468793059e-04
1.53200000000000e-08,0.00000000000000e+00,7.50000000000000e-01,-1.40746349928778e-04
1.54480000000000e-08,0.00000000000000e+00,7.50000000000000e-01,-3.25634698171040e-04
1.57040000000000e-08,0.00000000000000e+00,7.50000000000000e-01,-1.39212681200800e-04
1.60715596293506e-08,0.00000000000000e+00,7.50000000000000e-01,1.15137865847510e-04
1.65813896586386e-08,0.00000000000000e+00,7.50000000000000e-01,1.70050704833554e-04
1.76010497172147e-08,0.00000000000000e+00,7.50000000000000e-01,-2.05787906849283e-04
1.86428776585881e-08,0.00000000000000e+00,7.50000000000000e-01,2.48337242116861e-04
2.07265335413348e-08,0.00000000000000e+00,7.50000000000000e-01,-2.35374025836463e-04
2.39322440241625e-08,0.00000000000000e+00,7.50000000000000e-01,2.53637874352560e-04
2.50000000000000e-08,0.00000000000000e+00,7.50000000000000e-01,-2.32016011200659e-04
2.50100000000000e-08,7.49999999999858e-02,7.50000000000000e-01,-6.62375332050741e-05
2.50300000000000e-08,2.25000000000007e-01,7.50000000000000e-01,1.90679059362688e-04
2.50700000000000e-08,5.25000000000000e-01,7.50000000000000e-01,3.88052992952879e-04
2.51000000000000e-08,7.50000000000000e-01,7.50000000000000e-01,-4.34122892429320e-04
2.51080000000000e-08,7.50000000000000e-01,7.50000000000000e-01,-1.01880166289236e-03
2.51240000000000e-08,7.50000000000000e-01,7.50000000000000e-01,-2.25550389316785e-03
2.51560000000000e-08,7.50000000000000e-01,7.50000000000000e-01,-4.43955570521936e-03
2.52200000000000e-08,7.50000000000000e-01,7.50000000000000e-01,-3.73106956754009e-03
2.53480000000000e-08,7.50000000000000e-01,7.50000000000000e-01,1.44315884674238e-01
2.56040000000000e-08,7.50000000000000e-01,7.50000000000000e-01,6.84347315587954e-01
2.61160000000000e-08,7.50000000000000e-01,7.50000000000000e-01,7.69494208482871e-01
2.66665298109363e-08,7.50000000000000e-01,7.50000000000000e-01,7.30982554912697e-01
2.76564979957376e-08,7.50000000000000e-01,7.50000000000000e-01,7.66437717086487e-01
2.89398329614341e-08,7.50000000000000e-01,7.50000000000000e-01,7.33372717675280e-01
3.15065028928271e-08,7.50000000000000e-01,7.50000000000000e-01,7.65298329661496e-01
3.51000000000000e-08,7.49999999999963e-01,7.50000000000000e-01,7.34153783248524e-01
3.51100000000000e-08,6.74999999999977e-01,7.50000000000000e-01,7.40056862191304e-01
3.51300000000000e-08,5.24999999999956e-01,7.50000000000000e-01,7.47411838867867e-01
3.51700000000000e-08,2.24999999999963e-01,7.50000000000000e-01,7.51018260284556e-01
3.52000000000000e-08,0.00000000000000e+00,7.50000000000000e-01,7.52750125730686e-01
3.52080000000000e-08,0.00000000000000e+00,7.50000000000000e-01,7.53113124617761e-01
3.52240000000000e-08,0.00000000000000e+00,7.50000000000000e-01,7.53156977907064e-01
3.52560000000000e-08,0.00000000000000e+00,7.50000000000000e-01,7.48588432167837e-01
3.53200000000000e-08,0.00000000000000e+00,7.50000000000000e-01,7.28978129745794e-01
3.54480000000000e-08,0.00000000000000e+00,7.50000000000000e-01,7.25540062206880e-01
3.57040000000000e-08,0.00000000000000e+00,7.50000000000000e-01,7.53066903361578e-01
3.60999501725033e-08,0.00000000000000e+00,7.50000000000000e-01,7.46316712332362e-01
3.67132536727713e-08,0.00000000000000e+00,7.50000000000000e-01,7.52165408040149e-01
3.79398606733071e-08,0.00000000000000e+00,7.50000000000000e-01,7.47411063278073e-01
4.03930746743788e-08,0.00000000000000e+00,7.50000000000000e-01,7.52072466636676e-01
4.41930746743788e-08,0.00000000000000e+00,7.50000000000000e-01,7.47692257515607e-01
4.50000000000000e-08,0.00000000000000e+00,7.50000000000000e-01,7.51755992460834e-01
4.50100000000000e-08,7.49999999999858e-02,7.50000000000000e-01,7.51328854992376e-01
4.50300000000000e-08,2.25000000000007e-01,7.50000000000000e-01,7.50677245652978e-01
4.50700000000000e-08,5.25000000000000e-01,7.50000000000000e-01,7.50151775146069e-01
4.51000000000000e-08,7.50000000000000e-01,7.50000000000000e-01,7.49588050218871e-01
4.51080000000000e-08,7.50000000000000e-01,6.90000000000031e-01,7.49262178856090e-01
4.51240000000000e-08,7.50000000000000e-01,5.69999999999994e-01,7.48621960622520e-01
4.51560000000000e-08,7.50000000000000e-01,3.30000000000020e-01,7.47682803617310e-01
4.52000000000000e-08,7.50000000000000e-01,4.29656310529936e-14,7.47034262382383e-01
4.52064000000000e-08,7.50000000000000e-01,0.00000000000000e+00,7.46981028907319e-01
4.52192000000000e-08,7.50000000000000e-01,0.00000000000000e+00,7.46878426515308e-01
4.52448000000000e-08,7.50000000000000e-01,0.00000000000000e+00,7.46789308551270e-01
4.52960000000000e-08,7.50000000000000e-01,0.00000000000000e+00,7.47207358110394e-01
4.53984000000000e-08,7.50000000000000e-01,0.00000000000000e+00,7.48438678291006e-01
4.56032000000000e-08,7.50000000000000e-01,0.00000000000000e+00,7.49646792902962e-01
4.58841383538066e-08,7.50000000000000e-01,0.00000000000000e+00,7.49944231960605e-01
4.63622466842061e-08,7.50000000000000e-01,0.00000000000000e+00,7.50036296132584e-01
4.70427397882130e-08,7.50000000000000e-01,0.00000000000000e+00,7.49972150053029e-01
4.84037259962266e-08,7.50000000000000e-01,0.00000000000000e+00,7.50024383887628e-01
5.11164365444325e-08,7.50000000000000e-01,0.00000000000000e+00,7.49977101475582e-01
5.49164365444325e-08,7.50000000000000e-01,0.00000000000000e+00,7.50021795404571e-01
5.51000000000000e-08,7.50000000000000e-01,0.00000000000000e+00,7.49993107167116e-01
5.51100000000000e-08,6.75000000000027e-01,0.00000000000000e+00,7.49928505425148e-01
5.51300000000000e-08,5.25000000000005e-01,0.00000000000000e+00,7.49866775265851e-01
5.51700000000000e-08,2.25000000000013e-01,0.00000000000000e+00,7.50841797375904e-01
5.52000000000000e-08,0.00000000000000e+00,0.00000000000000e+00,7.52938094965757e-01
5.52080000000000e-08,0.00000000000000e+00,0.00000000000000e+00,7.53449363682269e-01
5.52240000000000e-08,0.00000000000000e+00,0.00000000000000e+00,7.54176131623970e-01
5.52560000000000e-08,0.00000000000000e+00,0.00000000000000e+00,7.54867618933673e-01
5.53200000000000e-08,0.00000000000000e+00,0.00000000000000e+00,7.54937777432195e-01
5.54480000000000e-08,0.00000000000000e+00,0.00000000000000e+00,7.50275517068523e-01
5.56817425598406e-08,0.00000000000000e+00,0.00000000000000e+00,7.48835569889208e-01
5.59890378994395e-08,0.00000000000000e+00,0.00000000000000e+00,7.49797034996387e-01
5.66036285786374e-08,0.00000000000000e+00,0.00000000000000e+00,7.49384903437038e-01
5.72338656512161e-08,0.00000000000000e+00,0.00000000000000e+00,7.49940757508950e-01
5.84943397963735e-08,0.00000000000000e+00,0.00000000000000e+00,7.49594459741316e-01
6.10152880866883e-08,0.00000000000000e+00,0.00000000000000e+00,7.50041352209832e-01
6.48152880866883e-08,0.00000000000000e+00,0.00000000000000e+00,7.49683161163461e-01
6.50000000000000e-08,0.00000000000000e+00,0.00000000000000e+00,7.49978613502059e-01
6.50100000000000e-08,7.49999999999858e-02,0.00000000000000e+00,7.50015255465285e-01
6.50300000000000e-08,2.24999999999957e-01,0.00000000000000e+00,7.50035340993640e-01
6.50700000000000e-08,5.24999999999900e-01,0.00000000000000e+00,7.49940726378109e-01
6.51000000000000e-08,7.49999999999957e-01,0.00000000000000e+00,7.49775700248638e-01
6.51080000000000e-08,7.50000000000000e-01,0.00000000000000e+00,7.49715070508846e-01
6.51240000000000e-08,7.50000000000000e-01,0.00000000000000e+00,7.49620855635555e-01
6.51560000000000e-08,7.50000000000000e-01,0.00000000000000e+00,7.49576373244434e-01
6.52200000000000e-08,7.50000000000000e-01,0.00000000000000e+00,7.49942256280624e-01
6.53480000000000e-08,7.50000000000000e-01,0.00000000000000e+00,7.55157350011708e-01
6.56040000000000e-08,7.50000000000000e-01,0.00000000000000e+00,3.92229861889916e-01
6.60827177123861e-08,7.50000000000000e-01,0.00000000000000e+00,-7.53706899328864e-02
6.65201907499205e-08,7.50000000000000e-01,0.00000000000000e+00,5.08225734354780e-02
6.66295590093042e-08,7.50000000000000e-01,0.00000000000000e+00,1.85561842620572e-02
6.68482955280714e-08,7.50000000000000e-01,0.00000000000000e+00,-5.55937358612796e-03
6.72857685656058e-08,7.50000000000000e-01,0.00000000000000e+00,3.26649934472853e-03
6.81607146406748e-08,7.50000000000000e-01,0.00000000000000e+00,-2.44350327900917e-03
6.99106067908126e-08,7.50000000000000e-01,0.00000000000000e+00,2.15637415006806e-03
7.34103910910883e-08,7.50000000000000e-01,0.00000000000000e+00,-1.97912492441959e-03
7.51000000000000e-08,7.50000000000000e-01,0.00000000000000e+00,1.72653659903826e-03
7.51100000000000e-08,6.75000000000076e-01,0.00000000000000e+00,1.47485725997037e-03
7.51300000000000e-08,5.25000000000105e-01,0.00000000000000e+00,9.91103431276182e-04
7.51700000000000e-08,2.25000000000162e-01,0.00000000000000e+00,4.46691659035409e-04
7.52000000000000e-08,1.05027098129540e-13,0.00000000000000e+00,4.98599854740385e-04
7.52080000000000e-08,0.00000000000000e+00,0.00000000000000e+00,5.87758305951300e-04
7.52240000000000e-08,0.00000000000000e+00,0.00000000000000e+00,6.53607965065764e-04
7.52560000000000e-08,0.00000000000000e+00,0.00000000000000e+00,3.05265987606822e-04
7.53200000000000e-08,0.00000000000000e+00,0.00000000000000e+00,-7.77834464286774e-04
7.54480000000000e-08,0.00000000000000e+00,0.00000000000000e+00,-7.52030775195332e-04
7.57040000000000e-08,0.00000000000000e+00,0.00000000000000e+00,3.53486351754664e-04
7.60678060186559e-08,0.00000000000000e+00,0.00000000000000e+00,-1.97601262287725e-04
7.67090819666571e-08,0.00000000000000e+00,0.00000000000000e+00,1.67313944850513e-04
7.79916338626596e-08,0.00000000000000e+00,0.00000000000000e+00,-1.29824508507931e-04
8.05567376546646e-08,0.00000000000000e+00,0.00000000000000e+00,1.39555785262995e-04
8.43567376546646e-08,0.00000000000000e+00,0.00000000000000e+00,-1.15973134227886e-04
8.50000000000000e-08,0.00000000000000e+00,0.00000000000000e+00,1.07499942166312e-04
8.50100000000000e-08,7.49999999999858e-02,0.00000000000000e+00,1.76807114879156e-04
8.50300000000000e-08,2.24999999999957e-01,0.00000000000000e+00,2.65194140850383e-04
8.50700000000000e-08,5.24999999999900e-01,0.00000000000000e+00,2.17956563744216e-04
8.51000000000000e-08,7.49999999999957e-01,0.00000000000000e+00,-1.96761029089484e-05
8.51080000000000e-08,7.50000000000000e-01,0.00000000000000e+00,-1.21353317429532e-04
8.51240000000000e-08,7.50000000000000e-01,0.00000000000000e+00,-2.59883134583534e-04
8.51560000000000e-08,7.50000000000000e-01,0.00000000000000e+00,-3.09392472527023e-04
8.52200000000000e-08,7.50000000000000e-01,0.00000000000000e+00,-1.88103364427046e-04
8.53480000000000e-08,7.50000000000000e-01,0.00000000000000e+00,3.40543997699033e-05
8.56040000000000e-08,7.50000000000000e-01,0.00000000000000e+00,8.95801912977057e-05
8.61159999999999e-08,7.50000000000000e-01,0.00000000000000e+00,-1.33255147130740e-05
8.70437943331459e-08,7.50000000000000e-01,0.00000000000000e+00,3.87841385287224e-05
8.81385867214447e-08,7.50000000000000e-01,0.00000000000000e+00,-3.11066357483111e-06
9.00000000000000e-08,7.50000000000000e-01,0.00000000000000e+00,2.77519904923855e-05
9.00100000000000e-08,7.50000000000000e-01,7.49999999999858e-02,2.49350089702866e-05
9.00300000000000e-08,7.50000000000000e-01,2.24999999999957e-01,2.02007164946047e-05
9.00700000000000e-08,7.50000000000000e-01,5.24999999999900e-01,1.39529002557842e-05
9.01000000000000e-08,7.50000000000000e-01,7.49999999999957e-01,1.06643822169461e-05
9.01080000000000e-08,7.50000000000000e-01,7.50000000000000e-01,1.05420850357030e-05
9.01240000000000e-08,7.50000000000000e-01,7.50000000000000e-01,1.15611701742915e-05
9.01560000000000e-08,7.50000000000000e-01,7.50000000000000e-01,1.47575854562917e-05
9.02200000000000e-08,7.50000000000000e-01,7.50000000000000e-01,1.70483246247216e-05
9.03480000000000e-08,7.50000000000000e-01,7.50000000000000e-01,1.48767418492249e-05
9.06040000000000e-08,7.50000000000000e-01,7.50000000000000e-01,9.82558501248440e-06
9.11159999999999e-08,7.50000000000000e-01,7.50000000000000e-01,1.40481648233989e-05
9.21399999999999e-08,7.50000000000000e-01,7.50000000000000e-01,9.68892664742187e-06
9.41879999999998e-08,7.50000000000000e-01,7.50000000000000e-01,1.27772982957200e-05
9.51000000000000e-08,7.50000000000000e-01,7.50000000000000e-01,9.16306889813152e-06
9.51100000000000e-08,6.75000000000076e-01,7.50000000000000e-01,-6.00296628995509e-05
9.51300000000000e-08,5.25000000000105e-01,7.50000000000000e-01,-1.66750205570311e-04
9.51700000000000e-08,2.25000000000162e-01,7.50000000000000e-01,-1.11139753962188e-04
9.52000000000000e-08,1.05027098129540e-13,7.50000000000000e-01,1.87781190264573e-04
9.52080000000000e-08,0.00000000000000e+00,7.50000000000000e-01,3.23053029306256e-04
9.52240000000000e-08,0.00000000000000e+00,7.50000000000000e-01,4.50883109235717e-04
9.52560000000000e-08,0.00000000000000e+00,7.50000000000000e-01,3.48645600941402e-04
9.53200000000000e-08,0.00000000000000e+00,7.50000000000000e-01,-1.40744026490822e-04
9.54480000000000e-08,0.00000000000000e+00,7.50000000000000e-01,-3.25634973879593e-04
9.57040000000000e-08,0.00000000000000e+00,7.50000000000000e-01,-1.39212797866054e-04
9.60715596131965e-08,0.00000000000000e+00,7.50000000000000e-01,1.15138045134643e-04
9.65813896694068e-08,0.00000000000000e+00,7.50000000000000e-01,1.70050679665877e-04
9.76010497818276e-08,0.00000000000000e+00,7.50000000000000e-01,-2.05787926532768e-04
9.86428779381714e-08,0.00000000000000e+00,7.50000000000000e-01,2.48337294123453e-04
1.00726534250859e-07,0.00000000000000e+00,7.50000000000000e-01,-2.35374095130155e-04
1.03932245526014e-07,0.00000000000000e+00,7.50000000000000e-01,2.53637951098946e-04
1.05000000000000e-07,0.00000000000000e+00,7.50000000000000e-01,-2.32016098993535e-04
1.05010000000000e-07,7.49999999999858e-02,7.50000000000000e-01,-6.62375778696586e-05
1.05030000000000e-07,2.24999999999957e-01,7.50000000000000e-01,1.90679062103391e-04
1.05070000000000e-07,5.24999999999900e-01,7.50000000000000e-01,3.88053027567864e-04
1.05100000000000e-07,7.49999999999957e-01,7.50000000000000e-01,-4.34122800326682e-04
1.05108000000000e-07,7.50000000000000e-01,7.50000000000000e-01,-1.01880155420779e-03
1.05124000000000e-07,7.50000000000000e-01,7.50000000000000e-01,-2.25550377088307e-03
1.05156000000000e-07,7.50000000000000e-01,7.50000000000000e-01,-4.43955561380002e-03
1.05220000000000e-07,7.50000000000000e-01,7.50000000000000e-01,-3.73106977036127e-03
1.05348000000000e-07,7.50000000000000e-01,7.50000000000000e-01,1.44315881420070e-01
1.05604000000000e-07,7.50000000000000e-01,7.50000000000000e-01,6.84347313724999e-01
1.06116000000000e-07,7.50000000000000e-01,7.50000000000000e-01,7.69494208955977e-01
1.06666529807695e-07,7.50000000000000e-01,7.50000000000000e-01,7.30982554465400e-01
1.07656497997247e-07,7.50000000000000e-01,7.50000000000000e-01,7.66437717481018e-01
1.08939832961665e-07,7.50000000000000e-01,7.50000000000000e-01,7.33372717271853e-01
1.11506502890500e-07,7.50000000000000e-01,7.50000000000000e-01,7.65298330028385e-01
1.15100000000000e-07,7.50000000000000e-01,7.50000000000000e-01,7.34153782862786e-01
1.15110000000000e-07,6.75000000000076e-01,7.50000000000000e-01,7.40056861954231e-01
1.15130000000000e-07,5.25000000000105e-01,7.50000000000000e-01,7.47411838813166e-01
1.15170000000000e-07,2.25000000000162e-01,7.50000000000000e-01,7.51018260290983e-01
1.15200000000000e-07,1.05027098129540e-13,7.50000000000000e-01,7.52750125736536e-01
1.15208000000000e-07,0.00000000000000e+00,7.50000000000000e-01,7.53113124625939e-01
1.15224000000000e-07,0.00000000000000e+00,7.50000000000000e-01,7.53156977903072e-01
1.15256000000000e-07,0.00000000000000e+00,7.50000000000000e-01,7.48588432142848e-01
1.15320000000000e-07,0.00000000000000e+00,7.50000000000000e-01,7.28978129710444e-01
1.15448000000000e-07,0.00000000000000e+00,7.50000000000000e-01,7.25540062219231e-01
1.15704000000000e-07,0.00000000000000e+00,7.50000000000000e-01,7.53066903366349e-01
1.16099950172470e-07,0.00000000000000e+00,7.50000000000000e-01,7.46316712327425e-01
1.16713253672864e-07,0.00000000000000e+00,7.50000000000000e-01,7.52165408043427e-01
1.17939860673653e-07,0.00000000000000e+00,7.50000000000000e-01,7.47411063274768e-01
1.20393074675229e-07,0.00000000000000e+00,7.50000000000000e-01,7.52072466637018e-01
1.24193074675229e-07,0.00000000000000e+00,7.50000000000000e-01,7.47692257512661e-01
1.25000000000000e-07,0.00000000000000e+00,7.50000000000000e-01,7.51755992463910e-01
1.25010000000000e-07,7.49999999998865e-02,7.50000000000000e-01,7.51328854994540e-01
1.25030000000000e-07,2.24999999999858e-01,7.50000000000000e-01,7.50677245654113e-01
1.25070000000000e-07,5.24999999999801e-01,7.50000000000000e-01,7.50151775146229e-01
1.25100000000000e-07,7.49999999999858e-01,7.50000000000000e-01,7.49588050219075e-01
1.25108000000000e-07,7.50000000000000e-01,6.89999999999932e-01,7.49262178856289e-01
1.25124000000000e-07,7.50000000000000e-01,5.69999999999994e-01,7.48621960622594e-01
1.25156000000000e-07,7.50000000000000e-01,3.29999999999921e-01,7.47682803617397e-01
1.25200000000000e-07,7.50000000000000e-01,0.00000000000000e+00,7.47034262382343e-01
1.25206400000000e-07,7.50000000000000e-01,0.00000000000000e+00,7.46981028907368e-01
1.25219200000000e-07,7.50000000000000e-01,0.00000000000000e+00,7.46878426514730e-01
1.25244800000000e-07,7.50000000000000e-01,0.00000000000000e+00,7.46789308550644e-01
1.25296000000000e-07,7.50000000000000e-01,0.00000000000000e+00,7.47207358110239e-01
1.25398400000000e-07,7.50000000000000e-01,0.00000000000000e+00,7.48438678292166e-01
1.25603200000000e-07,7.50000000000000e-01,0.00000000000000e+00,7.49646792902754e-01
1.25884138353627e-07,7.50000000000000e-01,0.00000000000000e+00,7.49944231960568e-01
1.26362246684528e-07,7.50000000000000e-01,0.00000000000000e+00,7.50036296132514e-01
1.27042739787436e-07,7.50000000000000e-01,0.00000000000000e+00,7.49972150053190e-01
1.28403725993252e-07,7.50000000000000e-01,0.00000000000000e+00,7.50024383887739e-01
1.31116436539261e-07,7.50000000000000e-01,0.00000000000000e+00,7.49977101475609e-01
1.34916436539261e-07,7.50000000000000e-01,0.00000000000000e+00,7.50021795404513e-01
1.35100000000000e-07,7.49999999999864e-01,0.00000000000000e+00,7.49993107166806e-01
1.35110000000000e-07,6.74999999999778e-01,0.00000000000000e+00,7.49928505424930e-01
1.35130000000000e-07,5.24999999999807e-01,0.00000000000000e+00,7.49866775265746e-01
