Time,v(clk),v(data),v(out)
1.00000000000000e-08,6.00000000000000e-01,0.00000000000000e+00,3.11415061532054e-05
1.00100000000000e-08,6.00000000000000e-01,5.99999999999985e-02,2.11097610149369e-05
1.00300000000000e-08,6.00000000000000e-01,1.79999999999996e-01,6.84756068664027e-06
1.00700000000000e-08,6.00000000000000e-01,4.19999999999990e-01,4.65146558922824e-07
1.01000000000000e-08,6.00000000000000e-01,5.99999999999995e-01,-1.66712350552212e-06
1.01080000000000e-08,6.00000000000000e-01,6.00000000000000e-01,-1.78819422594345e-06
1.01240000000000e-08,6.00000000000000e-01,6.00000000000000e-01,2.16731215237076e-06
1.01560000000000e-08,6.00000000000000e-01,6.00000000000000e-01,7.31824496878752e-06
1.02200000000000e-08,6.00000000000000e-01,6.00000000000000e-01,4.59919835713030e-06
1.03480000000000e-08,6.00000000000000e-01,6.00000000000000e-01,-2.80412152518783e-07
1.06040000000000e-08,6.00000000000000e-01,6.00000000000000e-01,3.50492109854605e-06
1.11160000000000e-08,6.00000000000000e-01,6.00000000000000e-01,7.85914105761246e-07
1.21400000000000e-08,6.00000000000000e-01,6.00000000000000e-01,2.96595216585892e-06
1.41880000000000e-08,6.00000000000000e-01,6.00000000000000e-01,6.67982352838600e-07
1.51000000000000e-08,6.00000000000000e-01,6.00000000000000e-01,2.60127935136113e-06
1.51100000000000e-08,5.39999999999991e-01,6.00000000000000e-01,-1.17249467550304e-04
1.51300000000000e-08,4.19999999999994e-01,6.00000000000000e-01,-2.37911832499951e-04
1.51700000000000e-08,1.80000000000000e-01,6.00000000000000e-01,3.50929504712438e-06
1.52000000000000e-08,0.00000000000000e+00,6.00000000000000e-01,7.16229902879353e-04
1.52080000000000e-08,0.00000000000000e+00,6.00000000000000e-01,9.49887211762770e-04
1.52240000000000e-08,0.00000000000000e+00,6.00000000000000e-01,1.01381246782097e-03
1.52560000000000e-08,0.00000000000000e+00,6.00000000000000e-01,2.53280639865155e-05
1.53200000000000e-08,0.00000000000000e+00,6.00000000000000e-01,-7.41771218748057e-04
1.54480000000000e-08,0.00000000000000e+00,6.00000000000000e-01,2.75805841818869e-04
1.56551040711615e-08,0.00000000000000e+00,6.00000000000000e-01,-3.06935698242559e-04
1.59646778903416e-08,0.00000000000000e+00,6.00000000000000e-01,1.95939900393152e-04
1.64416474909895e-08,0.00000000000000e+00,6.00000000000000e-01,-3.86936077903001e-05
1.71068820622441e-08,0.00000000000000e+00,6.00000000000000e-01,-2.99954267888383e-05
1.83618084556759e-08,0.00000000000000e+00,6.00000000000000e-01,5.89400083070629e-05
2.08716612425395e-08,0.00000000000000e+00,6.00000000000000e-01,-6.86578256322442e-05
2.46716612425395e-08,0.00000000000000e+00,6.00000000000000e-01,7.71955337940957e-05
2.50000000000000e-08,0.00000000000000e+00,6.00000000000000e-01,-1.24630887199651e-04
2.50100000000000e-08,5.99999999999886e-02,6.00000000000000e-01,1.51679744149119e-04
2.50300000000000e-08,1.80000000000006e-01,6.00000000000000e-01,5.31892695785338e-04
2.50700000000000e-08,4.20000000000000e-01,6.00000000000000e-01,8.39213112581991e-04
2.51000000000000e-08,6.00000000000000e-01,6.00000000000000e-01,-9.40459251786707e-05
2.51080000000000e-08,6.00000000000000e-01,6.00000000000000e-01,-9.00561320151747e-04
2.51240000000000e-08,6.00000000000000e-01,6.00000000000000e-01,-2.52675533005108e-03
2.51560000000000e-08,6.00000000000000e-01,6.00000000000000e-01,-5.10333610687072e-03
2.52200000000000e-08,6.00000000000000e-01,6.00000000000000e-01,-6.65856829365906e-03
2.53480000000000e-08,6.00000000000000e-01,6.00000000000000e-01,1.61936635881315e-01
2.56040000000000e-08,6.00000000000000e-01,6.00000000000000e-01,5.87222730899529e-01
2.60930633260098e-08,6.00000000000000e-01,6.00000000000000e-01,6.03504783594349e-01
2.66337357012024e-08,6.00000000000000e-01,6.00000000000000e-01,5.96490247283621e-01
2.75073083836108e-08,6.00000000000000e-01,6.00000000000000e-01,6.02909973892359e-01
2.87928829952383e-08,6.00000000000000e-01,6.00000000000000e-01,5.96984601387577e-01
3.01000000000000e-08,6.00000000000000e-01,6.00000000000000e-01,6.02704641194029e-01
3.01100000000000e-08,6.00000000000000e-01,5.40000000000031e-01,6.01246145165419e-01
3.01300000000000e-08,6.00000000000000e-01,4.20000000000014e-01,5.99963887341550e-01
3.01700000000000e-08,6.00000000000000e-01,1.80000000000020e-01,6.00142277845412e-01
3.02000000000000e-08,6.00000000000000e-01,1.44328993201270e-14,6.00051687387099e-01
3.02080000000000e-08,6.00000000000000e-01,0.00000000000000e+00,6.00054754069019e-01
3.02240000000000e-08,6.00000000000000e-01,0.00000000000000e+00,6.00029295553512e-01
3.02560000000000e-08,6.00000000000000e-01,0.00000000000000e+00,5.99961466747752e-01
3.03200000000000e-08,6.00000000000000e-01,0.00000000000000e+00,6.00022225567105e-01
3.04480000000000e-08,6.00000000000000e-01,0.00000000000000e+00,5.99999684987116e-01
3.06534474519132e-08,6.00000000000000e-01,0.00000000000000e+00,5.99987020745490e-01
3.09560307786472e-08,6.00000000000000e-01,0.00000000000000e+00,6.00001811148841e-01
3.15611974321152e-08,6.00000000000000e-01,0.00000000000000e+00,5.99987108325538e-01
3.27715307390511e-08,6.00000000000000e-01,0.00000000000000e+00,6.00002521207934e-01
3.51000000000000e-08,5.99999999999970e-01,0.00000000000000e+00,5.99988198372754e-01
3.51100000000000e-08,5.39999999999982e-01,0.00000000000000e+00,5.99894374479511e-01
3.51300000000000e-08,4.19999999999965e-01,0.00000000000000e+00,5.99833611668096e-01
3.51700000000000e-08,1.79999999999970e-01,0.00000000000000e+00,6.00939520954800e-01
3.52000000000000e-08,0.00000000000000e+00,0.00000000000000e+00,6.04325234128924e-01
3.52080000000000e-08,0.00000000000000e+00,0.00000000000000e+00,6.05007552428623e-01
3.52240000000000e-08,0.00000000000000e+00,0.00000000000000e+00,6.04207172733678e-01
3.52560000000000e-08,0.00000000000000e+00,0.00000000000000e+00,5.93967476691409e-01
3.53200000000000e-08,0.00000000000000e+00,0.00000000000000e+00,5.88537155459877e-01
3.54480000000000e-08,0.00000000000000e+00,0.00000000000000e+00,6.01393072405258e-01
3.56528040549727e-08,0.00000000000000e+00,0.00000000000000e+00,5.98219423216248e-01
3.59470680666357e-08,0.00000000000000e+00,0.00000000000000e+00,6.01042567101563e-01
3.64460532322399e-08,0.00000000000000e+00,0.00000000000000e+00,5.98779343891089e-01
3.73935744415565e-08,0.00000000000000e+00,0.00000000000000e+00,6.00981419294825e-01
3.91000000000000e-08,0.00000000000000e+00,0.00000000000000e+00,5.98944739801130e-01
3.92895042418633e-08,0.00000000000000e+00,0.00000000000000e+00,5.99896250325929e-01
3.96685127255900e-08,0.00000000000000e+00,0.00000000000000e+00,6.00022617480625e-01
4.04265296930432e-08,0.00000000000000e+00,0.00000000000000e+00,5.99915298988901e-01
4.19425636279498e-08,0.00000000000000e+00,0.00000000000000e+00,6.00025929145822e-01
4.49746314977629e-08,0.00000000000000e+00,0.00000000000000e+00,5.99928173818287e-01
4.50000000000000e-08,0.00000000000000e+00,0.00000000000000e+00,5.99980841010759e-01
4.50100000000000e-08,5.99999999999886e-02,0.00000000000000e+00,6.00078819901534e-01
4.50300000000000e-08,1.80000000000006e-01,0.00000000000000e+00,6.00120026430007e-01
4.50700000000000e-08,4.20000000000000e-01,0.00000000000000e+00,5.99976428517672e-01
4.51000000000000e-08,6.00000000000000e-01,0.00000000000000e+00,5.99808922654329e-01
4.51080000000000e-08,6.00000000000000e-01,0.00000000000000e+00,5.99733500216923e-01
4.51240000000000e-08,6.00000000000000e-01,0.00000000000000e+00,5.99662263985159e-01
4.51560000000000e-08,6.00000000000000e-01,0.00000000000000e+00,5.99761969496959e-01
4.52200000000000e-08,6.00000000000000e-01,0.00000000000000e+00,6.00051559055830e-01
4.53480000000000e-08,6.00000000000000e-01,0.00000000000000e+00,6.12445609139945e-01
4.56040000000000e-08,6.00000000000000e-01,0.00000000000000e+00,2.12765608378055e-01
4.59608308186941e-08,6.00000000000000e-01,0.00000000000000e+00,-6.46771126915905e-02
4.64201926209375e-08,6.00000000000000e-01,0.00000000000000e+00,5.20873235555313e-02
4.71685888595857e-08,6.00000000000000e-01,0.00000000000000e+00,-3.59979472889039e-02
4.80977516341982e-08,6.00000000000000e-01,0.00000000000000e+00,3.30625358518311e-02
4.99348388203453e-08,6.00000000000000e-01,0.00000000000000e+00,-2.75226449187758e-02
5.00000000000000e-08,6.00000000000000e-01,0.00000000000000e+00,-3.20556259793889e-03
5.00100000000000e-08,6.00000000000000e-01,5.99999999999886e-02,-2.26662545177819e-03
5.00300000000000e-08,6.00000000000000e-01,1.79999999999966e-01,-1.18273218364350e-03
5.00700000000000e-08,6.00000000000000e-01,4.20000000000000e-01,-4.69870891692453e-04
5.01000000000000e-08,6.00000000000000e-01,6.00000000000000e-01,-1.68045146968096e-04
5.01080000000000e-08,6.00000000000000e-01,6.00000000000000e-01,-1.49672414475624e-04
5.01240000000000e-08,6.00000000000000e-01,6.00000000000000e-01,-9.36737000901272e-05
5.01560000000000e-08,6.00000000000000e-01,6.00000000000000e-01,-3.03918561056354e-05
5.02200000000000e-08,6.00000000000000e-01,6.00000000000000e-01,-3.26333053220218e-06
5.03480000000000e-08,6.00000000000000e-01,6.00000000000000e-01,2.13315457549268e-06
5.06040000000000e-08,6.00000000000000e-01,6.00000000000000e-01,-1.47269623245253e-06
5.11160000000001e-08,6.00000000000000e-01,6.00000000000000e-01,1.71129672063390e-06
5.21400000000002e-08,6.00000000000000e-01,6.00000000000000e-01,-1.31462846569841e-06
5.41880000000003e-08,6.00000000000000e-01,6.00000000000000e-01,1.67257669688760e-06
5.51000000000000e-08,6.00000000000000e-01,6.00000000000000e-01,-1.19294962099004e-06
5.51100000000000e-08,5.40000000000021e-01,6.00000000000000e-01,-1.20569095676426e-04
5.51300000000000e-08,4.20000000000004e-01,6.00000000000000e-01,-2.37422130307946e-04
5.51700000000000e-08,1.80000000000010e-01,6.00000000000000e-01,8.53333225386832e-06
5.52000000000000e-08,0.00000000000000e+00,6.00000000000000e-01,6.99335522826666e-04
5.52080000000000e-08,0.00000000000000e+00,6.00000000000000e-01,9.04814860301098e-04
5.52240000000000e-08,0.00000000000000e+00,6.00000000000000e-01,8.13187579410513e-04
5.52560000000000e-08,0.00000000000000e+00,6.00000000000000e-01,-9.35662560677841e-04
5.53200000000000e-08,0.00000000000000e+00,6.00000000000000e-01,-1.73364506141416e-03
5.54480000000000e-08,0.00000000000000e+00,6.00000000000000e-01,4.31398832107792e-04
5.56542572704643e-08,0.00000000000000e+00,6.00000000000000e-01,-3.55181828948326e-04
5.59661850379787e-08,0.00000000000000e+00,6.00000000000000e-01,2.17412559211573e-04
5.64406269842864e-08,0.00000000000000e+00,6.00000000000000e-01,-5.08511898390327e-05
5.71078664829336e-08,0.00000000000000e+00,6.00000000000000e-01,-2.18929655208654e-05
5.83592319062355e-08,0.00000000000000e+00,6.00000000000000e-01,5.21887528149700e-05
6.08619627528394e-08,0.00000000000000e+00,6.00000000000000e-01,-6.24105383214340e-05
6.46619627528394e-08,0.00000000000000e+00,6.00000000000000e-01,7.12753405537861e-05
6.50000000000000e-08,0.00000000000000e+00,6.00000000000000e-01,-1.19286223147518e-04
6.50100000000000e-08,5.99999999999886e-02,6.00000000000000e-01,1.47182758832465e-04
6.50300000000000e-08,1.79999999999966e-01,6.00000000000000e-01,5.28451848961095e-04
6.50700000000000e-08,4.19999999999920e-01,6.00000000000000e-01,8.45482743712642e-04
6.51000000000000e-08,5.99999999999966e-01,6.00000000000000e-01,-8.27444833165353e-05
6.51080000000000e-08,6.00000000000000e-01,6.00000000000000e-01,-8.85716903332709e-04
6.51240000000000e-08,6.00000000000000e-01,6.00000000000000e-01,-2.51023772552121e-03
6.51560000000000e-08,6.00000000000000e-01,6.00000000000000e-01,-5.09373215885879e-03
6.52200000000000e-08,6.00000000000000e-01,6.00000000000000e-01,-6.66616795882304e-03
6.53480000000000e-08,6.00000000000000e-01,6.00000000000000e-01,1.61521126344306e-01
6.56040000000000e-08,6.00000000000000e-01,6.00000000000000e-01,5.87124657999479e-01
6.60941141950125e-08,6.00000000000000e-01,6.00000000000000e-01,6.03541507902305e-01
6.66343828412157e-08,6.00000000000000e-01,6.00000000000000e-01,5.96448967388982e-01
6.75091493022913e-08,6.00000000000000e-01,6.00000000000000e-01,6.02944232206463e-01
6.87947852865187e-08,6.00000000000000e-01,6.00000000000000e-01,5.96947410533199e-01
7.01000000000000e-08,6.00000000000000e-01,6.00000000000000e-01,6.02737615659111e-01
7.01100000000000e-08,6.00000000000000e-01,5.40000000000011e-01,6.01259385040246e-01
7.01300000000000e-08,6.00000000000000e-01,4.20000000000034e-01,5.99961844649326e-01
7.01700000000000e-08,6.00000000000000e-01,1.80000000000080e-01,6.00143782720588e-01
7.02000000000000e-08,6.00000000000000e-01,3.44169137633799e-14,6.00051238481337e-01
7.02080000000000e-08,6.00000000000000e-01,0.00000000000000e+00,6.00054727597350e-01
7.02240000000000e-08,6.00000000000000e-01,0.00000000000000e+00,6.00029443144557e-01
7.02560000000000e-08,6.00000000000000e-01,0.00000000000000e+00,5.99961514851003e-01
7.03200000000000e-08,6.00000000000000e-01,0.00000000000000e+00,6.00022256453547e-01
7.04480000000000e-08,6.00000000000000e-01,0.00000000000000e+00,5.99999713695057e-01
7.06534578648500e-08,6.00000000000000e-01,0.00000000000000e+00,5.99987002619111e-01
7.09560957050985e-08,6.00000000000000e-01,0.00000000000000e+00,6.00001827462881e-01
7.15613713855954e-08,6.00000000000000e-01,0.00000000000000e+00,5.99987092558122e-01
7.27719227465893e-08,6.00000000000000e-01,0.00000000000000e+00,6.00002536679730e-01
7.51000000000000e-08,6.00000000000000e-01,0.00000000000000e+00,5.99988183009598e-01
7.51100000000000e-08,5.40000000000061e-01,0.00000000000000e+00,5.99894368811846e-01
7.51300000000000e-08,4.20000000000084e-01,0.00000000000000e+00,5.99833612914997e-01
7.51700000000000e-08,1.80000000000129e-01,0.00000000000000e+00,6.00939520130363e-01
7.52000000000000e-08,8.40438829641244e-14,0.00000000000000e+00,6.04325232390731e-01
7.52080000000000e-08,0.00000000000000e+00,0.00000000000000e+00,6.05007547072019e-01
7.52240000000000e-08,0.00000000000000e+00,0.00000000000000e+00,6.04207153474975e-01
7.52560000000000e-08,0.00000000000000e+00,0.00000000000000e+00,5.93967444974748e-01
7.53200000000000e-08,0.00000000000000e+00,0.00000000000000e+00,5.88537154064413e-01
7.54480000000000e-08,0.00000000000000e+00,0.00000000000000e+00,6.01393076622988e-01
7.56528040399976e-08,0.00000000000000e+00,0.00000000000000e+00,5.98219419533903e-01
7.59470680523654e-08,0.00000000000000e+00,0.00000000000000e+00,6.01042569929745e-01
7.64460532417847e-08,0.00000000000000e+00,0.00000000000000e+00,5.98779341252173e-01
7.73935746955837e-08,0.00000000000000e+00,0.00000000000000e+00,6.00981421780185e-01
7.81000000000000e-08,0.00000000000000e+00,0.00000000000000e+00,5.98974835038365e-01
7.82895042907598e-08,0.00000000000000e+00,0.00000000000000e+00,5.99888292391910e-01
7.86685128722794e-08,0.00000000000000e+00,0.00000000000000e+00,6.00011449317442e-01
7.94265300353187e-08,0.00000000000000e+00,0.00000000000000e+00,5.99911893275686e-01
8.09425643613971e-08,0.00000000000000e+00,0.00000000000000e+00,6.00019859038051e-01
8.39746330135540e-08,0.00000000000000e+00,0.00000000000000e+00,5.99929673373912e-01
8.50000000000000e-08,0.00000000000000e+00,0.00000000000000e+00,6.00024894134296e-01
8.50100000000000e-08,5.99999999999886e-02,0.00000000000000e+00,6.00110723206884e-01
8.50300000000000e-08,1.79999999999966e-01,0.00000000000000e+00,6.00124222004844e-01
8.50700000000000e-08,4.19999999999920e-01,0.00000000000000e+00,5.99977135262743e-01
8.51000000000000e-08,5.99999999999966e-01,0.00000000000000e+00,5.99808673251729e-01
8.51080000000000e-08,6.00000000000000e-01,0.00000000000000e+00,5.99733667998554e-01
8.51240000000000e-08,6.00000000000000e-01,0.00000000000000e+00,5.99661520972845e-01
8.51560000000000e-08,6.00000000000000e-01,0.00000000000000e+00,5.99761345635601e-01
8.52200000000000e-08,6.00000000000000e-01,0.00000000000000e+00,6.00051241585870e-01
8.53480000000000e-08,6.00000000000000e-01,0.00000000000000e+00,6.12447709217097e-01
8.56040000000000e-08,6.00000000000000e-01,0.00000000000000e+00,2.12749192423042e-01
8.59608035079962e-08,6.00000000000000e-01,0.00000000000000e+00,-6.46736512841251e-02
8.64202085110317e-08,6.00000000000000e-01,0.00000000000000e+00,5.20862521647883e-02
8.71685502944337e-08,6.00000000000000e-01,0.00000000000000e+00,-3.59970840110532e-02
8.80977712895885e-08,6.00000000000000e-01,0.00000000000000e+00,3.30620504362086e-02
8.99349032430640e-08,6.00000000000000e-01,0.00000000000000e+00,-2.75225886511527e-02
9.00000000000000e-08,6.00000000000000e-01,0.00000000000000e+00,-3.21852937526415e-03
9.00100000000000e-08,6.00000000000000e-01,5.99999999999886e-02,-2.27742237648471e-03
9.00300000000000e-08,6.00000000000000e-01,1.79999999999966e-01,-1.18942470427705e-03
9.00700000000000e-08,6.00000000000000e-01,4.19999999999920e-01,-4.71943699902472e-04
9.01000000000000e-08,6.00000000000000e-01,5.99999999999966e-01,-1.69040058034794e-04
9.01080000000000e-08,6.00000000000000e-01,6.00000000000000e-01,-1.50450952858927e-04
9.01240000000000e-08,6.00000000000000e-01,6.00000000000000e-01,-9.40746639754853e-05
9.01560000000000e-08,6.00000000000000e-01,6.00000000000000e-01,-3.05691466834235e-05
9.02200000000000e-08,6.00000000000000e-01,6.00000000000000e-01,-3.27941316362323e-06
9.03480000000000e-08,6.00000000000000e-01,6.00000000000000e-01,2.14097172613475e-06
9.06040000000000e-08,6.00000000000000e-01,6.00000000000000e-01,-1.47601201589548e-06
9.11159999999999e-08,6.00000000000000e-01,6.00000000000000e-01,1.71289882872246e-06
9.21399999999999e-08,6.00000000000000e-01,6.00000000000000e-01,-1.31601475208704e-06
9.41879999999998e-08,6.00000000000000e-01,6.00000000000000e-01,1.67335721965815e-06
9.51000000000000e-08,6.00000000000000e-01,6.00000000000000e-01,-1.19374419972444e-06
9.51100000000000e-08,5.40000000000061e-01,6.00000000000000e-01,-1.20574415144500e-04
9.51300000000000e-08,4.20000000000084e-01,6.00000000000000e-01,-2.37431207487551e-04
9.51700000000000e-08,1.80000000000129e-01,6.00000000000000e-01,8.52546356182315e-06
9.52000000000000e-08,8.40438829641244e-14,6.00000000000000e-01,6.99331044177007e-04
9.52080000000000e-08,0.00000000000000e+00,6.00000000000000e-01,9.04807369868921e-04
9.52240000000000e-08,0.00000000000000e+00,6.00000000000000e-01,8.13169608940123e-04
9.52560000000000e-08,0.00000000000000e+00,6.00000000000000e-01,-9.35716386346402e-04
9.53200000000000e-08,0.00000000000000e+00,6.00000000000000e-01,-1.73374030287887e-03
9.54480000000000e-08,0.00000000000000e+00,6.00000000000000e-01,4.31390933270048e-04
9.56542572556107e-08,0.00000000000000e+00,6.00000000000000e-01,-3.55165970421258e-04
9.59661850087849e-08,0.00000000000000e+00,6.00000000000000e-01,2.17396740410193e-04
9.64406269087561e-08,0.00000000000000e+00,6.00000000000000e-01,-5.08363251486860e-05
9.71078664183589e-08,0.00000000000000e+00,6.00000000000000e-01,-2.19070921094900e-05
9.83592317107257e-08,0.00000000000000e+00,6.00000000000000e-01,5.22023813347375e-05
1.00861962295459e-07,0.00000000000000e+00,6.00000000000000e-01,-6.24239751360507e-05
1.04661962295459e-07,0.00000000000000e+00,6.00000000000000e-01,7.12885674337823e-05
1.05000000000000e-07,0.00000000000000e+00,6.00000000000000e-01,-1.19297699621268e-04
1.05010000000000e-07,5.99999999999886e-02,6.00000000000000e-01,1.47176457348061e-04
1.05030000000000e-07,1.79999999999966e-01,6.00000000000000e-01,5.28450779327921e-04
1.05070000000000e-07,4.19999999999920e-01,6.00000000000000e-01,8.45482893558791e-04
1.05100000000000e-07,5.99999999999966e-01,6.00000000000000e-01,-8.27441822102842e-05
1.05108000000000e-07,6.00000000000000e-01,6.00000000000000e-01,-8.85716731209601e-04
1.05124000000000e-07,6.00000000000000e-01,6.00000000000000e-01,-2.51023765698434e-03
1.05156000000000e-07,6.00000000000000e-01,6.00000000000000e-01,-5.09373210805476e-03
1.05220000000000e-07,6.00000000000000e-01,6.00000000000000e-01,-6.66616794481716e-03
1.05348000000000e-07,6.00000000000000e-01,6.00000000000000e-01,1.61521127208312e-01
1.05604000000000e-07,6.00000000000000e-01,6.00000000000000e-01,5.87124658196116e-01
1.06094114192674e-07,6.00000000000000e-01,6.00000000000000e-01,6.03541507835402e-01
1.06634382838968e-07,6.00000000000000e-01,6.00000000000000e-01,5.96448967466862e-01
