Time,v(clk),v(data),v(out)
1.00000000000000e-08,6.00000000000000e-01,0.00000000000000e+00,-4.64168138063215e-06
1.00100000000000e-08,6.00000000000000e-01,5.99999999999985e-02,7.79531656958099e-06
1.00300000000000e-08,6.00000000000000e-01,1.79999999999996e-01,1.49330967621070e-05
1.00700000000000e-08,6.00000000000000e-01,4.19999999999990e-01,2.24703400321380e-06
1.01000000000000e-08,6.00000000000000e-01,5.99999999999995e-01,-2.08192935262363e-06
1.01080000000000e-08,6.00000000000000e-01,6.00000000000000e-01,-3.73211842512322e-06
1.01240000000000e-08,6.00000000000000e-01,6.00000000000000e-01,-1.11952214532085e-06
1.01560000000000e-08,6.00000000000000e-01,6.00000000000000e-01,7.59809205645723e-06
1.02200000000000e-08,6.00000000000000e-01,6.00000000000000e-01,9.18362753377089e-06
1.03480000000000e-08,6.00000000000000e-01,6.00000000000000e-01,1.31641849663439e-06
1.06040000000000e-08,6.00000000000000e-01,6.00000000000000e-01,2.13782119545119e-06
1.11160000000000e-08,6.00000000000000e-01,6.00000000000000e-01,2.19495257874902e-06
1.21400000000000e-08,6.00000000000000e-01,6.00000000000000e-01,1.93575405633972e-06
1.41880000000000e-08,6.00000000000000e-01,6.00000000000000e-01,1.94456502451007e-06
1.51000000000000e-08,6.00000000000000e-01,6.00000000000000e-01,1.72052043134231e-06
1.51100000000000e-08,5.39999999999991e-01,6.00000000000000e-01,-1.41591749318895e-04
1.51300000000000e-08,4.19999999999994e-01,6.00000000000000e-01,-3.18226681721961e-04
1.51700000000000e-08,1.80000000000000e-01,6.00000000000000e-01,-1.56239208953343e-04
1.52000000000000e-08,0.00000000000000e+00,6.00000000000000e-01,6.11623794733743e-04
1.52080000000000e-08,0.00000000000000e+00,6.00000000000000e-01,9.29262502106357e-04
1.52240000000000e-08,0.00000000000000e+00,6.00000000000000e-01,1.23980628428273e-03
1.52560000000000e-08,0.00000000000000e+00,6.00000000000000e-01,8.00578778431080e-04
1.53200000000000e-08,0.00000000000000e+00,6.00000000000000e-01,-5.76785123411167e-04
1.54480000000000e-08,0.00000000000000e+00,6.00000000000000e-01,-2.95452258321165e-04
1.57040000000000e-08,0.00000000000000e+00,6.00000000000000e-01,2.25470586649554e-04
1.60120167586502e-08,0.00000000000000e+00,6.00000000000000e-01,-3.40511035349610e-04
1.65500779807251e-08,0.00000000000000e+00,6.00000000000000e-01,4.06654731570651e-04
1.75687463575580e-08,0.00000000000000e+00,6.00000000000000e-01,-4.01395482563266e-04
1.85491695213615e-08,0.00000000000000e+00,6.00000000000000e-01,3.84135789940740e-04
2.05100158489687e-08,0.00000000000000e+00,6.00000000000000e-01,-3.72577160495570e-04
2.40095338860935e-08,0.00000000000000e+00,6.00000000000000e-01,3.65152145317107e-04
2.50000000000000e-08,0.00000000000000e+00,6.00000000000000e-01,-3.36752719501465e-04
2.50100000000000e-08,5.99999999999886e-02,6.00000000000000e-01,-2.79423328108097e-05
2.50300000000000e-08,1.80000000000006e-01,6.00000000000000e-01,4.72542033049292e-04
2.50700000000000e-08,4.20000000000000e-01,6.00000000000000e-01,1.01829878564208e-03
2.51000000000000e-08,6.00000000000000e-01,6.00000000000000e-01,5.80352311751131e-04
2.51080000000000e-08,6.00000000000000e-01,6.00000000000000e-01,2.77052247972115e-05
2.51240000000000e-08,6.00000000000000e-01,6.00000000000000e-01,-1.17168870917352e-03
2.51560000000000e-08,6.00000000000000e-01,6.00000000000000e-01,-3.43968036370618e-03
2.52200000000000e-08,6.00000000000000e-01,6.00000000000000e-01,-6.28142991200377e-03
2.53480000000000e-08,6.00000000000000e-01,6.00000000000000e-01,4.55981752424277e-03
2.56040000000000e-08,6.00000000000000e-01,6.00000000000000e-01,4.48071276128369e-01
2.61160000000000e-08,6.00000000000000e-01,6.00000000000000e-01,6.18367014072851e-01
2.66168610604349e-08,6.00000000000000e-01,6.00000000000000e-01,5.83815516690356e-01
2.76185831813046e-08,6.00000000000000e-01,6.00000000000000e-01,6.15592507377779e-01
2.90310867731944e-08,6.00000000000000e-01,6.00000000000000e-01,5.84498854698124e-01
3.01000000000000e-08,6.00000000000000e-01,6.00000000000000e-01,6.14608333624753e-01
3.01100000000000e-08,6.00000000000000e-01,5.40000000000031e-01,6.06836580372643e-01
3.01300000000000e-08,6.00000000000000e-01,4.20000000000014e-01,5.99592006400021e-01
3.01700000000000e-08,6.00000000000000e-01,1.80000000000020e-01,6.00094967682942e-01
3.02000000000000e-08,6.00000000000000e-01,1.44328993201270e-14,5.99968318298357e-01
3.02080000000000e-08,6.00000000000000e-01,0.00000000000000e+00,5.99973541641974e-01
3.02240000000000e-08,6.00000000000000e-01,0.00000000000000e+00,5.99962502716371e-01
3.02560000000000e-08,6.00000000000000e-01,0.00000000000000e+00,5.99926487146641e-01
3.03200000000000e-08,6.00000000000000e-01,0.00000000000000e+00,5.99944912461384e-01
3.04480000000000e-08,6.00000000000000e-01,0.00000000000000e+00,6.00030794248804e-01
3.06695873897743e-08,6.00000000000000e-01,0.00000000000000e+00,5.99963315999588e-01
3.09875340756745e-08,6.00000000000000e-01,0.00000000000000e+00,6.00009968934643e-01
3.15453692393080e-08,6.00000000000000e-01,0.00000000000000e+00,5.99975094463755e-01
3.26610395665749e-08,6.00000000000000e-01,0.00000000000000e+00,6.00006711007930e-01
3.48923802211087e-08,6.00000000000000e-01,0.00000000000000e+00,5.99979151242942e-01
3.51000000000000e-08,5.99999999999970e-01,0.00000000000000e+00,6.00002323939535e-01
3.51100000000000e-08,5.39999999999982e-01,0.00000000000000e+00,5.99881896166344e-01
3.51300000000000e-08,4.19999999999965e-01,0.00000000000000e+00,5.99770944054683e-01
3.51700000000000e-08,1.79999999999970e-01,0.00000000000000e+00,6.00775838356324e-01
3.52000000000000e-08,0.00000000000000e+00,0.00000000000000e+00,6.03991904608374e-01
3.52080000000000e-08,0.00000000000000e+00,0.00000000000000e+00,6.04823628413596e-01
3.52240000000000e-08,0.00000000000000e+00,0.00000000000000e+00,6.05452186073714e-01
3.52560000000000e-08,0.00000000000000e+00,0.00000000000000e+00,6.00211671562347e-01
3.53200000000000e-08,0.00000000000000e+00,0.00000000000000e+00,5.87130631124278e-01
3.54480000000000e-08,0.00000000000000e+00,0.00000000000000e+00,5.94915631869365e-01
3.56895772117925e-08,0.00000000000000e+00,0.00000000000000e+00,6.02229006267349e-01
3.59979659690461e-08,0.00000000000000e+00,0.00000000000000e+00,5.97639392601898e-01
3.66147434835532e-08,0.00000000000000e+00,0.00000000000000e+00,6.01675827366967e-01
3.74378302516072e-08,0.00000000000000e+00,0.00000000000000e+00,5.98250134854393e-01
3.90840037877151e-08,0.00000000000000e+00,0.00000000000000e+00,6.01514200899429e-01
3.91000000000000e-08,0.00000000000000e+00,0.00000000000000e+00,6.01298171069633e-01
3.91319924245699e-08,0.00000000000000e+00,0.00000000000000e+00,6.00322479614075e-01
3.91959772737096e-08,0.00000000000000e+00,0.00000000000000e+00,5.99740748359928e-01
3.93239469719890e-08,0.00000000000000e+00,0.00000000000000e+00,6.00024438345894e-01
3.95798863685479e-08,0.00000000000000e+00,0.00000000000000e+00,5.99881610389912e-01
4.00917651616656e-08,0.00000000000000e+00,0.00000000000000e+00,6.00020076247921e-01
4.11155227479011e-08,0.00000000000000e+00,0.00000000000000e+00,5.99903650660968e-01
4.31630379203721e-08,0.00000000000000e+00,0.00000000000000e+00,6.00028885058775e-01
4.50000000000000e-08,0.00000000000000e+00,0.00000000000000e+00,5.99919135102717e-01
4.50100000000000e-08,5.99999999999886e-02,0.00000000000000e+00,6.00073696077320e-01
4.50300000000000e-08,1.80000000000006e-01,0.00000000000000e+00,6.00185109944027e-01
4.50700000000000e-08,4.20000000000000e-01,0.00000000000000e+00,6.00040188875037e-01
4.51000000000000e-08,6.00000000000000e-01,0.00000000000000e+00,5.99873923580306e-01
4.51080000000000e-08,6.00000000000000e-01,0.00000000000000e+00,5.99764624082027e-01
4.51240000000000e-08,6.00000000000000e-01,0.00000000000000e+00,5.99665015975937e-01
4.51560000000000e-08,6.00000000000000e-01,0.00000000000000e+00,5.99677620377017e-01
4.52200000000000e-08,6.00000000000000e-01,0.00000000000000e+00,5.99813778781543e-01
4.53480000000000e-08,6.00000000000000e-01,0.00000000000000e+00,6.00939431539912e-01
4.56040000000000e-08,6.00000000000000e-01,0.00000000000000e+00,5.01091421547442e-01
4.61160000000000e-08,6.00000000000000e-01,0.00000000000000e+00,1.75877559033725e-02
4.66099195487492e-08,6.00000000000000e-01,0.00000000000000e+00,-1.21027031676665e-02
4.75977586462477e-08,6.00000000000000e-01,0.00000000000000e+00,1.10089606055737e-02
4.89067862226394e-08,6.00000000000000e-01,0.00000000000000e+00,-9.46507705196227e-03
5.00000000000000e-08,6.00000000000000e-01,0.00000000000000e+00,8.90597661510652e-03
5.00100000000000e-08,6.00000000000000e-01,5.99999999999886e-02,5.54652927726866e-03
5.00300000000000e-08,6.00000000000000e-01,1.79999999999966e-01,2.07637714766780e-03
5.00700000000000e-08,6.00000000000000e-01,4.20000000000000e-01,1.18297201669465e-03
5.01000000000000e-08,6.00000000000000e-01,6.00000000000000e-01,6.13815968302678e-04
5.01080000000000e-08,6.00000000000000e-01,6.00000000000000e-01,5.59115042429295e-04
5.01240000000000e-08,6.00000000000000e-01,6.00000000000000e-01,4.43078524689763e-04
5.01560000000000e-08,6.00000000000000e-01,6.00000000000000e-01,2.46826145350348e-04
5.02200000000000e-08,6.00000000000000e-01,6.00000000000000e-01,8.02496332819730e-05
5.03480000000000e-08,6.00000000000000e-01,6.00000000000000e-01,5.33774599783404e-06
5.06040000000000e-08,6.00000000000000e-01,6.00000000000000e-01,-1.89657447377534e-06
5.11160000000001e-08,6.00000000000000e-01,6.00000000000000e-01,9.26313835449000e-07
5.21400000000002e-08,6.00000000000000e-01,6.00000000000000e-01,-1.75568177794745e-06
5.41880000000003e-08,6.00000000000000e-01,6.00000000000000e-01,1.41806379912353e-06
5.51000000000000e-08,6.00000000000000e-01,6.00000000000000e-01,-1.13112795943615e-06
5.51100000000000e-08,5.40000000000021e-01,6.00000000000000e-01,-1.46779143076856e-04
5.51300000000000e-08,4.20000000000004e-01,6.00000000000000e-01,-3.23003173972963e-04
5.51700000000000e-08,1.80000000000010e-01,6.00000000000000e-01,-1.53022411795323e-04
5.52000000000000e-08,0.00000000000000e+00,6.00000000000000e-01,6.02459827121010e-04
5.52080000000000e-08,0.00000000000000e+00,6.00000000000000e-01,9.12670455346723e-04
5.52240000000000e-08,0.00000000000000e+00,6.00000000000000e-01,1.17601998773381e-03
5.52560000000000e-08,0.00000000000000e+00,6.00000000000000e-01,3.32747829822747e-04
5.53200000000000e-08,0.00000000000000e+00,6.00000000000000e-01,-2.00350097695136e-03
5.54480000000000e-08,0.00000000000000e+00,6.00000000000000e-01,-8.91128786633187e-04
5.56805749923272e-08,0.00000000000000e+00,6.00000000000000e-01,5.53348623000993e-04
5.59956875190975e-08,0.00000000000000e+00,6.00000000000000e-01,-5.72256503245307e-04
5.65214086393113e-08,0.00000000000000e+00,6.00000000000000e-01,5.73241405377862e-04
5.74617217575040e-08,0.00000000000000e+00,6.00000000000000e-01,-5.34447937293228e-04
5.84214627567349e-08,0.00000000000000e+00,6.00000000000000e-01,4.89835846857285e-04
6.03409447551968e-08,0.00000000000000e+00,6.00000000000000e-01,-4.67096511058707e-04
6.39622236862863e-08,0.00000000000000e+00,6.00000000000000e-01,4.55182021915117e-04
6.50000000000000e-08,0.00000000000000e+00,6.00000000000000e-01,-4.13034829816875e-04
6.50100000000000e-08,5.99999999999886e-02,6.00000000000000e-01,-6.75497367102484e-05
6.50300000000000e-08,1.79999999999966e-01,6.00000000000000e-01,4.60427722461423e-04
6.50700000000000e-08,4.19999999999920e-01,6.00000000000000e-01,1.01027696821326e-03
6.51000000000000e-08,5.99999999999966e-01,6.00000000000000e-01,5.81341951410380e-04
6.51080000000000e-08,6.00000000000000e-01,6.00000000000000e-01,2.92023856858920e-05
6.51240000000000e-08,6.00000000000000e-01,6.00000000000000e-01,-1.16986252500489e-03
6.51560000000000e-08,6.00000000000000e-01,6.00000000000000e-01,-3.43587399661012e-03
6.52200000000000e-08,6.00000000000000e-01,6.00000000000000e-01,-6.27925300922351e-03
6.53480000000000e-08,6.00000000000000e-01,6.00000000000000e-01,4.43655626804469e-03
6.56040000000000e-08,6.00000000000000e-01,6.00000000000000e-01,4.47589199574120e-01
6.61159999999999e-08,6.00000000000000e-01,6.00000000000000e-01,6.18355557064176e-01
6.66171059439547e-08,6.00000000000000e-01,6.00000000000000e-01,5.83834309963787e-01
6.76193178318642e-08,6.00000000000000e-01,6.00000000000000e-01,6.15579308365348e-01
6.90313355949719e-08,6.00000000000000e-01,6.00000000000000e-01,5.84514960101013e-01
7.01000000000000e-08,6.00000000000000e-01,6.00000000000000e-01,6.14595346582266e-01
7.01100000000000e-08,6.00000000000000e-01,5.40000000000011e-01,6.06830436025485e-01
7.01300000000000e-08,6.00000000000000e-01,4.20000000000034e-01,5.99591995429904e-01
7.01700000000000e-08,6.00000000000000e-01,1.80000000000080e-01,6.00094676340059e-01
7.02000000000000e-08,6.00000000000000e-01,3.44169137633799e-14,5.99968229977665e-01
7.02080000000000e-08,6.00000000000000e-01,0.00000000000000e+00,5.99973427450151e-01
7.02240000000000e-08,6.00000000000000e-01,0.00000000000000e+00,5.99962365601592e-01
7.02560000000000e-08,6.00000000000000e-01,0.00000000000000e+00,5.99926376698813e-01
7.03200000000000e-08,6.00000000000000e-01,0.00000000000000e+00,5.99944843012404e-01
7.04480000000000e-08,6.00000000000000e-01,0.00000000000000e+00,6.00030814557253e-01
7.06695557523288e-08,6.00000000000000e-01,0.00000000000000e+00,5.99963295878134e-01
7.09875157163775e-08,6.00000000000000e-01,0.00000000000000e+00,6.00009990175542e-01
7.15452012951822e-08,6.00000000000000e-01,0.00000000000000e+00,5.99975077163680e-01
7.26605724527915e-08,6.00000000000000e-01,0.00000000000000e+00,6.00006730139057e-01
7.48913147680103e-08,6.00000000000000e-01,0.00000000000000e+00,5.99979133590014e-01
7.51000000000000e-08,6.00000000000000e-01,0.00000000000000e+00,6.00002361192242e-01
7.51100000000000e-08,5.40000000000061e-01,0.00000000000000e+00,5.99881921722030e-01
7.51300000000000e-08,4.20000000000084e-01,0.00000000000000e+00,5.99770951397759e-01
7.51700000000000e-08,1.80000000000129e-01,0.00000000000000e+00,6.00775834508480e-01
7.52000000000000e-08,8.40438829641244e-14,0.00000000000000e+00,6.03991914754515e-01
7.52080000000000e-08,0.00000000000000e+00,0.00000000000000e+00,6.04823647506461e-01
7.52240000000000e-08,0.00000000000000e+00,0.00000000000000e+00,6.05452259147435e-01
7.52560000000000e-08,0.00000000000000e+00,0.00000000000000e+00,6.00211931274816e-01
7.53200000000000e-08,0.00000000000000e+00,0.00000000000000e+00,5.87130799092355e-01
7.54480000000000e-08,0.00000000000000e+00,0.00000000000000e+00,5.94915547989888e-01
7.56895774612098e-08,0.00000000000000e+00,0.00000000000000e+00,6.02229066931177e-01
7.59979662108340e-08,0.00000000000000e+00,0.00000000000000e+00,5.97639343506034e-01
7.66147437100824e-08,0.00000000000000e+00,0.00000000000000e+00,6.01675871060222e-01
7.74378305941147e-08,0.00000000000000e+00,0.00000000000000e+00,5.98250094220169e-01
7.81000000000000e-08,0.00000000000000e+00,0.00000000000000e+00,6.01394921195703e-01
7.82646173768065e-08,0.00000000000000e+00,0.00000000000000e+00,6.00083218314767e-01
7.85938521304194e-08,0.00000000000000e+00,0.00000000000000e+00,5.99819872135325e-01
7.92523216376453e-08,0.00000000000000e+00,0.00000000000000e+00,6.00052192275930e-01
8.05692606520970e-08,0.00000000000000e+00,0.00000000000000e+00,5.99860846105893e-01
8.32031386810004e-08,0.00000000000000e+00,0.00000000000000e+00,6.00066205533917e-01
8.50000000000000e-08,0.00000000000000e+00,0.00000000000000e+00,5.99883682999071e-01
8.50100000000000e-08,5.99999999999886e-02,0.00000000000000e+00,6.00035931864846e-01
8.50300000000000e-08,1.79999999999966e-01,0.00000000000000e+00,6.00160199164439e-01
8.50700000000000e-08,4.19999999999920e-01,0.00000000000000e+00,6.00064949208010e-01
8.51000000000000e-08,5.99999999999966e-01,0.00000000000000e+00,5.99870510829322e-01
8.51080000000000e-08,6.00000000000000e-01,0.00000000000000e+00,5.99758975322564e-01
8.51240000000000e-08,6.00000000000000e-01,0.00000000000000e+00,5.99655599758405e-01
8.51560000000000e-08,6.00000000000000e-01,0.00000000000000e+00,5.99677876007666e-01
8.52200000000000e-08,6.00000000000000e-01,0.00000000000000e+00,5.99818974281472e-01
8.53480000000000e-08,6.00000000000000e-01,0.00000000000000e+00,6.00935432888095e-01
8.56040000000000e-08,6.00000000000000e-01,0.00000000000000e+00,5.00913386036223e-01
8.61159999999999e-08,6.00000000000000e-01,0.00000000000000e+00,1.74922488327523e-02
8.66099706093228e-08,6.00000000000000e-01,0.00000000000000e+00,-1.20474716314259e-02
8.75979118279686e-08,6.00000000000000e-01,0.00000000000000e+00,1.09641722952242e-02
8.89066248543947e-08,6.00000000000000e-01,0.00000000000000e+00,-9.42859142204291e-03
9.00000000000000e-08,6.00000000000000e-01,0.00000000000000e+00,8.87580932663778e-03
9.00100000000000e-08,6.00000000000000e-01,5.99999999999886e-02,5.52158067571192e-03
9.00300000000000e-08,6.00000000000000e-01,1.79999999999966e-01,2.05932713116640e-03
9.00700000000000e-08,6.00000000000000e-01,4.19999999999920e-01,1.17425645440433e-03
9.01000000000000e-08,6.00000000000000e-01,5.99999999999966e-01,6.08666072552458e-04
9.01080000000000e-08,6.00000000000000e-01,6.00000000000000e-01,5.54554950009320e-04
9.01240000000000e-08,6.00000000000000e-01,6.00000000000000e-01,4.39572254742226e-04
9.01560000000000e-08,6.00000000000000e-01,6.00000000000000e-01,2.44851016150002e-04
9.02200000000000e-08,6.00000000000000e-01,6.00000000000000e-01,7.96433918853756e-05
9.03480000000000e-08,6.00000000000000e-01,6.00000000000000e-01,5.34040180000250e-06
9.06040000000000e-08,6.00000000000000e-01,6.00000000000000e-01,-1.89525509135952e-06
9.11159999999999e-08,6.00000000000000e-01,6.00000000000000e-01,9.27040873489882e-07
9.21399999999999e-08,6.00000000000000e-01,6.00000000000000e-01,-1.75591132669031e-06
9.41879999999998e-08,6.00000000000000e-01,6.00000000000000e-01,1.41962234149594e-06
9.51000000000000e-08,6.00000000000000e-01,6.00000000000000e-01,-1.12596628633506e-06
9.51100000000000e-08,5.40000000000061e-01,6.00000000000000e-01,-1.46374343829636e-04
9.51300000000000e-08,4.20000000000084e-01,6.00000000000000e-01,-3.23102255512561e-04
9.51700000000000e-08,1.80000000000129e-01,6.00000000000000e-01,-1.53077559792991e-04
9.52000000000000e-08,8.40438829641244e-14,6.00000000000000e-01,6.02410192834038e-04
9.52080000000000e-08,0.00000000000000e+00,6.00000000000000e-01,9.12639818710842e-04
9.52240000000000e-08,0.00000000000000e+00,6.00000000000000e-01,1.17601930467168e-03
9.52560000000000e-08,0.00000000000000e+00,6.00000000000000e-01,3.32784551811238e-04
9.53200000000000e-08,0.00000000000000e+00,6.00000000000000e-01,-2.00291367028831e-03
9.54480000000000e-08,0.00000000000000e+00,6.00000000000000e-01,-8.90643944806271e-04
9.56806298760763e-08,0.00000000000000e+00,6.00000000000000e-01,5.53157072032504e-04
9.59957228641643e-08,0.00000000000000e+00,6.00000000000000e-01,-5.72102499458882e-04
9.65214733758731e-08,0.00000000000000e+00,6.00000000000000e-01,5.73176159869168e-04
9.74618465316745e-08,0.00000000000000e+00,6.00000000000000e-01,-5.34447452184117e-04
9.84216436836747e-08,0.00000000000000e+00,6.00000000000000e-01,4.89876009717102e-04
1.00341237987675e-07,0.00000000000000e+00,6.00000000000000e-01,-4.67153717735464e-04
1.03961692191530e-07,0.00000000000000e+00,6.00000000000000e-01,4.55240166366167e-04
1.05000000000000e-07,0.00000000000000e+00,6.00000000000000e-01,-4.13130186462149e-04
1.05010000000000e-07,5.99999999999886e-02,6.00000000000000e-01,-6.76363279950576e-05
1.05030000000000e-07,1.79999999999966e-01,6.00000000000000e-01,4.60384329852404e-04
1.05070000000000e-07,4.19999999999920e-01,6.00000000000000e-01,1.01027352274660e-03
1.05100000000000e-07,5.99999999999966e-01,6.00000000000000e-01,5.81310507785149e-04
1.05108000000000e-07,6.00000000000000e-01,6.00000000000000e-01,2.91625555747660e-05
1.05124000000000e-07,6.00000000000000e-01,6.00000000000000e-01,-1.16991099412972e-03
1.05156000000000e-07,6.00000000000000e-01,6.00000000000000e-01,-3.43591912951120e-03
1.05220000000000e-07,6.00000000000000e-01,6.00000000000000e-01,-6.27927382607131e-03
1.05348000000000e-07,6.00000000000000e-01,6.00000000000000e-01,4.43719551184885e-03
1.05604000000000e-07,6.00000000000000e-01,6.00000000000000e-01,4.47591709616248e-01
