Time,v(clk),v(data),v(out)
1.00000000000000e-08,6.00000000000000e-01,0.00000000000000e+00,-1.39930149605453e-05
1.00100000000000e-08,6.00000000000000e-01,5.99999999999985e-02,-8.96178114495605e-07
1.00300000000000e-08,6.00000000000000e-01,1.79999999999996e-01,9.45471825937461e-06
1.00700000000000e-08,6.00000000000000e-01,4.19999999999990e-01,1.22937348480401e-06
1.01000000000000e-08,6.00000000000000e-01,5.99999999999995e-01,-2.96104750785453e-06
1.01080000000000e-08,6.00000000000000e-01,6.00000000000000e-01,-4.91785499812103e-06
1.01240000000000e-08,6.00000000000000e-01,6.00000000000000e-01,-2.86368572675888e-06
1.01560000000000e-08,6.00000000000000e-01,6.00000000000000e-01,6.90368747148506e-06
1.02200000000000e-08,6.00000000000000e-01,6.00000000000000e-01,1.15257977506833e-05
1.03480000000000e-08,6.00000000000000e-01,6.00000000000000e-01,5.80335664820270e-06
1.06040000000000e-08,6.00000000000000e-01,6.00000000000000e-01,4.39458821432925e-06
1.11032584584395e-08,6.00000000000000e-01,6.00000000000000e-01,5.90658359381560e-06
1.21017753753184e-08,6.00000000000000e-01,6.00000000000000e-01,4.36271103582825e-06
1.40988092090763e-08,6.00000000000000e-01,6.00000000000000e-01,5.34066441836706e-06
1.51000000000000e-08,6.00000000000000e-01,6.00000000000000e-01,4.02653938611115e-06
1.51100000000000e-08,5.39999999999991e-01,6.00000000000000e-01,-1.44571382810571e-04
1.51300000000000e-08,4.19999999999994e-01,6.00000000000000e-01,-3.41394212617724e-04
1.51700000000000e-08,1.80000000000000e-01,6.00000000000000e-01,-1.94808781328507e-04
1.52000000000000e-08,0.00000000000000e+00,6.00000000000000e-01,5.77733624618326e-04
1.52080000000000e-08,0.00000000000000e+00,6.00000000000000e-01,9.06543141409796e-04
1.52240000000000e-08,0.00000000000000e+00,6.00000000000000e-01,1.26464096574758e-03
1.52560000000000e-08,0.00000000000000e+00,6.00000000000000e-01,9.58225612861172e-04
1.53200000000000e-08,0.00000000000000e+00,6.00000000000000e-01,-4.29194244354961e-04
1.54480000000000e-08,0.00000000000000e+00,6.00000000000000e-01,-4.85339772479984e-04
1.57040000000000e-08,0.00000000000000e+00,6.00000000000000e-01,3.18082266778388e-04
1.60275775291956e-08,0.00000000000000e+00,6.00000000000000e-01,-4.08693877724520e-04
1.66550265439397e-08,0.00000000000000e+00,6.00000000000000e-01,4.09328508051948e-04
1.76666479527280e-08,0.00000000000000e+00,6.00000000000000e-01,-3.46222921686222e-04
1.87247960553685e-08,0.00000000000000e+00,6.00000000000000e-01,2.98944374356371e-04
2.08410922606494e-08,0.00000000000000e+00,6.00000000000000e-01,-2.68956907056318e-04
2.46410922606494e-08,0.00000000000000e+00,6.00000000000000e-01,2.62663294398611e-04
2.50000000000000e-08,0.00000000000000e+00,6.00000000000000e-01,-1.49167695527492e-04
2.50100000000000e-08,5.99999999999886e-02,6.00000000000000e-01,1.25356154041134e-04
2.50300000000000e-08,1.80000000000006e-01,6.00000000000000e-01,5.64807882203047e-04
2.50700000000000e-08,4.20000000000000e-01,6.00000000000000e-01,1.10806892271589e-03
2.51000000000000e-08,6.00000000000000e-01,6.00000000000000e-01,9.35959013837556e-04
2.51080000000000e-08,6.00000000000000e-01,6.00000000000000e-01,5.16539396878429e-04
2.51240000000000e-08,6.00000000000000e-01,6.00000000000000e-01,-4.46419074396839e-04
2.51560000000000e-08,6.00000000000000e-01,6.00000000000000e-01,-2.50363667679029e-03
2.52200000000000e-08,6.00000000000000e-01,6.00000000000000e-01,-5.47808845721587e-03
2.53480000000000e-08,6.00000000000000e-01,6.00000000000000e-01,-3.49865786747180e-03
2.56040000000000e-08,6.00000000000000e-01,6.00000000000000e-01,3.24525216676736e-01
2.61160000000000e-08,6.00000000000000e-01,6.00000000000000e-01,6.12542408295590e-01
2.67180060766504e-08,6.00000000000000e-01,6.00000000000000e-01,5.91027317381582e-01
2.79084781280559e-08,6.00000000000000e-01,6.00000000000000e-01,6.09340875533648e-01
2.92777867445695e-08,6.00000000000000e-01,6.00000000000000e-01,5.91121559119154e-01
3.01000000000000e-08,6.00000000000000e-01,6.00000000000000e-01,6.08593506345552e-01
3.01100000000000e-08,6.00000000000000e-01,5.40000000000031e-01,6.04189965273564e-01
3.01300000000000e-08,6.00000000000000e-01,4.20000000000014e-01,5.99871172147997e-01
3.01700000000000e-08,6.00000000000000e-01,1.80000000000020e-01,5.99975911603791e-01
3.02000000000000e-08,6.00000000000000e-01,1.44328993201270e-14,5.99983874173300e-01
3.02080000000000e-08,6.00000000000000e-01,0.00000000000000e+00,5.99981938957652e-01
3.02240000000000e-08,6.00000000000000e-01,0.00000000000000e+00,5.99963391061503e-01
3.02560000000000e-08,6.00000000000000e-01,0.00000000000000e+00,5.99924931203257e-01
3.03200000000000e-08,6.00000000000000e-01,0.00000000000000e+00,5.99928615989881e-01
3.04480000000000e-08,6.00000000000000e-01,0.00000000000000e+00,6.00016798237518e-01
3.06790666895556e-08,6.00000000000000e-01,0.00000000000000e+00,5.99968506793040e-01
3.10114115724951e-08,6.00000000000000e-01,0.00000000000000e+00,5.99999809460916e-01
3.15709940857833e-08,6.00000000000000e-01,0.00000000000000e+00,5.99980468922000e-01
3.26901591123596e-08,6.00000000000000e-01,0.00000000000000e+00,5.99997379112454e-01
3.49284891655122e-08,6.00000000000000e-01,0.00000000000000e+00,5.99984622085596e-01
3.51000000000000e-08,5.99999999999970e-01,0.00000000000000e+00,5.99993682668760e-01
3.51100000000000e-08,5.39999999999982e-01,0.00000000000000e+00,5.99876646744601e-01
3.51300000000000e-08,4.19999999999965e-01,0.00000000000000e+00,5.99762057939912e-01
3.51700000000000e-08,1.79999999999970e-01,0.00000000000000e+00,6.00824924460770e-01
3.52000000000000e-08,0.00000000000000e+00,0.00000000000000e+00,6.04015555242509e-01
3.52080000000000e-08,0.00000000000000e+00,0.00000000000000e+00,6.04852204892512e-01
3.52240000000000e-08,0.00000000000000e+00,0.00000000000000e+00,6.05647835852063e-01
3.52560000000000e-08,0.00000000000000e+00,0.00000000000000e+00,6.01939443554456e-01
3.53200000000000e-08,0.00000000000000e+00,0.00000000000000e+00,5.88540533976924e-01
3.54480000000000e-08,0.00000000000000e+00,0.00000000000000e+00,5.92822081419349e-01
3.56843647139503e-08,0.00000000000000e+00,0.00000000000000e+00,6.02703378677370e-01
3.60118223921048e-08,0.00000000000000e+00,0.00000000000000e+00,5.97105653020757e-01
3.66667377484139e-08,0.00000000000000e+00,0.00000000000000e+00,6.02044948962867e-01
3.74894018458788e-08,0.00000000000000e+00,0.00000000000000e+00,5.97878720693529e-01
3.91000000000000e-08,0.00000000000000e+00,0.00000000000000e+00,6.01826430333567e-01
3.92645328194930e-08,0.00000000000000e+00,0.00000000000000e+00,6.00141611902366e-01
3.95935984584789e-08,0.00000000000000e+00,0.00000000000000e+00,5.99779110173363e-01
4.02517297364508e-08,0.00000000000000e+00,0.00000000000000e+00,6.00084762413382e-01
4.15679922923946e-08,0.00000000000000e+00,0.00000000000000e+00,5.99822986509833e-01
4.42005174042822e-08,0.00000000000000e+00,0.00000000000000e+00,6.00090239839914e-01
4.50000000000000e-08,0.00000000000000e+00,0.00000000000000e+00,5.99851453382577e-01
4.50100000000000e-08,5.99999999999886e-02,0.00000000000000e+00,6.00016807257330e-01
4.50300000000000e-08,1.80000000000006e-01,0.00000000000000e+00,6.00166633284498e-01
4.50700000000000e-08,4.20000000000000e-01,0.00000000000000e+00,6.00081167571312e-01
4.51000000000000e-08,6.00000000000000e-01,0.00000000000000e+00,5.99895409492684e-01
4.51080000000000e-08,6.00000000000000e-01,0.00000000000000e+00,5.99788619650440e-01
4.51240000000000e-08,6.00000000000000e-01,0.00000000000000e+00,5.99648644911484e-01
4.51560000000000e-08,6.00000000000000e-01,0.00000000000000e+00,5.99664548909334e-01
4.52200000000000e-08,6.00000000000000e-01,0.00000000000000e+00,5.99805224493448e-01
4.53480000000000e-08,6.00000000000000e-01,0.00000000000000e+00,6.00308673725601e-01
4.56040000000000e-08,6.00000000000000e-01,0.00000000000000e+00,6.26509467851135e-01
4.61160000000000e-08,6.00000000000000e-01,0.00000000000000e+00,1.36069207510144e-01
4.66355535079984e-08,6.00000000000000e-01,0.00000000000000e+00,-5.42202091928888e-02
4.76450801257566e-08,6.00000000000000e-01,0.00000000000000e+00,4.65944946816691e-02
4.88520847710314e-08,6.00000000000000e-01,0.00000000000000e+00,-3.37242203129338e-02
5.00000000000000e-08,6.00000000000000e-01,0.00000000000000e+00,2.88424841910297e-02
5.00100000000000e-08,6.00000000000000e-01,5.99999999999886e-02,2.38808671700780e-02
5.00300000000000e-08,6.00000000000000e-01,1.79999999999966e-01,1.67303412501878e-02
5.00700000000000e-08,6.00000000000000e-01,4.20000000000000e-01,9.52944650909736e-03
5.01000000000000e-08,6.00000000000000e-01,6.00000000000000e-01,6.21576650589332e-03
5.01080000000000e-08,6.00000000000000e-01,6.00000000000000e-01,5.59663433227531e-03
5.01240000000000e-08,6.00000000000000e-01,6.00000000000000e-01,4.47255076344132e-03
5.01560000000000e-08,6.00000000000000e-01,6.00000000000000e-01,2.84793942241306e-03
5.02200000000000e-08,6.00000000000000e-01,6.00000000000000e-01,1.09054550766971e-03
5.03480000000000e-08,6.00000000000000e-01,6.00000000000000e-01,6.13300189914873e-05
5.06040000000000e-08,6.00000000000000e-01,6.00000000000000e-01,-1.87054683650628e-05
5.11160000000001e-08,6.00000000000000e-01,6.00000000000000e-01,1.05123482576144e-05
5.21400000000002e-08,6.00000000000000e-01,6.00000000000000e-01,-7.73849473620532e-06
5.41880000000003e-08,6.00000000000000e-01,6.00000000000000e-01,7.45284640644734e-06
5.51000000000000e-08,6.00000000000000e-01,6.00000000000000e-01,-4.95871584588886e-06
5.51100000000000e-08,5.40000000000021e-01,6.00000000000000e-01,-1.52130789054156e-04
5.51300000000000e-08,4.20000000000004e-01,6.00000000000000e-01,-3.44756799673995e-04
5.51700000000000e-08,1.80000000000010e-01,6.00000000000000e-01,-2.01977402164988e-04
5.52000000000000e-08,0.00000000000000e+00,6.00000000000000e-01,5.63298621560598e-04
5.52080000000000e-08,0.00000000000000e+00,6.00000000000000e-01,8.82616213327816e-04
5.52240000000000e-08,0.00000000000000e+00,6.00000000000000e-01,1.18157375730898e-03
5.52560000000000e-08,0.00000000000000e+00,6.00000000000000e-01,4.77129237880680e-04
5.53200000000000e-08,0.00000000000000e+00,6.00000000000000e-01,-2.10770697125363e-03
5.54480000000000e-08,0.00000000000000e+00,6.00000000000000e-01,-1.69842811049260e-03
5.56708633003634e-08,0.00000000000000e+00,6.00000000000000e-01,5.99992958551405e-04
5.60055733336834e-08,0.00000000000000e+00,6.00000000000000e-01,-5.52686040751902e-04
5.65334109952483e-08,0.00000000000000e+00,6.00000000000000e-01,4.67827625564996e-04
5.75581505307772e-08,0.00000000000000e+00,6.00000000000000e-01,-3.55662977079492e-04
5.85244668691507e-08,0.00000000000000e+00,6.00000000000000e-01,2.75637831312315e-04
6.04570995458976e-08,0.00000000000000e+00,6.00000000000000e-01,-2.33796262029997e-04
6.42570995458976e-08,0.00000000000000e+00,6.00000000000000e-01,2.24846590051794e-04
6.50000000000000e-08,0.00000000000000e+00,6.00000000000000e-01,-1.51903007766355e-04
6.50100000000000e-08,5.99999999999886e-02,6.00000000000000e-01,1.43914714765589e-04
6.50300000000000e-08,1.79999999999966e-01,6.00000000000000e-01,5.86837174954447e-04
6.50700000000000e-08,4.19999999999920e-01,6.00000000000000e-01,1.11178570750897e-03
6.51000000000000e-08,5.99999999999966e-01,6.00000000000000e-01,9.89495577250837e-04
6.51080000000000e-08,6.00000000000000e-01,6.00000000000000e-01,5.94991389905014e-04
6.51240000000000e-08,6.00000000000000e-01,6.00000000000000e-01,-3.30921347925978e-04
6.51560000000000e-08,6.00000000000000e-01,6.00000000000000e-01,-2.37921806403175e-03
6.52200000000000e-08,6.00000000000000e-01,6.00000000000000e-01,-5.41388117685432e-03
6.53480000000000e-08,6.00000000000000e-01,6.00000000000000e-01,-3.85722949354297e-03
6.56040000000000e-08,6.00000000000000e-01,6.00000000000000e-01,3.19709969642228e-01
6.61159999999999e-08,6.00000000000000e-01,6.00000000000000e-01,6.12131957659483e-01
6.67231395910012e-08,6.00000000000000e-01,6.00000000000000e-01,5.91353901097616e-01
6.79100822705085e-08,6.00000000000000e-01,6.00000000000000e-01,6.09030273823843e-01
6.92823316952300e-08,6.00000000000000e-01,6.00000000000000e-01,5.91428097952768e-01
7.01000000000000e-08,6.00000000000000e-01,6.00000000000000e-01,6.08311715754143e-01
7.01100000000000e-08,6.00000000000000e-01,5.40000000000011e-01,6.04047510992392e-01
7.01300000000000e-08,6.00000000000000e-01,4.20000000000034e-01,5.99869701078475e-01
7.01700000000000e-08,6.00000000000000e-01,1.80000000000080e-01,5.99974126837811e-01
7.02000000000000e-08,6.00000000000000e-01,3.44169137633799e-14,5.99983805033483e-01
7.02080000000000e-08,6.00000000000000e-01,0.00000000000000e+00,5.99981660270805e-01
7.02240000000000e-08,6.00000000000000e-01,0.00000000000000e+00,5.99962948693121e-01
7.02560000000000e-08,6.00000000000000e-01,0.00000000000000e+00,5.99924710332431e-01
7.03200000000000e-08,6.00000000000000e-01,0.00000000000000e+00,5.99928750806185e-01
7.04480000000000e-08,6.00000000000000e-01,0.00000000000000e+00,6.00016790390844e-01
7.06787463446578e-08,6.00000000000000e-01,0.00000000000000e+00,5.99968721626236e-01
7.10112269656585e-08,6.00000000000000e-01,0.00000000000000e+00,5.99999821180998e-01
7.15693733388123e-08,6.00000000000000e-01,0.00000000000000e+00,5.99980631174554e-01
7.26856660851199e-08,6.00000000000000e-01,0.00000000000000e+00,5.99997367897281e-01
7.49182515777351e-08,6.00000000000000e-01,0.00000000000000e+00,5.99984743258891e-01
7.51000000000000e-08,6.00000000000000e-01,0.00000000000000e+00,5.99993791083696e-01
7.51100000000000e-08,5.40000000000061e-01,0.00000000000000e+00,5.99876491553967e-01
7.51300000000000e-08,4.20000000000084e-01,0.00000000000000e+00,5.99761588184824e-01
7.51700000000000e-08,1.80000000000129e-01,0.00000000000000e+00,6.00805125811171e-01
7.52000000000000e-08,8.40438829641244e-14,0.00000000000000e+00,6.04020152912382e-01
7.52080000000000e-08,0.00000000000000e+00,0.00000000000000e+00,6.04855249318044e-01
7.52240000000000e-08,0.00000000000000e+00,0.00000000000000e+00,6.05675037229143e-01
7.52560000000000e-08,0.00000000000000e+00,0.00000000000000e+00,6.01947184260985e-01
7.53200000000000e-08,0.00000000000000e+00,0.00000000000000e+00,5.88548703045547e-01
7.54480000000000e-08,0.00000000000000e+00,0.00000000000000e+00,5.92814304431349e-01
7.56843677098484e-08,0.00000000000000e+00,0.00000000000000e+00,6.02708587046770e-01
7.60118251642466e-08,0.00000000000000e+00,0.00000000000000e+00,5.97101394988381e-01
7.66667400730430e-08,0.00000000000000e+00,0.00000000000000e+00,6.02048759269678e-01
7.74894095562640e-08,0.00000000000000e+00,0.00000000000000e+00,5.97875200347398e-01
7.81000000000000e-08,0.00000000000000e+00,0.00000000000000e+00,6.01653162326002e-01
7.82645338966442e-08,0.00000000000000e+00,0.00000000000000e+00,6.00105007127197e-01
7.85936016899326e-08,0.00000000000000e+00,0.00000000000000e+00,5.99774720136694e-01
7.92517372765093e-08,0.00000000000000e+00,0.00000000000000e+00,6.00060612446216e-01
8.05680084496629e-08,0.00000000000000e+00,0.00000000000000e+00,5.99826870674973e-01
8.32005507959699e-08,0.00000000000000e+00,0.00000000000000e+00,6.00076273989627e-01
8.50000000000000e-08,0.00000000000000e+00,0.00000000000000e+00,5.99854756024901e-01
8.50100000000000e-08,5.99999999999886e-02,0.00000000000000e+00,6.00013519128056e-01
8.50300000000000e-08,1.79999999999966e-01,0.00000000000000e+00,6.00183140202146e-01
8.50700000000000e-08,4.19999999999920e-01,0.00000000000000e+00,6.00076869820463e-01
8.51000000000000e-08,5.99999999999966e-01,0.00000000000000e+00,5.99898965773372e-01
8.51080000000000e-08,6.00000000000000e-01,0.00000000000000e+00,5.99782339783043e-01
8.51240000000000e-08,6.00000000000000e-01,0.00000000000000e+00,5.99662622864336e-01
8.51560000000000e-08,6.00000000000000e-01,0.00000000000000e+00,5.99661112627058e-01
8.52200000000000e-08,6.00000000000000e-01,0.00000000000000e+00,5.99789860686842e-01
8.53480000000000e-08,6.00000000000000e-01,0.00000000000000e+00,6.00315699064616e-01
8.56040000000000e-08,6.00000000000000e-01,0.00000000000000e+00,6.26476346725330e-01
8.61159999999999e-08,6.00000000000000e-01,0.00000000000000e+00,1.36065504841512e-01
8.66353195344084e-08,6.00000000000000e-01,0.00000000000000e+00,-5.42040576461947e-02
8.76450692632033e-08,6.00000000000000e-01,0.00000000000000e+00,4.65810895146227e-02
8.88518046128135e-08,6.00000000000000e-01,0.00000000000000e+00,-3.37146547774941e-02
9.00000000000000e-08,6.00000000000000e-01,0.00000000000000e+00,2.88349518342986e-02
9.00100000000000e-08,6.00000000000000e-01,5.99999999999886e-02,2.38744639673327e-02
9.00300000000000e-08,6.00000000000000e-01,1.79999999999966e-01,1.67255849097648e-02
9.00700000000000e-08,6.00000000000000e-01,4.19999999999920e-01,9.52658709608546e-03
9.01000000000000e-08,6.00000000000000e-01,5.99999999999966e-01,6.21392649001218e-03
9.01080000000000e-08,6.00000000000000e-01,6.00000000000000e-01,5.59497506518726e-03
9.01240000000000e-08,6.00000000000000e-01,6.00000000000000e-01,4.47122216750952e-03
9.01560000000000e-08,6.00000000000000e-01,6.00000000000000e-01,2.84709075250053e-03
9.02200000000000e-08,6.00000000000000e-01,6.00000000000000e-01,1.09022026054457e-03
9.03480000000000e-08,6.00000000000000e-01,6.00000000000000e-01,6.13125108305315e-05
9.06040000000000e-08,6.00000000000000e-01,6.00000000000000e-01,-1.86991651346252e-05
9.11159999999999e-08,6.00000000000000e-01,6.00000000000000e-01,1.05105126805179e-05
9.21399999999999e-08,6.00000000000000e-01,6.00000000000000e-01,-7.73580337290296e-06
9.41879999999998e-08,6.00000000000000e-01,6.00000000000000e-01,7.45186429924535e-06
9.51000000000000e-08,6.00000000000000e-01,6.00000000000000e-01,-4.95685475216355e-06
9.51100000000000e-08,5.40000000000061e-01,6.00000000000000e-01,-1.52128104539268e-04
9.51300000000000e-08,4.20000000000084e-01,6.00000000000000e-01,-3.44755087694174e-04
9.51700000000000e-08,1.80000000000129e-01,6.00000000000000e-01,-2.01976057011152e-04
9.52000000000000e-08,8.40438829641244e-14,6.00000000000000e-01,5.63301540577141e-04
9.52080000000000e-08,0.00000000000000e+00,6.00000000000000e-01,8.82621179272236e-04
9.52240000000000e-08,0.00000000000000e+00,6.00000000000000e-01,1.18158721315928e-03
9.52560000000000e-08,0.00000000000000e+00,6.00000000000000e-01,4.77174127727797e-04
9.53200000000000e-08,0.00000000000000e+00,6.00000000000000e-01,-2.10759040600403e-03
9.54480000000000e-08,0.00000000000000e+00,6.00000000000000e-01,-1.69828404315013e-03
9.56708663196939e-08,0.00000000000000e+00,6.00000000000000e-01,6.00011009159261e-04
9.60055750722269e-08,0.00000000000000e+00,6.00000000000000e-01,-5.52710681754782e-04
9.65334303951273e-08,0.00000000000000e+00,6.00000000000000e-01,4.67856278463651e-04
9.75581899304322e-08,0.00000000000000e+00,6.00000000000000e-01,-3.55695390772234e-04
9.85245156725727e-08,0.00000000000000e+00,6.00000000000000e-01,2.75669700974366e-04
1.00457167156854e-07,0.00000000000000e+00,6.00000000000000e-01,-2.33827434765174e-04
1.04257167156854e-07,0.00000000000000e+00,6.00000000000000e-01,2.24877180282759e-04
1.05000000000000e-07,0.00000000000000e+00,6.00000000000000e-01,-1.51925296441757e-04
1.05010000000000e-07,5.99999999999886e-02,6.00000000000000e-01,1.43898580478585e-04
1.05030000000000e-07,1.79999999999966e-01,6.00000000000000e-01,5.86829299512398e-04
1.05070000000000e-07,4.19999999999920e-01,6.00000000000000e-01,1.11178395860334e-03
1.05100000000000e-07,5.99999999999966e-01,6.00000000000000e-01,9.89500450772215e-04
1.05108000000000e-07,6.00000000000000e-01,6.00000000000000e-01,5.94999409848654e-04
1.05124000000000e-07,6.00000000000000e-01,6.00000000000000e-01,-3.30908473622757e-04
1.05156000000000e-07,6.00000000000000e-01,6.00000000000000e-01,-2.37920377246691e-03
1.05220000000000e-07,6.00000000000000e-01,6.00000000000000e-01,-5.41387371040256e-03
1.05348000000000e-07,6.00000000000000e-01,6.00000000000000e-01,-3.85725481461914e-03
1.05604000000000e-07,6.00000000000000e-01,6.00000000000000e-01,3.19709612082373e-01
1.06116000000000e-07,6.00000000000000e-01,6.00000000000000e-01,6.12131926519161e-01
1.06723139976874e-07,6.00000000000000e-01,6.00000000000000e-01,5.91353925523238e-01
1.07910082403675e-07,6.00000000000000e-01,6.00000000000000e-01,6.09030250519580e-01
