Time,v(clk),v(data),v(out),v(reset)
1.67772160000000e-09,0.00000000000000e+00,0.00000000000000e+00,5.37774167796642e-06,6.00000000000000e-01
3.35544320000000e-09,0.00000000000000e+00,0.00000000000000e+00,5.62226280028180e-06,6.00000000000000e-01
5.00000000000000e-09,0.00000000000000e+00,0.00000000000000e+00,5.36224305239426e-06,6.00000000000000e-01
5.01000000000000e-09,5.99999999999986e-02,0.00000000000000e+00,1.71067276881431e-04,5.40000000000002e-01
5.03000000000000e-09,1.80000000000001e-01,0.00000000000000e+00,-1.65522350414282e-04,4.19999999999999e-01
5.07000000000000e-09,4.20000000000000e-01,0.00000000000000e+00,-3.19131111350225e-03,1.80000000000000e-01
5.10000000000000e-09,6.00000000000000e-01,0.00000000000000e+00,-5.87572602386059e-03,0.00000000000000e+00
5.10800000000000e-09,6.00000000000000e-01,0.00000000000000e+00,-5.43989949794041e-03,0.00000000000000e+00
5.12400000000000e-09,6.00000000000000e-01,0.00000000000000e+00,-4.68942065045547e-03,0.00000000000000e+00
5.15600000000000e-09,6.00000000000000e-01,0.00000000000000e+00,-3.19491635127067e-03,0.00000000000000e+00
5.22000000000000e-09,6.00000000000000e-01,0.00000000000000e+00,-1.04424775757113e-03,0.00000000000000e+00
5.34800000000000e-09,6.00000000000000e-01,0.00000000000000e+00,-2.46298780893689e-04,0.00000000000000e+00
5.60400000000000e-09,6.00000000000000e-01,0.00000000000000e+00,-1.71284922805658e-03,0.00000000000000e+00
6.09460210522637e-09,6.00000000000000e-01,0.00000000000000e+00,-2.14273071034714e-04,0.00000000000000e+00
7.07580631567911e-09,6.00000000000000e-01,0.00000000000000e+00,1.06449179516349e-03,0.00000000000000e+00
8.71135016480945e-09,6.00000000000000e-01,0.00000000000000e+00,-4.51525211664241e-04,0.00000000000000e+00
1.00000000000000e-08,6.00000000000000e-01,0.00000000000000e+00,4.48378454245103e-04,0.00000000000000e+00
1.00100000000000e-08,6.00000000000000e-01,5.99999999999986e-02,4.41535846376656e-04,0.00000000000000e+00
1.00300000000000e-08,6.00000000000000e-01,1.79999999999996e-01,4.21127478036659e-04,0.00000000000000e+00
1.00700000000000e-08,6.00000000000000e-01,4.19999999999990e-01,3.34523604445261e-04,0.00000000000000e+00
1.01000000000000e-08,6.00000000000000e-01,5.99999999999995e-01,2.23130267028332e-04,0.00000000000000e+00
1.01080000000000e-08,6.00000000000000e-01,6.00000000000000e-01,1.86959890722802e-04,0.00000000000000e+00
1.01240000000000e-08,6.00000000000000e-01,6.00000000000000e-01,1.28046289409725e-04,0.00000000000000e+00
1.01560000000000e-08,6.00000000000000e-01,6.00000000000000e-01,7.93745758327774e-05,0.00000000000000e+00
1.02200000000000e-08,6.00000000000000e-01,6.00000000000000e-01,6.68558137265490e-05,0.00000000000000e+00
1.03480000000000e-08,6.00000000000000e-01,6.00000000000000e-01,9.11603796991955e-05,0.00000000000000e+00
1.06040000000000e-08,6.00000000000000e-01,6.00000000000000e-01,6.83703366823399e-05,0.00000000000000e+00
1.11160000000000e-08,6.00000000000000e-01,6.00000000000000e-01,3.69964644575463e-05,0.00000000000000e+00
1.21400000000000e-08,6.00000000000000e-01,6.00000000000000e-01,4.36425769340873e-05,0.00000000000000e+00
1.41880000000000e-08,6.00000000000000e-01,6.00000000000000e-01,2.23946295129090e-05,0.00000000000000e+00
1.51000000000000e-08,6.00000000000000e-01,6.00000000000000e-01,2.76160269831668e-05,0.00000000000000e+00
1.51100000000000e-08,5.39999999999992e-01,6.00000000000000e-01,1.06078713135647e-03,6.00000000000085e-02
1.51300000000000e-08,4.19999999999994e-01,6.00000000000000e-01,2.53409937761019e-03,1.80000000000006e-01
1.51700000000000e-08,1.80000000000000e-01,6.00000000000000e-01,3.14673273085474e-03,4.20000000000000e-01
1.52000000000000e-08,0.00000000000000e+00,6.00000000000000e-01,1.77900548342742e-03,6.00000000000000e-01
1.52080000000000e-08,0.00000000000000e+00,6.00000000000000e-01,1.56565598950466e-03,6.00000000000000e-01
1.52240000000000e-08,0.00000000000000e+00,6.00000000000000e-01,1.24089260037501e-03,6.00000000000000e-01
1.52560000000000e-08,0.00000000000000e+00,6.00000000000000e-01,9.10056626704167e-04,6.00000000000000e-01
1.53200000000000e-08,0.00000000000000e+00,6.00000000000000e-01,8.02363054430960e-04,6.00000000000000e-01
1.54480000000000e-08,0.00000000000000e+00,6.00000000000000e-01,9.60355091580781e-04,6.00000000000000e-01
1.57040000000000e-08,0.00000000000000e+00,6.00000000000000e-01,3.14088449825313e-04,6.00000000000000e-01
1.62160000000000e-08,0.00000000000000e+00,6.00000000000000e-01,-1.05851077419702e-03,6.00000000000000e-01
1.69869404351877e-08,0.00000000000000e+00,6.00000000000000e-01,6.23223951184058e-04,6.00000000000000e-01
1.82237506288696e-08,0.00000000000000e+00,6.00000000000000e-01,-8.63460783813677e-04,6.00000000000000e-01
1.95167786109953e-08,0.00000000000000e+00,6.00000000000000e-01,1.00085406379535e-03,6.00000000000000e-01
2.17243866644599e-08,0.00000000000000e+00,6.00000000000000e-01,-8.75684317133356e-04,6.00000000000000e-01
2.39818708099111e-08,0.00000000000000e+00,6.00000000000000e-01,7.50459615412020e-04,6.00000000000000e-01
2.50000000000000e-08,0.00000000000000e+00,6.00000000000000e-01,-4.40218569541011e-04,6.00000000000000e-01
2.50100000000000e-08,5.99999999999886e-02,6.00000000000000e-01,3.77350198726339e-04,6.00000000000000e-01
2.50300000000000e-08,1.80000000000006e-01,6.00000000000000e-01,1.84703301011993e-03,6.00000000000000e-01
2.50700000000000e-08,4.20000000000000e-01,6.00000000000000e-01,4.01926588070102e-03,6.00000000000000e-01
2.51000000000000e-08,6.00000000000000e-01,6.00000000000000e-01,4.02873516745848e-03,6.00000000000000e-01
2.51080000000000e-08,6.00000000000000e-01,6.00000000000000e-01,3.49421097449766e-03,6.00000000000000e-01
2.51240000000000e-08,6.00000000000000e-01,6.00000000000000e-01,2.38388264738436e-03,6.00000000000000e-01
2.51560000000000e-08,6.00000000000000e-01,6.00000000000000e-01,-5.39402835176006e-05,6.00000000000000e-01
2.52200000000000e-08,6.00000000000000e-01,6.00000000000000e-01,-5.23215576293323e-03,6.00000000000000e-01
2.53480000000000e-08,6.00000000000000e-01,6.00000000000000e-01,-1.28490681384076e-02,6.00000000000000e-01
2.56040000000000e-08,6.00000000000000e-01,6.00000000000000e-01,-1.26955495212218e-02,6.00000000000000e-01
2.61140638168670e-08,6.00000000000000e-01,6.00000000000000e-01,2.22026775372164e-01,6.00000000000000e-01
2.71341914506010e-08,6.00000000000000e-01,6.00000000000000e-01,5.95447220785887e-01,6.00000000000000e-01
2.83200006433618e-08,6.00000000000000e-01,6.00000000000000e-01,5.96405853065842e-01,6.00000000000000e-01
3.01000000000000e-08,6.00000000000000e-01,6.00000000000000e-01,6.04828375949069e-01,6.00000000000000e-01
3.01100000000000e-08,6.00000000000000e-01,5.40000000000031e-01,6.03850553116190e-01,6.00000000000000e-01
3.01300000000000e-08,6.00000000000000e-01,4.20000000000014e-01,6.02190043859144e-01,6.00000000000000e-01
3.01700000000000e-08,6.00000000000000e-01,1.80000000000020e-01,6.00231640391293e-01,6.00000000000000e-01
3.02000000000000e-08,6.00000000000000e-01,1.44328993201270e-14,5.99684384519800e-01,6.00000000000000e-01
3.02080000000000e-08,6.00000000000000e-01,0.00000000000000e+00,5.99632827042810e-01,6.00000000000000e-01
3.02240000000000e-08,6.00000000000000e-01,0.00000000000000e+00,5.99522474496849e-01,6.00000000000000e-01
3.02560000000000e-08,6.00000000000000e-01,0.00000000000000e+00,5.99355622420907e-01,6.00000000000000e-01
3.03200000000000e-08,6.00000000000000e-01,0.00000000000000e+00,5.99229395999743e-01,6.00000000000000e-01
3.04480000000000e-08,6.00000000000000e-01,0.00000000000000e+00,5.99289482824123e-01,6.00000000000000e-01
3.07040000000000e-08,6.00000000000000e-01,0.00000000000000e+00,5.99625355511529e-01,6.00000000000000e-01
3.12160000000000e-08,6.00000000000000e-01,0.00000000000000e+00,5.99946377777576e-01,6.00000000000000e-01
3.20823106464376e-08,6.00000000000000e-01,0.00000000000000e+00,6.00129634920690e-01,6.00000000000000e-01
3.33791578729627e-08,6.00000000000000e-01,0.00000000000000e+00,5.99873282849648e-01,6.00000000000000e-01
3.51000000000000e-08,5.99999999999970e-01,0.00000000000000e+00,6.00100880991685e-01,6.00000000000000e-01
3.51100000000000e-08,5.39999999999982e-01,0.00000000000000e+00,5.99746908872481e-01,6.00000000000000e-01
3.51300000000000e-08,4.19999999999965e-01,0.00000000000000e+00,5.99043860347431e-01,6.00000000000000e-01
3.51700000000000e-08,1.79999999999970e-01,0.00000000000000e+00,5.98308666535706e-01,6.00000000000000e-01
3.52000000000000e-08,0.00000000000000e+00,0.00000000000000e+00,5.99265356792243e-01,6.00000000000000e-01
3.52080000000000e-08,0.00000000000000e+00,0.00000000000000e+00,5.99994656941492e-01,6.00000000000000e-01
3.52240000000000e-08,0.00000000000000e+00,0.00000000000000e+00,6.01435896190000e-01,6.00000000000000e-01
3.52560000000000e-08,0.00000000000000e+00,0.00000000000000e+00,6.03471061431056e-01,6.00000000000000e-01
3.53200000000000e-08,0.00000000000000e+00,0.00000000000000e+00,6.05450801573078e-01,6.00000000000000e-01
3.54480000000000e-08,0.00000000000000e+00,0.00000000000000e+00,6.06410901790498e-01,6.00000000000000e-01
3.57040000000000e-08,0.00000000000000e+00,0.00000000000000e+00,6.04369338771030e-01,6.00000000000000e-01
3.62160000000000e-08,0.00000000000000e+00,0.00000000000000e+00,5.91052555828076e-01,6.00000000000000e-01
3.72400000000000e-08,0.00000000000000e+00,0.00000000000000e+00,5.95025673582094e-01,6.00000000000000e-01
3.82421631446789e-08,0.00000000000000e+00,0.00000000000000e+00,6.02229150241648e-01,6.00000000000000e-01
4.02464894340366e-08,0.00000000000000e+00,0.00000000000000e+00,5.98003744264864e-01,6.00000000000000e-01
4.20832455087466e-08,0.00000000000000e+00,0.00000000000000e+00,6.01256386323465e-01,6.00000000000000e-01
4.50000000000000e-08,0.00000000000000e+00,0.00000000000000e+00,5.98749893092549e-01,6.00000000000000e-01
4.50100000000000e-08,5.99999999999886e-02,0.00000000000000e+00,5.98430698740596e-01,5.40000000000011e-01
4.50300000000000e-08,1.80000000000006e-01,0.00000000000000e+00,5.97562923087552e-01,4.19999999999994e-01
4.50700000000000e-08,4.20000000000000e-01,0.00000000000000e+00,5.96846716761278e-01,1.80000000000000e-01
4.51000000000000e-08,6.00000000000000e-01,0.00000000000000e+00,6.00300786722498e-01,0.00000000000000e+00
4.51080000000000e-08,6.00000000000000e-01,0.00000000000000e+00,6.02521934650417e-01,0.00000000000000e+00
4.51240000000000e-08,6.00000000000000e-01,0.00000000000000e+00,6.06685168759756e-01,0.00000000000000e+00
4.51560000000000e-08,6.00000000000000e-01,0.00000000000000e+00,6.13558065041837e-01,0.00000000000000e+00
4.52200000000000e-08,6.00000000000000e-01,0.00000000000000e+00,6.22943257255531e-01,0.00000000000000e+00
4.53480000000000e-08,6.00000000000000e-01,0.00000000000000e+00,6.34845261109235e-01,0.00000000000000e+00
4.56040000000000e-08,6.00000000000000e-01,0.00000000000000e+00,6.44480009044231e-01,0.00000000000000e+00
4.61160000000000e-08,6.00000000000000e-01,0.00000000000000e+00,1.73019164073643e-01,0.00000000000000e+00
4.69535677037482e-08,6.00000000000000e-01,0.00000000000000e+00,-5.71190975145703e-02,0.00000000000000e+00
4.79324715364791e-08,6.00000000000000e-01,0.00000000000000e+00,4.12554859377503e-02,0.00000000000000e+00
4.96568498804958e-08,6.00000000000000e-01,0.00000000000000e+00,-2.92106597887355e-02,0.00000000000000e+00
5.00000000000000e-08,6.00000000000000e-01,0.00000000000000e+00,8.56724620799235e-03,0.00000000000000e+00
5.00100000000000e-08,6.00000000000000e-01,5.99999999999886e-02,7.38144814749242e-03,0.00000000000000e+00
5.00300000000000e-08,6.00000000000000e-01,1.79999999999966e-01,5.49107570712248e-03,0.00000000000000e+00
5.00700000000000e-08,6.00000000000000e-01,4.20000000000000e-01,3.46589482973006e-03,0.00000000000000e+00
5.01000000000000e-08,6.00000000000000e-01,6.00000000000000e-01,2.58219218911675e-03,0.00000000000000e+00
5.01080000000000e-08,6.00000000000000e-01,6.00000000000000e-01,2.38832531002856e-03,0.00000000000000e+00
5.01240000000000e-08,6.00000000000000e-01,6.00000000000000e-01,2.03503459538325e-03,0.00000000000000e+00
5.01560000000000e-08,6.00000000000000e-01,6.00000000000000e-01,1.47894970764421e-03,0.00000000000000e+00
5.02200000000000e-08,6.00000000000000e-01,6.00000000000000e-01,8.37956868080789e-04,0.00000000000000e+00
5.03480000000000e-08,6.00000000000000e-01,6.00000000000000e-01,2.48527408019172e-04,0.00000000000000e+00
5.06040000000000e-08,6.00000000000000e-01,6.00000000000000e-01,2.30033249271552e-05,0.00000000000000e+00
5.11160000000001e-08,6.00000000000000e-01,6.00000000000000e-01,-3.25760671742586e-05,0.00000000000000e+00
5.21400000000002e-08,6.00000000000000e-01,6.00000000000000e-01,2.99176410250568e-05,0.00000000000000e+00
5.41880000000003e-08,6.00000000000000e-01,6.00000000000000e-01,-1.42722373425146e-05,0.00000000000000e+00
5.51000000000000e-08,6.00000000000000e-01,6.00000000000000e-01,2.14842426559218e-05,0.00000000000000e+00
5.51100000000000e-08,5.40000000000021e-01,6.00000000000000e-01,1.06314513544335e-03,5.99999999999787e-02
5.51300000000000e-08,4.20000000000004e-01,6.00000000000000e-01,2.54784598307418e-03,1.79999999999996e-01
5.51700000000000e-08,1.80000000000010e-01,6.00000000000000e-01,3.16343594177831e-03,4.19999999999990e-01
5.52000000000000e-08,0.00000000000000e+00,6.00000000000000e-01,1.72874183315327e-03,6.00000000000000e-01
5.52080000000000e-08,0.00000000000000e+00,6.00000000000000e-01,1.48733989449794e-03,6.00000000000000e-01
5.52240000000000e-08,0.00000000000000e+00,6.00000000000000e-01,1.11312278824496e-03,6.00000000000000e-01
5.52560000000000e-08,0.00000000000000e+00,6.00000000000000e-01,7.05414934568854e-04,6.00000000000000e-01
5.53200000000000e-08,0.00000000000000e+00,6.00000000000000e-01,4.49411544313619e-04,6.00000000000000e-01
5.54480000000000e-08,0.00000000000000e+00,6.00000000000000e-01,2.78401791757948e-04,6.00000000000000e-01
5.57040000000000e-08,0.00000000000000e+00,6.00000000000000e-01,-2.05650377958205e-03,6.00000000000000e-01
5.62160000000000e-08,0.00000000000000e+00,6.00000000000000e-01,-1.39439740301752e-03,6.00000000000000e-01
5.70080715883448e-08,0.00000000000000e+00,6.00000000000000e-01,1.08857563656653e-03,6.00000000000000e-01
5.82412026924412e-08,0.00000000000000e+00,6.00000000000000e-01,-1.33832495758587e-03,6.00000000000000e-01
5.95625060455187e-08,0.00000000000000e+00,6.00000000000000e-01,1.24945103898453e-03,6.00000000000000e-01
6.18269665139169e-08,0.00000000000000e+00,6.00000000000000e-01,-1.01693641480657e-03,6.00000000000000e-01
6.41418849169306e-08,0.00000000000000e+00,6.00000000000000e-01,8.36766370499344e-04,6.00000000000000e-01
6.50000000000000e-08,0.00000000000000e+00,6.00000000000000e-01,-4.13720830108509e-04,6.00000000000000e-01
6.50100000000000e-08,5.99999999999886e-02,6.00000000000000e-01,4.19076440051250e-04,6.00000000000000e-01
6.50300000000000e-08,1.79999999999966e-01,6.00000000000000e-01,1.90583097789675e-03,6.00000000000000e-01
6.50700000000000e-08,4.19999999999920e-01,6.00000000000000e-01,4.07872960934307e-03,6.00000000000000e-01
6.51000000000000e-08,5.99999999999966e-01,6.00000000000000e-01,4.09595591227159e-03,6.00000000000000e-01
6.51080000000000e-08,6.00000000000000e-01,6.00000000000000e-01,3.56448979645205e-03,6.00000000000000e-01
6.51240000000000e-08,6.00000000000000e-01,6.00000000000000e-01,2.46081898709893e-03,6.00000000000000e-01
6.51560000000000e-08,6.00000000000000e-01,6.00000000000000e-01,4.08611846198642e-05,6.00000000000000e-01
6.52200000000000e-08,6.00000000000000e-01,6.00000000000000e-01,-5.13704580317613e-03,6.00000000000000e-01
6.53480000000000e-08,6.00000000000000e-01,6.00000000000000e-01,-1.28193942690643e-02,6.00000000000000e-01
6.56040000000000e-08,6.00000000000000e-01,6.00000000000000e-01,-1.27979491883232e-02,6.00000000000000e-01
6.61105952956326e-08,6.00000000000000e-01,6.00000000000000e-01,2.18149734297904e-01,6.00000000000000e-01
6.71237858868979e-08,6.00000000000000e-01,6.00000000000000e-01,5.94352987422523e-01,6.00000000000000e-01
6.83177985351562e-08,6.00000000000000e-01,6.00000000000000e-01,5.96960897841283e-01,6.00000000000000e-01
7.00991101194887e-08,6.00000000000000e-01,6.00000000000000e-01,6.04343454121855e-01,6.00000000000000e-01
7.01000000000000e-08,6.00000000000000e-01,6.00000000000000e-01,6.04223879695554e-01,6.00000000000000e-01
7.01017797610227e-08,6.00000000000000e-01,5.89321433863948e-01,6.04051570743725e-01,6.00000000000000e-01
7.01053392830680e-08,6.00000000000000e-01,5.67964301591843e-01,6.03698826182807e-01,6.00000000000000e-01
7.01124583271587e-08,6.00000000000000e-01,5.25250037047634e-01,6.03052469535178e-01,6.00000000000000e-01
7.01266964153401e-08,6.00000000000000e-01,4.39821507959216e-01,6.01961489327372e-01,6.00000000000000e-01
7.01551725917029e-08,6.00000000000000e-01,2.68964449782380e-01,6.00495332993303e-01,6.00000000000000e-01
7.02000000000000e-08,6.00000000000000e-01,3.44169137633799e-14,5.99511088953703e-01,6.00000000000000e-01
7.02056952352726e-08,6.00000000000000e-01,0.00000000000000e+00,5.99482702068365e-01,6.00000000000000e-01
7.02170857058177e-08,6.00000000000000e-01,0.00000000000000e+00,5.99419605168108e-01,6.00000000000000e-01
7.02398666469079e-08,6.00000000000000e-01,0.00000000000000e+00,5.99315257626775e-01,6.00000000000000e-01
7.02854285290884e-08,6.00000000000000e-01,0.00000000000000e+00,5.99224980064856e-01,6.00000000000000e-01
7.03765522934494e-08,6.00000000000000e-01,0.00000000000000e+00,5.99226343405694e-01,6.00000000000000e-01
7.05587998221713e-08,6.00000000000000e-01,0.00000000000000e+00,5.99441411491758e-01,6.00000000000000e-01
7.09232948796153e-08,6.00000000000000e-01,0.00000000000000e+00,5.99775288651538e-01,6.00000000000000e-01
7.16522849945031e-08,6.00000000000000e-01,0.00000000000000e+00,6.00122420963359e-01,6.00000000000000e-01
7.24964541850601e-08,6.00000000000000e-01,0.00000000000000e+00,5.99985672194090e-01,6.00000000000000e-01
7.41847925661741e-08,6.00000000000000e-01,0.00000000000000e+00,5.99971522079277e-01,6.00000000000000e-01
7.51000000000000e-08,6.00000000000000e-01,0.00000000000000e+00,6.00054755541762e-01,6.00000000000000e-01
7.51100000000000e-08,5.40000000000061e-01,0.00000000000000e+00,5.99704275925307e-01,6.00000000000000e-01
7.51300000000000e-08,4.20000000000084e-01,0.00000000000000e+00,5.99002269106246e-01,6.00000000000000e-01
7.51700000000000e-08,1.80000000000129e-01,0.00000000000000e+00,5.98242167846606e-01,6.00000000000000e-01
7.52000000000000e-08,8.40438829641244e-14,0.00000000000000e+00,5.99227747576680e-01,6.00000000000000e-01
7.52080000000000e-08,0.00000000000000e+00,0.00000000000000e+00,5.99960464516021e-01,6.00000000000000e-01
7.52240000000000e-08,0.00000000000000e+00,0.00000000000000e+00,6.01407975198038e-01,6.00000000000000e-01
7.52560000000000e-08,0.00000000000000e+00,0.00000000000000e+00,6.03456905492821e-01,6.00000000000000e-01
7.53200000000000e-08,0.00000000000000e+00,0.00000000000000e+00,6.05451129061007e-01,6.00000000000000e-01
7.54480000000000e-08,0.00000000000000e+00,0.00000000000000e+00,6.06421201980964e-01,6.00000000000000e-01
7.57040000000000e-08,0.00000000000000e+00,0.00000000000000e+00,6.04447933752995e-01,6.00000000000000e-01
7.62159999999999e-08,0.00000000000000e+00,0.00000000000000e+00,5.91150333548620e-01,6.00000000000000e-01
7.72399999999999e-08,0.00000000000000e+00,0.00000000000000e+00,5.94979887393188e-01,6.00000000000000e-01
7.82435044492679e-08,0.00000000000000e+00,0.00000000000000e+00,6.02256961094197e-01,6.00000000000000e-01
8.02505133478041e-08,0.00000000000000e+00,0.00000000000000e+00,5.97980600636565e-01,6.00000000000000e-01
8.20891736584749e-08,0.00000000000000e+00,0.00000000000000e+00,6.01274442898151e-01,6.00000000000000e-01
8.50000000000000e-08,0.00000000000000e+00,0.00000000000000e+00,5.98734640066901e-01,6.00000000000000e-01
8.50100000000000e-08,5.99999999999886e-02,0.00000000000000e+00,5.98416728336392e-01,5.40000000000011e-01
8.50300000000000e-08,1.79999999999966e-01,0.00000000000000e+00,5.97551123446931e-01,4.20000000000034e-01
8.50700000000000e-08,4.19999999999920e-01,0.00000000000000e+00,5.96838275077266e-01,1.80000000000080e-01
