Time,v(clk),v(data),v(out),v(reset)
1.00000000000000e-08,5.50000000000000e-01,0.00000000000000e+00,-1.20033895210131e-02,0.00000000000000e+00
1.00100000000000e-08,5.50000000000000e-01,5.49999999999987e-02,-8.95773468432834e-03,0.00000000000000e+00
1.00300000000000e-08,5.50000000000000e-01,1.64999999999996e-01,-5.21603892030091e-03,0.00000000000000e+00
1.00700000000000e-08,5.50000000000000e-01,3.84999999999991e-01,-3.12848571399297e-03,0.00000000000000e+00
1.01000000000000e-08,5.50000000000000e-01,5.49999999999996e-01,-2.18709009694737e-03,0.00000000000000e+00
1.01080000000000e-08,5.50000000000000e-01,5.50000000000000e-01,-1.99587496337833e-03,0.00000000000000e+00
1.01240000000000e-08,5.50000000000000e-01,5.50000000000000e-01,-1.64379722045285e-03,0.00000000000000e+00
1.01560000000000e-08,5.50000000000000e-01,5.50000000000000e-01,-1.10177782773193e-03,0.00000000000000e+00
1.02200000000000e-08,5.50000000000000e-01,5.50000000000000e-01,-4.08933894700196e-04,0.00000000000000e+00
1.03480000000000e-08,5.50000000000000e-01,5.50000000000000e-01,-5.44972115947874e-05,0.00000000000000e+00
1.06040000000000e-08,5.50000000000000e-01,5.50000000000000e-01,2.19745097240209e-05,0.00000000000000e+00
1.11160000000000e-08,5.50000000000000e-01,5.50000000000000e-01,-1.06794069720979e-06,0.00000000000000e+00
1.21400000000000e-08,5.50000000000000e-01,5.50000000000000e-01,1.59084658430102e-05,0.00000000000000e+00
1.41880000000000e-08,5.50000000000000e-01,5.50000000000000e-01,2.97220157383440e-08,0.00000000000000e+00
1.51000000000000e-08,5.50000000000000e-01,5.50000000000000e-01,1.33459299859317e-05,0.00000000000000e+00
1.51100000000000e-08,4.94999999999992e-01,5.50000000000000e-01,1.74046740428632e-04,5.50000000000078e-02
1.51300000000000e-08,3.84999999999995e-01,5.50000000000000e-01,3.75038879692619e-04,1.65000000000005e-01
1.51700000000000e-08,1.65000000000000e-01,5.50000000000000e-01,3.47476566388852e-04,3.85000000000000e-01
1.52000000000000e-08,0.00000000000000e+00,5.50000000000000e-01,2.46741356855026e-04,5.50000000000000e-01
1.52080000000000e-08,0.00000000000000e+00,5.50000000000000e-01,2.02675963193705e-04,5.50000000000000e-01
1.52240000000000e-08,0.00000000000000e+00,5.50000000000000e-01,1.35631841876364e-04,5.50000000000000e-01
1.52560000000000e-08,0.00000000000000e+00,5.50000000000000e-01,7.01248386684242e-05,5.50000000000000e-01
1.53200000000000e-08,0.00000000000000e+00,5.50000000000000e-01,-5.84096794792946e-05,5.50000000000000e-01
1.54480000000000e-08,0.00000000000000e+00,5.50000000000000e-01,-8.77798492422609e-04,5.50000000000000e-01
1.57040000000000e-08,0.00000000000000e+00,5.50000000000000e-01,-6.39047630155546e-04,5.50000000000000e-01
1.61636642842992e-08,0.00000000000000e+00,5.50000000000000e-01,2.83855828856169e-04,5.50000000000000e-01
1.69707763583624e-08,0.00000000000000e+00,5.50000000000000e-01,-2.30640493237315e-04,5.50000000000000e-01
1.79885755433960e-08,0.00000000000000e+00,5.50000000000000e-01,2.96249233569653e-04,5.50000000000000e-01
2.00241739134632e-08,0.00000000000000e+00,5.50000000000000e-01,-2.84183260597440e-04,5.50000000000000e-01
2.24708689572594e-08,0.00000000000000e+00,5.50000000000000e-01,2.91795296949978e-04,5.50000000000000e-01
2.50000000000000e-08,0.00000000000000e+00,5.50000000000000e-01,-2.68385565634516e-04,5.50000000000000e-01
2.50100000000000e-08,5.49999999999896e-02,5.50000000000000e-01,-1.21755522423120e-04,5.50000000000000e-01
2.50300000000000e-08,1.65000000000005e-01,5.50000000000000e-01,1.09989662767353e-04,5.50000000000000e-01
2.50700000000000e-08,3.85000000000000e-01,5.50000000000000e-01,3.51662023197495e-04,5.50000000000000e-01
2.51000000000000e-08,5.50000000000000e-01,5.50000000000000e-01,3.29469791224016e-04,5.50000000000000e-01
2.51080000000000e-08,5.50000000000000e-01,5.50000000000000e-01,2.16433276552415e-04,5.50000000000000e-01
2.51240000000000e-08,5.50000000000000e-01,5.50000000000000e-01,-7.65328505426960e-05,5.50000000000000e-01
2.51560000000000e-08,5.50000000000000e-01,5.50000000000000e-01,-9.66224096301649e-04,5.50000000000000e-01
2.52200000000000e-08,5.50000000000000e-01,5.50000000000000e-01,-2.88596258350224e-03,5.50000000000000e-01
2.53480000000000e-08,5.50000000000000e-01,5.50000000000000e-01,-4.45167032666407e-03,5.50000000000000e-01
2.56040000000000e-08,5.50000000000000e-01,5.50000000000000e-01,9.93627347366111e-02,5.50000000000000e-01
2.61160000000000e-08,5.50000000000000e-01,5.50000000000000e-01,5.06842316576649e-01,5.50000000000000e-01
2.71400000000000e-08,5.50000000000000e-01,5.50000000000000e-01,5.63364524243182e-01,5.50000000000000e-01
2.83666804361524e-08,5.50000000000000e-01,5.50000000000000e-01,5.35649575774597e-01,5.50000000000000e-01
3.04954801316246e-08,5.50000000000000e-01,5.50000000000000e-01,5.61820006690448e-01,5.50000000000000e-01
3.34088978559750e-08,5.50000000000000e-01,5.50000000000000e-01,5.37305368763373e-01,5.50000000000000e-01
3.51000000000000e-08,5.49999999999973e-01,5.50000000000000e-01,5.60747815739199e-01,5.50000000000000e-01
3.51100000000000e-08,4.94999999999983e-01,5.50000000000000e-01,5.57672329998668e-01,5.50000000000000e-01
3.51300000000000e-08,3.84999999999968e-01,5.50000000000000e-01,5.53225735342593e-01,5.50000000000000e-01
3.51700000000000e-08,1.64999999999973e-01,5.50000000000000e-01,5.50600437288210e-01,5.50000000000000e-01
3.52000000000000e-08,0.00000000000000e+00,5.50000000000000e-01,5.51483211970765e-01,5.50000000000000e-01
3.52080000000000e-08,0.00000000000000e+00,5.50000000000000e-01,5.51852928993098e-01,5.50000000000000e-01
3.52240000000000e-08,0.00000000000000e+00,5.50000000000000e-01,5.52386759360871e-01,5.50000000000000e-01
3.52560000000000e-08,0.00000000000000e+00,5.50000000000000e-01,5.52710430444198e-01,5.50000000000000e-01
3.53200000000000e-08,0.00000000000000e+00,5.50000000000000e-01,5.51072183447587e-01,5.50000000000000e-01
3.54480000000000e-08,0.00000000000000e+00,5.50000000000000e-01,5.37617932388191e-01,5.50000000000000e-01
3.57040000000000e-08,0.00000000000000e+00,5.50000000000000e-01,5.33637975231484e-01,5.50000000000000e-01
3.62160000000000e-08,0.00000000000000e+00,5.50000000000000e-01,5.52645930369459e-01,5.50000000000000e-01
3.70473510203759e-08,0.00000000000000e+00,5.50000000000000e-01,5.46745421645813e-01,5.50000000000000e-01
3.83894551795864e-08,0.00000000000000e+00,5.50000000000000e-01,5.51989106841945e-01,5.50000000000000e-01
4.10736634980074e-08,0.00000000000000e+00,5.50000000000000e-01,5.47632214432672e-01,5.50000000000000e-01
4.48736634980074e-08,0.00000000000000e+00,5.50000000000000e-01,5.51872654157163e-01,5.50000000000000e-01
4.50000000000000e-08,0.00000000000000e+00,5.50000000000000e-01,5.49594212079128e-01,5.50000000000000e-01
4.50100000000000e-08,5.49999999999896e-02,5.50000000000000e-01,5.49559539254393e-01,4.95000000000010e-01
4.50300000000000e-08,1.65000000000005e-01,5.50000000000000e-01,5.49485951441570e-01,3.84999999999995e-01
4.50700000000000e-08,3.85000000000000e-01,5.50000000000000e-01,5.50300511322607e-01,1.65000000000000e-01
4.51000000000000e-08,5.50000000000000e-01,5.50000000000000e-01,5.53451527524832e-01,0.00000000000000e+00
4.51080000000000e-08,5.50000000000000e-01,5.50000000000000e-01,5.54667384325389e-01,0.00000000000000e+00
4.51240000000000e-08,5.50000000000000e-01,5.50000000000000e-01,5.56773757964553e-01,0.00000000000000e+00
4.51560000000000e-08,5.50000000000000e-01,5.50000000000000e-01,5.59999837455553e-01,0.00000000000000e+00
4.52200000000000e-08,5.50000000000000e-01,5.50000000000000e-01,5.66397207517766e-01,0.00000000000000e+00
4.53480000000000e-08,5.50000000000000e-01,5.50000000000000e-01,5.51815946141847e-01,0.00000000000000e+00
4.56040000000000e-08,5.50000000000000e-01,5.50000000000000e-01,2.23501257832210e-01,0.00000000000000e+00
4.60588481194378e-08,5.50000000000000e-01,5.50000000000000e-01,-4.12813949417756e-02,0.00000000000000e+00
4.67012150064724e-08,5.50000000000000e-01,5.50000000000000e-01,2.89319147442106e-02,0.00000000000000e+00
4.79710665437912e-08,5.50000000000000e-01,5.50000000000000e-01,-2.12287051999450e-02,0.00000000000000e+00
4.94056791550708e-08,5.50000000000000e-01,5.50000000000000e-01,1.87653470957656e-02,0.00000000000000e+00
5.01000000000000e-08,5.50000000000000e-01,5.49999999999969e-01,-1.22454265980749e-02,0.00000000000000e+00
5.03869225222559e-08,5.50000000000000e-01,5.50000000000000e-01,-1.88568919094350e-03,0.00000000000000e+00
5.09607675667678e-08,5.50000000000000e-01,5.50000000000000e-01,1.10452791870793e-03,0.00000000000000e+00
5.21084576557914e-08,5.50000000000000e-01,5.50000000000000e-01,-8.37619861512573e-04,0.00000000000000e+00
5.44038378338388e-08,5.50000000000000e-01,5.50000000000000e-01,7.55245851199588e-04,0.00000000000000e+00
5.51000000000000e-08,5.50000000000000e-01,5.50000000000000e-01,-4.93872985682039e-04,0.00000000000000e+00
5.51100000000000e-08,4.95000000000020e-01,5.50000000000000e-01,-2.22800043390273e-04,5.49999999999805e-02
5.51300000000000e-08,3.85000000000004e-01,5.50000000000000e-01,1.17820844246705e-04,1.64999999999996e-01
5.51700000000000e-08,1.65000000000009e-01,5.50000000000000e-01,1.94406703523574e-04,3.84999999999991e-01
5.52000000000000e-08,0.00000000000000e+00,5.50000000000000e-01,1.39398390545165e-04,5.50000000000000e-01
5.52080000000000e-08,0.00000000000000e+00,5.50000000000000e-01,1.04921054100170e-04,5.50000000000000e-01
5.52240000000000e-08,0.00000000000000e+00,5.50000000000000e-01,5.50655345062587e-05,5.50000000000000e-01
5.52560000000000e-08,0.00000000000000e+00,5.50000000000000e-01,1.63453260430407e-05,5.50000000000000e-01
5.53200000000000e-08,0.00000000000000e+00,5.50000000000000e-01,-6.68894669984196e-05,5.50000000000000e-01
5.54480000000000e-08,0.00000000000000e+00,5.50000000000000e-01,-7.85341603821564e-04,5.50000000000000e-01
5.57040000000000e-08,0.00000000000000e+00,5.50000000000000e-01,-5.55620330475733e-04,5.50000000000000e-01
5.61349967351077e-08,0.00000000000000e+00,5.50000000000000e-01,3.87696994477698e-04,5.50000000000000e-01
5.69597887916441e-08,0.00000000000000e+00,5.50000000000000e-01,-3.87781995899903e-04,5.50000000000000e-01
5.79394816398194e-08,0.00000000000000e+00,5.50000000000000e-01,3.63191616577068e-04,5.50000000000000e-01
5.98988673361699e-08,0.00000000000000e+00,5.50000000000000e-01,-3.03284770889965e-04,5.50000000000000e-01
6.22792819073198e-08,0.00000000000000e+00,5.50000000000000e-01,2.85260261074553e-04,5.50000000000000e-01
6.50000000000000e-08,0.00000000000000e+00,5.50000000000000e-01,-2.41633978865626e-04,5.50000000000000e-01
6.50100000000000e-08,5.49999999999896e-02,5.50000000000000e-01,-1.10636941397714e-04,5.50000000000000e-01
6.50300000000000e-08,1.64999999999969e-01,5.50000000000000e-01,9.94261235050392e-05,5.50000000000000e-01
6.50700000000000e-08,3.84999999999927e-01,5.50000000000000e-01,3.37625164685447e-04,5.50000000000000e-01
6.51000000000000e-08,5.49999999999969e-01,5.50000000000000e-01,3.22408096606872e-04,5.50000000000000e-01
6.51080000000000e-08,5.50000000000000e-01,5.50000000000000e-01,2.11248195338035e-04,5.50000000000000e-01
6.51240000000000e-08,5.50000000000000e-01,5.50000000000000e-01,-7.77320561523923e-05,5.50000000000000e-01
6.51560000000000e-08,5.50000000000000e-01,5.50000000000000e-01,-9.60910126159828e-04,5.50000000000000e-01
6.52200000000000e-08,5.50000000000000e-01,5.50000000000000e-01,-2.87728230019139e-03,5.50000000000000e-01
6.53480000000000e-08,5.50000000000000e-01,5.50000000000000e-01,-4.49467520853981e-03,5.50000000000000e-01
6.56040000000000e-08,5.50000000000000e-01,5.50000000000000e-01,9.74990249087558e-02,5.50000000000000e-01
6.61159999999999e-08,5.50000000000000e-01,5.50000000000000e-01,5.05837408424762e-01,5.50000000000000e-01
6.71399999999999e-08,5.50000000000000e-01,5.50000000000000e-01,5.63632417476351e-01,5.50000000000000e-01
6.83611330639043e-08,5.50000000000000e-01,5.50000000000000e-01,5.35366476213238e-01,5.50000000000000e-01
7.04966609514996e-08,5.50000000000000e-01,5.50000000000000e-01,5.62061684740157e-01,5.50000000000000e-01
7.34077166844883e-08,5.50000000000000e-01,5.50000000000000e-01,5.37039676779935e-01,5.50000000000000e-01
7.51000000000000e-08,5.50000000000000e-01,5.50000000000000e-01,5.60973833581165e-01,5.50000000000000e-01
7.51100000000000e-08,4.95000000000056e-01,5.50000000000000e-01,5.57832321489977e-01,5.50000000000000e-01
7.51300000000000e-08,3.85000000000077e-01,5.50000000000000e-01,5.53291301836314e-01,5.50000000000000e-01
7.51700000000000e-08,1.65000000000118e-01,5.50000000000000e-01,5.50605745954986e-01,5.50000000000000e-01
7.52000000000000e-08,7.69384556065233e-14,5.50000000000000e-01,5.51483912334442e-01,5.50000000000000e-01
7.52080000000000e-08,0.00000000000000e+00,5.50000000000000e-01,5.51853067397823e-01,5.50000000000000e-01
7.52240000000000e-08,0.00000000000000e+00,5.50000000000000e-01,5.52385996695174e-01,5.50000000000000e-01
7.52560000000000e-08,0.00000000000000e+00,5.50000000000000e-01,5.52708746765768e-01,5.50000000000000e-01
7.53200000000000e-08,0.00000000000000e+00,5.50000000000000e-01,5.51068913899471e-01,5.50000000000000e-01
7.54480000000000e-08,0.00000000000000e+00,5.50000000000000e-01,5.37610357848038e-01,5.50000000000000e-01
7.57040000000000e-08,0.00000000000000e+00,5.50000000000000e-01,5.33635746116772e-01,5.50000000000000e-01
7.62159999999999e-08,0.00000000000000e+00,5.50000000000000e-01,5.52648094287117e-01,5.50000000000000e-01
7.70473345987269e-08,0.00000000000000e+00,5.50000000000000e-01,5.46743521602023e-01,5.50000000000000e-01
7.83894343658986e-08,0.00000000000000e+00,5.50000000000000e-01,5.51990642547249e-01,5.50000000000000e-01
8.10736339002418e-08,0.00000000000000e+00,5.50000000000000e-01,5.47630745792849e-01,5.50000000000000e-01
8.48736339002418e-08,0.00000000000000e+00,5.50000000000000e-01,5.51874022611957e-01,5.50000000000000e-01
8.50000000000000e-08,0.00000000000000e+00,5.50000000000000e-01,5.49593781373193e-01,5.50000000000000e-01
8.50100000000000e-08,5.49999999999896e-02,5.50000000000000e-01,5.49559156838650e-01,4.95000000000010e-01
8.50300000000000e-08,1.64999999999969e-01,5.50000000000000e-01,5.49485729132347e-01,3.85000000000031e-01
8.50700000000000e-08,3.84999999999927e-01,5.50000000000000e-01,5.50300487389069e-01,1.65000000000073e-01
8.51000000000000e-08,5.49999999999969e-01,5.50000000000000e-01,5.53451501219968e-01,3.15303338993544e-14
8.51080000000000e-08,5.50000000000000e-01,5.50000000000000e-01,5.54667363437667e-01,0.00000000000000e+00
8.51240000000000e-08,5.50000000000000e-01,5.50000000000000e-01,5.56773743099195e-01,0.00000000000000e+00
8.51560000000000e-08,5.50000000000000e-01,5.50000000000000e-01,5.59999821380351e-01,0.00000000000000e+00
8.52200000000000e-08,5.50000000000000e-01,5.50000000000000e-01,5.66397176122124e-01,0.00000000000000e+00
8.53480000000000e-08,5.50000000000000e-01,5.50000000000000e-01,5.51815499774195e-01,0.00000000000000e+00
8.56040000000000e-08,5.50000000000000e-01,5.50000000000000e-01,2.23500895813990e-01,0.00000000000000e+00
8.60588488537901e-08,5.50000000000000e-01,5.50000000000000e-01,-4.12813346736204e-02,0.00000000000000e+00
8.67012165141029e-08,5.50000000000000e-01,5.50000000000000e-01,2.89319009317529e-02,0.00000000000000e+00
8.79703438949065e-08,5.50000000000000e-01,5.50000000000000e-01,-2.12259867731545e-02,0.00000000000000e+00
8.94051157866259e-08,5.50000000000000e-01,5.50000000000000e-01,1.87633269283616e-02,0.00000000000000e+00
9.01000000000000e-08,5.50000000000000e-01,5.49999999999969e-01,-1.22478946318742e-02,0.00000000000000e+00
9.03869543783439e-08,5.50000000000000e-01,5.50000000000000e-01,-1.88606722158478e-03,0.00000000000000e+00
9.09608631350316e-08,5.50000000000000e-01,5.50000000000000e-01,1.10479947495436e-03,0.00000000000000e+00
9.21086806484071e-08,5.50000000000000e-01,5.50000000000000e-01,-8.37841597415358e-04,0.00000000000000e+00
9.44043156751580e-08,5.50000000000000e-01,5.50000000000000e-01,7.55446992719986e-04,0.00000000000000e+00
9.51000000000000e-08,5.50000000000000e-01,5.50000000000000e-01,-4.93855322735777e-04,0.00000000000000e+00
9.51100000000000e-08,4.95000000000056e-01,5.50000000000000e-01,-2.22789446081714e-04,5.49999999999441e-02
9.51300000000000e-08,3.85000000000077e-01,5.50000000000000e-01,1.17823367689528e-04,1.64999999999923e-01
9.51700000000000e-08,1.65000000000118e-01,5.50000000000000e-01,1.94408319063005e-04,3.84999999999882e-01
9.52000000000000e-08,7.69384556065233e-14,5.50000000000000e-01,1.39399487512494e-04,5.49999999999923e-01
9.52080000000000e-08,0.00000000000000e+00,5.50000000000000e-01,1.04922048532262e-04,5.50000000000000e-01
9.52240000000000e-08,0.00000000000000e+00,5.50000000000000e-01,5.50662643471755e-05,5.50000000000000e-01
9.52560000000000e-08,0.00000000000000e+00,5.50000000000000e-01,1.63458160228336e-05,5.50000000000000e-01
9.53200000000000e-08,0.00000000000000e+00,5.50000000000000e-01,-6.68883524664043e-05,5.50000000000000e-01
9.54480000000000e-08,0.00000000000000e+00,5.50000000000000e-01,-7.85333913437547e-04,5.50000000000000e-01
9.57040000000000e-08,0.00000000000000e+00,5.50000000000000e-01,-5.55614582934922e-04,5.50000000000000e-01
9.61349805457152e-08,0.00000000000000e+00,5.50000000000000e-01,3.87692332299946e-04,5.50000000000000e-01
9.69597838311845e-08,0.00000000000000e+00,5.50000000000000e-01,-3.87780687169858e-04,5.50000000000000e-01
9.79394563877921e-08,0.00000000000000e+00,5.50000000000000e-01,3.63189098411577e-04,5.50000000000000e-01
9.98988015010074e-08,0.00000000000000e+00,5.50000000000000e-01,-3.03280368557544e-04,5.50000000000000e-01
1.02279179265697e-07,0.00000000000000e+00,5.50000000000000e-01,2.85254955621693e-04,5.50000000000000e-01
1.05000000000000e-07,0.00000000000000e+00,5.50000000000000e-01,-2.41629476193975e-04,5.50000000000000e-01
1.05010000000000e-07,5.49999999999896e-02,5.50000000000000e-01,-1.10633531838385e-04,5.50000000000000e-01
1.05030000000000e-07,1.64999999999969e-01,5.50000000000000e-01,9.94279436718065e-05,5.50000000000000e-01
1.05070000000000e-07,3.84999999999927e-01,5.50000000000000e-01,3.37625954020870e-04,5.50000000000000e-01
1.05100000000000e-07,5.49999999999969e-01,5.50000000000000e-01,3.22408408279524e-04,5.50000000000000e-01
1.05108000000000e-07,5.50000000000000e-01,5.50000000000000e-01,2.11248273269023e-04,5.50000000000000e-01
1.05124000000000e-07,5.50000000000000e-01,5.50000000000000e-01,-7.77325030237100e-05,5.50000000000000e-01
1.05156000000000e-07,5.50000000000000e-01,5.50000000000000e-01,-9.60911334436772e-04,5.50000000000000e-01
1.05220000000000e-07,5.50000000000000e-01,5.50000000000000e-01,-2.87728354096665e-03,5.50000000000000e-01
1.05348000000000e-07,5.50000000000000e-01,5.50000000000000e-01,-4.49467580728281e-03,5.50000000000000e-01
1.05604000000000e-07,5.50000000000000e-01,5.50000000000000e-01,9.74990160518037e-02,5.50000000000000e-01
1.06116000000000e-07,5.50000000000000e-01,5.50000000000000e-01,5.05837403778788e-01,5.50000000000000e-01
1.07140000000000e-07,5.50000000000000e-01,5.50000000000000e-01,5.63632418725974e-01,5.50000000000000e-01
1.08361133038830e-07,5.50000000000000e-01,5.50000000000000e-01,5.35366474871060e-01,5.50000000000000e-01
1.10496660956007e-07,5.50000000000000e-01,5.50000000000000e-01,5.62061685880636e-01,5.50000000000000e-01
1.13407716678007e-07,5.50000000000000e-01,5.50000000000000e-01,5.37039675545531e-01,5.50000000000000e-01
1.15100000000000e-07,5.50000000000000e-01,5.50000000000000e-01,5.60973834630661e-01,5.50000000000000e-01
1.15110000000000e-07,4.95000000000056e-01,5.50000000000000e-01,5.57832322237856e-01,5.50000000000000e-01
1.15130000000000e-07,3.85000000000077e-01,5.50000000000000e-01,5.53291302143248e-01,5.50000000000000e-01
1.15170000000000e-07,1.65000000000118e-01,5.50000000000000e-01,5.50605745981484e-01,5.50000000000000e-01
1.15200000000000e-07,7.69384556065233e-14,5.50000000000000e-01,5.51483912338644e-01,5.50000000000000e-01
1.15208000000000e-07,0.00000000000000e+00,5.50000000000000e-01,5.51853067407170e-01,5.50000000000000e-01
1.15224000000000e-07,0.00000000000000e+00,5.50000000000000e-01,5.52385996700640e-01,5.50000000000000e-01
