Time,v(clk),v(data),v(out)
1.00000000000000e-08,7.00000000000000e-01,0.00000000000000e+00,2.34434135684249e-05
1.00100000000000e-08,7.00000000000000e-01,6.99999999999983e-02,1.53046791946526e-05
1.00300000000000e-08,7.00000000000000e-01,2.09999999999995e-01,5.82921066902969e-06
1.00700000000000e-08,7.00000000000000e-01,4.89999999999988e-01,-1.23600558731007e-06
1.01000000000000e-08,7.00000000000000e-01,6.99999999999995e-01,-1.44942004395854e-06
1.01080000000000e-08,7.00000000000000e-01,7.00000000000000e-01,-5.79351979501652e-07
1.01240000000000e-08,7.00000000000000e-01,7.00000000000000e-01,1.92714187641219e-06
1.01560000000000e-08,7.00000000000000e-01,7.00000000000000e-01,4.68885445697315e-06
1.02200000000000e-08,7.00000000000000e-01,7.00000000000000e-01,3.02155851727298e-06
1.03480000000000e-08,7.00000000000000e-01,7.00000000000000e-01,1.05415787712143e-06
1.06040000000000e-08,7.00000000000000e-01,7.00000000000000e-01,1.35291550168275e-06
1.11160000000000e-08,7.00000000000000e-01,7.00000000000000e-01,1.95323578136911e-06
1.21400000000000e-08,7.00000000000000e-01,7.00000000000000e-01,1.32386611233996e-06
1.41880000000000e-08,7.00000000000000e-01,7.00000000000000e-01,1.74756888347404e-06
1.51000000000000e-08,7.00000000000000e-01,7.00000000000000e-01,9.91012959669461e-07
1.51100000000000e-08,6.29999999999990e-01,7.00000000000000e-01,-6.00876806708880e-05
1.51300000000000e-08,4.89999999999994e-01,7.00000000000000e-01,-1.44016829920615e-04
1.51700000000000e-08,2.10000000000000e-01,7.00000000000000e-01,-8.10409093376999e-05
1.52000000000000e-08,0.00000000000000e+00,7.00000000000000e-01,1.90895456094860e-04
1.52080000000000e-08,0.00000000000000e+00,7.00000000000000e-01,3.09283736342834e-04
1.52240000000000e-08,0.00000000000000e+00,7.00000000000000e-01,4.22790330453858e-04
1.52560000000000e-08,0.00000000000000e+00,7.00000000000000e-01,2.77567687493867e-04
1.53200000000000e-08,0.00000000000000e+00,7.00000000000000e-01,-1.30519582073094e-04
1.54480000000000e-08,0.00000000000000e+00,7.00000000000000e-01,-1.74532717460041e-04
1.57040000000000e-08,0.00000000000000e+00,7.00000000000000e-01,-1.41786222278360e-04
1.60682189711066e-08,0.00000000000000e+00,7.00000000000000e-01,1.38637126016531e-04
1.66165960834423e-08,0.00000000000000e+00,7.00000000000000e-01,4.90792348661305e-05
1.75439628873474e-08,0.00000000000000e+00,7.00000000000000e-01,-1.18688297775897e-04
1.88351794922283e-08,0.00000000000000e+00,7.00000000000000e-01,1.47884074493921e-04
2.13962185280917e-08,0.00000000000000e+00,7.00000000000000e-01,-1.58894492863681e-04
2.50000000000000e-08,0.00000000000000e+00,7.00000000000000e-01,1.65319972084522e-04
2.50100000000000e-08,6.99999999999867e-02,7.00000000000000e-01,2.21502797428254e-04
2.50300000000000e-08,2.10000000000007e-01,7.00000000000000e-01,2.96149003742474e-04
2.50700000000000e-08,4.90000000000000e-01,7.00000000000000e-01,3.63587787065266e-04
2.51000000000000e-08,7.00000000000000e-01,7.00000000000000e-01,-5.96924255653913e-04
2.51080000000000e-08,7.00000000000000e-01,7.00000000000000e-01,-1.27987295489448e-03
2.51240000000000e-08,7.00000000000000e-01,7.00000000000000e-01,-2.71367380828159e-03
2.51560000000000e-08,7.00000000000000e-01,7.00000000000000e-01,-5.09020573794256e-03
2.52200000000000e-08,7.00000000000000e-01,7.00000000000000e-01,-1.57541364716118e-03
2.53480000000000e-08,7.00000000000000e-01,7.00000000000000e-01,2.45399527638387e-01
2.56040000000000e-08,7.00000000000000e-01,7.00000000000000e-01,6.96168186131542e-01
2.60160768889555e-08,7.00000000000000e-01,7.00000000000000e-01,6.99772038698225e-01
2.66004978050461e-08,7.00000000000000e-01,7.00000000000000e-01,7.00650491349051e-01
2.74348758121031e-08,7.00000000000000e-01,7.00000000000000e-01,6.99195471427861e-01
2.85918747792263e-08,7.00000000000000e-01,7.00000000000000e-01,7.00882176063890e-01
3.01000000000000e-08,7.00000000000000e-01,7.00000000000000e-01,6.99086052526174e-01
3.01100000000000e-08,7.00000000000000e-01,6.30000000000037e-01,6.99686117565336e-01
3.01300000000000e-08,7.00000000000000e-01,4.90000000000017e-01,7.00218199026280e-01
3.01700000000000e-08,7.00000000000000e-01,2.10000000000023e-01,7.00082593960234e-01
3.02000000000000e-08,7.00000000000000e-01,1.68753899743024e-14,7.00077943389044e-01
3.02080000000000e-08,7.00000000000000e-01,0.00000000000000e+00,7.00067612786190e-01
3.02240000000000e-08,7.00000000000000e-01,0.00000000000000e+00,7.00052807923441e-01
3.02560000000000e-08,7.00000000000000e-01,0.00000000000000e+00,7.00007015137618e-01
3.03200000000000e-08,7.00000000000000e-01,0.00000000000000e+00,6.99983728249495e-01
3.04480000000000e-08,7.00000000000000e-01,0.00000000000000e+00,7.00005101819115e-01
3.06466089188604e-08,7.00000000000000e-01,0.00000000000000e+00,6.99979682110446e-01
3.10425450226345e-08,7.00000000000000e-01,0.00000000000000e+00,6.99985766691580e-01
3.14814943473283e-08,7.00000000000000e-01,0.00000000000000e+00,6.99988572736686e-01
3.23593929967160e-08,7.00000000000000e-01,0.00000000000000e+00,6.99983861401972e-01
3.41151902954913e-08,7.00000000000000e-01,0.00000000000000e+00,6.99991908804688e-01
3.51000000000000e-08,6.99999999999965e-01,0.00000000000000e+00,6.99984617661696e-01
3.51100000000000e-08,6.29999999999979e-01,0.00000000000000e+00,6.99926818458073e-01
3.51300000000000e-08,4.89999999999959e-01,0.00000000000000e+00,6.99865404291487e-01
3.51700000000000e-08,2.09999999999966e-01,0.00000000000000e+00,7.00659207865263e-01
3.52000000000000e-08,0.00000000000000e+00,0.00000000000000e+00,7.02511961079349e-01
3.52080000000000e-08,0.00000000000000e+00,0.00000000000000e+00,7.02890408942665e-01
3.52240000000000e-08,0.00000000000000e+00,0.00000000000000e+00,7.02956071333016e-01
3.52560000000000e-08,0.00000000000000e+00,0.00000000000000e+00,6.97927283850338e-01
3.53200000000000e-08,0.00000000000000e+00,0.00000000000000e+00,6.77892953859693e-01
3.54480000000000e-08,0.00000000000000e+00,0.00000000000000e+00,6.80887852032691e-01
3.56795505886746e-08,0.00000000000000e+00,0.00000000000000e+00,7.04646203748734e-01
3.59764049266466e-08,0.00000000000000e+00,0.00000000000000e+00,6.95490926496368e-01
3.65701136025906e-08,0.00000000000000e+00,0.00000000000000e+00,7.03034390048765e-01
3.72378034486412e-08,0.00000000000000e+00,0.00000000000000e+00,6.96931768055850e-01
3.85731831407425e-08,0.00000000000000e+00,0.00000000000000e+00,7.02524315969886e-01
3.91000000000000e-08,0.00000000000000e+00,0.00000000000000e+00,6.97699769309902e-01
3.93670759384203e-08,0.00000000000000e+00,0.00000000000000e+00,6.99706089807894e-01
3.99012278152608e-08,0.00000000000000e+00,0.00000000000000e+00,7.00068404957136e-01
4.09695315689418e-08,0.00000000000000e+00,0.00000000000000e+00,6.99776853362648e-01
4.31061390763038e-08,0.00000000000000e+00,0.00000000000000e+00,7.00076939672033e-01
4.50000000000000e-08,0.00000000000000e+00,0.00000000000000e+00,6.99815186588249e-01
4.50100000000000e-08,6.99999999999867e-02,0.00000000000000e+00,6.99909193152708e-01
4.50300000000000e-08,2.10000000000007e-01,0.00000000000000e+00,7.00011947094390e-01
4.50700000000000e-08,4.90000000000000e-01,0.00000000000000e+00,6.99977938861590e-01
4.51000000000000e-08,7.00000000000000e-01,0.00000000000000e+00,6.99800579539418e-01
4.51080000000000e-08,7.00000000000000e-01,0.00000000000000e+00,6.99748400148952e-01
4.51240000000000e-08,7.00000000000000e-01,0.00000000000000e+00,6.99671125161166e-01
4.51560000000000e-08,7.00000000000000e-01,0.00000000000000e+00,6.99686200125593e-01
4.52200000000000e-08,7.00000000000000e-01,0.00000000000000e+00,7.00445229687085e-01
4.53480000000000e-08,7.00000000000000e-01,0.00000000000000e+00,7.10620436671212e-01
4.56040000000000e-08,7.00000000000000e-01,0.00000000000000e+00,2.38499607125511e-01
4.59665848840513e-08,7.00000000000000e-01,0.00000000000000e+00,-7.99645985353058e-02
4.63938751127561e-08,7.00000000000000e-01,0.00000000000000e+00,6.41829814324213e-02
4.71585071002659e-08,7.00000000000000e-01,0.00000000000000e+00,-4.46250086977849e-02
4.79766493884853e-08,7.00000000000000e-01,0.00000000000000e+00,4.06133628326157e-02
4.96129339649239e-08,7.00000000000000e-01,0.00000000000000e+00,-3.33549271950681e-02
5.00000000000000e-08,7.00000000000000e-01,0.00000000000000e+00,2.34662190920408e-02
5.00100000000000e-08,7.00000000000000e-01,6.99999999999867e-02,1.92083338361295e-02
5.00300000000000e-08,7.00000000000000e-01,2.09999999999960e-01,1.18052126451751e-02
5.00700000000000e-08,7.00000000000000e-01,4.90000000000000e-01,3.76060539481852e-03
5.01000000000000e-08,7.00000000000000e-01,7.00000000000000e-01,1.69556965228573e-03
5.01080000000000e-08,7.00000000000000e-01,7.00000000000000e-01,1.39696421147765e-03
5.01240000000000e-08,7.00000000000000e-01,7.00000000000000e-01,8.99176242107926e-04
5.01560000000000e-08,7.00000000000000e-01,7.00000000000000e-01,3.18889774682397e-04
5.02200000000000e-08,7.00000000000000e-01,7.00000000000000e-01,3.53252972622731e-05
5.03480000000000e-08,7.00000000000000e-01,7.00000000000000e-01,-1.05911135316362e-05
5.06040000000000e-08,7.00000000000000e-01,7.00000000000000e-01,5.90869969685839e-06
5.11160000000001e-08,7.00000000000000e-01,7.00000000000000e-01,-5.83566893413122e-06
5.21400000000002e-08,7.00000000000000e-01,7.00000000000000e-01,3.71414823127376e-06
5.41880000000003e-08,7.00000000000000e-01,7.00000000000000e-01,-3.77566512515691e-06
5.51000000000000e-08,7.00000000000000e-01,7.00000000000000e-01,3.13722645904450e-06
5.51100000000000e-08,6.30000000000025e-01,7.00000000000000e-01,-5.95500218010386e-05
5.51300000000000e-08,4.90000000000005e-01,7.00000000000000e-01,-1.43754915006865e-04
5.51700000000000e-08,2.10000000000012e-01,7.00000000000000e-01,-7.75547500051696e-05
5.52000000000000e-08,0.00000000000000e+00,7.00000000000000e-01,1.84176282748034e-04
5.52080000000000e-08,0.00000000000000e+00,7.00000000000000e-01,2.97715951205209e-04
5.52240000000000e-08,0.00000000000000e+00,7.00000000000000e-01,3.80841541999175e-04
5.52560000000000e-08,0.00000000000000e+00,7.00000000000000e-01,-1.32008214879173e-05
5.53200000000000e-08,0.00000000000000e+00,7.00000000000000e-01,-1.41385399773911e-03
5.54480000000000e-08,0.00000000000000e+00,7.00000000000000e-01,-5.58360006761450e-04
5.56659737201633e-08,0.00000000000000e+00,7.00000000000000e-01,1.60166119521084e-04
5.60488070735846e-08,0.00000000000000e+00,7.00000000000000e-01,-1.39050286814203e-04
5.65244626843436e-08,0.00000000000000e+00,7.00000000000000e-01,3.28419566747043e-04
5.74418256264020e-08,0.00000000000000e+00,7.00000000000000e-01,-3.75482745778386e-04
5.86294782014357e-08,0.00000000000000e+00,7.00000000000000e-01,3.92539976247430e-04
6.08503481285535e-08,0.00000000000000e+00,7.00000000000000e-01,-4.00084296540841e-04
6.43912052419527e-08,0.00000000000000e+00,7.00000000000000e-01,4.01381874912504e-04
6.50000000000000e-08,0.00000000000000e+00,7.00000000000000e-01,-3.99030110348461e-04
6.50100000000000e-08,6.99999999999867e-02,7.00000000000000e-01,-1.47145602038740e-04
6.50300000000000e-08,2.09999999999960e-01,7.00000000000000e-01,1.78460749570772e-04
6.50700000000000e-08,4.89999999999907e-01,7.00000000000000e-01,3.71605008524838e-04
6.51000000000000e-08,6.99999999999960e-01,7.00000000000000e-01,-4.81534222494265e-04
6.51080000000000e-08,7.00000000000000e-01,7.00000000000000e-01,-1.13668674764220e-03
6.51240000000000e-08,7.00000000000000e-01,7.00000000000000e-01,-2.55139951651365e-03
6.51560000000000e-08,7.00000000000000e-01,7.00000000000000e-01,-4.98459072728950e-03
6.52200000000000e-08,7.00000000000000e-01,7.00000000000000e-01,-1.53909516085898e-03
6.53480000000000e-08,7.00000000000000e-01,7.00000000000000e-01,2.45550710007990e-01
6.56040000000000e-08,7.00000000000000e-01,7.00000000000000e-01,6.96209987243789e-01
6.60158022666854e-08,7.00000000000000e-01,7.00000000000000e-01,6.99750685206579e-01
6.66003403587230e-08,7.00000000000000e-01,7.00000000000000e-01,7.00671657238940e-01
6.74343905914916e-08,7.00000000000000e-01,7.00000000000000e-01,6.99176746058539e-01
6.85912689137440e-08,7.00000000000000e-01,7.00000000000000e-01,7.00901004035482e-01
7.01000000000000e-08,7.00000000000000e-01,7.00000000000000e-01,6.99068565936151e-01
7.01100000000000e-08,7.00000000000000e-01,6.30000000000013e-01,6.99676245123932e-01
7.01300000000000e-08,7.00000000000000e-01,4.90000000000040e-01,7.00216698074184e-01
7.01700000000000e-08,7.00000000000000e-01,2.10000000000093e-01,7.00083001476565e-01
7.02000000000000e-08,7.00000000000000e-01,4.00790511889682e-14,7.00077974212034e-01
7.02080000000000e-08,7.00000000000000e-01,0.00000000000000e+00,7.00067648893404e-01
7.02240000000000e-08,7.00000000000000e-01,0.00000000000000e+00,7.00052848926513e-01
7.02560000000000e-08,7.00000000000000e-01,0.00000000000000e+00,7.00007015849827e-01
7.03200000000000e-08,7.00000000000000e-01,0.00000000000000e+00,6.99983737782063e-01
7.04480000000000e-08,7.00000000000000e-01,0.00000000000000e+00,7.00005088256116e-01
7.06467336156039e-08,7.00000000000000e-01,0.00000000000000e+00,6.99979660553094e-01
7.10425797990231e-08,7.00000000000000e-01,0.00000000000000e+00,6.99985780071151e-01
7.14820825646922e-08,7.00000000000000e-01,0.00000000000000e+00,6.99988546503361e-01
7.23610880960304e-08,7.00000000000000e-01,0.00000000000000e+00,6.99983882953934e-01
7.41190991587068e-08,7.00000000000000e-01,0.00000000000000e+00,6.99991885706528e-01
7.51000000000000e-08,7.00000000000000e-01,0.00000000000000e+00,6.99984635011053e-01
7.51100000000000e-08,6.30000000000071e-01,0.00000000000000e+00,6.99926827902983e-01
7.51300000000000e-08,4.90000000000098e-01,0.00000000000000e+00,6.99865402428511e-01
7.51700000000000e-08,2.10000000000151e-01,0.00000000000000e+00,7.00659201311532e-01
7.52000000000000e-08,9.80326930744013e-14,0.00000000000000e+00,7.02511936803652e-01
7.52080000000000e-08,0.00000000000000e+00,0.00000000000000e+00,7.02890361930118e-01
7.52240000000000e-08,0.00000000000000e+00,0.00000000000000e+00,7.02955928573379e-01
7.52560000000000e-08,0.00000000000000e+00,0.00000000000000e+00,6.97926738998926e-01
7.53200000000000e-08,0.00000000000000e+00,0.00000000000000e+00,6.77892296506632e-01
7.54480000000000e-08,0.00000000000000e+00,0.00000000000000e+00,6.80888018194793e-01
7.56795495207358e-08,0.00000000000000e+00,0.00000000000000e+00,7.04646123598395e-01
7.59764037516728e-08,0.00000000000000e+00,0.00000000000000e+00,6.95490971234237e-01
7.65701122135468e-08,0.00000000000000e+00,0.00000000000000e+00,7.03034346563427e-01
7.72378006069859e-08,0.00000000000000e+00,0.00000000000000e+00,6.96931805194394e-01
7.81000000000000e-08,0.00000000000000e+00,0.00000000000000e+00,7.02398021260490e-01
7.82335376786878e-08,0.00000000000000e+00,0.00000000000000e+00,7.00260675124084e-01
7.85006130360635e-08,0.00000000000000e+00,0.00000000000000e+00,6.99604121304173e-01
7.90347637508148e-08,0.00000000000000e+00,0.00000000000000e+00,7.00113309712811e-01
8.01030651803173e-08,0.00000000000000e+00,0.00000000000000e+00,6.99708560153879e-01
8.22396680393225e-08,0.00000000000000e+00,0.00000000000000e+00,7.00125762856248e-01
8.50000000000000e-08,0.00000000000000e+00,0.00000000000000e+00,6.99760634697198e-01
8.50100000000000e-08,6.99999999999867e-02,0.00000000000000e+00,6.99867356295566e-01
8.50300000000000e-08,2.09999999999960e-01,0.00000000000000e+00,6.99989882806405e-01
8.50700000000000e-08,4.89999999999907e-01,0.00000000000000e+00,6.99974317298227e-01
8.51000000000000e-08,6.99999999999960e-01,0.00000000000000e+00,6.99799841086054e-01
8.51080000000000e-08,7.00000000000000e-01,0.00000000000000e+00,6.99747060681249e-01
8.51240000000000e-08,7.00000000000000e-01,0.00000000000000e+00,6.99671949552093e-01
8.51560000000000e-08,7.00000000000000e-01,0.00000000000000e+00,6.99687926269906e-01
8.52200000000000e-08,7.00000000000000e-01,0.00000000000000e+00,7.00446642952805e-01
8.53480000000000e-08,7.00000000000000e-01,0.00000000000000e+00,7.10620029826094e-01
8.56040000000000e-08,7.00000000000000e-01,0.00000000000000e+00,2.38498264209300e-01
8.59666136509589e-08,7.00000000000000e-01,0.00000000000000e+00,-7.99690583334373e-02
8.63938976423378e-08,7.00000000000000e-01,0.00000000000000e+00,6.41867411899487e-02
8.71585606512484e-08,7.00000000000000e-01,0.00000000000000e+00,-4.46277555130914e-02
8.79767165600923e-08,7.00000000000000e-01,0.00000000000000e+00,4.06161975658975e-02
8.96130283777802e-08,7.00000000000000e-01,0.00000000000000e+00,-3.33571635758872e-02
9.00000000000000e-08,7.00000000000000e-01,0.00000000000000e+00,2.34653709124939e-02
9.00100000000000e-08,7.00000000000000e-01,6.99999999999867e-02,1.92075994017270e-02
9.00300000000000e-08,7.00000000000000e-01,2.09999999999960e-01,1.18047218175595e-02
9.00700000000000e-08,7.00000000000000e-01,4.89999999999907e-01,3.76044323281299e-03
9.01000000000000e-08,7.00000000000000e-01,6.99999999999960e-01,1.69549337247000e-03
9.01080000000000e-08,7.00000000000000e-01,7.00000000000000e-01,1.39690196403033e-03
9.01240000000000e-08,7.00000000000000e-01,7.00000000000000e-01,8.99137092335849e-04
9.01560000000000e-08,7.00000000000000e-01,7.00000000000000e-01,3.18877011199988e-04
9.02200000000000e-08,7.00000000000000e-01,7.00000000000000e-01,3.53244657552987e-05
9.03480000000000e-08,7.00000000000000e-01,7.00000000000000e-01,-1.05911244121099e-05
9.06040000000000e-08,7.00000000000000e-01,7.00000000000000e-01,5.90871841885110e-06
9.11159999999999e-08,7.00000000000000e-01,7.00000000000000e-01,-5.83561965307455e-06
9.21399999999999e-08,7.00000000000000e-01,7.00000000000000e-01,3.71423344214424e-06
9.41879999999998e-08,7.00000000000000e-01,7.00000000000000e-01,-3.77569111321757e-06
9.51000000000000e-08,7.00000000000000e-01,7.00000000000000e-01,3.13731214689195e-06
9.51100000000000e-08,6.30000000000071e-01,7.00000000000000e-01,-5.95500027932988e-05
9.51300000000000e-08,4.90000000000098e-01,7.00000000000000e-01,-1.43754891166227e-04
9.51700000000000e-08,2.10000000000151e-01,7.00000000000000e-01,-7.75547034780957e-05
9.52000000000000e-08,9.80326930744013e-14,7.00000000000000e-01,1.84176497277762e-04
9.52080000000000e-08,0.00000000000000e+00,7.00000000000000e-01,2.97716356415907e-04
9.52240000000000e-08,0.00000000000000e+00,7.00000000000000e-01,3.80843072233635e-04
9.52560000000000e-08,0.00000000000000e+00,7.00000000000000e-01,-1.31940314913870e-05
9.53200000000000e-08,0.00000000000000e+00,7.00000000000000e-01,-1.41382374388777e-03
9.54480000000000e-08,0.00000000000000e+00,7.00000000000000e-01,-5.58345791588716e-04
9.56659757284788e-08,0.00000000000000e+00,7.00000000000000e-01,1.60160246501281e-04
9.60488079126622e-08,0.00000000000000e+00,7.00000000000000e-01,-1.39045023082247e-04
9.65244672313289e-08,0.00000000000000e+00,7.00000000000000e-01,3.28413334785732e-04
9.74418309424364e-08,0.00000000000000e+00,7.00000000000000e-01,-3.75477071625281e-04
9.86294882151727e-08,0.00000000000000e+00,7.00000000000000e-01,3.92534798947987e-04
1.00850375318236e-07,0.00000000000000e+00,7.00000000000000e-01,-4.00079295935951e-04
1.04391252656645e-07,0.00000000000000e+00,7.00000000000000e-01,4.01376929447121e-04
1.05000000000000e-07,0.00000000000000e+00,7.00000000000000e-01,-3.99024981816595e-04
1.05010000000000e-07,6.99999999999867e-02,7.00000000000000e-01,-1.47142853618824e-04
1.05030000000000e-07,2.09999999999960e-01,7.00000000000000e-01,1.78461050554732e-04
1.05070000000000e-07,4.89999999999907e-01,7.00000000000000e-01,3.71604465901211e-04
1.05100000000000e-07,6.99999999999960e-01,7.00000000000000e-01,-4.81539975452784e-04
1.05108000000000e-07,7.00000000000000e-01,7.00000000000000e-01,-1.13669409085190e-03
1.05124000000000e-07,7.00000000000000e-01,7.00000000000000e-01,-2.55140795613616e-03
1.05156000000000e-07,7.00000000000000e-01,7.00000000000000e-01,-4.98459624148755e-03
1.05220000000000e-07,7.00000000000000e-01,7.00000000000000e-01,-1.53907083385402e-03
1.05348000000000e-07,7.00000000000000e-01,7.00000000000000e-01,2.45550911128465e-01
1.05604000000000e-07,7.00000000000000e-01,7.00000000000000e-01,6.96210039941350e-01
1.06015802097801e-07,7.00000000000000e-01,7.00000000000000e-01,6.99750658963944e-01
1.06600340324440e-07,7.00000000000000e-01,7.00000000000000e-01,7.00671683217840e-01
