Time,v(clk),v(data),v(out)
1.00000000000000e-08,6.00000000000000e-01,0.00000000000000e+00,1.95241655245176e-06
1.00100000000000e-08,6.00000000000000e-01,5.99999999999985e-02,2.10510662667501e-06
1.00300000000000e-08,6.00000000000000e-01,1.79999999999996e-01,2.27132492348903e-06
1.00700000000000e-08,6.00000000000000e-01,4.19999999999990e-01,1.37830840998485e-06
1.01000000000000e-08,6.00000000000000e-01,5.99999999999995e-01,-2.76451701940184e-07
1.01080000000000e-08,6.00000000000000e-01,6.00000000000000e-01,-3.55491294797006e-07
1.01240000000000e-08,6.00000000000000e-01,6.00000000000000e-01,-1.03083857921904e-07
1.01560000000000e-08,6.00000000000000e-01,6.00000000000000e-01,1.25013576067479e-06
1.02200000000000e-08,6.00000000000000e-01,6.00000000000000e-01,3.57860351691761e-06
1.03480000000000e-08,6.00000000000000e-01,6.00000000000000e-01,5.35053976083444e-06
1.06040000000000e-08,6.00000000000000e-01,6.00000000000000e-01,5.09682756843176e-06
1.11160000000000e-08,6.00000000000000e-01,6.00000000000000e-01,4.23800056706045e-06
1.20476547359706e-08,6.00000000000000e-01,6.00000000000000e-01,5.00593938224450e-06
1.39109642079117e-08,6.00000000000000e-01,6.00000000000000e-01,3.85943375590158e-06
1.51000000000000e-08,6.00000000000000e-01,6.00000000000000e-01,4.52005262811285e-06
1.51100000000000e-08,5.39999999999991e-01,6.00000000000000e-01,-2.21384262158106e-05
1.51300000000000e-08,4.19999999999994e-01,6.00000000000000e-01,-7.12374395001741e-05
1.51700000000000e-08,1.80000000000000e-01,6.00000000000000e-01,-1.07681499040797e-04
1.52000000000000e-08,0.00000000000000e+00,6.00000000000000e-01,-2.23180004610760e-05
1.52080000000000e-08,0.00000000000000e+00,6.00000000000000e-01,4.34352138656488e-05
1.52240000000000e-08,0.00000000000000e+00,6.00000000000000e-01,1.42429530510559e-04
1.52560000000000e-08,0.00000000000000e+00,6.00000000000000e-01,2.12378351337562e-04
1.53200000000000e-08,0.00000000000000e+00,6.00000000000000e-01,1.58074269847257e-04
1.54480000000000e-08,0.00000000000000e+00,6.00000000000000e-01,-5.34269959632863e-05
1.57040000000000e-08,0.00000000000000e+00,6.00000000000000e-01,-1.06542285266721e-04
1.62160000000000e-08,0.00000000000000e+00,6.00000000000000e-01,-1.12555522975710e-04
1.69822634338949e-08,0.00000000000000e+00,6.00000000000000e-01,1.25145598331635e-04
1.81067710348151e-08,0.00000000000000e+00,6.00000000000000e-01,2.39744772619153e-06
2.02032545320346e-08,0.00000000000000e+00,6.00000000000000e-01,-3.82504295803718e-05
2.31552485528729e-08,0.00000000000000e+00,6.00000000000000e-01,6.33977990715077e-05
2.50000000000000e-08,0.00000000000000e+00,6.00000000000000e-01,-8.21767528880676e-05
2.50100000000000e-08,5.99999999999886e-02,6.00000000000000e-01,-1.28709657625653e-05
2.50300000000000e-08,1.80000000000006e-01,6.00000000000000e-01,6.94112422287146e-05
2.50700000000000e-08,4.20000000000000e-01,6.00000000000000e-01,1.06341529597938e-04
2.51000000000000e-08,6.00000000000000e-01,6.00000000000000e-01,9.56260635663862e-05
2.51080000000000e-08,6.00000000000000e-01,6.00000000000000e-01,3.35533849515970e-05
2.51240000000000e-08,6.00000000000000e-01,6.00000000000000e-01,-1.48159176810013e-04
2.51560000000000e-08,6.00000000000000e-01,6.00000000000000e-01,-8.34556804588407e-04
2.52200000000000e-08,6.00000000000000e-01,6.00000000000000e-01,-2.56757900985384e-03
2.53480000000000e-08,6.00000000000000e-01,6.00000000000000e-01,-3.79850857630564e-03
2.56040000000000e-08,6.00000000000000e-01,6.00000000000000e-01,1.41650416717977e-01
2.61160000000000e-08,6.00000000000000e-01,6.00000000000000e-01,5.72957365133324e-01
2.71400000000000e-08,6.00000000000000e-01,6.00000000000000e-01,6.09710824910633e-01
2.84264416117062e-08,6.00000000000000e-01,6.00000000000000e-01,5.89684371726497e-01
3.04913225761672e-08,6.00000000000000e-01,6.00000000000000e-01,6.08641334852889e-01
3.33351253569922e-08,6.00000000000000e-01,6.00000000000000e-01,5.90853102419406e-01
3.51000000000000e-08,5.99999999999970e-01,6.00000000000000e-01,6.07919427309715e-01
3.51100000000000e-08,5.39999999999982e-01,6.00000000000000e-01,6.05552884845346e-01
3.51300000000000e-08,4.19999999999965e-01,6.00000000000000e-01,6.02206828183129e-01
3.51700000000000e-08,1.79999999999970e-01,6.00000000000000e-01,6.00436745791305e-01
3.52000000000000e-08,0.00000000000000e+00,6.00000000000000e-01,6.01124249246094e-01
3.52080000000000e-08,0.00000000000000e+00,6.00000000000000e-01,6.01356551699522e-01
3.52240000000000e-08,0.00000000000000e+00,6.00000000000000e-01,6.01677551674862e-01
3.52560000000000e-08,0.00000000000000e+00,6.00000000000000e-01,6.01743279941095e-01
3.53200000000000e-08,0.00000000000000e+00,6.00000000000000e-01,5.99011581045148e-01
3.54480000000000e-08,0.00000000000000e+00,6.00000000000000e-01,5.81371802188920e-01
3.57040000000000e-08,0.00000000000000e+00,6.00000000000000e-01,5.81096708752320e-01
3.62160000000000e-08,0.00000000000000e+00,6.00000000000000e-01,6.04480789668010e-01
3.70197122226520e-08,0.00000000000000e+00,6.00000000000000e-01,5.95390321433488e-01
3.84211569205922e-08,0.00000000000000e+00,6.00000000000000e-01,6.03283191665506e-01
4.12240463164728e-08,0.00000000000000e+00,6.00000000000000e-01,5.96489623728065e-01
4.50000000000000e-08,0.00000000000000e+00,6.00000000000000e-01,6.03049217427214e-01
4.50100000000000e-08,5.99999999999886e-02,6.00000000000000e-01,6.02510892163718e-01
4.50300000000000e-08,1.80000000000006e-01,6.00000000000000e-01,6.01622521989770e-01
4.50700000000000e-08,4.20000000000000e-01,6.00000000000000e-01,6.00639944660455e-01
4.51000000000000e-08,6.00000000000000e-01,6.00000000000000e-01,6.00273368709044e-01
4.51080000000000e-08,6.00000000000000e-01,5.52000000000025e-01,6.00179816249209e-01
4.51240000000000e-08,6.00000000000000e-01,4.55999999999996e-01,5.99975268228774e-01
4.51560000000000e-08,6.00000000000000e-01,2.64000000000016e-01,5.99524029782948e-01
4.52000000000000e-08,6.00000000000000e-01,3.44169137633799e-14,5.99005740419319e-01
4.52064000000000e-08,6.00000000000000e-01,0.00000000000000e+00,5.98954915702954e-01
4.52192000000000e-08,6.00000000000000e-01,0.00000000000000e+00,5.98859820081153e-01
4.52448000000000e-08,6.00000000000000e-01,0.00000000000000e+00,5.98710486357861e-01
4.52960000000000e-08,6.00000000000000e-01,0.00000000000000e+00,5.98530759294720e-01
4.53984000000000e-08,6.00000000000000e-01,0.00000000000000e+00,5.98534742426309e-01
4.56032000000000e-08,6.00000000000000e-01,0.00000000000000e+00,5.99116246618909e-01
4.60128000000000e-08,6.00000000000000e-01,0.00000000000000e+00,5.99769856689250e-01
4.65634232366257e-08,6.00000000000000e-01,0.00000000000000e+00,6.00002506780781e-01
4.76646697098771e-08,6.00000000000000e-01,0.00000000000000e+00,6.00006335112137e-01
4.90278171061126e-08,6.00000000000000e-01,0.00000000000000e+00,5.99991293516195e-01
5.17541118985838e-08,6.00000000000000e-01,0.00000000000000e+00,6.00009165212725e-01
5.51000000000000e-08,6.00000000000000e-01,0.00000000000000e+00,5.99990709397177e-01
5.51100000000000e-08,5.40000000000021e-01,0.00000000000000e+00,5.99968234328046e-01
5.51300000000000e-08,4.20000000000004e-01,0.00000000000000e+00,5.99928464729692e-01
5.51700000000000e-08,1.80000000000010e-01,0.00000000000000e+00,6.00195193813428e-01
5.52000000000000e-08,0.00000000000000e+00,0.00000000000000e+00,6.01059325297271e-01
5.52080000000000e-08,0.00000000000000e+00,0.00000000000000e+00,6.01315410861081e-01
5.52240000000000e-08,0.00000000000000e+00,0.00000000000000e+00,6.01700014228840e-01
5.52560000000000e-08,0.00000000000000e+00,0.00000000000000e+00,6.02054010327618e-01
5.53200000000000e-08,0.00000000000000e+00,0.00000000000000e+00,6.02443152938370e-01
5.54480000000000e-08,0.00000000000000e+00,0.00000000000000e+00,6.02322344234575e-01
5.57040000000000e-08,0.00000000000000e+00,0.00000000000000e+00,5.99908852516687e-01
5.61608869940990e-08,0.00000000000000e+00,0.00000000000000e+00,5.99756740492679e-01
5.68096449562455e-08,0.00000000000000e+00,0.00000000000000e+00,5.99941436847015e-01
5.81071608805386e-08,0.00000000000000e+00,0.00000000000000e+00,5.99789166289613e-01
5.94924472130541e-08,0.00000000000000e+00,0.00000000000000e+00,5.99975007502857e-01
6.22630198780851e-08,0.00000000000000e+00,0.00000000000000e+00,5.99822854391837e-01
6.50000000000000e-08,0.00000000000000e+00,0.00000000000000e+00,6.00006357850964e-01
6.50100000000000e-08,5.99999999999886e-02,0.00000000000000e+00,5.99996668464175e-01
6.50300000000000e-08,1.79999999999966e-01,0.00000000000000e+00,5.99981293647847e-01
6.50700000000000e-08,4.19999999999920e-01,0.00000000000000e+00,5.99950026382692e-01
6.51000000000000e-08,5.99999999999966e-01,0.00000000000000e+00,5.99900108065687e-01
6.51080000000000e-08,6.00000000000000e-01,0.00000000000000e+00,5.99873471933057e-01
6.51240000000000e-08,6.00000000000000e-01,0.00000000000000e+00,5.99834783953151e-01
6.51560000000000e-08,6.00000000000000e-01,0.00000000000000e+00,5.99815058554084e-01
6.52200000000000e-08,6.00000000000000e-01,0.00000000000000e+00,5.99835718747533e-01
6.53480000000000e-08,6.00000000000000e-01,0.00000000000000e+00,5.99916211358734e-01
6.56040000000000e-08,6.00000000000000e-01,0.00000000000000e+00,6.03222340735620e-01
6.61159999999999e-08,6.00000000000000e-01,0.00000000000000e+00,2.55525831353743e-01
6.70070079500851e-08,6.00000000000000e-01,0.00000000000000e+00,-6.53024075496007e-02
6.79219466833306e-08,6.00000000000000e-01,0.00000000000000e+00,5.56408782205705e-02
6.97518241498216e-08,6.00000000000000e-01,0.00000000000000e+00,-3.65683296495693e-02
7.16603535157698e-08,6.00000000000000e-01,0.00000000000000e+00,3.54966454445667e-02
7.51000000000000e-08,6.00000000000000e-01,0.00000000000000e+00,-2.72184636980142e-02
7.51100000000000e-08,5.40000000000061e-01,0.00000000000000e+00,-2.50157520811558e-02
7.51300000000000e-08,4.20000000000084e-01,0.00000000000000e+00,-2.05084472040967e-02
7.51700000000000e-08,1.80000000000129e-01,0.00000000000000e+00,-1.29116012570445e-02
7.52000000000000e-08,8.40438829641244e-14,0.00000000000000e+00,-9.02572022103977e-03
7.52080000000000e-08,0.00000000000000e+00,0.00000000000000e+00,-8.19272020607404e-03
7.52240000000000e-08,0.00000000000000e+00,0.00000000000000e+00,-6.68791924509926e-03
7.52560000000000e-08,0.00000000000000e+00,0.00000000000000e+00,-4.46099736978166e-03
7.53200000000000e-08,0.00000000000000e+00,0.00000000000000e+00,-2.05918461173913e-03
7.54480000000000e-08,0.00000000000000e+00,0.00000000000000e+00,-1.07087912383633e-03
7.57040000000000e-08,0.00000000000000e+00,0.00000000000000e+00,-4.38843964055899e-04
7.62159999999999e-08,0.00000000000000e+00,0.00000000000000e+00,2.78196325411671e-04
7.69777314365933e-08,0.00000000000000e+00,0.00000000000000e+00,-2.01757887373093e-04
7.84467820096062e-08,0.00000000000000e+00,0.00000000000000e+00,1.77811181187079e-04
8.13848831556318e-08,0.00000000000000e+00,0.00000000000000e+00,-1.60677714647237e-04
8.50000000000000e-08,0.00000000000000e+00,0.00000000000000e+00,1.55829069231075e-04
8.50100000000000e-08,5.99999999999886e-02,0.00000000000000e+00,1.64149056366879e-04
8.50300000000000e-08,1.79999999999966e-01,0.00000000000000e+00,1.85406235301382e-04
8.50700000000000e-08,4.19999999999920e-01,0.00000000000000e+00,1.76349772665840e-04
8.51000000000000e-08,5.99999999999966e-01,0.00000000000000e+00,7.39432521161300e-05
8.51080000000000e-08,6.00000000000000e-01,0.00000000000000e+00,2.40579979614991e-05
8.51240000000000e-08,6.00000000000000e-01,0.00000000000000e+00,-5.78979642971086e-05
8.51560000000000e-08,6.00000000000000e-01,0.00000000000000e+00,-1.25508834293849e-04
8.52200000000000e-08,6.00000000000000e-01,0.00000000000000e+00,-1.14673316664714e-04
8.53480000000000e-08,6.00000000000000e-01,0.00000000000000e+00,-4.25752643378741e-05
8.56040000000000e-08,6.00000000000000e-01,0.00000000000000e+00,3.64538378591801e-06
8.61159999999999e-08,6.00000000000000e-01,0.00000000000000e+00,2.47278384248421e-05
8.71399999999999e-08,6.00000000000000e-01,0.00000000000000e+00,-4.62431005703208e-06
8.89335168416015e-08,6.00000000000000e-01,0.00000000000000e+00,1.23083316815637e-05
9.00000000000000e-08,6.00000000000000e-01,0.00000000000000e+00,1.50879528339025e-06
9.00100000000000e-08,6.00000000000000e-01,5.99999999999886e-02,1.79235879153861e-06
9.00300000000000e-08,6.00000000000000e-01,1.79999999999966e-01,2.16516834594671e-06
9.00700000000000e-08,6.00000000000000e-01,4.19999999999920e-01,1.51267159939281e-06
9.01000000000000e-08,6.00000000000000e-01,5.99999999999966e-01,1.97188018288830e-07
9.01080000000000e-08,6.00000000000000e-01,6.00000000000000e-01,-2.35189205423370e-07
9.01240000000000e-08,6.00000000000000e-01,6.00000000000000e-01,-5.94059931795232e-07
9.01560000000000e-08,6.00000000000000e-01,6.00000000000000e-01,2.17960076983464e-07
9.02200000000000e-08,6.00000000000000e-01,6.00000000000000e-01,3.65886640006294e-06
9.03480000000000e-08,6.00000000000000e-01,6.00000000000000e-01,5.57113967260270e-06
9.06040000000000e-08,6.00000000000000e-01,6.00000000000000e-01,4.93544684476190e-06
9.11159999999999e-08,6.00000000000000e-01,6.00000000000000e-01,4.32865722624354e-06
9.21221763434482e-08,6.00000000000000e-01,6.00000000000000e-01,4.91214612493001e-06
9.41345290303447e-08,6.00000000000000e-01,6.00000000000000e-01,3.89893707076995e-06
9.51000000000000e-08,6.00000000000000e-01,6.00000000000000e-01,4.44739713726609e-06
9.51100000000000e-08,5.40000000000061e-01,6.00000000000000e-01,-2.23145925530507e-05
9.51300000000000e-08,4.20000000000084e-01,6.00000000000000e-01,-7.13144487924991e-05
9.51700000000000e-08,1.80000000000129e-01,6.00000000000000e-01,-1.07637616425280e-04
9.52000000000000e-08,8.40438829641244e-14,6.00000000000000e-01,-2.22510199241813e-05
9.52080000000000e-08,0.00000000000000e+00,6.00000000000000e-01,4.35015080700318e-05
9.52240000000000e-08,0.00000000000000e+00,6.00000000000000e-01,1.42492548321674e-04
9.52560000000000e-08,0.00000000000000e+00,6.00000000000000e-01,2.12425736547076e-04
9.53200000000000e-08,0.00000000000000e+00,6.00000000000000e-01,1.58080520945333e-04
9.54480000000000e-08,0.00000000000000e+00,6.00000000000000e-01,-5.34987380852274e-05
9.57040000000000e-08,0.00000000000000e+00,6.00000000000000e-01,-1.06587427952423e-04
9.62159999999999e-08,0.00000000000000e+00,6.00000000000000e-01,-1.12517046529238e-04
9.69822575790144e-08,0.00000000000000e+00,6.00000000000000e-01,1.25112697789762e-04
9.81067419574784e-08,0.00000000000000e+00,6.00000000000000e-01,2.42110666535088e-06
1.00203284036431e-07,0.00000000000000e+00,6.00000000000000e-01,-3.82692187719550e-05
1.03155069091219e-07,0.00000000000000e+00,6.00000000000000e-01,6.34154986048493e-05
1.05000000000000e-07,0.00000000000000e+00,6.00000000000000e-01,-8.21890597376643e-05
1.05010000000000e-07,5.99999999999886e-02,6.00000000000000e-01,-1.28807370870718e-05
1.05030000000000e-07,1.79999999999966e-01,6.00000000000000e-01,6.94030278865637e-05
1.05070000000000e-07,4.19999999999920e-01,6.00000000000000e-01,1.06332762240893e-04
1.05100000000000e-07,5.99999999999966e-01,6.00000000000000e-01,9.56126900583699e-05
1.05108000000000e-07,6.00000000000000e-01,6.00000000000000e-01,3.35338513857419e-05
1.05124000000000e-07,6.00000000000000e-01,6.00000000000000e-01,-1.48196327909578e-04
1.05156000000000e-07,6.00000000000000e-01,6.00000000000000e-01,-8.34628461716534e-04
1.05220000000000e-07,6.00000000000000e-01,6.00000000000000e-01,-2.56765312123112e-03
1.05348000000000e-07,6.00000000000000e-01,6.00000000000000e-01,-3.79843697167561e-03
1.05604000000000e-07,6.00000000000000e-01,6.00000000000000e-01,1.41653011461241e-01
1.06116000000000e-07,6.00000000000000e-01,6.00000000000000e-01,5.72958478865301e-01
1.07140000000000e-07,6.00000000000000e-01,6.00000000000000e-01,6.09710447451452e-01
1.08426440687043e-07,6.00000000000000e-01,6.00000000000000e-01,5.89684787145323e-01
1.10491320293494e-07,6.00000000000000e-01,6.00000000000000e-01,6.08640987347744e-01
1.13335118485931e-07,6.00000000000000e-01,6.00000000000000e-01,5.90853478232282e-01
1.15100000000000e-07,6.00000000000000e-01,6.00000000000000e-01,6.07919106329719e-01
1.15110000000000e-07,5.40000000000061e-01,6.00000000000000e-01,6.05552661681518e-01
1.15130000000000e-07,4.20000000000084e-01,6.00000000000000e-01,6.02206742053120e-01
1.15170000000000e-07,1.80000000000129e-01,6.00000000000000e-01,6.00436741010344e-01
1.15200000000000e-07,8.40438829641244e-14,6.00000000000000e-01,6.01124248675940e-01
1.15208000000000e-07,0.00000000000000e+00,6.00000000000000e-01,6.01356551432814e-01
1.15224000000000e-07,0.00000000000000e+00,6.00000000000000e-01,6.01677551901088e-01
1.15256000000000e-07,0.00000000000000e+00,6.00000000000000e-01,6.01743280969523e-01
1.15320000000000e-07,0.00000000000000e+00,6.00000000000000e-01,5.99011585826262e-01
1.15448000000000e-07,0.00000000000000e+00,6.00000000000000e-01,5.81371812380788e-01
1.15704000000000e-07,0.00000000000000e+00,6.00000000000000e-01,5.81096710290710e-01
1.16216000000000e-07,0.00000000000000e+00,6.00000000000000e-01,6.04480787759806e-01
1.17019712236912e-07,0.00000000000000e+00,6.00000000000000e-01,5.95390323136921e-01
1.18421156951674e-07,0.00000000000000e+00,6.00000000000000e-01,6.03283190270015e-01
1.21224046381197e-07,0.00000000000000e+00,6.00000000000000e-01,5.96489625074077e-01
1.25000000000000e-07,0.00000000000000e+00,6.00000000000000e-01,6.03049216171488e-01
1.25010000000000e-07,5.99999999999092e-02,6.00000000000000e-01,6.02510891130091e-01
1.25030000000000e-07,1.79999999999886e-01,6.00000000000000e-01,6.01622521331668e-01
1.25070000000000e-07,4.19999999999841e-01,6.00000000000000e-01,6.00639944411125e-01
1.25100000000000e-07,5.99999999999886e-01,6.00000000000000e-01,6.00273368571548e-01
1.25108000000000e-07,6.00000000000000e-01,5.51999999999946e-01,6.00179816123055e-01
1.25124000000000e-07,6.00000000000000e-01,4.55999999999996e-01,5.99975268130787e-01
1.25156000000000e-07,6.00000000000000e-01,2.63999999999937e-01,5.99524029721987e-01
1.25200000000000e-07,6.00000000000000e-01,0.00000000000000e+00,5.99005740385223e-01
1.25206400000000e-07,6.00000000000000e-01,0.00000000000000e+00,5.98954915670716e-01
1.25219200000000e-07,6.00000000000000e-01,0.00000000000000e+00,5.98859820053195e-01
1.25244800000000e-07,6.00000000000000e-01,0.00000000000000e+00,5.98710486336953e-01
1.25296000000000e-07,6.00000000000000e-01,0.00000000000000e+00,5.98530759265642e-01
1.25398400000000e-07,6.00000000000000e-01,0.00000000000000e+00,5.98534742305981e-01
1.25603200000000e-07,6.00000000000000e-01,0.00000000000000e+00,5.99116246467633e-01
1.26012800000000e-07,6.00000000000000e-01,0.00000000000000e+00,5.99769856859078e-01
1.26563423317104e-07,6.00000000000000e-01,0.00000000000000e+00,6.00002506762484e-01
1.27664669951313e-07,6.00000000000000e-01,0.00000000000000e+00,6.00006335129232e-01
1.29027817705036e-07,6.00000000000000e-01,0.00000000000000e+00,5.99991293501546e-01
1.31754113212482e-07,6.00000000000000e-01,0.00000000000000e+00,6.00009165226629e-01
1.35100000000000e-07,5.99999999999891e-01,0.00000000000000e+00,5.99990709384255e-01
1.35110000000000e-07,5.39999999999823e-01,0.00000000000000e+00,5.99968234310050e-01
1.35130000000000e-07,4.19999999999845e-01,0.00000000000000e+00,5.99928464713552e-01
1.35170000000000e-07,1.79999999999891e-01,0.00000000000000e+00,6.00195193807476e-01
1.35200000000000e-07,0.00000000000000e+00,0.00000000000000e+00,6.01059325298004e-01
1.35208000000000e-07,0.00000000000000e+00,0.00000000000000e+00,6.01315410861657e-01
1.35224000000000e-07,0.00000000000000e+00,0.00000000000000e+00,6.01700014225993e-01
1.35256000000000e-07,0.00000000000000e+00,0.00000000000000e+00,6.02054010321619e-01
1.35320000000000e-07,0.00000000000000e+00,0.00000000000000e+00,6.02443152930813e-01
1.35448000000000e-07,0.00000000000000e+00,0.00000000000000e+00,6.02322344243046e-01
1.35704000000000e-07,0.00000000000000e+00,0.00000000000000e+00,5.99908852521788e-01
1.36160886993483e-07,0.00000000000000e+00,0.00000000000000e+00,5.99756740491732e-01
1.36809644955759e-07,0.00000000000000e+00,0.00000000000000e+00,5.99941436849126e-01
1.38107160880310e-07,0.00000000000000e+00,0.00000000000000e+00,5.99789166290308e-01
