Time,v(clk),v(data),v(out),v(reset)
1.00000000000000e-08,3.30000000000000e-01,0.00000000000000e+00,3.21201411141586e-06,0.00000000000000e+00
1.00100000000000e-08,3.30000000000000e-01,3.29999999999992e-02,3.49678966611242e-06,0.00000000000000e+00
1.00300000000000e-08,3.30000000000000e-01,9.89999999999976e-02,4.02765634826413e-06,0.00000000000000e+00
1.00700000000000e-08,3.30000000000000e-01,2.30999999999994e-01,5.22473102017307e-06,0.00000000000000e+00
1.01000000000000e-08,3.30000000000000e-01,3.29999999999998e-01,5.78954741363782e-06,0.00000000000000e+00
1.01080000000000e-08,3.30000000000000e-01,3.30000000000000e-01,5.83585985415927e-06,0.00000000000000e+00
1.01240000000000e-08,3.30000000000000e-01,3.30000000000000e-01,5.92401500455059e-06,0.00000000000000e+00
1.01560000000000e-08,3.30000000000000e-01,3.30000000000000e-01,6.24778384852170e-06,0.00000000000000e+00
1.02200000000000e-08,3.30000000000000e-01,3.30000000000000e-01,6.84138287633529e-06,0.00000000000000e+00
1.03480000000000e-08,3.30000000000000e-01,3.30000000000000e-01,8.42022607910192e-06,0.00000000000000e+00
1.06040000000000e-08,3.30000000000000e-01,3.30000000000000e-01,1.04204892684943e-05,0.00000000000000e+00
1.11160000000000e-08,3.30000000000000e-01,3.30000000000000e-01,1.05001732404360e-05,0.00000000000000e+00
1.21400000000000e-08,3.30000000000000e-01,3.30000000000000e-01,9.71884222873524e-06,0.00000000000000e+00
1.41880000000000e-08,3.30000000000000e-01,3.30000000000000e-01,8.23611572908778e-06,0.00000000000000e+00
1.51000000000000e-08,3.30000000000000e-01,3.30000000000000e-01,7.90999311795458e-06,0.00000000000000e+00
1.51100000000000e-08,2.96999999999995e-01,3.30000000000000e-01,4.37166337231322e-05,3.30000000000047e-02
1.51300000000000e-08,2.30999999999997e-01,3.30000000000000e-01,1.07176266311786e-04,9.90000000000031e-02
1.51700000000000e-08,9.90000000000001e-02,3.30000000000000e-01,1.68562683207616e-04,2.31000000000000e-01
1.52000000000000e-08,0.00000000000000e+00,3.30000000000000e-01,1.69442623643608e-04,3.30000000000000e-01
1.52080000000000e-08,0.00000000000000e+00,3.30000000000000e-01,1.59705129198072e-04,3.30000000000000e-01
1.52240000000000e-08,0.00000000000000e+00,3.30000000000000e-01,1.41131066625333e-04,3.30000000000000e-01
1.52560000000000e-08,0.00000000000000e+00,3.30000000000000e-01,1.08077450487847e-04,3.30000000000000e-01
1.53200000000000e-08,0.00000000000000e+00,3.30000000000000e-01,6.04712521602990e-05,3.30000000000000e-01
1.54480000000000e-08,0.00000000000000e+00,3.30000000000000e-01,1.11481314994163e-05,3.30000000000000e-01
1.57040000000000e-08,0.00000000000000e+00,3.30000000000000e-01,-1.10275241554710e-05,3.30000000000000e-01
1.62160000000000e-08,0.00000000000000e+00,3.30000000000000e-01,-4.66520826903054e-06,3.30000000000000e-01
1.72400000000000e-08,0.00000000000000e+00,3.30000000000000e-01,-1.17767793831117e-05,3.30000000000000e-01
1.92880000000000e-08,0.00000000000000e+00,3.30000000000000e-01,-2.42878055138175e-05,3.30000000000000e-01
2.30880000000000e-08,0.00000000000000e+00,3.30000000000000e-01,6.55526001410627e-07,3.30000000000000e-01
2.50000000000000e-08,0.00000000000000e+00,3.30000000000000e-01,-6.57595413559101e-05,3.30000000000000e-01
2.50100000000000e-08,3.29999999999937e-02,3.30000000000000e-01,-4.37095243060702e-05,3.30000000000000e-01
2.50300000000000e-08,9.90000000000031e-02,3.30000000000000e-01,-6.23905193653310e-06,3.30000000000000e-01
2.50700000000000e-08,2.31000000000000e-01,3.30000000000000e-01,4.07452045082368e-05,3.30000000000000e-01
2.51000000000000e-08,3.30000000000000e-01,3.30000000000000e-01,3.85622743840318e-05,3.30000000000000e-01
2.51080000000000e-08,3.30000000000000e-01,3.30000000000000e-01,2.02658010743963e-05,3.30000000000000e-01
2.51240000000000e-08,3.30000000000000e-01,3.30000000000000e-01,-2.05743154662180e-05,3.30000000000000e-01
2.51560000000000e-08,3.30000000000000e-01,3.30000000000000e-01,-1.20571623363493e-04,3.30000000000000e-01
2.52200000000000e-08,3.30000000000000e-01,3.30000000000000e-01,-3.63012865809651e-04,3.30000000000000e-01
2.53480000000000e-08,3.30000000000000e-01,3.30000000000000e-01,-9.33254647253134e-04,3.30000000000000e-01
2.56040000000000e-08,3.30000000000000e-01,3.30000000000000e-01,-1.83304093212942e-03,3.30000000000000e-01
2.61160000000000e-08,3.30000000000000e-01,3.30000000000000e-01,-2.31827797615504e-03,3.30000000000000e-01
2.71400000000000e-08,3.30000000000000e-01,3.30000000000000e-01,3.63894625323385e-02,3.30000000000000e-01
2.91880000000000e-08,3.30000000000000e-01,3.30000000000000e-01,2.06340821580927e-01,3.30000000000000e-01
3.29880000000000e-08,3.30000000000000e-01,3.30000000000000e-01,3.35413584846782e-01,3.30000000000000e-01
3.51000000000000e-08,3.29999999999984e-01,3.30000000000000e-01,3.26087791672080e-01,3.30000000000000e-01
3.51100000000000e-08,2.96999999999990e-01,3.30000000000000e-01,3.26170899413948e-01,3.30000000000000e-01
3.51300000000000e-08,2.30999999999981e-01,3.30000000000000e-01,3.26323031478474e-01,3.30000000000000e-01
3.51700000000000e-08,9.89999999999837e-02,3.30000000000000e-01,3.26615318806036e-01,3.30000000000000e-01
3.52000000000000e-08,0.00000000000000e+00,3.30000000000000e-01,3.26864452084715e-01,3.30000000000000e-01
3.52080000000000e-08,0.00000000000000e+00,3.30000000000000e-01,3.26942255615407e-01,3.30000000000000e-01
3.52240000000000e-08,0.00000000000000e+00,3.30000000000000e-01,3.27091017004658e-01,3.30000000000000e-01
3.52560000000000e-08,0.00000000000000e+00,3.30000000000000e-01,3.27373365853186e-01,3.30000000000000e-01
3.53200000000000e-08,0.00000000000000e+00,3.30000000000000e-01,3.27845169570787e-01,3.30000000000000e-01
3.54480000000000e-08,0.00000000000000e+00,3.30000000000000e-01,3.28516136952750e-01,3.30000000000000e-01
3.57040000000000e-08,0.00000000000000e+00,3.30000000000000e-01,3.29155159252597e-01,3.30000000000000e-01
3.62160000000000e-08,0.00000000000000e+00,3.30000000000000e-01,3.29040018058670e-01,3.30000000000000e-01
3.72400000000000e-08,0.00000000000000e+00,3.30000000000000e-01,3.26221003646574e-01,3.30000000000000e-01
3.92880000000000e-08,0.00000000000000e+00,3.30000000000000e-01,3.17966975389331e-01,3.30000000000000e-01
4.30880000000000e-08,0.00000000000000e+00,3.30000000000000e-01,3.17175275059788e-01,3.30000000000000e-01
4.50000000000000e-08,0.00000000000000e+00,3.30000000000000e-01,3.22522386598535e-01,3.30000000000000e-01
4.50100000000000e-08,3.29999999999937e-02,3.30000000000000e-01,3.22521462280525e-01,2.97000000000006e-01
4.50300000000000e-08,9.90000000000031e-02,3.30000000000000e-01,3.22509113999546e-01,2.30999999999997e-01
4.50700000000000e-08,2.31000000000000e-01,3.30000000000000e-01,3.22473979134648e-01,9.90000000000001e-02
4.51000000000000e-08,3.30000000000000e-01,3.30000000000000e-01,3.22514454980516e-01,0.00000000000000e+00
4.51080000000000e-08,3.30000000000000e-01,3.30000000000000e-01,3.22567476898403e-01,0.00000000000000e+00
4.51240000000000e-08,3.30000000000000e-01,3.30000000000000e-01,3.22668470637337e-01,0.00000000000000e+00
4.51560000000000e-08,3.30000000000000e-01,3.30000000000000e-01,3.22861061802820e-01,0.00000000000000e+00
4.52200000000000e-08,3.30000000000000e-01,3.30000000000000e-01,3.23209733629045e-01,0.00000000000000e+00
4.53480000000000e-08,3.30000000000000e-01,3.30000000000000e-01,3.23774099944233e-01,0.00000000000000e+00
4.56040000000000e-08,3.30000000000000e-01,3.30000000000000e-01,3.24668816019176e-01,0.00000000000000e+00
4.61160000000000e-08,3.30000000000000e-01,3.30000000000000e-01,3.25878993522950e-01,0.00000000000000e+00
4.71400000000000e-08,3.30000000000000e-01,3.30000000000000e-01,3.25741253586693e-01,0.00000000000000e+00
4.91880000000000e-08,3.30000000000000e-01,3.30000000000000e-01,2.63737194949901e-01,0.00000000000000e+00
5.01000000000000e-08,3.30000000000000e-01,3.29999999999981e-01,1.60306643129752e-01,0.00000000000000e+00
5.04800000000000e-08,3.30000000000000e-01,3.30000000000000e-01,9.16091532282927e-02,0.00000000000000e+00
5.12400000000000e-08,3.30000000000000e-01,3.30000000000000e-01,1.07441994187355e-02,0.00000000000000e+00
5.27600000000000e-08,3.30000000000000e-01,3.30000000000000e-01,-3.78757809965435e-03,0.00000000000000e+00
5.51000000000000e-08,3.30000000000000e-01,3.30000000000000e-01,2.92047220955176e-03,0.00000000000000e+00
5.51100000000000e-08,2.97000000000012e-01,3.30000000000000e-01,2.84320097516979e-03,3.29999999999883e-02
5.51300000000000e-08,2.31000000000002e-01,3.30000000000000e-01,2.66458671297130e-03,9.89999999999976e-02
5.51700000000000e-08,9.90000000000056e-02,3.30000000000000e-01,2.23333667264918e-03,2.30999999999994e-01
5.52000000000000e-08,0.00000000000000e+00,3.30000000000000e-01,1.90474101536732e-03,3.30000000000000e-01
5.52080000000000e-08,0.00000000000000e+00,3.30000000000000e-01,1.81754411148666e-03,3.30000000000000e-01
5.52240000000000e-08,0.00000000000000e+00,3.30000000000000e-01,1.65082111369638e-03,3.30000000000000e-01
5.52560000000000e-08,0.00000000000000e+00,3.30000000000000e-01,1.35443359331218e-03,3.30000000000000e-01
5.53200000000000e-08,0.00000000000000e+00,3.30000000000000e-01,9.10106059885996e-04,3.30000000000000e-01
5.54480000000000e-08,0.00000000000000e+00,3.30000000000000e-01,3.96983688179843e-04,3.30000000000000e-01
5.57040000000000e-08,0.00000000000000e+00,3.30000000000000e-01,4.33335221852842e-05,3.30000000000000e-01
5.62160000000000e-08,0.00000000000000e+00,3.30000000000000e-01,-2.32612143886346e-05,3.30000000000000e-01
5.72400000000000e-08,0.00000000000000e+00,3.30000000000000e-01,-3.01434334298353e-05,3.30000000000000e-01
5.92880000000000e-08,0.00000000000000e+00,3.30000000000000e-01,-1.29173209023830e-04,3.30000000000000e-01
6.30880000000000e-08,0.00000000000000e+00,3.30000000000000e-01,8.03022891381958e-05,3.30000000000000e-01
6.50000000000000e-08,0.00000000000000e+00,3.30000000000000e-01,-6.33833843124349e-05,3.30000000000000e-01
6.50100000000000e-08,3.29999999999937e-02,3.30000000000000e-01,-4.04929158248461e-05,3.30000000000000e-01
6.50300000000000e-08,9.89999999999812e-02,3.30000000000000e-01,1.85285188030945e-06,3.30000000000000e-01
6.50700000000000e-08,2.30999999999956e-01,3.30000000000000e-01,6.52923431132667e-05,3.30000000000000e-01
6.51000000000000e-08,3.29999999999981e-01,3.30000000000000e-01,7.94542812901644e-05,3.30000000000000e-01
6.51080000000000e-08,3.30000000000000e-01,3.30000000000000e-01,6.59826077834200e-05,3.30000000000000e-01
6.51240000000000e-08,3.30000000000000e-01,3.30000000000000e-01,3.70099559500424e-05,3.30000000000000e-01
6.51560000000000e-08,3.30000000000000e-01,3.30000000000000e-01,-3.09656728176236e-05,3.30000000000000e-01
6.52200000000000e-08,3.30000000000000e-01,3.30000000000000e-01,-2.13686487796941e-04,3.30000000000000e-01
6.53480000000000e-08,3.30000000000000e-01,3.30000000000000e-01,-7.28375860314963e-04,3.30000000000000e-01
6.56040000000000e-08,3.30000000000000e-01,3.30000000000000e-01,-1.65122141296978e-03,3.30000000000000e-01
6.61159999999999e-08,3.30000000000000e-01,3.30000000000000e-01,-2.58812729928564e-03,3.30000000000000e-01
6.71399999999999e-08,3.30000000000000e-01,3.30000000000000e-01,2.98927697995217e-02,3.30000000000000e-01
6.91879999999998e-08,3.30000000000000e-01,3.30000000000000e-01,1.95936466780444e-01,3.30000000000000e-01
7.29879999999998e-08,3.30000000000000e-01,3.30000000000000e-01,3.35568666027616e-01,3.30000000000000e-01
7.51000000000000e-08,3.30000000000000e-01,3.30000000000000e-01,3.26019990457827e-01,3.30000000000000e-01
7.51100000000000e-08,2.97000000000034e-01,3.30000000000000e-01,3.26112720719469e-01,3.30000000000000e-01
7.51300000000000e-08,2.31000000000046e-01,3.30000000000000e-01,3.26278842907586e-01,3.30000000000000e-01
7.51700000000000e-08,9.90000000000711e-02,3.30000000000000e-01,3.26597491053411e-01,3.30000000000000e-01
7.52000000000000e-08,4.61852778244065e-14,3.30000000000000e-01,3.26847520603793e-01,3.30000000000000e-01
7.52080000000000e-08,0.00000000000000e+00,3.30000000000000e-01,3.26930287393720e-01,3.30000000000000e-01
7.52240000000000e-08,0.00000000000000e+00,3.30000000000000e-01,3.27089860351449e-01,3.30000000000000e-01
7.52560000000000e-08,0.00000000000000e+00,3.30000000000000e-01,3.27390925802894e-01,3.30000000000000e-01
7.53200000000000e-08,0.00000000000000e+00,3.30000000000000e-01,3.27891684249682e-01,3.30000000000000e-01
7.54480000000000e-08,0.00000000000000e+00,3.30000000000000e-01,3.28563377099513e-01,3.30000000000000e-01
7.57040000000000e-08,0.00000000000000e+00,3.30000000000000e-01,3.29198472129218e-01,3.30000000000000e-01
7.62159999999999e-08,0.00000000000000e+00,3.30000000000000e-01,3.29052289863570e-01,3.30000000000000e-01
7.72399999999999e-08,0.00000000000000e+00,3.30000000000000e-01,3.26208384730615e-01,3.30000000000000e-01
7.92879999999998e-08,0.00000000000000e+00,3.30000000000000e-01,3.17947474077576e-01,3.30000000000000e-01
8.30879999999998e-08,0.00000000000000e+00,3.30000000000000e-01,3.17162577004839e-01,3.30000000000000e-01
8.50000000000000e-08,0.00000000000000e+00,3.30000000000000e-01,3.22511893794894e-01,3.30000000000000e-01
8.50100000000000e-08,3.29999999999937e-02,3.30000000000000e-01,3.22508095887848e-01,2.97000000000006e-01
8.50300000000000e-08,9.89999999999812e-02,3.30000000000000e-01,3.22496791078298e-01,2.31000000000019e-01
8.50700000000000e-08,2.30999999999956e-01,3.30000000000000e-01,3.22462124315948e-01,9.90000000000438e-02
8.51000000000000e-08,3.29999999999981e-01,3.30000000000000e-01,3.22503845194657e-01,1.88737914186277e-14
8.51080000000000e-08,3.30000000000000e-01,3.30000000000000e-01,3.22557036434242e-01,0.00000000000000e+00
8.51240000000000e-08,3.30000000000000e-01,3.30000000000000e-01,3.22658321230516e-01,0.00000000000000e+00
8.51560000000000e-08,3.30000000000000e-01,3.30000000000000e-01,3.22850873284478e-01,0.00000000000000e+00
8.52200000000000e-08,3.30000000000000e-01,3.30000000000000e-01,3.23200183412050e-01,0.00000000000000e+00
8.53480000000000e-08,3.30000000000000e-01,3.30000000000000e-01,3.23764969325196e-01,0.00000000000000e+00
8.56040000000000e-08,3.30000000000000e-01,3.30000000000000e-01,3.24660081471546e-01,0.00000000000000e+00
8.61159999999999e-08,3.30000000000000e-01,3.30000000000000e-01,3.25870694985077e-01,0.00000000000000e+00
8.71399999999999e-08,3.30000000000000e-01,3.30000000000000e-01,3.25732595248860e-01,0.00000000000000e+00
8.91879999999998e-08,3.30000000000000e-01,3.30000000000000e-01,2.63792493961065e-01,0.00000000000000e+00
9.01000000000000e-08,3.30000000000000e-01,3.29999999999981e-01,1.60448990485303e-01,0.00000000000000e+00
9.04800000000000e-08,3.30000000000000e-01,3.30000000000000e-01,9.17448992859448e-02,0.00000000000000e+00
9.12400000000000e-08,3.30000000000000e-01,3.30000000000000e-01,1.07977718509620e-02,0.00000000000000e+00
9.27600000000000e-08,3.30000000000000e-01,3.30000000000000e-01,-3.80443558569978e-03,0.00000000000000e+00
9.51000000000000e-08,3.30000000000000e-01,3.30000000000000e-01,2.93359883234875e-03,0.00000000000000e+00
9.51100000000000e-08,2.97000000000034e-01,3.30000000000000e-01,2.85560420841844e-03,3.29999999999664e-02
9.51300000000000e-08,2.31000000000046e-01,3.30000000000000e-01,2.67568050904820e-03,9.89999999999539e-02
9.51700000000000e-08,9.90000000000711e-02,3.30000000000000e-01,2.24205510069741e-03,2.30999999999929e-01
9.52000000000000e-08,4.61852778244065e-14,3.30000000000000e-01,1.91201535400924e-03,3.29999999999954e-01
9.52080000000000e-08,0.00000000000000e+00,3.30000000000000e-01,1.82447817864297e-03,3.30000000000000e-01
9.52240000000000e-08,0.00000000000000e+00,3.30000000000000e-01,1.65710649185892e-03,3.30000000000000e-01
9.52560000000000e-08,0.00000000000000e+00,3.30000000000000e-01,1.35956818502357e-03,3.30000000000000e-01
9.53200000000000e-08,0.00000000000000e+00,3.30000000000000e-01,9.13532193130279e-04,3.30000000000000e-01
9.54480000000000e-08,0.00000000000000e+00,3.30000000000000e-01,3.98466871317059e-04,3.30000000000000e-01
9.57040000000000e-08,0.00000000000000e+00,3.30000000000000e-01,4.34994170805097e-05,3.30000000000000e-01
9.62159999999999e-08,0.00000000000000e+00,3.30000000000000e-01,-2.32737401993279e-05,3.30000000000000e-01
9.72399999999999e-08,0.00000000000000e+00,3.30000000000000e-01,-3.00180337784355e-05,3.30000000000000e-01
9.92879999999998e-08,0.00000000000000e+00,3.30000000000000e-01,-1.29183190290267e-04,3.30000000000000e-01
1.03088000000000e-07,0.00000000000000e+00,3.30000000000000e-01,8.02637250437166e-05,3.30000000000000e-01
1.05000000000000e-07,0.00000000000000e+00,3.30000000000000e-01,-6.33010075530953e-05,3.30000000000000e-01
1.05010000000000e-07,3.29999999999937e-02,3.30000000000000e-01,-4.04090499248159e-05,3.30000000000000e-01
1.05030000000000e-07,9.89999999999812e-02,3.30000000000000e-01,1.94165728738607e-06,3.30000000000000e-01
1.05070000000000e-07,2.30999999999956e-01,3.30000000000000e-01,6.54005198072512e-05,3.30000000000000e-01
1.05100000000000e-07,3.29999999999981e-01,3.30000000000000e-01,7.95768023988154e-05,3.30000000000000e-01
1.05108000000000e-07,3.30000000000000e-01,3.30000000000000e-01,6.61109030005262e-05,3.30000000000000e-01
1.05124000000000e-07,3.30000000000000e-01,3.30000000000000e-01,3.71541974096556e-05,3.30000000000000e-01
1.05156000000000e-07,3.30000000000000e-01,3.30000000000000e-01,-3.07742361674492e-05,3.30000000000000e-01
1.05220000000000e-07,3.30000000000000e-01,3.30000000000000e-01,-2.13336432135752e-04,3.30000000000000e-01
1.05348000000000e-07,3.30000000000000e-01,3.30000000000000e-01,-7.27727873307188e-04,3.30000000000000e-01
1.05604000000000e-07,3.30000000000000e-01,3.30000000000000e-01,-1.65033574033767e-03,3.30000000000000e-01
1.06116000000000e-07,3.30000000000000e-01,3.30000000000000e-01,-2.58805338141728e-03,3.30000000000000e-01
1.07140000000000e-07,3.30000000000000e-01,3.30000000000000e-01,2.98698360558693e-02,3.30000000000000e-01
1.09188000000000e-07,3.30000000000000e-01,3.30000000000000e-01,1.95896332207445e-01,3.30000000000000e-01
1.12988000000000e-07,3.30000000000000e-01,3.30000000000000e-01,3.35569094697171e-01,3.30000000000000e-01
1.15100000000000e-07,3.30000000000000e-01,3.30000000000000e-01,3.26019812249915e-01,3.30000000000000e-01
1.15110000000000e-07,2.97000000000034e-01,3.30000000000000e-01,3.26112577229418e-01,3.30000000000000e-01
1.15130000000000e-07,2.31000000000046e-01,3.30000000000000e-01,3.26278747114973e-01,3.30000000000000e-01
1.15170000000000e-07,9.90000000000711e-02,3.30000000000000e-01,3.26597486402006e-01,3.30000000000000e-01
1.15200000000000e-07,4.61852778244065e-14,3.30000000000000e-01,3.26847563182221e-01,3.30000000000000e-01
1.15208000000000e-07,0.00000000000000e+00,3.30000000000000e-01,3.26930341800863e-01,3.30000000000000e-01
1.15224000000000e-07,0.00000000000000e+00,3.30000000000000e-01,3.27089937566078e-01,3.30000000000000e-01
1.15256000000000e-07,0.00000000000000e+00,3.30000000000000e-01,3.27391041682698e-01,3.30000000000000e-01
1.15320000000000e-07,0.00000000000000e+00,3.30000000000000e-01,3.27891853929849e-01,3.30000000000000e-01
1.15448000000000e-07,0.00000000000000e+00,3.30000000000000e-01,3.28563563011152e-01,3.30000000000000e-01
1.15704000000000e-07,0.00000000000000e+00,3.30000000000000e-01,3.29198626933107e-01,3.30000000000000e-01
1.16216000000000e-07,0.00000000000000e+00,3.30000000000000e-01,3.29052337027306e-01,3.30000000000000e-01
1.17240000000000e-07,0.00000000000000e+00,3.30000000000000e-01,3.26208284811050e-01,3.30000000000000e-01
1.19288000000000e-07,0.00000000000000e+00,3.30000000000000e-01,3.17947338371064e-01,3.30000000000000e-01
1.23088000000000e-07,0.00000000000000e+00,3.30000000000000e-01,3.17162532074153e-01,3.30000000000000e-01
1.25000000000000e-07,0.00000000000000e+00,3.30000000000000e-01,3.22511853965827e-01,3.30000000000000e-01
1.25010000000000e-07,3.29999999999501e-02,3.30000000000000e-01,3.22508054473529e-01,2.97000000000050e-01
1.25030000000000e-07,9.89999999999376e-02,3.30000000000000e-01,3.22496750406422e-01,2.31000000000062e-01
1.25070000000000e-07,2.30999999999913e-01,3.30000000000000e-01,3.22462084213989e-01,9.90000000000875e-02
