Time,v(clk),v(data),v(out),v(reset)
1.00000000000000e-08,8.00000000000000e-01,0.00000000000000e+00,-1.91210444586444e-05,0.00000000000000e+00
1.00100000000000e-08,8.00000000000000e-01,7.99999999999981e-02,-1.06693531066043e-05,0.00000000000000e+00
1.00300000000000e-08,8.00000000000000e-01,2.39999999999994e-01,-4.59078573198518e-06,0.00000000000000e+00
1.00700000000000e-08,8.00000000000000e-01,5.59999999999987e-01,8.31154290829861e-07,0.00000000000000e+00
1.01000000000000e-08,8.00000000000000e-01,7.99999999999994e-01,2.04906610445227e-06,0.00000000000000e+00
1.01080000000000e-08,8.00000000000000e-01,8.00000000000000e-01,2.40058393007753e-06,0.00000000000000e+00
1.01240000000000e-08,8.00000000000000e-01,8.00000000000000e-01,2.97534175083131e-06,0.00000000000000e+00
1.01560000000000e-08,8.00000000000000e-01,8.00000000000000e-01,2.89717981309667e-06,0.00000000000000e+00
1.02200000000000e-08,8.00000000000000e-01,8.00000000000000e-01,2.57212254217709e-06,0.00000000000000e+00
1.03480000000000e-08,8.00000000000000e-01,8.00000000000000e-01,1.87841129400262e-06,0.00000000000000e+00
1.06040000000000e-08,8.00000000000000e-01,8.00000000000000e-01,1.47035295095660e-06,0.00000000000000e+00
1.11160000000000e-08,8.00000000000000e-01,8.00000000000000e-01,2.12482329431211e-06,0.00000000000000e+00
1.21400000000000e-08,8.00000000000000e-01,8.00000000000000e-01,1.33038666847579e-06,0.00000000000000e+00
1.41880000000000e-08,8.00000000000000e-01,8.00000000000000e-01,1.67483443005967e-06,0.00000000000000e+00
1.51000000000000e-08,8.00000000000000e-01,8.00000000000000e-01,1.09220112379845e-06,0.00000000000000e+00
1.51100000000000e-08,7.19999999999989e-01,8.00000000000000e-01,1.32557834619046e-04,8.00000000000113e-02
1.51300000000000e-08,5.59999999999993e-01,8.00000000000000e-01,1.69843129810970e-04,2.40000000000007e-01
1.51700000000000e-08,2.40000000000000e-01,8.00000000000000e-01,8.27003385651948e-05,5.60000000000000e-01
1.52000000000000e-08,0.00000000000000e+00,8.00000000000000e-01,1.44991500504614e-04,8.00000000000000e-01
1.52080000000000e-08,0.00000000000000e+00,8.00000000000000e-01,1.08337678718699e-04,8.00000000000000e-01
1.52240000000000e-08,0.00000000000000e+00,8.00000000000000e-01,8.71798243350097e-06,8.00000000000000e-01
1.52560000000000e-08,0.00000000000000e+00,8.00000000000000e-01,-1.71422594357998e-04,8.00000000000000e-01
1.53200000000000e-08,0.00000000000000e+00,8.00000000000000e-01,-2.24692435022281e-04,8.00000000000000e-01
1.54480000000000e-08,0.00000000000000e+00,8.00000000000000e-01,-1.74807599438193e-04,8.00000000000000e-01
1.56591156664075e-08,0.00000000000000e+00,8.00000000000000e-01,1.23612955883591e-04,8.00000000000000e-01
1.59073422167426e-08,0.00000000000000e+00,8.00000000000000e-01,1.35888808420337e-04,8.00000000000000e-01
1.64037953174128e-08,0.00000000000000e+00,8.00000000000000e-01,-1.92431420203338e-04,8.00000000000000e-01
1.69440869929016e-08,0.00000000000000e+00,8.00000000000000e-01,2.22328141605335e-04,8.00000000000000e-01
1.80044921276447e-08,0.00000000000000e+00,8.00000000000000e-01,-2.29738682246193e-04,8.00000000000000e-01
1.95523709918521e-08,0.00000000000000e+00,8.00000000000000e-01,2.33570037227716e-04,8.00000000000000e-01
2.20603150235322e-08,0.00000000000000e+00,8.00000000000000e-01,-2.34448601960518e-04,8.00000000000000e-01
2.50000000000000e-08,0.00000000000000e+00,8.00000000000000e-01,2.35460233016590e-04,8.00000000000000e-01
2.50100000000000e-08,7.99999999999848e-02,8.00000000000000e-01,2.41176379458065e-04,8.00000000000000e-01
2.50300000000000e-08,2.40000000000007e-01,8.00000000000000e-01,2.18045346399028e-04,8.00000000000000e-01
2.50700000000000e-08,5.60000000000000e-01,8.00000000000000e-01,-4.32236762334663e-04,8.00000000000000e-01
2.51000000000000e-08,8.00000000000000e-01,8.00000000000000e-01,-3.54970592622005e-03,8.00000000000000e-01
2.51080000000000e-08,8.00000000000000e-01,8.00000000000000e-01,-4.69048167762167e-03,8.00000000000000e-01
2.51240000000000e-08,8.00000000000000e-01,8.00000000000000e-01,-6.13599870325177e-03,8.00000000000000e-01
2.51560000000000e-08,8.00000000000000e-01,8.00000000000000e-01,9.73412889420812e-03,8.00000000000000e-01
2.52200000000000e-08,8.00000000000000e-01,8.00000000000000e-01,2.77963095268260e-01,8.00000000000000e-01
2.53480000000000e-08,8.00000000000000e-01,8.00000000000000e-01,7.84664341296544e-01,8.00000000000000e-01
2.55581476242485e-08,8.00000000000000e-01,8.00000000000000e-01,8.04110561949192e-01,8.00000000000000e-01
2.58494923164274e-08,8.00000000000000e-01,8.00000000000000e-01,7.96486187537409e-01,8.00000000000000e-01
2.62586910314695e-08,8.00000000000000e-01,8.00000000000000e-01,8.02877754076526e-01,8.00000000000000e-01
2.68337349641465e-08,8.00000000000000e-01,8.00000000000000e-01,7.97254145479918e-01,8.00000000000000e-01
2.79838228295005e-08,8.00000000000000e-01,8.00000000000000e-01,8.02525584167480e-01,8.00000000000000e-01
3.02839985602085e-08,8.00000000000000e-01,8.00000000000000e-01,7.97436113493501e-01,8.00000000000000e-01
3.40839985602085e-08,8.00000000000000e-01,8.00000000000000e-01,8.02448283966864e-01,8.00000000000000e-01
3.51000000000000e-08,7.99999999999960e-01,8.00000000000000e-01,7.97590373152972e-01,8.00000000000000e-01
3.51100000000000e-08,7.19999999999976e-01,8.00000000000000e-01,7.98703888313070e-01,8.00000000000000e-01
3.51300000000000e-08,5.59999999999953e-01,8.00000000000000e-01,7.99865190009776e-01,8.00000000000000e-01
3.51700000000000e-08,2.39999999999961e-01,8.00000000000000e-01,8.01120198436868e-01,8.00000000000000e-01
3.52000000000000e-08,0.00000000000000e+00,8.00000000000000e-01,8.02498505158690e-01,8.00000000000000e-01
3.52080000000000e-08,0.00000000000000e+00,8.00000000000000e-01,8.01442177555787e-01,8.00000000000000e-01
3.52240000000000e-08,0.00000000000000e+00,8.00000000000000e-01,7.95813028473982e-01,8.00000000000000e-01
3.52560000000000e-08,0.00000000000000e+00,8.00000000000000e-01,7.77198842030978e-01,8.00000000000000e-01
3.53200000000000e-08,0.00000000000000e+00,8.00000000000000e-01,7.75371592146765e-01,8.00000000000000e-01
3.54480000000000e-08,0.00000000000000e+00,8.00000000000000e-01,8.01792915942623e-01,8.00000000000000e-01
3.56799993193276e-08,0.00000000000000e+00,8.00000000000000e-01,7.97613807495258e-01,8.00000000000000e-01
3.59827975020897e-08,0.00000000000000e+00,8.00000000000000e-01,8.01455053660347e-01,8.00000000000000e-01
3.65883938676138e-08,0.00000000000000e+00,8.00000000000000e-01,7.98256781954451e-01,8.00000000000000e-01
3.77995865986621e-08,0.00000000000000e+00,8.00000000000000e-01,8.01423675093595e-01,8.00000000000000e-01
4.02219720607586e-08,0.00000000000000e+00,8.00000000000000e-01,7.98444319147116e-01,8.00000000000000e-01
4.40219720607586e-08,0.00000000000000e+00,8.00000000000000e-01,8.01420113797437e-01,8.00000000000000e-01
4.50000000000000e-08,0.00000000000000e+00,8.00000000000000e-01,7.98554472090158e-01,8.00000000000000e-01
4.50100000000000e-08,7.99999999999848e-02,8.00000000000000e-01,7.99046183707004e-01,7.20000000000015e-01
4.50300000000000e-08,2.40000000000007e-01,8.00000000000000e-01,7.99661278451132e-01,5.59999999999993e-01
4.50700000000000e-08,5.60000000000000e-01,8.00000000000000e-01,8.03650661637350e-01,2.40000000000000e-01
4.51000000000000e-08,8.00000000000000e-01,8.00000000000000e-01,8.12362949715777e-01,0.00000000000000e+00
4.51080000000000e-08,8.00000000000000e-01,8.00000000000000e-01,8.15366209347395e-01,0.00000000000000e+00
4.51240000000000e-08,8.00000000000000e-01,8.00000000000000e-01,8.21185682209122e-01,0.00000000000000e+00
4.51560000000000e-08,8.00000000000000e-01,8.00000000000000e-01,7.48314944557808e-01,0.00000000000000e+00
4.52200000000000e-08,8.00000000000000e-01,8.00000000000000e-01,2.76531896549567e-01,0.00000000000000e+00
4.53444583104824e-08,8.00000000000000e-01,8.00000000000000e-01,-5.87567171703262e-02,0.00000000000000e+00
4.54952102670667e-08,8.00000000000000e-01,8.00000000000000e-01,3.47105365565958e-02,0.00000000000000e+00
4.57967141802352e-08,8.00000000000000e-01,8.00000000000000e-01,-2.50815834017725e-02,0.00000000000000e+00
4.61148033558322e-08,8.00000000000000e-01,8.00000000000000e-01,2.01271382238301e-02,0.00000000000000e+00
4.67509817070262e-08,8.00000000000000e-01,8.00000000000000e-01,-1.73515291608938e-02,0.00000000000000e+00
4.80233384094142e-08,8.00000000000000e-01,8.00000000000000e-01,1.67145142364398e-02,0.00000000000000e+00
5.01000000000000e-08,8.00000000000000e-01,7.99999999999954e-01,-1.57741579769081e-02,0.00000000000000e+00
5.03391467842401e-08,8.00000000000000e-01,8.00000000000000e-01,-1.09154539458028e-03,0.00000000000000e+00
5.08174403527204e-08,8.00000000000000e-01,8.00000000000000e-01,9.14353090028628e-04,0.00000000000000e+00
5.17740274896810e-08,8.00000000000000e-01,8.00000000000000e-01,-8.33351190675849e-04,0.00000000000000e+00
5.36872017636022e-08,8.00000000000000e-01,8.00000000000000e-01,7.97717805453447e-04,0.00000000000000e+00
5.51000000000000e-08,8.00000000000000e-01,8.00000000000000e-01,-7.48802504315508e-04,0.00000000000000e+00
5.51100000000000e-08,7.20000000000028e-01,8.00000000000000e-01,-3.67996999668323e-04,7.99999999999716e-02
5.51300000000000e-08,5.60000000000006e-01,8.00000000000000e-01,-9.11301120708197e-06,2.39999999999994e-01
5.51700000000000e-08,2.40000000000014e-01,8.00000000000000e-01,6.54384288626894e-05,5.59999999999987e-01
5.52000000000000e-08,0.00000000000000e+00,8.00000000000000e-01,9.51997111694330e-05,8.00000000000000e-01
5.52080000000000e-08,0.00000000000000e+00,8.00000000000000e-01,-7.13963503423676e-06,8.00000000000000e-01
5.52240000000000e-08,0.00000000000000e+00,8.00000000000000e-01,-3.82405708545232e-04,8.00000000000000e-01
5.52560000000000e-08,0.00000000000000e+00,8.00000000000000e-01,-1.24448122380710e-03,8.00000000000000e-01
5.53200000000000e-08,0.00000000000000e+00,8.00000000000000e-01,-5.95340318846664e-04,8.00000000000000e-01
5.54403831616792e-08,0.00000000000000e+00,8.00000000000000e-01,4.48447039529502e-04,8.00000000000000e-01
5.56555239537406e-08,0.00000000000000e+00,8.00000000000000e-01,-5.24754556277315e-04,8.00000000000000e-01
5.58922851964199e-08,0.00000000000000e+00,8.00000000000000e-01,4.91752770201850e-04,8.00000000000000e-01
5.63658076817785e-08,0.00000000000000e+00,8.00000000000000e-01,-4.16771645156598e-04,8.00000000000000e-01
5.68861267328624e-08,0.00000000000000e+00,8.00000000000000e-01,3.58902976477020e-04,8.00000000000000e-01
5.78875378615688e-08,0.00000000000000e+00,8.00000000000000e-01,-3.28185825056481e-04,8.00000000000000e-01
5.93681514546241e-08,0.00000000000000e+00,8.00000000000000e-01,3.11495718913865e-04,8.00000000000000e-01
6.17489372767480e-08,0.00000000000000e+00,8.00000000000000e-01,-2.98638007994088e-04,8.00000000000000e-01
6.50000000000000e-08,0.00000000000000e+00,8.00000000000000e-01,2.92347757258143e-04,8.00000000000000e-01
6.50100000000000e-08,7.99999999999848e-02,8.00000000000000e-01,3.09491054097125e-04,8.00000000000000e-01
6.50300000000000e-08,2.39999999999954e-01,8.00000000000000e-01,3.07989859698161e-04,8.00000000000000e-01
6.50700000000000e-08,5.59999999999894e-01,8.00000000000000e-01,-4.60284985583592e-04,8.00000000000000e-01
6.51000000000000e-08,7.99999999999954e-01,8.00000000000000e-01,-3.62692749604120e-03,8.00000000000000e-01
6.51080000000000e-08,8.00000000000000e-01,8.00000000000000e-01,-4.74642831235984e-03,8.00000000000000e-01
6.51240000000000e-08,8.00000000000000e-01,8.00000000000000e-01,-6.11256345377921e-03,8.00000000000000e-01
6.51560000000000e-08,8.00000000000000e-01,8.00000000000000e-01,1.07500751719632e-02,8.00000000000000e-01
6.52200000000000e-08,8.00000000000000e-01,8.00000000000000e-01,2.82685005997448e-01,8.00000000000000e-01
6.53480000000000e-08,8.00000000000000e-01,8.00000000000000e-01,7.85928221523588e-01,8.00000000000000e-01
6.55567133508663e-08,8.00000000000000e-01,8.00000000000000e-01,8.03557309498997e-01,8.00000000000000e-01
6.58495012315734e-08,8.00000000000000e-01,8.00000000000000e-01,7.97012762109031e-01,8.00000000000000e-01
6.62566476800750e-08,8.00000000000000e-01,8.00000000000000e-01,8.02415488416622e-01,8.00000000000000e-01
6.68323706662103e-08,8.00000000000000e-01,8.00000000000000e-01,7.97706946814010e-01,8.00000000000000e-01
6.79838166384807e-08,8.00000000000000e-01,8.00000000000000e-01,8.02100069039585e-01,8.00000000000000e-01
7.02867085830215e-08,8.00000000000000e-01,8.00000000000000e-01,7.97868578248592e-01,8.00000000000000e-01
7.40867085830215e-08,8.00000000000000e-01,8.00000000000000e-01,8.02032052314020e-01,8.00000000000000e-01
7.51000000000000e-08,8.00000000000000e-01,8.00000000000000e-01,7.98005041517706e-01,8.00000000000000e-01
7.51100000000000e-08,7.20000000000081e-01,8.00000000000000e-01,7.98893499823805e-01,8.00000000000000e-01
7.51300000000000e-08,5.60000000000112e-01,8.00000000000000e-01,7.99849403321490e-01,8.00000000000000e-01
7.51700000000000e-08,2.40000000000172e-01,8.00000000000000e-01,8.01127111715929e-01,8.00000000000000e-01
7.52000000000000e-08,1.11910480882216e-13,8.00000000000000e-01,8.02498250374130e-01,8.00000000000000e-01
7.52080000000000e-08,0.00000000000000e+00,8.00000000000000e-01,8.01444613854574e-01,8.00000000000000e-01
7.52240000000000e-08,0.00000000000000e+00,8.00000000000000e-01,7.95819552458055e-01,8.00000000000000e-01
7.52560000000000e-08,0.00000000000000e+00,8.00000000000000e-01,7.77206100017305e-01,8.00000000000000e-01
7.53200000000000e-08,0.00000000000000e+00,8.00000000000000e-01,7.75369867412276e-01,8.00000000000000e-01
7.54480000000000e-08,0.00000000000000e+00,8.00000000000000e-01,8.01791951058924e-01,8.00000000000000e-01
7.56800188131122e-08,0.00000000000000e+00,8.00000000000000e-01,7.97614736792054e-01,8.00000000000000e-01
7.59828024276014e-08,0.00000000000000e+00,8.00000000000000e-01,8.01454434486159e-01,8.00000000000000e-01
7.65883696565800e-08,0.00000000000000e+00,8.00000000000000e-01,7.98257384979759e-01,8.00000000000000e-01
7.77995041145371e-08,0.00000000000000e+00,8.00000000000000e-01,8.01423117128521e-01,8.00000000000000e-01
8.02217730304513e-08,0.00000000000000e+00,8.00000000000000e-01,7.98444864039845e-01,8.00000000000000e-01
8.40217730304513e-08,0.00000000000000e+00,8.00000000000000e-01,8.01419580871088e-01,8.00000000000000e-01
8.50000000000000e-08,0.00000000000000e+00,8.00000000000000e-01,7.98554956041635e-01,8.00000000000000e-01
8.50100000000000e-08,7.99999999999848e-02,8.00000000000000e-01,7.99046489660434e-01,7.20000000000015e-01
8.50300000000000e-08,2.39999999999954e-01,8.00000000000000e-01,7.99661341127536e-01,5.60000000000046e-01
8.50700000000000e-08,5.59999999999894e-01,8.00000000000000e-01,8.03650677482367e-01,2.40000000000106e-01
8.51000000000000e-08,7.99999999999954e-01,8.00000000000000e-01,8.12362893434662e-01,4.57411886145564e-14
8.51080000000000e-08,8.00000000000000e-01,8.00000000000000e-01,8.15366185227258e-01,0.00000000000000e+00
8.51240000000000e-08,8.00000000000000e-01,8.00000000000000e-01,8.21185709701456e-01,0.00000000000000e+00
8.51560000000000e-08,8.00000000000000e-01,8.00000000000000e-01,7.48315747559760e-01,0.00000000000000e+00
8.52200000000000e-08,8.00000000000000e-01,8.00000000000000e-01,2.76533312867645e-01,0.00000000000000e+00
8.53445566799089e-08,8.00000000000000e-01,8.00000000000000e-01,-5.88239470698488e-02,0.00000000000000e+00
8.54952879577858e-08,8.00000000000000e-01,8.00000000000000e-01,3.47474944954274e-02,0.00000000000000e+00
8.57967505135395e-08,8.00000000000000e-01,8.00000000000000e-01,-2.51049654180395e-02,0.00000000000000e+00
8.61149088617804e-08,8.00000000000000e-01,8.00000000000000e-01,2.01471829312333e-02,0.00000000000000e+00
8.67512255582621e-08,8.00000000000000e-01,8.00000000000000e-01,-1.73683953900099e-02,0.00000000000000e+00
8.80238589512257e-08,8.00000000000000e-01,8.00000000000000e-01,1.67312792963914e-02,0.00000000000000e+00
9.01000000000000e-08,8.00000000000000e-01,7.99999999999954e-01,-1.57893388160649e-02,0.00000000000000e+00
9.03390865425913e-08,8.00000000000000e-01,8.00000000000000e-01,-1.09303328329655e-03,0.00000000000000e+00
9.08172596277740e-08,8.00000000000000e-01,8.00000000000000e-01,9.15551994826177e-04,0.00000000000000e+00
9.17736057981393e-08,8.00000000000000e-01,8.00000000000000e-01,-8.34422050052627e-04,0.00000000000000e+00
9.36862981388700e-08,8.00000000000000e-01,8.00000000000000e-01,7.98729597628090e-04,0.00000000000000e+00
9.51000000000000e-08,8.00000000000000e-01,8.00000000000000e-01,-7.49779887476766e-04,0.00000000000000e+00
9.51100000000000e-08,7.20000000000081e-01,8.00000000000000e-01,-3.68674230904316e-04,7.99999999999187e-02
9.51300000000000e-08,5.60000000000112e-01,8.00000000000000e-01,-9.36177671274213e-06,2.39999999999888e-01
9.51700000000000e-08,2.40000000000172e-01,8.00000000000000e-01,6.54247255167592e-05,5.59999999999828e-01
9.52000000000000e-08,1.11910480882216e-13,8.00000000000000e-01,9.51988166396425e-05,7.99999999999888e-01
9.52080000000000e-08,0.00000000000000e+00,8.00000000000000e-01,-7.13952341606372e-06,8.00000000000000e-01
9.52240000000000e-08,0.00000000000000e+00,8.00000000000000e-01,-3.82402647187224e-04,8.00000000000000e-01
9.52560000000000e-08,0.00000000000000e+00,8.00000000000000e-01,-1.24446866683083e-03,8.00000000000000e-01
9.53200000000000e-08,0.00000000000000e+00,8.00000000000000e-01,-5.95332962452559e-04,8.00000000000000e-01
9.54403909539220e-08,0.00000000000000e+00,8.00000000000000e-01,4.48420882921158e-04,8.00000000000000e-01
9.56555264727540e-08,0.00000000000000e+00,8.00000000000000e-01,-5.24723167711990e-04,8.00000000000000e-01
9.58922993329162e-08,0.00000000000000e+00,8.00000000000000e-01,4.91741202781464e-04,8.00000000000000e-01
9.63658450532406e-08,0.00000000000000e+00,8.00000000000000e-01,-4.16772399549390e-04,8.00000000000000e-01
9.68861838309983e-08,0.00000000000000e+00,8.00000000000000e-01,3.58910588011874e-04,8.00000000000000e-01
9.78876607759141e-08,0.00000000000000e+00,8.00000000000000e-01,-3.28197364682958e-04,8.00000000000000e-01
9.93683491668984e-08,0.00000000000000e+00,8.00000000000000e-01,3.11509071117048e-04,8.00000000000000e-01
1.01749282860206e-07,0.00000000000000e+00,8.00000000000000e-01,-2.98652658732621e-04,8.00000000000000e-01
1.05000000000000e-07,0.00000000000000e+00,8.00000000000000e-01,2.92361826707441e-04,8.00000000000000e-01
1.05010000000000e-07,7.99999999999848e-02,8.00000000000000e-01,3.09497150991558e-04,8.00000000000000e-01
1.05030000000000e-07,2.39999999999954e-01,8.00000000000000e-01,3.07984981846171e-04,8.00000000000000e-01
1.05070000000000e-07,5.59999999999894e-01,8.00000000000000e-01,-4.60286442235447e-04,8.00000000000000e-01
1.05100000000000e-07,7.99999999999954e-01,8.00000000000000e-01,-3.62692635922725e-03,8.00000000000000e-01
1.05108000000000e-07,8.00000000000000e-01,8.00000000000000e-01,-4.74642758217633e-03,8.00000000000000e-01
1.05124000000000e-07,8.00000000000000e-01,8.00000000000000e-01,-6.11256472801584e-03,8.00000000000000e-01
1.05156000000000e-07,8.00000000000000e-01,8.00000000000000e-01,1.07500455674617e-02,8.00000000000000e-01
1.05220000000000e-07,8.00000000000000e-01,8.00000000000000e-01,2.82684871440677e-01,8.00000000000000e-01
1.05348000000000e-07,8.00000000000000e-01,8.00000000000000e-01,7.85928185887168e-01,8.00000000000000e-01
1.05556713390905e-07,8.00000000000000e-01,8.00000000000000e-01,8.03557325182396e-01,8.00000000000000e-01
1.05849501229894e-07,8.00000000000000e-01,8.00000000000000e-01,7.97012747192576e-01,8.00000000000000e-01
1.06256647735629e-07,8.00000000000000e-01,8.00000000000000e-01,8.02415501516161e-01,8.00000000000000e-01
1.06832370701072e-07,8.00000000000000e-01,8.00000000000000e-01,7.97706933995197e-01,8.00000000000000e-01
1.07983816631957e-07,8.00000000000000e-01,8.00000000000000e-01,8.02100081091956e-01,8.00000000000000e-01
1.10286708493727e-07,8.00000000000000e-01,8.00000000000000e-01,7.97868566008784e-01,8.00000000000000e-01
1.14086708493727e-07,8.00000000000000e-01,8.00000000000000e-01,8.02032064101711e-01,8.00000000000000e-01
1.15100000000000e-07,8.00000000000000e-01,8.00000000000000e-01,7.98005029783232e-01,8.00000000000000e-01
