Time,v(clk),v(data),v(out)
1.00000000000000e-08,7.00000000000000e-01,0.00000000000000e+00,2.59994707850950e-05
1.00100000000000e-08,7.00000000000000e-01,6.99999999999983e-02,1.68954328146967e-05
1.00300000000000e-08,7.00000000000000e-01,2.09999999999995e-01,5.77220526457728e-06
1.00700000000000e-08,7.00000000000000e-01,4.89999999999988e-01,-1.04784612996872e-06
1.01000000000000e-08,7.00000000000000e-01,6.99999999999995e-01,-4.62126355822018e-06
1.01080000000000e-08,7.00000000000000e-01,7.00000000000000e-01,-3.74920968506526e-06
1.01240000000000e-08,7.00000000000000e-01,7.00000000000000e-01,-1.47376689596523e-06
1.01560000000000e-08,7.00000000000000e-01,7.00000000000000e-01,2.56765615209986e-06
1.02200000000000e-08,7.00000000000000e-01,7.00000000000000e-01,5.41094865721264e-06
1.03480000000000e-08,7.00000000000000e-01,7.00000000000000e-01,1.31863347112987e-06
1.06040000000000e-08,7.00000000000000e-01,7.00000000000000e-01,1.88085925023444e-06
1.11160000000000e-08,7.00000000000000e-01,7.00000000000000e-01,2.40454695335773e-06
1.21400000000000e-08,7.00000000000000e-01,7.00000000000000e-01,1.48148503950011e-06
1.41880000000000e-08,7.00000000000000e-01,7.00000000000000e-01,1.89052003774165e-06
1.51000000000000e-08,7.00000000000000e-01,7.00000000000000e-01,1.06867021888897e-06
1.51100000000000e-08,6.29999999999990e-01,7.00000000000000e-01,-6.35902744465996e-05
1.51300000000000e-08,4.89999999999994e-01,7.00000000000000e-01,-1.56927164898749e-04
1.51700000000000e-08,2.10000000000000e-01,7.00000000000000e-01,-1.43686354672497e-04
1.52000000000000e-08,0.00000000000000e+00,7.00000000000000e-01,7.72771457649007e-05
1.52080000000000e-08,0.00000000000000e+00,7.00000000000000e-01,2.02972454320174e-04
1.52240000000000e-08,0.00000000000000e+00,7.00000000000000e-01,3.47803902868225e-04
1.52560000000000e-08,0.00000000000000e+00,7.00000000000000e-01,2.99590469627638e-04
1.53200000000000e-08,0.00000000000000e+00,7.00000000000000e-01,-4.10987437540825e-05
1.54480000000000e-08,0.00000000000000e+00,7.00000000000000e-01,-1.64669027559523e-04
1.57040000000000e-08,0.00000000000000e+00,7.00000000000000e-01,-1.60983235623149e-04
1.61194212151188e-08,0.00000000000000e+00,7.00000000000000e-01,1.01171200231988e-04
1.66657530640259e-08,0.00000000000000e+00,7.00000000000000e-01,8.48078651879934e-05
1.76475770365230e-08,0.00000000000000e+00,7.00000000000000e-01,-1.41807009365247e-04
1.87248558636620e-08,0.00000000000000e+00,7.00000000000000e-01,1.62534566708438e-04
2.08794135179398e-08,0.00000000000000e+00,7.00000000000000e-01,-1.66605445558364e-04
2.40474084010430e-08,0.00000000000000e+00,7.00000000000000e-01,1.68906271843849e-04
2.50000000000000e-08,0.00000000000000e+00,7.00000000000000e-01,-1.67858770476626e-04
2.50100000000000e-08,6.99999999999867e-02,7.00000000000000e-01,-1.05117283248427e-05
2.50300000000000e-08,2.10000000000007e-01,7.00000000000000e-01,2.10285773396150e-04
2.50700000000000e-08,4.90000000000000e-01,7.00000000000000e-01,1.33666798400288e-04
2.51000000000000e-08,7.00000000000000e-01,7.00000000000000e-01,-1.75202968303921e-03
2.51080000000000e-08,7.00000000000000e-01,7.00000000000000e-01,-2.67248009616290e-03
2.51240000000000e-08,7.00000000000000e-01,7.00000000000000e-01,-4.31901694869137e-03
2.51560000000000e-08,7.00000000000000e-01,7.00000000000000e-01,-6.20552435707511e-03
2.52200000000000e-08,7.00000000000000e-01,7.00000000000000e-01,1.40414513010284e-02
2.53480000000000e-08,7.00000000000000e-01,7.00000000000000e-01,2.82129078923654e-01
2.56040000000000e-08,7.00000000000000e-01,7.00000000000000e-01,6.96157036996425e-01
2.60179348249959e-08,7.00000000000000e-01,7.00000000000000e-01,6.99054522187144e-01
2.65745014797122e-08,7.00000000000000e-01,7.00000000000000e-01,7.01702045888726e-01
2.74491139066630e-08,7.00000000000000e-01,7.00000000000000e-01,6.98022321960037e-01
2.85542695699139e-08,7.00000000000000e-01,7.00000000000000e-01,7.02069649577824e-01
3.07645808964156e-08,7.00000000000000e-01,7.00000000000000e-01,6.97898865952501e-01
3.44177584867467e-08,7.00000000000000e-01,7.00000000000000e-01,7.02137657603272e-01
3.51000000000000e-08,6.99999999999965e-01,7.00000000000000e-01,6.97878777264104e-01
3.51100000000000e-08,6.29999999999979e-01,7.00000000000000e-01,6.98712878361462e-01
3.51300000000000e-08,4.89999999999959e-01,7.00000000000000e-01,6.99680879013285e-01
3.51700000000000e-08,2.09999999999966e-01,7.00000000000000e-01,7.00594399744754e-01
3.52000000000000e-08,0.00000000000000e+00,7.00000000000000e-01,7.02108981387624e-01
3.52080000000000e-08,0.00000000000000e+00,7.00000000000000e-01,7.02536551803212e-01
3.52240000000000e-08,0.00000000000000e+00,7.00000000000000e-01,7.03072085971192e-01
3.52560000000000e-08,0.00000000000000e+00,7.00000000000000e-01,7.02300878542503e-01
3.53200000000000e-08,0.00000000000000e+00,7.00000000000000e-01,6.91596735790131e-01
3.54480000000000e-08,0.00000000000000e+00,7.00000000000000e-01,6.69878724662061e-01
3.57040000000000e-08,0.00000000000000e+00,7.00000000000000e-01,6.88543237693994e-01
3.62160000000000e-08,0.00000000000000e+00,7.00000000000000e-01,7.05053285265414e-01
3.68478093099589e-08,0.00000000000000e+00,7.00000000000000e-01,6.95325402278698e-01
3.81114279298768e-08,0.00000000000000e+00,7.00000000000000e-01,7.03275182652130e-01
4.06386651697125e-08,0.00000000000000e+00,7.00000000000000e-01,6.96477190857035e-01
4.44386651697125e-08,0.00000000000000e+00,7.00000000000000e-01,7.02970391761153e-01
4.50000000000000e-08,0.00000000000000e+00,7.00000000000000e-01,6.97575350529432e-01
4.50100000000000e-08,6.99999999999867e-02,7.00000000000000e-01,6.98062962662150e-01
4.50300000000000e-08,2.10000000000007e-01,7.00000000000000e-01,6.98845357895046e-01
4.50700000000000e-08,4.90000000000000e-01,7.00000000000000e-01,6.99515012134163e-01
4.51000000000000e-08,7.00000000000000e-01,7.00000000000000e-01,6.98443215445879e-01
4.51080000000000e-08,7.00000000000000e-01,6.44000000000029e-01,6.97803927545607e-01
4.51240000000000e-08,7.00000000000000e-01,5.31999999999995e-01,6.96602678741115e-01
4.51560000000000e-08,7.00000000000000e-01,3.08000000000019e-01,6.94797199612200e-01
4.52000000000000e-08,7.00000000000000e-01,4.00790511889682e-14,6.93566691169519e-01
4.52064000000000e-08,7.00000000000000e-01,0.00000000000000e+00,6.93571629092412e-01
4.52192000000000e-08,7.00000000000000e-01,0.00000000000000e+00,6.93684547780540e-01
4.52448000000000e-08,7.00000000000000e-01,0.00000000000000e+00,6.94408438074669e-01
4.52960000000000e-08,7.00000000000000e-01,0.00000000000000e+00,6.96454108367768e-01
4.53984000000000e-08,7.00000000000000e-01,0.00000000000000e+00,6.99090800549607e-01
4.56032000000000e-08,7.00000000000000e-01,0.00000000000000e+00,7.00122023510702e-01
4.58285101899396e-08,7.00000000000000e-01,0.00000000000000e+00,6.99971534824290e-01
4.62791305698189e-08,7.00000000000000e-01,0.00000000000000e+00,7.00012624030337e-01
4.68147897515598e-08,7.00000000000000e-01,0.00000000000000e+00,6.99997363200631e-01
4.78861081150417e-08,7.00000000000000e-01,0.00000000000000e+00,6.99999069032699e-01
4.98037591884921e-08,7.00000000000000e-01,0.00000000000000e+00,7.00002480275956e-01
5.30538791044036e-08,7.00000000000000e-01,0.00000000000000e+00,6.99996747758443e-01
5.51000000000000e-08,7.00000000000000e-01,0.00000000000000e+00,7.00004423996839e-01
5.51100000000000e-08,6.30000000000025e-01,0.00000000000000e+00,6.99918116177627e-01
5.51300000000000e-08,4.90000000000005e-01,0.00000000000000e+00,6.99811951102046e-01
5.51700000000000e-08,2.10000000000012e-01,0.00000000000000e+00,7.00377142315863e-01
5.52000000000000e-08,0.00000000000000e+00,0.00000000000000e+00,7.02008038853052e-01
5.52080000000000e-08,0.00000000000000e+00,0.00000000000000e+00,7.02487619665904e-01
5.52240000000000e-08,0.00000000000000e+00,0.00000000000000e+00,7.03207112043306e-01
5.52560000000000e-08,0.00000000000000e+00,0.00000000000000e+00,7.03906103511676e-01
5.53200000000000e-08,0.00000000000000e+00,0.00000000000000e+00,7.04696117390993e-01
5.54480000000000e-08,0.00000000000000e+00,0.00000000000000e+00,7.03694096882082e-01
5.57040000000000e-08,0.00000000000000e+00,0.00000000000000e+00,6.98559934484931e-01
5.59938455912475e-08,0.00000000000000e+00,0.00000000000000e+00,6.99226925747495e-01
5.65735367737424e-08,0.00000000000000e+00,0.00000000000000e+00,6.99680929939156e-01
5.71490239234917e-08,0.00000000000000e+00,0.00000000000000e+00,6.99442759498194e-01
5.82999982229901e-08,0.00000000000000e+00,0.00000000000000e+00,6.99915612288728e-01
6.05810470954525e-08,0.00000000000000e+00,0.00000000000000e+00,6.99614297092939e-01
6.41551400380020e-08,0.00000000000000e+00,0.00000000000000e+00,7.00022302654364e-01
6.50000000000000e-08,0.00000000000000e+00,0.00000000000000e+00,6.99667314446981e-01
6.50100000000000e-08,6.99999999999867e-02,0.00000000000000e+00,6.99772598223532e-01
6.50300000000000e-08,2.09999999999960e-01,0.00000000000000e+00,6.99920277687108e-01
6.50700000000000e-08,4.89999999999907e-01,0.00000000000000e+00,6.99916195015726e-01
6.51000000000000e-08,6.99999999999960e-01,0.00000000000000e+00,6.99651111937695e-01
6.51080000000000e-08,7.00000000000000e-01,0.00000000000000e+00,6.99553169272281e-01
6.51240000000000e-08,7.00000000000000e-01,0.00000000000000e+00,6.99426630490358e-01
6.51560000000000e-08,7.00000000000000e-01,0.00000000000000e+00,6.99392865119459e-01
6.52200000000000e-08,7.00000000000000e-01,0.00000000000000e+00,7.01180507324996e-01
6.53480000000000e-08,7.00000000000000e-01,0.00000000000000e+00,7.13091047677694e-01
6.56040000000000e-08,7.00000000000000e-01,0.00000000000000e+00,1.97628033063216e-01
6.59837392139810e-08,7.00000000000000e-01,0.00000000000000e+00,-8.06280559522407e-02
6.63890598456842e-08,7.00000000000000e-01,0.00000000000000e+00,6.87898972612899e-02
6.71997011090906e-08,7.00000000000000e-01,0.00000000000000e+00,-4.99380687657095e-02
6.80206227580295e-08,7.00000000000000e-01,0.00000000000000e+00,4.76573239756718e-02
6.96386248737228e-08,7.00000000000000e-01,0.00000000000000e+00,-3.95086492079766e-02
7.19440344221666e-08,7.00000000000000e-01,0.00000000000000e+00,4.10291695412639e-02
7.51000000000000e-08,7.00000000000000e-01,0.00000000000000e+00,-3.59115304032122e-02
7.51100000000000e-08,6.30000000000071e-01,0.00000000000000e+00,-2.72180960017692e-02
7.51300000000000e-08,4.90000000000098e-01,0.00000000000000e+00,-1.40022176221290e-02
7.51700000000000e-08,2.10000000000151e-01,0.00000000000000e+00,-3.08162953010235e-03
7.52000000000000e-08,9.80326930744013e-14,0.00000000000000e+00,-1.03358161245670e-03
7.52080000000000e-08,0.00000000000000e+00,0.00000000000000e+00,-6.78566077591806e-04
7.52240000000000e-08,0.00000000000000e+00,0.00000000000000e+00,-1.77133257796114e-04
7.52560000000000e-08,0.00000000000000e+00,0.00000000000000e+00,7.94420172887458e-05
7.53200000000000e-08,0.00000000000000e+00,0.00000000000000e+00,-5.17061180917336e-04
7.54480000000000e-08,0.00000000000000e+00,0.00000000000000e+00,-7.60958574402299e-04
7.57040000000000e-08,0.00000000000000e+00,0.00000000000000e+00,2.99681605648833e-04
7.61847628620494e-08,0.00000000000000e+00,0.00000000000000e+00,-1.88504087248096e-04
7.67863192919325e-08,0.00000000000000e+00,0.00000000000000e+00,1.30298945097023e-04
7.79894321516988e-08,0.00000000000000e+00,0.00000000000000e+00,-1.05765836855167e-04
8.03956578712313e-08,0.00000000000000e+00,0.00000000000000e+00,9.67933703666368e-05
8.41956578712313e-08,0.00000000000000e+00,0.00000000000000e+00,-8.94360934478738e-05
8.50000000000000e-08,0.00000000000000e+00,0.00000000000000e+00,6.56169370385814e-05
8.50100000000000e-08,6.99999999999867e-02,0.00000000000000e+00,1.67111166707146e-04
8.50300000000000e-08,2.09999999999960e-01,0.00000000000000e+00,2.71818593260982e-04
8.50700000000000e-08,4.89999999999907e-01,0.00000000000000e+00,1.42797521676660e-04
8.51000000000000e-08,6.99999999999960e-01,0.00000000000000e+00,-1.53482907334176e-04
8.51080000000000e-08,7.00000000000000e-01,0.00000000000000e+00,-2.39231327444550e-04
8.51240000000000e-08,7.00000000000000e-01,0.00000000000000e+00,-3.42695562519153e-04
8.51560000000000e-08,7.00000000000000e-01,0.00000000000000e+00,-3.35122793186794e-04
8.52200000000000e-08,7.00000000000000e-01,0.00000000000000e+00,-1.47500848893971e-04
8.53480000000000e-08,7.00000000000000e-01,0.00000000000000e+00,1.55558588068663e-04
8.56040000000000e-08,7.00000000000000e-01,0.00000000000000e+00,1.77872304647914e-05
8.61159999999999e-08,7.00000000000000e-01,0.00000000000000e+00,-1.75601169492869e-05
8.67225943723146e-08,7.00000000000000e-01,0.00000000000000e+00,2.88203099732135e-05
8.79357831169439e-08,7.00000000000000e-01,0.00000000000000e+00,-2.13289294225473e-05
9.00000000000000e-08,7.00000000000000e-01,0.00000000000000e+00,2.64246736478508e-05
9.00100000000000e-08,7.00000000000000e-01,6.99999999999867e-02,1.71729057250256e-05
9.00300000000000e-08,7.00000000000000e-01,2.09999999999960e-01,5.88991670745498e-06
9.00700000000000e-08,7.00000000000000e-01,4.89999999999907e-01,-8.59507213908650e-07
9.01000000000000e-08,7.00000000000000e-01,6.99999999999960e-01,-4.49365384302264e-06
9.01080000000000e-08,7.00000000000000e-01,7.00000000000000e-01,-3.63111952408207e-06
9.01240000000000e-08,7.00000000000000e-01,7.00000000000000e-01,-1.44303753410457e-06
9.01560000000000e-08,7.00000000000000e-01,7.00000000000000e-01,2.48182567891275e-06
9.02200000000000e-08,7.00000000000000e-01,7.00000000000000e-01,5.25544365145153e-06
9.03480000000000e-08,7.00000000000000e-01,7.00000000000000e-01,1.39053273762180e-06
9.06040000000000e-08,7.00000000000000e-01,7.00000000000000e-01,1.85791862891173e-06
9.11159999999999e-08,7.00000000000000e-01,7.00000000000000e-01,2.41453472822704e-06
9.21399999999999e-08,7.00000000000000e-01,7.00000000000000e-01,1.36250171736034e-06
9.41879999999998e-08,7.00000000000000e-01,7.00000000000000e-01,1.99813490585517e-06
9.51000000000000e-08,7.00000000000000e-01,7.00000000000000e-01,9.82212130533691e-07
9.51100000000000e-08,6.30000000000071e-01,7.00000000000000e-01,-6.36728607386616e-05
9.51300000000000e-08,4.90000000000098e-01,7.00000000000000e-01,-1.56987121729790e-04
9.51700000000000e-08,2.10000000000151e-01,7.00000000000000e-01,-1.43705732712378e-04
9.52000000000000e-08,9.80326930744013e-14,7.00000000000000e-01,7.72689661680676e-05
9.52080000000000e-08,0.00000000000000e+00,7.00000000000000e-01,2.02966206808215e-04
9.52240000000000e-08,0.00000000000000e+00,7.00000000000000e-01,3.47800150418312e-04
9.52560000000000e-08,0.00000000000000e+00,7.00000000000000e-01,2.99587363365959e-04
9.53200000000000e-08,0.00000000000000e+00,7.00000000000000e-01,-4.11110442718743e-05
9.54480000000000e-08,0.00000000000000e+00,7.00000000000000e-01,-1.64673836116680e-04
9.57040000000000e-08,0.00000000000000e+00,7.00000000000000e-01,-1.60979778137074e-04
9.61194210802363e-08,0.00000000000000e+00,7.00000000000000e-01,1.01168401023137e-04
9.66657529704993e-08,0.00000000000000e+00,7.00000000000000e-01,8.48106042665841e-05
9.76475758302346e-08,0.00000000000000e+00,7.00000000000000e-01,-1.41809864957319e-04
9.87248550771830e-08,0.00000000000000e+00,7.00000000000000e-01,1.62537325271276e-04
1.00879413571080e-07,0.00000000000000e+00,7.00000000000000e-01,-1.66608180667515e-04
1.04047406675757e-07,0.00000000000000e+00,7.00000000000000e-01,1.68908964421250e-04
1.05000000000000e-07,0.00000000000000e+00,7.00000000000000e-01,-1.67861370808649e-04
1.05010000000000e-07,6.99999999999867e-02,7.00000000000000e-01,-1.05132122922846e-05
1.05030000000000e-07,2.09999999999960e-01,7.00000000000000e-01,2.10285437467921e-04
1.05070000000000e-07,4.89999999999907e-01,7.00000000000000e-01,1.33666866421495e-04
1.05100000000000e-07,6.99999999999960e-01,7.00000000000000e-01,-1.75202947289687e-03
1.05108000000000e-07,7.00000000000000e-01,7.00000000000000e-01,-2.67247991408360e-03
1.05124000000000e-07,7.00000000000000e-01,7.00000000000000e-01,-4.31901681267807e-03
1.05156000000000e-07,7.00000000000000e-01,7.00000000000000e-01,-6.20552429047837e-03
1.05220000000000e-07,7.00000000000000e-01,7.00000000000000e-01,1.40414515170499e-02
1.05348000000000e-07,7.00000000000000e-01,7.00000000000000e-01,2.82129079669765e-01
1.05604000000000e-07,7.00000000000000e-01,7.00000000000000e-01,6.96157037153248e-01
1.06017934824519e-07,7.00000000000000e-01,7.00000000000000e-01,6.99054522107242e-01
1.06574501479430e-07,7.00000000000000e-01,7.00000000000000e-01,7.01702045962173e-01
1.07449113905920e-07,7.00000000000000e-01,7.00000000000000e-01,6.98022321898754e-01
1.08554269569893e-07,7.00000000000000e-01,7.00000000000000e-01,7.02069649636292e-01
1.10764580897838e-07,7.00000000000000e-01,7.00000000000000e-01,6.97898865898860e-01
1.14417758492616e-07,7.00000000000000e-01,7.00000000000000e-01,7.02137657657461e-01
1.15100000000000e-07,7.00000000000000e-01,7.00000000000000e-01,6.97878777215564e-01
1.15110000000000e-07,6.30000000000071e-01,7.00000000000000e-01,6.98712878328154e-01
1.15130000000000e-07,4.90000000000098e-01,7.00000000000000e-01,6.99680878998836e-01
1.15170000000000e-07,2.10000000000151e-01,7.00000000000000e-01,7.00594399739950e-01
1.15200000000000e-07,9.80326930744013e-14,7.00000000000000e-01,7.02108981385694e-01
1.15208000000000e-07,0.00000000000000e+00,7.00000000000000e-01,7.02536551798635e-01
1.15224000000000e-07,0.00000000000000e+00,7.00000000000000e-01,7.03072085969456e-01
1.15256000000000e-07,0.00000000000000e+00,7.00000000000000e-01,7.02300878542308e-01
1.15320000000000e-07,0.00000000000000e+00,7.00000000000000e-01,6.91596735828664e-01
1.15448000000000e-07,0.00000000000000e+00,7.00000000000000e-01,6.69878724671043e-01
1.15704000000000e-07,0.00000000000000e+00,7.00000000000000e-01,6.88543237665680e-01
1.16216000000000e-07,0.00000000000000e+00,7.00000000000000e-01,7.05053285281795e-01
1.16847809309606e-07,0.00000000000000e+00,7.00000000000000e-01,6.95325402266466e-01
1.18111427928819e-07,0.00000000000000e+00,7.00000000000000e-01,7.03275182661686e-01
1.20638665167245e-07,0.00000000000000e+00,7.00000000000000e-01,6.96477190847785e-01
1.24438665167245e-07,0.00000000000000e+00,7.00000000000000e-01,7.02970391764805e-01
1.25000000000000e-07,0.00000000000000e+00,7.00000000000000e-01,6.97575350518957e-01
1.25010000000000e-07,6.99999999998941e-02,7.00000000000000e-01,6.98062962650404e-01
1.25030000000000e-07,2.09999999999868e-01,7.00000000000000e-01,6.98845357884368e-01
1.25070000000000e-07,4.89999999999815e-01,7.00000000000000e-01,6.99515012128923e-01
1.25100000000000e-07,6.99999999999867e-01,7.00000000000000e-01,6.98443215443382e-01
1.25108000000000e-07,7.00000000000000e-01,6.43999999999937e-01,6.97803927542958e-01
1.25124000000000e-07,7.00000000000000e-01,5.31999999999995e-01,6.96602678738626e-01
1.25156000000000e-07,7.00000000000000e-01,3.07999999999926e-01,6.94797199613007e-01
1.25200000000000e-07,7.00000000000000e-01,0.00000000000000e+00,6.93566691165633e-01
1.25206400000000e-07,7.00000000000000e-01,0.00000000000000e+00,6.93571629087835e-01
1.25219200000000e-07,7.00000000000000e-01,0.00000000000000e+00,6.93684547776201e-01
1.25244800000000e-07,7.00000000000000e-01,0.00000000000000e+00,6.94408438072613e-01
1.25296000000000e-07,7.00000000000000e-01,0.00000000000000e+00,6.96454108370625e-01
1.25398400000000e-07,7.00000000000000e-01,0.00000000000000e+00,6.99090800551909e-01
1.25603200000000e-07,7.00000000000000e-01,0.00000000000000e+00,7.00122023509323e-01
1.25828510189466e-07,7.00000000000000e-01,0.00000000000000e+00,6.99971534825726e-01
1.26279130568398e-07,7.00000000000000e-01,0.00000000000000e+00,7.00012624029120e-01
1.26814789748096e-07,7.00000000000000e-01,0.00000000000000e+00,6.99997363201822e-01
1.27886108107493e-07,7.00000000000000e-01,0.00000000000000e+00,6.99999069031508e-01
1.29803759173331e-07,7.00000000000000e-01,0.00000000000000e+00,7.00002480277033e-01
1.33053879074412e-07,7.00000000000000e-01,0.00000000000000e+00,6.99996747757497e-01
1.35100000000000e-07,6.99999999999873e-01,0.00000000000000e+00,7.00004423997958e-01
1.35110000000000e-07,6.29999999999793e-01,0.00000000000000e+00,6.99918116177483e-01
1.35130000000000e-07,4.89999999999820e-01,0.00000000000000e+00,6.99811951100961e-01
