Time,v(clk),v(data),v(out),v(reset)
1.00000000000000e-08,7.00000000000000e-01,0.00000000000000e+00,2.21934164482142e-05,0.00000000000000e+00
1.00100000000000e-08,7.00000000000000e-01,6.99999999999983e-02,1.45228007912140e-05,0.00000000000000e+00
1.00300000000000e-08,7.00000000000000e-01,2.09999999999995e-01,4.68912945646854e-06,0.00000000000000e+00
1.00700000000000e-08,7.00000000000000e-01,4.89999999999988e-01,-8.05613354637469e-08,0.00000000000000e+00
1.01000000000000e-08,7.00000000000000e-01,6.99999999999995e-01,-3.56604840240360e-08,0.00000000000000e+00
1.01080000000000e-08,7.00000000000000e-01,7.00000000000000e-01,3.55346546979107e-07,0.00000000000000e+00
1.01240000000000e-08,7.00000000000000e-01,7.00000000000000e-01,1.41004209850554e-06,0.00000000000000e+00
1.01560000000000e-08,7.00000000000000e-01,7.00000000000000e-01,2.53563007199947e-06,0.00000000000000e+00
1.02200000000000e-08,7.00000000000000e-01,7.00000000000000e-01,2.79364540822780e-06,0.00000000000000e+00
1.03480000000000e-08,7.00000000000000e-01,7.00000000000000e-01,1.50529558709186e-06,0.00000000000000e+00
1.06040000000000e-08,7.00000000000000e-01,7.00000000000000e-01,2.78639947053419e-06,0.00000000000000e+00
1.11160000000000e-08,7.00000000000000e-01,7.00000000000000e-01,2.09150339065128e-06,0.00000000000000e+00
1.21400000000000e-08,7.00000000000000e-01,7.00000000000000e-01,2.11207659367831e-06,0.00000000000000e+00
1.41880000000000e-08,7.00000000000000e-01,7.00000000000000e-01,1.63982718618901e-06,0.00000000000000e+00
1.51000000000000e-08,7.00000000000000e-01,7.00000000000000e-01,1.58682699476827e-06,0.00000000000000e+00
1.51100000000000e-08,6.29999999999990e-01,7.00000000000000e-01,1.75770268568590e-04,7.00000000000099e-02
1.51300000000000e-08,4.89999999999994e-01,7.00000000000000e-01,3.30418500888358e-04,2.10000000000007e-01
1.51700000000000e-08,2.10000000000000e-01,7.00000000000000e-01,1.88427329583837e-04,4.90000000000000e-01
1.52000000000000e-08,0.00000000000000e+00,7.00000000000000e-01,7.12897730986636e-05,7.00000000000000e-01
1.52080000000000e-08,0.00000000000000e+00,7.00000000000000e-01,4.01391656339456e-05,7.00000000000000e-01
1.52240000000000e-08,0.00000000000000e+00,7.00000000000000e-01,2.45695543071855e-06,7.00000000000000e-01
1.52560000000000e-08,0.00000000000000e+00,7.00000000000000e-01,-1.29138699188416e-05,7.00000000000000e-01
1.53200000000000e-08,0.00000000000000e+00,7.00000000000000e-01,-9.41793214524062e-05,7.00000000000000e-01
1.54480000000000e-08,0.00000000000000e+00,7.00000000000000e-01,-1.33731768044595e-04,7.00000000000000e-01
1.57040000000000e-08,0.00000000000000e+00,7.00000000000000e-01,-1.32275115467099e-04,7.00000000000000e-01
1.61215864521827e-08,0.00000000000000e+00,7.00000000000000e-01,5.65698130659733e-05,7.00000000000000e-01
1.66677384084478e-08,0.00000000000000e+00,7.00000000000000e-01,9.87459141743230e-05,7.00000000000000e-01
1.76523262163756e-08,0.00000000000000e+00,7.00000000000000e-01,-1.38016792984325e-04,7.00000000000000e-01
1.87302992925968e-08,0.00000000000000e+00,7.00000000000000e-01,1.48447427227920e-04,7.00000000000000e-01
2.08862454450391e-08,0.00000000000000e+00,7.00000000000000e-01,-1.48450209406068e-04,7.00000000000000e-01
2.40633215752602e-08,0.00000000000000e+00,7.00000000000000e-01,1.48919968539665e-04,7.00000000000000e-01
2.50000000000000e-08,0.00000000000000e+00,7.00000000000000e-01,-1.42313577309347e-04,7.00000000000000e-01
2.50100000000000e-08,6.99999999999867e-02,7.00000000000000e-01,3.96069201631655e-06,7.00000000000000e-01
2.50300000000000e-08,2.10000000000007e-01,7.00000000000000e-01,2.09598114573599e-04,7.00000000000000e-01
2.50700000000000e-08,4.90000000000000e-01,7.00000000000000e-01,1.29643401376695e-04,7.00000000000000e-01
2.51000000000000e-08,7.00000000000000e-01,7.00000000000000e-01,-1.75394655267103e-03,7.00000000000000e-01
2.51080000000000e-08,7.00000000000000e-01,7.00000000000000e-01,-2.67409151820468e-03,7.00000000000000e-01
2.51240000000000e-08,7.00000000000000e-01,7.00000000000000e-01,-4.32003717897775e-03,7.00000000000000e-01
2.51560000000000e-08,7.00000000000000e-01,7.00000000000000e-01,-6.20867304702458e-03,7.00000000000000e-01
2.52200000000000e-08,7.00000000000000e-01,7.00000000000000e-01,1.39241305885380e-02,7.00000000000000e-01
2.53480000000000e-08,7.00000000000000e-01,7.00000000000000e-01,2.81717942465658e-01,7.00000000000000e-01
2.56040000000000e-08,7.00000000000000e-01,7.00000000000000e-01,6.96063415475315e-01,7.00000000000000e-01
2.60181273133362e-08,7.00000000000000e-01,7.00000000000000e-01,6.99102568577473e-01,7.00000000000000e-01
2.65745317105730e-08,7.00000000000000e-01,7.00000000000000e-01,7.01657712029517e-01,7.00000000000000e-01
2.74493778092936e-08,7.00000000000000e-01,7.00000000000000e-01,6.98059342547418e-01,7.00000000000000e-01
2.85541715442567e-08,7.00000000000000e-01,7.00000000000000e-01,7.02034037523366e-01,7.00000000000000e-01
3.07637590141829e-08,7.00000000000000e-01,7.00000000000000e-01,6.97931514909976e-01,7.00000000000000e-01
3.44160159552512e-08,7.00000000000000e-01,7.00000000000000e-01,7.02104475677089e-01,7.00000000000000e-01
3.51000000000000e-08,6.99999999999965e-01,7.00000000000000e-01,6.97906585142825e-01,7.00000000000000e-01
3.51100000000000e-08,6.29999999999979e-01,7.00000000000000e-01,6.98732767332656e-01,7.00000000000000e-01
3.51300000000000e-08,4.89999999999959e-01,7.00000000000000e-01,6.99689331514327e-01,7.00000000000000e-01
3.51700000000000e-08,2.09999999999966e-01,7.00000000000000e-01,7.00595429551943e-01,7.00000000000000e-01
3.52000000000000e-08,0.00000000000000e+00,7.00000000000000e-01,7.02109395213228e-01,7.00000000000000e-01
3.52080000000000e-08,0.00000000000000e+00,7.00000000000000e-01,7.02536939097515e-01,7.00000000000000e-01
3.52240000000000e-08,0.00000000000000e+00,7.00000000000000e-01,7.03072449370850e-01,7.00000000000000e-01
3.52560000000000e-08,0.00000000000000e+00,7.00000000000000e-01,7.02301520634229e-01,7.00000000000000e-01
3.53200000000000e-08,0.00000000000000e+00,7.00000000000000e-01,6.91598501142731e-01,7.00000000000000e-01
3.54480000000000e-08,0.00000000000000e+00,7.00000000000000e-01,6.69879672960460e-01,7.00000000000000e-01
3.57040000000000e-08,0.00000000000000e+00,7.00000000000000e-01,6.88542433835829e-01,7.00000000000000e-01
3.62160000000000e-08,0.00000000000000e+00,7.00000000000000e-01,7.05053908639274e-01,7.00000000000000e-01
3.68478076029370e-08,0.00000000000000e+00,7.00000000000000e-01,6.95324874648254e-01,7.00000000000000e-01
3.81114228088109e-08,0.00000000000000e+00,7.00000000000000e-01,7.03275581308729e-01,7.00000000000000e-01
4.06386532205589e-08,0.00000000000000e+00,7.00000000000000e-01,6.96476805242678e-01,7.00000000000000e-01
4.44386532205589e-08,0.00000000000000e+00,7.00000000000000e-01,7.02970743882132e-01,7.00000000000000e-01
4.50000000000000e-08,0.00000000000000e+00,7.00000000000000e-01,6.97575077935659e-01,7.00000000000000e-01
4.50100000000000e-08,6.99999999999867e-02,7.00000000000000e-01,6.97876511104696e-01,6.30000000000013e-01
4.50300000000000e-08,2.10000000000007e-01,7.00000000000000e-01,6.98393800736529e-01,4.89999999999994e-01
4.50700000000000e-08,4.90000000000000e-01,7.00000000000000e-01,7.00517652237066e-01,2.10000000000000e-01
4.51000000000000e-08,7.00000000000000e-01,7.00000000000000e-01,7.04805059680592e-01,0.00000000000000e+00
4.51080000000000e-08,7.00000000000000e-01,7.00000000000000e-01,7.06242049532265e-01,0.00000000000000e+00
4.51240000000000e-08,7.00000000000000e-01,7.00000000000000e-01,7.08760872905060e-01,0.00000000000000e+00
4.51560000000000e-08,7.00000000000000e-01,7.00000000000000e-01,7.12876726695657e-01,0.00000000000000e+00
4.52200000000000e-08,7.00000000000000e-01,7.00000000000000e-01,7.17923944934091e-01,0.00000000000000e+00
4.53480000000000e-08,7.00000000000000e-01,7.00000000000000e-01,3.68291222138035e-01,0.00000000000000e+00
4.56040000000000e-08,7.00000000000000e-01,7.00000000000000e-01,-5.21146771397743e-02,0.00000000000000e+00
4.58987573464415e-08,7.00000000000000e-01,7.00000000000000e-01,3.70617143036109e-02,0.00000000000000e+00
4.64882720393245e-08,7.00000000000000e-01,7.00000000000000e-01,-2.81449153175335e-02,0.00000000000000e+00
4.70691768657217e-08,7.00000000000000e-01,7.00000000000000e-01,2.40260445313255e-02,0.00000000000000e+00
4.82309865185160e-08,7.00000000000000e-01,7.00000000000000e-01,-2.07971722919991e-02,0.00000000000000e+00
5.01000000000000e-08,7.00000000000000e-01,6.99999999999960e-01,2.02638217504029e-02,0.00000000000000e+00
5.03323619305589e-08,7.00000000000000e-01,7.00000000000000e-01,2.23206912060691e-03,0.00000000000000e+00
5.07970857916766e-08,7.00000000000000e-01,7.00000000000000e-01,-1.70511085082721e-03,0.00000000000000e+00
5.17265335139120e-08,7.00000000000000e-01,7.00000000000000e-01,1.50151836531737e-03,0.00000000000000e+00
5.35854289583830e-08,7.00000000000000e-01,7.00000000000000e-01,-1.40095517350715e-03,0.00000000000000e+00
5.51000000000000e-08,7.00000000000000e-01,7.00000000000000e-01,1.29729741161973e-03,0.00000000000000e+00
5.51100000000000e-08,6.30000000000025e-01,7.00000000000000e-01,1.14291350685923e-03,6.99999999999752e-02
5.51300000000000e-08,4.90000000000005e-01,7.00000000000000e-01,8.20690159562626e-04,2.09999999999995e-01
5.51700000000000e-08,2.10000000000012e-01,7.00000000000000e-01,2.92472915863311e-04,4.89999999999988e-01
5.52000000000000e-08,0.00000000000000e+00,7.00000000000000e-01,1.01372828528110e-04,7.00000000000000e-01
5.52080000000000e-08,0.00000000000000e+00,7.00000000000000e-01,6.30036106172571e-05,7.00000000000000e-01
5.52240000000000e-08,0.00000000000000e+00,7.00000000000000e-01,1.13761746576707e-05,7.00000000000000e-01
5.52560000000000e-08,0.00000000000000e+00,7.00000000000000e-01,-4.04149561003611e-05,7.00000000000000e-01
5.53200000000000e-08,0.00000000000000e+00,7.00000000000000e-01,-4.95486565265685e-04,7.00000000000000e-01
5.54480000000000e-08,0.00000000000000e+00,7.00000000000000e-01,-6.11692790726738e-04,7.00000000000000e-01
5.57040000000000e-08,0.00000000000000e+00,7.00000000000000e-01,3.31421907438515e-04,7.00000000000000e-01
5.61220360967031e-08,0.00000000000000e+00,7.00000000000000e-01,-3.66008791200906e-04,7.00000000000000e-01
5.66673139477614e-08,0.00000000000000e+00,7.00000000000000e-01,3.11446530370677e-04,7.00000000000000e-01
5.76563260109244e-08,0.00000000000000e+00,7.00000000000000e-01,-2.35424741333743e-04,7.00000000000000e-01
5.87383354960525e-08,0.00000000000000e+00,7.00000000000000e-01,1.82283187469222e-04,7.00000000000000e-01
6.09023544663088e-08,0.00000000000000e+00,7.00000000000000e-01,-1.55681097594961e-04,7.00000000000000e-01
6.41202914000114e-08,0.00000000000000e+00,7.00000000000000e-01,1.42280285821149e-04,7.00000000000000e-01
6.50000000000000e-08,0.00000000000000e+00,7.00000000000000e-01,-9.22299520161604e-05,7.00000000000000e-01
6.50100000000000e-08,6.99999999999867e-02,7.00000000000000e-01,7.38862586828481e-06,7.00000000000000e-01
6.50300000000000e-08,2.09999999999960e-01,7.00000000000000e-01,1.61960553152103e-04,7.00000000000000e-01
6.50700000000000e-08,4.89999999999907e-01,7.00000000000000e-01,1.14228325885757e-04,7.00000000000000e-01
6.51000000000000e-08,6.99999999999960e-01,7.00000000000000e-01,-1.72723180381990e-03,7.00000000000000e-01
6.51080000000000e-08,7.00000000000000e-01,7.00000000000000e-01,-2.64586753967909e-03,7.00000000000000e-01
6.51240000000000e-08,7.00000000000000e-01,7.00000000000000e-01,-4.29376847876503e-03,7.00000000000000e-01
6.51560000000000e-08,7.00000000000000e-01,7.00000000000000e-01,-6.21521174735254e-03,7.00000000000000e-01
6.52200000000000e-08,7.00000000000000e-01,7.00000000000000e-01,1.30509077136523e-02,7.00000000000000e-01
6.53480000000000e-08,7.00000000000000e-01,7.00000000000000e-01,2.78618264940543e-01,7.00000000000000e-01
6.56040000000000e-08,7.00000000000000e-01,7.00000000000000e-01,6.95348234357269e-01,7.00000000000000e-01
6.60195657937644e-08,7.00000000000000e-01,7.00000000000000e-01,6.99468107533484e-01,7.00000000000000e-01
6.65747804569008e-08,7.00000000000000e-01,7.00000000000000e-01,7.01323682889241e-01,7.00000000000000e-01
6.74513902515242e-08,7.00000000000000e-01,7.00000000000000e-01,6.98334946312373e-01,7.00000000000000e-01
6.85535610579899e-08,7.00000000000000e-01,7.00000000000000e-01,7.01768478142548e-01,7.00000000000000e-01
7.07579026709215e-08,7.00000000000000e-01,7.00000000000000e-01,6.98174767424748e-01,7.00000000000000e-01
7.44047613919715e-08,7.00000000000000e-01,7.00000000000000e-01,7.01856961635849e-01,7.00000000000000e-01
7.51000000000000e-08,7.00000000000000e-01,7.00000000000000e-01,6.98114583840569e-01,7.00000000000000e-01
7.51100000000000e-08,6.30000000000071e-01,7.00000000000000e-01,6.98880725907414e-01,7.00000000000000e-01
7.51300000000000e-08,4.90000000000098e-01,7.00000000000000e-01,6.99751368595715e-01,7.00000000000000e-01
7.51700000000000e-08,2.10000000000151e-01,7.00000000000000e-01,7.00603350275359e-01,7.00000000000000e-01
7.52000000000000e-08,9.80326930744013e-14,7.00000000000000e-01,7.02112402711119e-01,7.00000000000000e-01
7.52080000000000e-08,0.00000000000000e+00,7.00000000000000e-01,7.02539544448047e-01,7.00000000000000e-01
7.52240000000000e-08,0.00000000000000e+00,7.00000000000000e-01,7.03074816539996e-01,7.00000000000000e-01
7.52560000000000e-08,0.00000000000000e+00,7.00000000000000e-01,7.02306401750741e-01,7.00000000000000e-01
7.53200000000000e-08,0.00000000000000e+00,7.00000000000000e-01,6.91611775371811e-01,7.00000000000000e-01
7.54480000000000e-08,0.00000000000000e+00,7.00000000000000e-01,6.69886692412640e-01,7.00000000000000e-01
7.57040000000000e-08,0.00000000000000e+00,7.00000000000000e-01,6.88536682243341e-01,7.00000000000000e-01
7.62159999999999e-08,0.00000000000000e+00,7.00000000000000e-01,7.05058542946751e-01,7.00000000000000e-01
7.68477993582591e-08,0.00000000000000e+00,7.00000000000000e-01,6.95321227387046e-01,7.00000000000000e-01
7.81113980747774e-08,0.00000000000000e+00,7.00000000000000e-01,7.03278586348476e-01,7.00000000000000e-01
8.06385955078141e-08,0.00000000000000e+00,7.00000000000000e-01,6.96473912453466e-01,7.00000000000000e-01
8.44385955078141e-08,0.00000000000000e+00,7.00000000000000e-01,7.02973411803915e-01,7.00000000000000e-01
8.50000000000000e-08,0.00000000000000e+00,7.00000000000000e-01,6.97573033671313e-01,7.00000000000000e-01
8.50100000000000e-08,6.99999999999867e-02,7.00000000000000e-01,6.97874207805877e-01,6.30000000000013e-01
8.50300000000000e-08,2.09999999999960e-01,7.00000000000000e-01,6.98392546653706e-01,4.90000000000040e-01
8.50700000000000e-08,4.89999999999907e-01,7.00000000000000e-01,7.00517299634874e-01,2.10000000000093e-01
8.51000000000000e-08,6.99999999999960e-01,7.00000000000000e-01,7.04804971860838e-01,4.00790511889682e-14
8.51080000000000e-08,7.00000000000000e-01,7.00000000000000e-01,7.06241992314437e-01,0.00000000000000e+00
8.51240000000000e-08,7.00000000000000e-01,7.00000000000000e-01,7.08760849670959e-01,0.00000000000000e+00
8.51560000000000e-08,7.00000000000000e-01,7.00000000000000e-01,7.12876674973682e-01,0.00000000000000e+00
8.52200000000000e-08,7.00000000000000e-01,7.00000000000000e-01,7.17923929751512e-01,0.00000000000000e+00
8.53480000000000e-08,7.00000000000000e-01,7.00000000000000e-01,3.68293110966241e-01,0.00000000000000e+00
8.56040000000000e-08,7.00000000000000e-01,7.00000000000000e-01,-5.21144342162527e-02,0.00000000000000e+00
8.58987555351481e-08,7.00000000000000e-01,7.00000000000000e-01,3.70614057772869e-02,0.00000000000000e+00
8.64882666054443e-08,7.00000000000000e-01,7.00000000000000e-01,-2.81445840423249e-02,0.00000000000000e+00
8.70691698948101e-08,7.00000000000000e-01,7.00000000000000e-01,2.40257526632817e-02,0.00000000000000e+00
8.82309764735418e-08,7.00000000000000e-01,7.00000000000000e-01,-2.07968722097131e-02,0.00000000000000e+00
9.01000000000000e-08,7.00000000000000e-01,6.99999999999960e-01,2.02635541818661e-02,0.00000000000000e+00
9.03323613157463e-08,7.00000000000000e-01,7.00000000000000e-01,2.23206031302430e-03,0.00000000000000e+00
9.07970839472390e-08,7.00000000000000e-01,7.00000000000000e-01,-1.70510189099037e-03,0.00000000000000e+00
9.17265292102243e-08,7.00000000000000e-01,7.00000000000000e-01,1.50150944910147e-03,0.00000000000000e+00
9.35854197361949e-08,7.00000000000000e-01,7.00000000000000e-01,-1.40094626575489e-03,0.00000000000000e+00
9.51000000000000e-08,7.00000000000000e-01,7.00000000000000e-01,1.29728955857012e-03,0.00000000000000e+00
9.51100000000000e-08,6.30000000000071e-01,7.00000000000000e-01,1.14290914264918e-03,6.99999999999288e-02
9.51300000000000e-08,4.90000000000098e-01,7.00000000000000e-01,8.20689214970721e-04,2.09999999999902e-01
9.51700000000000e-08,2.10000000000151e-01,7.00000000000000e-01,2.92472672682578e-04,4.89999999999849e-01
9.52000000000000e-08,9.80326930744013e-14,7.00000000000000e-01,1.01372494065444e-04,6.99999999999902e-01
9.52080000000000e-08,0.00000000000000e+00,7.00000000000000e-01,6.30031700445260e-05,7.00000000000000e-01
9.52240000000000e-08,0.00000000000000e+00,7.00000000000000e-01,1.13763900858529e-05,7.00000000000000e-01
9.52560000000000e-08,0.00000000000000e+00,7.00000000000000e-01,-4.04112052288658e-05,7.00000000000000e-01
9.53200000000000e-08,0.00000000000000e+00,7.00000000000000e-01,-4.95464759283880e-04,7.00000000000000e-01
9.54480000000000e-08,0.00000000000000e+00,7.00000000000000e-01,-6.11651427957858e-04,7.00000000000000e-01
9.57040000000000e-08,0.00000000000000e+00,7.00000000000000e-01,3.31406331978515e-04,7.00000000000000e-01
9.61220354563419e-08,0.00000000000000e+00,7.00000000000000e-01,-3.66001342581362e-04,7.00000000000000e-01
9.66673135604744e-08,0.00000000000000e+00,7.00000000000000e-01,3.11443420451069e-04,7.00000000000000e-01
9.76563235486054e-08,0.00000000000000e+00,7.00000000000000e-01,-2.35423511606743e-04,7.00000000000000e-01
9.87383327234502e-08,0.00000000000000e+00,7.00000000000000e-01,1.82283447525890e-04,7.00000000000000e-01
1.00902351073140e-07,0.00000000000000e+00,7.00000000000000e-01,-1.55682013110443e-04,7.00000000000000e-01
1.04120287055934e-07,0.00000000000000e+00,7.00000000000000e-01,1.42281598761314e-04,7.00000000000000e-01
1.05000000000000e-07,0.00000000000000e+00,7.00000000000000e-01,-9.22327660562187e-05,7.00000000000000e-01
1.05010000000000e-07,6.99999999999867e-02,7.00000000000000e-01,7.38950497662649e-06,7.00000000000000e-01
1.05030000000000e-07,2.09999999999960e-01,7.00000000000000e-01,1.61964350229991e-04,7.00000000000000e-01
1.05070000000000e-07,4.89999999999907e-01,7.00000000000000e-01,1.14230036879541e-04,7.00000000000000e-01
1.05100000000000e-07,6.99999999999960e-01,7.00000000000000e-01,-1.72723140288328e-03,7.00000000000000e-01
1.05108000000000e-07,7.00000000000000e-01,7.00000000000000e-01,-2.64586734799666e-03,7.00000000000000e-01
1.05124000000000e-07,7.00000000000000e-01,7.00000000000000e-01,-4.29376849184008e-03,7.00000000000000e-01
1.05156000000000e-07,7.00000000000000e-01,7.00000000000000e-01,-6.21521169060011e-03,7.00000000000000e-01
1.05220000000000e-07,7.00000000000000e-01,7.00000000000000e-01,1.30509117065108e-02,7.00000000000000e-01
1.05348000000000e-07,7.00000000000000e-01,7.00000000000000e-01,2.78618279065837e-01,7.00000000000000e-01
1.05604000000000e-07,7.00000000000000e-01,7.00000000000000e-01,6.95348237573603e-01,7.00000000000000e-01
1.06019565787233e-07,7.00000000000000e-01,7.00000000000000e-01,6.99468105895971e-01,7.00000000000000e-01
1.06574780455361e-07,7.00000000000000e-01,7.00000000000000e-01,7.01323684370853e-01,7.00000000000000e-01
1.07451390242339e-07,7.00000000000000e-01,7.00000000000000e-01,6.98334945082481e-01,7.00000000000000e-01
1.08553561060167e-07,7.00000000000000e-01,7.00000000000000e-01,7.01768479323793e-01,7.00000000000000e-01
1.10757902695822e-07,7.00000000000000e-01,7.00000000000000e-01,6.98174766342215e-01,7.00000000000000e-01
1.14404761456187e-07,7.00000000000000e-01,7.00000000000000e-01,7.01856962734725e-01,7.00000000000000e-01
1.15100000000000e-07,7.00000000000000e-01,7.00000000000000e-01,6.98114582917759e-01,7.00000000000000e-01
