Time,v(clk),v(data),v(out),v(reset)
1.00000000000000e-08,7.00000000000000e-01,0.00000000000000e+00,4.16701971156026e-05,0.00000000000000e+00
1.00100000000000e-08,7.00000000000000e-01,6.99999999999983e-02,3.39415697022949e-05,0.00000000000000e+00
1.00300000000000e-08,7.00000000000000e-01,2.09999999999995e-01,2.25557261190265e-05,0.00000000000000e+00
1.00700000000000e-08,7.00000000000000e-01,4.89999999999988e-01,1.03771288102114e-05,0.00000000000000e+00
1.01000000000000e-08,7.00000000000000e-01,6.99999999999995e-01,5.79246370172731e-06,0.00000000000000e+00
1.01080000000000e-08,7.00000000000000e-01,7.00000000000000e-01,5.70410581146596e-06,0.00000000000000e+00
1.01240000000000e-08,7.00000000000000e-01,7.00000000000000e-01,6.20834114374580e-06,0.00000000000000e+00
1.01560000000000e-08,7.00000000000000e-01,7.00000000000000e-01,7.58699386144146e-06,0.00000000000000e+00
1.02200000000000e-08,7.00000000000000e-01,7.00000000000000e-01,7.09072629833524e-06,0.00000000000000e+00
1.03480000000000e-08,7.00000000000000e-01,7.00000000000000e-01,6.36754551739532e-06,0.00000000000000e+00
1.06040000000000e-08,7.00000000000000e-01,7.00000000000000e-01,5.77891443596414e-06,0.00000000000000e+00
1.11160000000000e-08,7.00000000000000e-01,7.00000000000000e-01,5.71241812603353e-06,0.00000000000000e+00
1.21400000000000e-08,7.00000000000000e-01,7.00000000000000e-01,5.26672403109232e-06,0.00000000000000e+00
1.41880000000000e-08,7.00000000000000e-01,7.00000000000000e-01,4.75221882662805e-06,0.00000000000000e+00
1.51000000000000e-08,7.00000000000000e-01,7.00000000000000e-01,4.63359480673553e-06,0.00000000000000e+00
1.51100000000000e-08,6.29999999999990e-01,7.00000000000000e-01,1.84864725575599e-04,7.00000000000099e-02
1.51300000000000e-08,4.89999999999994e-01,7.00000000000000e-01,3.60794169237760e-04,2.10000000000007e-01
1.51700000000000e-08,2.10000000000000e-01,7.00000000000000e-01,2.79402293094408e-04,4.90000000000000e-01
1.52000000000000e-08,0.00000000000000e+00,7.00000000000000e-01,1.50402445456298e-04,7.00000000000000e-01
1.52080000000000e-08,0.00000000000000e+00,7.00000000000000e-01,9.90216344460143e-05,7.00000000000000e-01
1.52240000000000e-08,0.00000000000000e+00,7.00000000000000e-01,2.84358408433744e-05,7.00000000000000e-01
1.52560000000000e-08,0.00000000000000e+00,7.00000000000000e-01,-2.06592694862520e-05,7.00000000000000e-01
1.53200000000000e-08,0.00000000000000e+00,7.00000000000000e-01,-1.24338489815530e-04,7.00000000000000e-01
1.54480000000000e-08,0.00000000000000e+00,7.00000000000000e-01,-1.98531596549433e-04,7.00000000000000e-01
1.57040000000000e-08,0.00000000000000e+00,7.00000000000000e-01,-8.16604969993834e-05,7.00000000000000e-01
1.61697234630121e-08,0.00000000000000e+00,7.00000000000000e-01,-6.63163977914390e-05,7.00000000000000e-01
1.67754142412572e-08,0.00000000000000e+00,7.00000000000000e-01,1.79646555031452e-04,7.00000000000000e-01
1.79483418810315e-08,0.00000000000000e+00,7.00000000000000e-01,-1.36266493532517e-04,7.00000000000000e-01
1.91216497909255e-08,0.00000000000000e+00,7.00000000000000e-01,1.12731500190948e-04,7.00000000000000e-01
2.14682656107135e-08,0.00000000000000e+00,7.00000000000000e-01,-9.31381193960369e-05,7.00000000000000e-01
2.50000000000000e-08,0.00000000000000e+00,7.00000000000000e-01,9.14638822631674e-05,7.00000000000000e-01
2.50100000000000e-08,6.99999999999867e-02,7.00000000000000e-01,2.00774844253369e-04,7.00000000000000e-01
2.50300000000000e-08,2.10000000000007e-01,7.00000000000000e-01,3.60026624134931e-04,7.00000000000000e-01
2.50700000000000e-08,4.90000000000000e-01,7.00000000000000e-01,3.36213639109260e-04,7.00000000000000e-01
2.51000000000000e-08,7.00000000000000e-01,7.00000000000000e-01,-1.01789842357169e-03,7.00000000000000e-01
2.51080000000000e-08,7.00000000000000e-01,7.00000000000000e-01,-1.78400779456480e-03,7.00000000000000e-01
2.51240000000000e-08,7.00000000000000e-01,7.00000000000000e-01,-3.26027461638417e-03,7.00000000000000e-01
2.51560000000000e-08,7.00000000000000e-01,7.00000000000000e-01,-5.39237040721347e-03,7.00000000000000e-01
2.52200000000000e-08,7.00000000000000e-01,7.00000000000000e-01,-1.06595247879728e-03,7.00000000000000e-01
2.53480000000000e-08,7.00000000000000e-01,7.00000000000000e-01,1.60721330826692e-01,7.00000000000000e-01
2.56040000000000e-08,7.00000000000000e-01,7.00000000000000e-01,6.30715058219861e-01,7.00000000000000e-01
2.61160000000000e-08,7.00000000000000e-01,7.00000000000000e-01,7.20637379997334e-01,7.00000000000000e-01
2.66629663528993e-08,7.00000000000000e-01,7.00000000000000e-01,6.81002658235255e-01,7.00000000000000e-01
2.77207069678330e-08,7.00000000000000e-01,7.00000000000000e-01,7.14830542824635e-01,7.00000000000000e-01
2.88848124483754e-08,7.00000000000000e-01,7.00000000000000e-01,6.85281822643463e-01,7.00000000000000e-01
3.12130234094603e-08,7.00000000000000e-01,7.00000000000000e-01,7.12797033143170e-01,7.00000000000000e-01
3.50130234094603e-08,7.00000000000000e-01,7.00000000000000e-01,6.86587736586908e-01,7.00000000000000e-01
3.51000000000000e-08,6.99999999999965e-01,7.00000000000000e-01,7.02184575903829e-01,7.00000000000000e-01
3.51100000000000e-08,6.29999999999979e-01,7.00000000000000e-01,7.01532688171046e-01,7.00000000000000e-01
3.51300000000000e-08,4.89999999999959e-01,7.00000000000000e-01,7.00509755640893e-01,7.00000000000000e-01
3.51700000000000e-08,2.09999999999966e-01,7.00000000000000e-01,7.00355041974297e-01,7.00000000000000e-01
3.52000000000000e-08,0.00000000000000e+00,7.00000000000000e-01,7.01785027025740e-01,7.00000000000000e-01
3.52080000000000e-08,0.00000000000000e+00,7.00000000000000e-01,7.02225034858738e-01,7.00000000000000e-01
3.52240000000000e-08,0.00000000000000e+00,7.00000000000000e-01,7.02825122530411e-01,7.00000000000000e-01
3.52560000000000e-08,0.00000000000000e+00,7.00000000000000e-01,7.02722940558044e-01,7.00000000000000e-01
3.53200000000000e-08,0.00000000000000e+00,7.00000000000000e-01,6.96039137535209e-01,7.00000000000000e-01
3.54480000000000e-08,0.00000000000000e+00,7.00000000000000e-01,6.73163619466368e-01,7.00000000000000e-01
3.57040000000000e-08,0.00000000000000e+00,7.00000000000000e-01,6.81112755195444e-01,7.00000000000000e-01
3.62160000000000e-08,0.00000000000000e+00,7.00000000000000e-01,7.06424473407210e-01,7.00000000000000e-01
3.69001517247851e-08,0.00000000000000e+00,7.00000000000000e-01,6.93820962776795e-01,7.00000000000000e-01
3.81644269419927e-08,0.00000000000000e+00,7.00000000000000e-01,7.04142775442287e-01,7.00000000000000e-01
4.06929773764080e-08,0.00000000000000e+00,7.00000000000000e-01,6.95393581325708e-01,7.00000000000000e-01
4.44929773764080e-08,0.00000000000000e+00,7.00000000000000e-01,7.03700484458838e-01,7.00000000000000e-01
4.50000000000000e-08,0.00000000000000e+00,7.00000000000000e-01,6.97018470539269e-01,7.00000000000000e-01
4.50100000000000e-08,6.99999999999867e-02,7.00000000000000e-01,6.97365207458315e-01,6.30000000000013e-01
4.50300000000000e-08,2.10000000000007e-01,7.00000000000000e-01,6.97923238664263e-01,4.89999999999994e-01
4.50700000000000e-08,4.90000000000000e-01,7.00000000000000e-01,7.00096393177652e-01,2.10000000000000e-01
4.51000000000000e-08,7.00000000000000e-01,7.00000000000000e-01,7.04236862721832e-01,0.00000000000000e+00
4.51080000000000e-08,7.00000000000000e-01,7.00000000000000e-01,7.05606354104454e-01,0.00000000000000e+00
4.51240000000000e-08,7.00000000000000e-01,7.00000000000000e-01,7.07981749817368e-01,0.00000000000000e+00
4.51560000000000e-08,7.00000000000000e-01,7.00000000000000e-01,7.11702424198908e-01,0.00000000000000e+00
4.52200000000000e-08,7.00000000000000e-01,7.00000000000000e-01,7.17885943939399e-01,0.00000000000000e+00
4.53480000000000e-08,7.00000000000000e-01,7.00000000000000e-01,4.82780885143607e-01,0.00000000000000e+00
4.56040000000000e-08,7.00000000000000e-01,7.00000000000000e-01,-4.04098700322787e-03,0.00000000000000e+00
4.59345780289510e-08,7.00000000000000e-01,7.00000000000000e-01,2.38332705331006e-03,0.00000000000000e+00
4.65627747484377e-08,7.00000000000000e-01,7.00000000000000e-01,-1.70758192043411e-03,0.00000000000000e+00
4.71978719433479e-08,7.00000000000000e-01,7.00000000000000e-01,1.26090336168452e-03,0.00000000000000e+00
4.84680663331682e-08,7.00000000000000e-01,7.00000000000000e-01,-1.03568908343001e-03,0.00000000000000e+00
5.01000000000000e-08,7.00000000000000e-01,6.99999999999960e-01,9.24426244848417e-04,0.00000000000000e+00
5.03540388779641e-08,7.00000000000000e-01,7.00000000000000e-01,1.82129894009080e-04,0.00000000000000e+00
5.08621166338922e-08,7.00000000000000e-01,7.00000000000000e-01,-1.24411248106981e-04,0.00000000000000e+00
5.18782721457485e-08,7.00000000000000e-01,7.00000000000000e-01,1.10111451652998e-04,0.00000000000000e+00
5.39105831694611e-08,7.00000000000000e-01,7.00000000000000e-01,-9.47122442429976e-05,0.00000000000000e+00
5.51000000000000e-08,7.00000000000000e-01,7.00000000000000e-01,8.69324621603895e-05,0.00000000000000e+00
5.51100000000000e-08,6.30000000000025e-01,7.00000000000000e-01,2.53326010836552e-04,6.99999999999752e-02
5.51300000000000e-08,4.90000000000005e-01,7.00000000000000e-01,4.16140534787945e-04,2.09999999999995e-01
5.51700000000000e-08,2.10000000000012e-01,7.00000000000000e-01,2.96482207631302e-04,4.89999999999988e-01
5.52000000000000e-08,0.00000000000000e+00,7.00000000000000e-01,1.54176404987848e-04,7.00000000000000e-01
5.52080000000000e-08,0.00000000000000e+00,7.00000000000000e-01,1.00024263019340e-04,7.00000000000000e-01
5.52240000000000e-08,0.00000000000000e+00,7.00000000000000e-01,2.43779612098399e-05,7.00000000000000e-01
5.52560000000000e-08,0.00000000000000e+00,7.00000000000000e-01,-3.94755798589774e-05,7.00000000000000e-01
5.53200000000000e-08,0.00000000000000e+00,7.00000000000000e-01,-3.46268202033852e-04,7.00000000000000e-01
5.54480000000000e-08,0.00000000000000e+00,7.00000000000000e-01,-7.59746421000063e-04,7.00000000000000e-01
5.57013527257521e-08,0.00000000000000e+00,7.00000000000000e-01,2.03690620579233e-04,7.00000000000000e-01
5.61259408395198e-08,0.00000000000000e+00,7.00000000000000e-01,-2.11944921565911e-04,7.00000000000000e-01
5.67452851694676e-08,0.00000000000000e+00,7.00000000000000e-01,1.47778668945551e-04,7.00000000000000e-01
5.78631223128613e-08,0.00000000000000e+00,7.00000000000000e-01,-6.03519900213940e-05,7.00000000000000e-01
5.90211302914434e-08,0.00000000000000e+00,7.00000000000000e-01,9.85162320857845e-06,7.00000000000000e-01
6.13371462486076e-08,0.00000000000000e+00,7.00000000000000e-01,1.94567115240521e-05,7.00000000000000e-01
6.50000000000000e-08,0.00000000000000e+00,7.00000000000000e-01,-2.59963766343989e-05,7.00000000000000e-01
6.50100000000000e-08,6.99999999999867e-02,7.00000000000000e-01,1.45972131312892e-04,7.00000000000000e-01
6.50300000000000e-08,2.09999999999960e-01,7.00000000000000e-01,3.76538619147493e-04,7.00000000000000e-01
6.50700000000000e-08,4.89999999999907e-01,7.00000000000000e-01,3.58088314460221e-04,7.00000000000000e-01
6.51000000000000e-08,6.99999999999960e-01,7.00000000000000e-01,-1.01956253247629e-03,7.00000000000000e-01
6.51080000000000e-08,7.00000000000000e-01,7.00000000000000e-01,-1.79016559760480e-03,7.00000000000000e-01
6.51240000000000e-08,7.00000000000000e-01,7.00000000000000e-01,-3.27036942384349e-03,7.00000000000000e-01
6.51560000000000e-08,7.00000000000000e-01,7.00000000000000e-01,-5.39630596450436e-03,7.00000000000000e-01
6.52200000000000e-08,7.00000000000000e-01,7.00000000000000e-01,-8.66282780522858e-04,7.00000000000000e-01
6.53480000000000e-08,7.00000000000000e-01,7.00000000000000e-01,1.62070445608063e-01,7.00000000000000e-01
6.56040000000000e-08,7.00000000000000e-01,7.00000000000000e-01,6.31555032715595e-01,7.00000000000000e-01
6.61159999999999e-08,7.00000000000000e-01,7.00000000000000e-01,7.20440066888420e-01,7.00000000000000e-01
6.66628834709556e-08,7.00000000000000e-01,7.00000000000000e-01,6.81195658110308e-01,7.00000000000000e-01
6.77197840406938e-08,7.00000000000000e-01,7.00000000000000e-01,7.14674444787201e-01,7.00000000000000e-01
6.88830939744522e-08,7.00000000000000e-01,7.00000000000000e-01,6.85441714819603e-01,7.00000000000000e-01
7.12097138419690e-08,7.00000000000000e-01,7.00000000000000e-01,7.12656688991023e-01,7.00000000000000e-01
7.50097138419690e-08,7.00000000000000e-01,7.00000000000000e-01,6.86736096659723e-01,7.00000000000000e-01
7.51000000000000e-08,7.00000000000000e-01,7.00000000000000e-01,7.02385262515649e-01,7.00000000000000e-01
7.51100000000000e-08,6.30000000000071e-01,7.00000000000000e-01,7.01680792455721e-01,7.00000000000000e-01
7.51300000000000e-08,4.90000000000098e-01,7.00000000000000e-01,7.00579678805601e-01,7.00000000000000e-01
7.51700000000000e-08,2.10000000000151e-01,7.00000000000000e-01,7.00366970450505e-01,7.00000000000000e-01
7.52000000000000e-08,9.80326930744013e-14,7.00000000000000e-01,7.01790119123579e-01,7.00000000000000e-01
7.52080000000000e-08,0.00000000000000e+00,7.00000000000000e-01,7.02229495488766e-01,7.00000000000000e-01
7.52240000000000e-08,0.00000000000000e+00,7.00000000000000e-01,7.02828674678004e-01,7.00000000000000e-01
7.52560000000000e-08,0.00000000000000e+00,7.00000000000000e-01,7.02726003949128e-01,7.00000000000000e-01
7.53200000000000e-08,0.00000000000000e+00,7.00000000000000e-01,6.96043731121492e-01,7.00000000000000e-01
7.54480000000000e-08,0.00000000000000e+00,7.00000000000000e-01,6.73166714593729e-01,7.00000000000000e-01
7.57040000000000e-08,0.00000000000000e+00,7.00000000000000e-01,6.81109407881635e-01,7.00000000000000e-01
7.62159999999999e-08,0.00000000000000e+00,7.00000000000000e-01,7.06436494191395e-01,7.00000000000000e-01
7.69001386895491e-08,0.00000000000000e+00,7.00000000000000e-01,6.93811560487290e-01,7.00000000000000e-01
7.81644188940885e-08,0.00000000000000e+00,7.00000000000000e-01,7.04152668156181e-01,7.00000000000000e-01
8.06929793031672e-08,0.00000000000000e+00,7.00000000000000e-01,6.95384689763633e-01,7.00000000000000e-01
8.44929793031672e-08,0.00000000000000e+00,7.00000000000000e-01,7.03709892247373e-01,7.00000000000000e-01
8.50000000000000e-08,0.00000000000000e+00,7.00000000000000e-01,6.97011168145235e-01,7.00000000000000e-01
8.50100000000000e-08,6.99999999999867e-02,7.00000000000000e-01,6.97349131354563e-01,6.30000000000013e-01
8.50300000000000e-08,2.09999999999960e-01,7.00000000000000e-01,6.97916057256674e-01,4.90000000000040e-01
8.50700000000000e-08,4.89999999999907e-01,7.00000000000000e-01,7.00095308384048e-01,2.10000000000093e-01
8.51000000000000e-08,6.99999999999960e-01,7.00000000000000e-01,7.04236575361250e-01,4.00790511889682e-14
8.51080000000000e-08,7.00000000000000e-01,7.00000000000000e-01,7.05606407688456e-01,0.00000000000000e+00
8.51240000000000e-08,7.00000000000000e-01,7.00000000000000e-01,7.07981550757218e-01,0.00000000000000e+00
8.51560000000000e-08,7.00000000000000e-01,7.00000000000000e-01,7.11701682352169e-01,0.00000000000000e+00
8.52200000000000e-08,7.00000000000000e-01,7.00000000000000e-01,7.17886181206527e-01,0.00000000000000e+00
8.53480000000000e-08,7.00000000000000e-01,7.00000000000000e-01,4.82847433738731e-01,0.00000000000000e+00
8.56040000000000e-08,7.00000000000000e-01,7.00000000000000e-01,-4.01100060076455e-03,0.00000000000000e+00
8.59345720052093e-08,7.00000000000000e-01,7.00000000000000e-01,2.36407749626953e-03,0.00000000000000e+00
8.65628151061768e-08,7.00000000000000e-01,7.00000000000000e-01,-1.69230863014578e-03,0.00000000000000e+00
8.71979086740365e-08,7.00000000000000e-01,7.00000000000000e-01,1.24859192397350e-03,0.00000000000000e+00
8.84680958097559e-08,7.00000000000000e-01,7.00000000000000e-01,-1.02457456566108e-03,0.00000000000000e+00
9.01000000000000e-08,7.00000000000000e-01,6.99999999999960e-01,9.14187589896778e-04,0.00000000000000e+00
9.03540374271439e-08,7.00000000000000e-01,7.00000000000000e-01,1.81018085530804e-04,0.00000000000000e+00
9.08621122814317e-08,7.00000000000000e-01,7.00000000000000e-01,-1.23590800639955e-04,0.00000000000000e+00
9.18782619900072e-08,7.00000000000000e-01,7.00000000000000e-01,1.09403268566045e-04,0.00000000000000e+00
9.39105614071584e-08,7.00000000000000e-01,7.00000000000000e-01,-9.40545034654864e-05,0.00000000000000e+00
9.51000000000000e-08,7.00000000000000e-01,7.00000000000000e-01,8.63524534335303e-05,0.00000000000000e+00
9.51100000000000e-08,6.30000000000071e-01,7.00000000000000e-01,2.52880863263867e-04,6.99999999999288e-02
9.51300000000000e-08,4.90000000000098e-01,7.00000000000000e-01,4.15888132038585e-04,2.09999999999902e-01
9.51700000000000e-08,2.10000000000151e-01,7.00000000000000e-01,2.96396621328937e-04,4.89999999999849e-01
9.52000000000000e-08,9.80326930744013e-14,7.00000000000000e-01,1.54139863133548e-04,6.99999999999902e-01
9.52080000000000e-08,0.00000000000000e+00,7.00000000000000e-01,9.99932217334784e-05,7.00000000000000e-01
9.52240000000000e-08,0.00000000000000e+00,7.00000000000000e-01,2.43569195437637e-05,7.00000000000000e-01
9.52560000000000e-08,0.00000000000000e+00,7.00000000000000e-01,-3.94832734022799e-05,7.00000000000000e-01
9.53200000000000e-08,0.00000000000000e+00,7.00000000000000e-01,-3.46257947566542e-04,7.00000000000000e-01
9.54480000000000e-08,0.00000000000000e+00,7.00000000000000e-01,-7.59700766630577e-04,7.00000000000000e-01
9.57013499922433e-08,0.00000000000000e+00,7.00000000000000e-01,2.03681141963308e-04,7.00000000000000e-01
9.61259351931593e-08,0.00000000000000e+00,7.00000000000000e-01,-2.11931951277769e-04,7.00000000000000e-01
9.67452796528651e-08,0.00000000000000e+00,7.00000000000000e-01,1.47767081812459e-04,7.00000000000000e-01
9.78631091373775e-08,0.00000000000000e+00,7.00000000000000e-01,-6.03487183210962e-05,7.00000000000000e-01
9.90211156671378e-08,0.00000000000000e+00,7.00000000000000e-01,9.85427767004506e-06,7.00000000000000e-01
1.01337128726658e-07,0.00000000000000e+00,7.00000000000000e-01,1.94518114969800e-05,7.00000000000000e-01
1.05000000000000e-07,0.00000000000000e+00,7.00000000000000e-01,-2.59901132751567e-05,7.00000000000000e-01
1.05010000000000e-07,6.99999999999867e-02,7.00000000000000e-01,1.45970992607866e-04,7.00000000000000e-01
1.05030000000000e-07,2.09999999999960e-01,7.00000000000000e-01,3.76530899468999e-04,7.00000000000000e-01
1.05070000000000e-07,4.89999999999907e-01,7.00000000000000e-01,3.58080454579308e-04,7.00000000000000e-01
1.05100000000000e-07,6.99999999999960e-01,7.00000000000000e-01,-1.01957100257535e-03,7.00000000000000e-01
1.05108000000000e-07,7.00000000000000e-01,7.00000000000000e-01,-1.79017383397401e-03,7.00000000000000e-01
1.05124000000000e-07,7.00000000000000e-01,7.00000000000000e-01,-3.27037661920383e-03,7.00000000000000e-01
1.05156000000000e-07,7.00000000000000e-01,7.00000000000000e-01,-5.39631004131200e-03,7.00000000000000e-01
1.05220000000000e-07,7.00000000000000e-01,7.00000000000000e-01,-8.66279753256774e-04,7.00000000000000e-01
1.05348000000000e-07,7.00000000000000e-01,7.00000000000000e-01,1.62070471775148e-01,7.00000000000000e-01
1.05604000000000e-07,7.00000000000000e-01,7.00000000000000e-01,6.31555049069871e-01,7.00000000000000e-01
1.06116000000000e-07,7.00000000000000e-01,7.00000000000000e-01,7.20440063004238e-01,7.00000000000000e-01
1.06662883470425e-07,7.00000000000000e-01,7.00000000000000e-01,6.81195661909066e-01,7.00000000000000e-01
1.07719784024799e-07,7.00000000000000e-01,7.00000000000000e-01,7.14674441740224e-01,7.00000000000000e-01
1.08883093943035e-07,7.00000000000000e-01,7.00000000000000e-01,6.85441717950318e-01,7.00000000000000e-01
1.11209713779507e-07,7.00000000000000e-01,7.00000000000000e-01,7.12656686239692e-01,7.00000000000000e-01
1.15009713779507e-07,7.00000000000000e-01,7.00000000000000e-01,6.86736099553588e-01,7.00000000000000e-01
1.15100000000000e-07,7.00000000000000e-01,7.00000000000000e-01,7.02385266123468e-01,7.00000000000000e-01
1.15110000000000e-07,6.30000000000071e-01,7.00000000000000e-01,7.01680795120297e-01,7.00000000000000e-01
1.15130000000000e-07,4.90000000000098e-01,7.00000000000000e-01,7.00579680066765e-01,7.00000000000000e-01
1.15170000000000e-07,2.10000000000151e-01,7.00000000000000e-01,7.00366970667489e-01,7.00000000000000e-01
