Time,v(clk),v(data),v(out)
1.00000000000000e-08,7.00000000000000e-01,0.00000000000000e+00,-2.50958991104139e-06
1.00100000000000e-08,7.00000000000000e-01,6.99999999999983e-02,8.99498963001510e-07
1.00300000000000e-08,7.00000000000000e-01,2.09999999999995e-01,5.17782440446340e-06
1.00700000000000e-08,7.00000000000000e-01,4.89999999999988e-01,6.26935313917387e-06
1.01000000000000e-08,7.00000000000000e-01,6.99999999999995e-01,5.29727998960228e-06
1.01080000000000e-08,7.00000000000000e-01,7.00000000000000e-01,5.22110044980095e-06
1.01240000000000e-08,7.00000000000000e-01,7.00000000000000e-01,5.31165102272274e-06
1.01560000000000e-08,7.00000000000000e-01,7.00000000000000e-01,7.34309767770613e-06
1.02200000000000e-08,7.00000000000000e-01,7.00000000000000e-01,9.03958451069914e-06
1.03480000000000e-08,7.00000000000000e-01,7.00000000000000e-01,1.43686044219715e-05
1.06040000000000e-08,7.00000000000000e-01,7.00000000000000e-01,1.17790522941690e-05
1.11160000000000e-08,7.00000000000000e-01,7.00000000000000e-01,1.15193492759291e-05
1.20237213675228e-08,7.00000000000000e-01,7.00000000000000e-01,1.19444241353794e-05
1.38391641025685e-08,7.00000000000000e-01,7.00000000000000e-01,1.04694773966794e-05
1.51000000000000e-08,7.00000000000000e-01,7.00000000000000e-01,1.08427714330724e-05
1.51100000000000e-08,6.29999999999990e-01,7.00000000000000e-01,-6.24251657668148e-05
1.51300000000000e-08,4.89999999999994e-01,7.00000000000000e-01,-1.94910267764248e-04
1.51700000000000e-08,2.10000000000000e-01,7.00000000000000e-01,-2.76995342780702e-04
1.52000000000000e-08,0.00000000000000e+00,7.00000000000000e-01,-6.71400267460848e-05
1.52080000000000e-08,0.00000000000000e+00,7.00000000000000e-01,8.77576013851161e-05
1.52240000000000e-08,0.00000000000000e+00,7.00000000000000e-01,3.21870586176345e-04
1.52560000000000e-08,0.00000000000000e+00,7.00000000000000e-01,4.94831541449810e-04
1.53200000000000e-08,0.00000000000000e+00,7.00000000000000e-01,3.74754212206924e-04
1.54480000000000e-08,0.00000000000000e+00,7.00000000000000e-01,-1.34351526858673e-04
1.57040000000000e-08,0.00000000000000e+00,7.00000000000000e-01,-2.40414728231560e-04
1.62160000000000e-08,0.00000000000000e+00,7.00000000000000e-01,-1.09378060499002e-04
1.68742042484206e-08,0.00000000000000e+00,7.00000000000000e-01,1.14335677178347e-04
1.79453950564273e-08,0.00000000000000e+00,7.00000000000000e-01,1.07579235252744e-04
1.97936961058859e-08,0.00000000000000e+00,7.00000000000000e-01,-1.51337422015699e-04
2.22405683882911e-08,0.00000000000000e+00,7.00000000000000e-01,1.92084204972329e-04
2.50000000000000e-08,0.00000000000000e+00,7.00000000000000e-01,-1.90923619125655e-04
2.50100000000000e-08,6.99999999999867e-02,7.00000000000000e-01,-3.57848116531723e-05
2.50300000000000e-08,2.10000000000007e-01,7.00000000000000e-01,2.20747375444773e-04
2.50700000000000e-08,4.90000000000000e-01,7.00000000000000e-01,5.30067234484483e-04
2.51000000000000e-08,7.00000000000000e-01,7.00000000000000e-01,4.66311456206375e-04
2.51080000000000e-08,7.00000000000000e-01,7.00000000000000e-01,2.98431698712902e-04
2.51240000000000e-08,7.00000000000000e-01,7.00000000000000e-01,-1.30244413785882e-04
2.51560000000000e-08,7.00000000000000e-01,7.00000000000000e-01,-1.34401708133413e-03
2.52200000000000e-08,7.00000000000000e-01,7.00000000000000e-01,-3.79768744807384e-03
2.53480000000000e-08,7.00000000000000e-01,7.00000000000000e-01,-4.05419517525975e-03
2.56040000000000e-08,7.00000000000000e-01,7.00000000000000e-01,1.73152511391994e-01
2.61160000000000e-08,7.00000000000000e-01,7.00000000000000e-01,6.68413153605844e-01
2.71347921899603e-08,7.00000000000000e-01,7.00000000000000e-01,7.10837275752282e-01
2.82635361158463e-08,7.00000000000000e-01,7.00000000000000e-01,6.89095143436431e-01
3.01570689775659e-08,7.00000000000000e-01,7.00000000000000e-01,7.09197247953088e-01
3.26214759898882e-08,7.00000000000000e-01,7.00000000000000e-01,6.90572583283947e-01
3.51000000000000e-08,6.99999999999965e-01,7.00000000000000e-01,7.08397954978354e-01
3.51100000000000e-08,6.29999999999979e-01,7.00000000000000e-01,7.06063504878454e-01
3.51300000000000e-08,4.89999999999959e-01,7.00000000000000e-01,7.02639915868325e-01
3.51700000000000e-08,2.09999999999966e-01,7.00000000000000e-01,7.00867031517879e-01
3.52000000000000e-08,0.00000000000000e+00,7.00000000000000e-01,7.02196517582669e-01
3.52080000000000e-08,0.00000000000000e+00,7.00000000000000e-01,7.02645687296246e-01
3.52240000000000e-08,0.00000000000000e+00,7.00000000000000e-01,7.03267911305099e-01
3.52560000000000e-08,0.00000000000000e+00,7.00000000000000e-01,7.03346225301842e-01
3.53200000000000e-08,0.00000000000000e+00,7.00000000000000e-01,6.98309719825058e-01
3.54480000000000e-08,0.00000000000000e+00,7.00000000000000e-01,6.77084405780335e-01
3.57040000000000e-08,0.00000000000000e+00,7.00000000000000e-01,6.80274516049822e-01
3.62160000000000e-08,0.00000000000000e+00,7.00000000000000e-01,7.05551423434913e-01
3.69088660867740e-08,0.00000000000000e+00,7.00000000000000e-01,6.94555371971061e-01
3.82016636671390e-08,0.00000000000000e+00,7.00000000000000e-01,7.03697321779450e-01
4.07872588278690e-08,0.00000000000000e+00,7.00000000000000e-01,6.96015030715390e-01
4.45872588278690e-08,0.00000000000000e+00,7.00000000000000e-01,7.03388123156089e-01
4.50000000000000e-08,0.00000000000000e+00,7.00000000000000e-01,6.97698168179229e-01
4.50100000000000e-08,6.99999999999867e-02,7.00000000000000e-01,6.98143948657795e-01
4.50300000000000e-08,2.10000000000007e-01,7.00000000000000e-01,6.98865869782400e-01
4.50700000000000e-08,4.90000000000000e-01,7.00000000000000e-01,6.99650087989368e-01
4.51000000000000e-08,7.00000000000000e-01,7.00000000000000e-01,6.99782464398062e-01
4.51080000000000e-08,7.00000000000000e-01,6.44000000000029e-01,6.99689810215588e-01
4.51240000000000e-08,7.00000000000000e-01,5.31999999999995e-01,6.99451238228177e-01
4.51560000000000e-08,7.00000000000000e-01,3.08000000000019e-01,6.98840185978593e-01
4.52000000000000e-08,7.00000000000000e-01,4.00790511889682e-14,6.98121248209803e-01
4.52064000000000e-08,7.00000000000000e-01,0.00000000000000e+00,6.98051571287382e-01
4.52192000000000e-08,7.00000000000000e-01,0.00000000000000e+00,6.97916915280124e-01
4.52448000000000e-08,7.00000000000000e-01,0.00000000000000e+00,6.97694085729954e-01
4.52960000000000e-08,7.00000000000000e-01,0.00000000000000e+00,6.97403777679911e-01
4.53984000000000e-08,7.00000000000000e-01,0.00000000000000e+00,6.97461049576599e-01
4.56032000000000e-08,7.00000000000000e-01,0.00000000000000e+00,6.98601963965389e-01
4.60128000000000e-08,7.00000000000000e-01,0.00000000000000e+00,6.99375788921706e-01
4.66031953172307e-08,7.00000000000000e-01,0.00000000000000e+00,6.99948353334946e-01
4.74575135588738e-08,7.00000000000000e-01,0.00000000000000e+00,7.00047054822587e-01
4.91229530531119e-08,7.00000000000000e-01,0.00000000000000e+00,6.99955553855164e-01
5.17620150038073e-08,7.00000000000000e-01,0.00000000000000e+00,7.00043030435843e-01
5.51000000000000e-08,7.00000000000000e-01,0.00000000000000e+00,6.99958155349409e-01
5.51100000000000e-08,6.30000000000025e-01,0.00000000000000e+00,6.99910039047711e-01
5.51300000000000e-08,4.90000000000005e-01,0.00000000000000e+00,6.99832498658620e-01
5.51700000000000e-08,2.10000000000012e-01,0.00000000000000e+00,7.00427417763495e-01
5.52000000000000e-08,0.00000000000000e+00,0.00000000000000e+00,7.02076533442508e-01
5.52080000000000e-08,0.00000000000000e+00,0.00000000000000e+00,7.02577731883982e-01
5.52240000000000e-08,0.00000000000000e+00,0.00000000000000e+00,7.03334135462257e-01
5.52560000000000e-08,0.00000000000000e+00,0.00000000000000e+00,7.04045210486666e-01
5.53200000000000e-08,0.00000000000000e+00,0.00000000000000e+00,7.04767477790482e-01
5.54480000000000e-08,0.00000000000000e+00,0.00000000000000e+00,7.04215612594091e-01
5.57040000000000e-08,0.00000000000000e+00,0.00000000000000e+00,6.99640481076625e-01
5.61304351429050e-08,0.00000000000000e+00,0.00000000000000e+00,6.99580732227519e-01
5.67351543290516e-08,0.00000000000000e+00,0.00000000000000e+00,6.99792270304312e-01
5.79445927013448e-08,0.00000000000000e+00,0.00000000000000e+00,6.99653270733941e-01
5.92464450180688e-08,0.00000000000000e+00,0.00000000000000e+00,6.99909626521401e-01
6.18501496515168e-08,0.00000000000000e+00,0.00000000000000e+00,6.99723102076720e-01
6.50000000000000e-08,0.00000000000000e+00,0.00000000000000e+00,6.99982069790674e-01
6.50100000000000e-08,6.99999999999867e-02,0.00000000000000e+00,7.00020904547335e-01
6.50300000000000e-08,2.09999999999960e-01,0.00000000000000e+00,7.00067300211017e-01
6.50700000000000e-08,4.89999999999907e-01,0.00000000000000e+00,7.00040762787546e-01
6.51000000000000e-08,6.99999999999960e-01,0.00000000000000e+00,6.99909399347313e-01
6.51080000000000e-08,7.00000000000000e-01,0.00000000000000e+00,6.99833051979746e-01
6.51240000000000e-08,7.00000000000000e-01,0.00000000000000e+00,6.99715702328840e-01
6.51560000000000e-08,7.00000000000000e-01,0.00000000000000e+00,6.99619432670066e-01
6.52200000000000e-08,7.00000000000000e-01,0.00000000000000e+00,6.99598156310683e-01
6.53480000000000e-08,7.00000000000000e-01,0.00000000000000e+00,6.99905232178888e-01
6.56040000000000e-08,7.00000000000000e-01,0.00000000000000e+00,7.05815224541033e-01
6.61159999999999e-08,7.00000000000000e-01,0.00000000000000e+00,3.02564551778870e-01
6.70177944897192e-08,7.00000000000000e-01,0.00000000000000e+00,-8.48974478765550e-02
6.78609323525431e-08,7.00000000000000e-01,0.00000000000000e+00,6.34279916203930e-02
6.95472080781910e-08,7.00000000000000e-01,0.00000000000000e+00,-4.17174977683900e-02
7.12139874954997e-08,7.00000000000000e-01,0.00000000000000e+00,3.67297188209305e-02
7.45475463301171e-08,7.00000000000000e-01,0.00000000000000e+00,-2.88598150598330e-02
7.51000000000000e-08,7.00000000000000e-01,0.00000000000000e+00,1.39508838506978e-02
7.51100000000000e-08,6.30000000000071e-01,0.00000000000000e+00,1.33089541938927e-02
7.51300000000000e-08,4.90000000000098e-01,0.00000000000000e+00,1.15987640937055e-02
7.51700000000000e-08,2.10000000000151e-01,0.00000000000000e+00,7.86908719191765e-03
7.52000000000000e-08,9.80326930744013e-14,0.00000000000000e+00,5.94861494206299e-03
7.52080000000000e-08,0.00000000000000e+00,0.00000000000000e+00,5.65571081859075e-03
7.52240000000000e-08,0.00000000000000e+00,0.00000000000000e+00,5.04716782588216e-03
7.52560000000000e-08,0.00000000000000e+00,0.00000000000000e+00,3.87829324117300e-03
7.53200000000000e-08,0.00000000000000e+00,0.00000000000000e+00,1.88519491222473e-03
7.54480000000000e-08,0.00000000000000e+00,0.00000000000000e+00,-6.92247439398830e-04
7.57040000000000e-08,0.00000000000000e+00,0.00000000000000e+00,-7.48209460743283e-04
7.62159999999999e-08,0.00000000000000e+00,0.00000000000000e+00,4.60002291393133e-04
7.68719807317889e-08,0.00000000000000e+00,0.00000000000000e+00,-2.96940515420554e-04
7.81839421953669e-08,0.00000000000000e+00,0.00000000000000e+00,2.59321789295591e-04
8.08078651225229e-08,0.00000000000000e+00,0.00000000000000e+00,-2.21020626564470e-04
8.46078651225229e-08,0.00000000000000e+00,0.00000000000000e+00,2.22035769176092e-04
8.50000000000000e-08,0.00000000000000e+00,0.00000000000000e+00,-1.07806986877783e-04
8.50100000000000e-08,6.99999999999867e-02,0.00000000000000e+00,3.36033714661010e-05
8.50300000000000e-08,2.09999999999960e-01,0.00000000000000e+00,2.34808648957315e-04
8.50700000000000e-08,4.89999999999907e-01,0.00000000000000e+00,3.53745661646532e-04
8.51000000000000e-08,6.99999999999960e-01,0.00000000000000e+00,2.19114046833946e-04
8.51080000000000e-08,7.00000000000000e-01,0.00000000000000e+00,1.12284842839878e-04
8.51240000000000e-08,7.00000000000000e-01,0.00000000000000e+00,-6.51996384132131e-05
8.51560000000000e-08,7.00000000000000e-01,0.00000000000000e+00,-2.52456313872405e-04
8.52200000000000e-08,7.00000000000000e-01,0.00000000000000e+00,-3.13310821111662e-04
8.53480000000000e-08,7.00000000000000e-01,0.00000000000000e+00,-1.61823941278602e-04
8.56040000000000e-08,7.00000000000000e-01,0.00000000000000e+00,4.91902131232770e-05
8.61159999999999e-08,7.00000000000000e-01,0.00000000000000e+00,6.42945234722893e-05
8.71399999999999e-08,7.00000000000000e-01,0.00000000000000e+00,-1.30104814913216e-05
8.88458208923139e-08,7.00000000000000e-01,0.00000000000000e+00,3.50117976173365e-05
9.00000000000000e-08,7.00000000000000e-01,0.00000000000000e+00,-2.37556394732698e-06
9.00100000000000e-08,7.00000000000000e-01,6.99999999999867e-02,1.02318417184027e-06
9.00300000000000e-08,7.00000000000000e-01,2.09999999999960e-01,5.29414760544467e-06
9.00700000000000e-08,7.00000000000000e-01,4.89999999999907e-01,6.42497042989409e-06
9.01000000000000e-08,7.00000000000000e-01,6.99999999999960e-01,5.50979681319258e-06
9.01080000000000e-08,7.00000000000000e-01,7.00000000000000e-01,5.99710529805564e-06
9.01240000000000e-08,7.00000000000000e-01,7.00000000000000e-01,5.29358571012967e-06
9.01560000000000e-08,7.00000000000000e-01,7.00000000000000e-01,7.27857379371338e-06
9.02200000000000e-08,7.00000000000000e-01,7.00000000000000e-01,8.81627881273161e-06
9.03480000000000e-08,7.00000000000000e-01,7.00000000000000e-01,1.41518576727076e-05
9.06040000000000e-08,7.00000000000000e-01,7.00000000000000e-01,1.18172121952830e-05
9.11159999999999e-08,7.00000000000000e-01,7.00000000000000e-01,1.16345406713826e-05
9.20727947148388e-08,7.00000000000000e-01,7.00000000000000e-01,1.18125973240027e-05
9.39863841445166e-08,7.00000000000000e-01,7.00000000000000e-01,1.05196696045633e-05
9.51000000000000e-08,7.00000000000000e-01,7.00000000000000e-01,1.07742586385341e-05
9.51100000000000e-08,6.30000000000071e-01,7.00000000000000e-01,-6.23998067942472e-05
9.51300000000000e-08,4.90000000000098e-01,7.00000000000000e-01,-1.94959961282319e-04
9.51700000000000e-08,2.10000000000151e-01,7.00000000000000e-01,-2.77052143101218e-04
9.52000000000000e-08,9.80326930744013e-14,7.00000000000000e-01,-6.72174496596858e-05
9.52080000000000e-08,0.00000000000000e+00,7.00000000000000e-01,8.76835404414883e-05
9.52240000000000e-08,0.00000000000000e+00,7.00000000000000e-01,3.21802800752266e-04
9.52560000000000e-08,0.00000000000000e+00,7.00000000000000e-01,4.94775767391049e-04
9.53200000000000e-08,0.00000000000000e+00,7.00000000000000e-01,3.74704940908480e-04
9.54480000000000e-08,0.00000000000000e+00,7.00000000000000e-01,-1.34389845037511e-04
9.57040000000000e-08,0.00000000000000e+00,7.00000000000000e-01,-2.40386593316069e-04
9.62159999999999e-08,0.00000000000000e+00,7.00000000000000e-01,-1.09399082318010e-04
9.68742142661449e-08,0.00000000000000e+00,7.00000000000000e-01,1.14354065589760e-04
9.79454201089735e-08,0.00000000000000e+00,7.00000000000000e-01,1.07567225719744e-04
9.97936905192655e-08,0.00000000000000e+00,7.00000000000000e-01,-1.51330024240617e-04
1.02240699398273e-07,0.00000000000000e+00,7.00000000000000e-01,1.92077728646710e-04
1.05000000000000e-07,0.00000000000000e+00,7.00000000000000e-01,-1.90919740439379e-04
1.05010000000000e-07,6.99999999999867e-02,7.00000000000000e-01,-3.57807039120112e-05
1.05030000000000e-07,2.09999999999960e-01,7.00000000000000e-01,2.20752846656104e-04
1.05070000000000e-07,4.89999999999907e-01,7.00000000000000e-01,5.30074286454074e-04
1.05100000000000e-07,6.99999999999960e-01,7.00000000000000e-01,4.66327770422735e-04
1.05108000000000e-07,7.00000000000000e-01,7.00000000000000e-01,2.98454604255392e-04
1.05124000000000e-07,7.00000000000000e-01,7.00000000000000e-01,-1.30207749583049e-04
1.05156000000000e-07,7.00000000000000e-01,7.00000000000000e-01,-1.34396420552049e-03
1.05220000000000e-07,7.00000000000000e-01,7.00000000000000e-01,-3.79764343140752e-03
1.05348000000000e-07,7.00000000000000e-01,7.00000000000000e-01,-4.05427784428201e-03
1.05604000000000e-07,7.00000000000000e-01,7.00000000000000e-01,1.73150927149414e-01
1.06116000000000e-07,7.00000000000000e-01,7.00000000000000e-01,6.68412500557900e-01
1.07134798902322e-07,7.00000000000000e-01,7.00000000000000e-01,7.10837515419983e-01
1.08263541096658e-07,7.00000000000000e-01,7.00000000000000e-01,6.89094884918433e-01
1.10157082136619e-07,7.00000000000000e-01,7.00000000000000e-01,7.09197463110212e-01
1.12621491521167e-07,7.00000000000000e-01,7.00000000000000e-01,6.90572355203178e-01
1.15100000000000e-07,7.00000000000000e-01,7.00000000000000e-01,7.08398151955281e-01
1.15110000000000e-07,6.30000000000071e-01,7.00000000000000e-01,7.06063646047026e-01
1.15130000000000e-07,4.90000000000098e-01,7.00000000000000e-01,7.02639976468010e-01
1.15170000000000e-07,2.10000000000151e-01,7.00000000000000e-01,7.00867038894240e-01
1.15200000000000e-07,9.80326930744013e-14,7.00000000000000e-01,7.02196519890187e-01
1.15208000000000e-07,0.00000000000000e+00,7.00000000000000e-01,7.02645689105255e-01
1.15224000000000e-07,0.00000000000000e+00,7.00000000000000e-01,7.03267912286204e-01
1.15256000000000e-07,0.00000000000000e+00,7.00000000000000e-01,7.03346224822565e-01
1.15320000000000e-07,0.00000000000000e+00,7.00000000000000e-01,6.98309714705116e-01
1.15448000000000e-07,0.00000000000000e+00,7.00000000000000e-01,6.77084398152502e-01
1.15704000000000e-07,0.00000000000000e+00,7.00000000000000e-01,6.80274517182248e-01
1.16216000000000e-07,0.00000000000000e+00,7.00000000000000e-01,7.05551423389620e-01
1.16908866080056e-07,0.00000000000000e+00,7.00000000000000e-01,6.94555371944720e-01
1.18201663649203e-07,0.00000000000000e+00,7.00000000000000e-01,7.03697321788442e-01
1.20787258787496e-07,0.00000000000000e+00,7.00000000000000e-01,6.96015030702421e-01
1.24587258787496e-07,0.00000000000000e+00,7.00000000000000e-01,7.03388123169127e-01
1.25000000000000e-07,0.00000000000000e+00,7.00000000000000e-01,6.97698168045994e-01
1.25010000000000e-07,6.99999999998941e-02,7.00000000000000e-01,6.98143948533739e-01
1.25030000000000e-07,2.09999999999868e-01,7.00000000000000e-01,6.98865869704395e-01
1.25070000000000e-07,4.89999999999815e-01,7.00000000000000e-01,6.99650088002347e-01
1.25100000000000e-07,6.99999999999867e-01,7.00000000000000e-01,6.99782464443128e-01
1.25108000000000e-07,7.00000000000000e-01,6.43999999999937e-01,6.99689810266417e-01
1.25124000000000e-07,7.00000000000000e-01,5.31999999999995e-01,6.99451238301433e-01
1.25156000000000e-07,7.00000000000000e-01,3.07999999999926e-01,6.98840186044106e-01
1.25200000000000e-07,7.00000000000000e-01,0.00000000000000e+00,6.98121248194999e-01
1.25206400000000e-07,7.00000000000000e-01,0.00000000000000e+00,6.98051571270822e-01
1.25219200000000e-07,7.00000000000000e-01,0.00000000000000e+00,6.97916915259145e-01
1.25244800000000e-07,7.00000000000000e-01,0.00000000000000e+00,6.97694085695745e-01
1.25296000000000e-07,7.00000000000000e-01,0.00000000000000e+00,6.97403777547275e-01
1.25398400000000e-07,7.00000000000000e-01,0.00000000000000e+00,6.97461049065719e-01
1.25603200000000e-07,7.00000000000000e-01,0.00000000000000e+00,6.98601962897858e-01
1.26012800000000e-07,7.00000000000000e-01,0.00000000000000e+00,6.99375789628770e-01
1.26603194721511e-07,7.00000000000000e-01,0.00000000000000e+00,6.99948353040962e-01
1.27457513382737e-07,7.00000000000000e-01,0.00000000000000e+00,7.00047054831953e-01
1.29122949918922e-07,7.00000000000000e-01,0.00000000000000e+00,6.99955553903767e-01
1.31762013809294e-07,7.00000000000000e-01,0.00000000000000e+00,7.00043030363668e-01
1.35100000000000e-07,6.99999999999873e-01,0.00000000000000e+00,6.99958155432090e-01
1.35110000000000e-07,6.29999999999793e-01,0.00000000000000e+00,6.99910039044972e-01
1.35130000000000e-07,4.89999999999820e-01,0.00000000000000e+00,6.99832498575647e-01
1.35170000000000e-07,2.09999999999873e-01,0.00000000000000e+00,7.00427417686585e-01
1.35200000000000e-07,0.00000000000000e+00,0.00000000000000e+00,7.02076533427963e-01
1.35208000000000e-07,0.00000000000000e+00,0.00000000000000e+00,7.02577731873619e-01
1.35224000000000e-07,0.00000000000000e+00,0.00000000000000e+00,7.03334135459880e-01
1.35256000000000e-07,0.00000000000000e+00,0.00000000000000e+00,7.04045210489889e-01
1.35320000000000e-07,0.00000000000000e+00,0.00000000000000e+00,7.04767477779666e-01
1.35448000000000e-07,0.00000000000000e+00,0.00000000000000e+00,7.04215612585486e-01
