Time,v(clk),v(data),v(out)
1.00000000000000e-08,7.25000000000000e-01,0.00000000000000e+00,2.75899732764357e-05
1.00100000000000e-08,7.25000000000000e-01,7.24999999999982e-02,2.02609927019287e-05
1.00300000000000e-08,7.25000000000000e-01,2.17499999999995e-01,1.07655341956558e-05
1.00700000000000e-08,7.25000000000000e-01,5.07499999999988e-01,3.55978091957920e-06
1.01000000000000e-08,7.25000000000000e-01,7.24999999999995e-01,-2.11997019702870e-07
1.01080000000000e-08,7.25000000000000e-01,7.25000000000000e-01,-4.53121039301063e-09
1.01240000000000e-08,7.25000000000000e-01,7.25000000000000e-01,1.95058869613407e-06
1.01560000000000e-08,7.25000000000000e-01,7.25000000000000e-01,7.20392558221927e-06
1.02200000000000e-08,7.25000000000000e-01,7.25000000000000e-01,9.26447095631749e-06
1.03480000000000e-08,7.25000000000000e-01,7.25000000000000e-01,2.53055004294928e-06
1.06040000000000e-08,7.25000000000000e-01,7.25000000000000e-01,5.31645673263262e-06
1.11160000000000e-08,7.25000000000000e-01,7.25000000000000e-01,3.67175129763024e-06
1.21400000000000e-08,7.25000000000000e-01,7.25000000000000e-01,4.71715350938880e-06
1.41880000000000e-08,7.25000000000000e-01,7.25000000000000e-01,3.22183767085399e-06
1.51000000000000e-08,7.25000000000000e-01,7.25000000000000e-01,4.20365756502970e-06
1.51100000000000e-08,6.52499999999990e-01,7.25000000000000e-01,-9.39874497944138e-05
1.51300000000000e-08,5.07499999999993e-01,7.25000000000000e-01,-2.24506895239909e-04
1.51700000000000e-08,2.17500000000000e-01,7.25000000000000e-01,-5.84677228625402e-05
1.52000000000000e-08,0.00000000000000e+00,7.25000000000000e-01,4.21576678460600e-04
1.52080000000000e-08,0.00000000000000e+00,7.25000000000000e-01,5.96223906622034e-04
1.52240000000000e-08,0.00000000000000e+00,7.25000000000000e-01,7.36651803017338e-04
1.52560000000000e-08,0.00000000000000e+00,7.25000000000000e-01,3.89107308824507e-04
1.53200000000000e-08,0.00000000000000e+00,7.25000000000000e-01,-4.42676156200472e-04
1.54480000000000e-08,0.00000000000000e+00,7.25000000000000e-01,-1.38453681957328e-04
1.57040000000000e-08,0.00000000000000e+00,7.25000000000000e-01,-1.33969355963107e-04
1.60234575724915e-08,0.00000000000000e+00,7.25000000000000e-01,1.07651674445885e-04
1.65747370515375e-08,0.00000000000000e+00,7.25000000000000e-01,8.90727483417904e-05
1.73521928040554e-08,0.00000000000000e+00,7.25000000000000e-01,-1.59750997291647e-04
1.86156798608453e-08,0.00000000000000e+00,7.25000000000000e-01,1.92722962542317e-04
2.11426539744252e-08,0.00000000000000e+00,7.25000000000000e-01,-1.98862841377828e-04
2.49426539744252e-08,0.00000000000000e+00,7.25000000000000e-01,2.08473417304392e-04
2.50000000000000e-08,0.00000000000000e+00,7.25000000000000e-01,-1.02271960200899e-04
2.50100000000000e-08,7.24999999999862e-02,7.25000000000000e-01,7.59652250331005e-05
2.50300000000000e-08,2.17500000000007e-01,7.25000000000000e-01,3.36373276988364e-04
2.50700000000000e-08,5.07500000000000e-01,7.25000000000000e-01,6.00762827804538e-04
2.51000000000000e-08,7.25000000000000e-01,7.25000000000000e-01,-3.71528789216743e-04
2.51080000000000e-08,7.25000000000000e-01,7.25000000000000e-01,-1.11352215392389e-03
2.51240000000000e-08,7.25000000000000e-01,7.25000000000000e-01,-2.64935932443686e-03
2.51560000000000e-08,7.25000000000000e-01,7.25000000000000e-01,-5.21806771194096e-03
2.52200000000000e-08,7.25000000000000e-01,7.25000000000000e-01,-4.61076055561065e-03
2.53480000000000e-08,7.25000000000000e-01,7.25000000000000e-01,2.04702154836767e-01
2.56040000000000e-08,7.25000000000000e-01,7.25000000000000e-01,7.06250063351672e-01
2.60596807357261e-08,7.25000000000000e-01,7.25000000000000e-01,7.30583498795181e-01
2.66142814554396e-08,7.25000000000000e-01,7.25000000000000e-01,7.19641592010511e-01
2.74538704993830e-08,7.25000000000000e-01,7.25000000000000e-01,7.29617261828641e-01
2.86531173205353e-08,7.25000000000000e-01,7.25000000000000e-01,7.20373618293679e-01
3.01000000000000e-08,7.25000000000000e-01,7.25000000000000e-01,7.29292199373167e-01
3.01100000000000e-08,7.25000000000000e-01,6.52500000000038e-01,7.27300470132641e-01
3.01300000000000e-08,7.25000000000000e-01,5.07500000000017e-01,7.25183240689275e-01
3.01700000000000e-08,7.25000000000000e-01,2.17500000000024e-01,7.25004440893027e-01
3.02000000000000e-08,7.25000000000000e-01,1.75415237890775e-14,7.25044721120581e-01
3.02080000000000e-08,7.25000000000000e-01,0.00000000000000e+00,7.25036105346417e-01
3.02240000000000e-08,7.25000000000000e-01,0.00000000000000e+00,7.25021781775435e-01
3.02560000000000e-08,7.25000000000000e-01,0.00000000000000e+00,7.24990605700656e-01
3.03200000000000e-08,7.25000000000000e-01,0.00000000000000e+00,7.24976184808600e-01
3.04480000000000e-08,7.25000000000000e-01,0.00000000000000e+00,7.25006766931002e-01
3.06568324198894e-08,7.25000000000000e-01,0.00000000000000e+00,7.24975480855118e-01
3.09908371191062e-08,7.25000000000000e-01,0.00000000000000e+00,7.24986434763742e-01
3.15035364763179e-08,7.25000000000000e-01,0.00000000000000e+00,7.24986484458438e-01
3.25289351907412e-08,7.25000000000000e-01,0.00000000000000e+00,7.24985096886341e-01
3.45797326195879e-08,7.25000000000000e-01,0.00000000000000e+00,7.24990656215186e-01
3.51000000000000e-08,7.24999999999964e-01,0.00000000000000e+00,7.24985633835162e-01
3.51100000000000e-08,6.52499999999978e-01,0.00000000000000e+00,7.24903239816082e-01
3.51300000000000e-08,5.07499999999957e-01,0.00000000000000e+00,7.24827646690462e-01
3.51700000000000e-08,2.17499999999964e-01,0.00000000000000e+00,7.26130867241720e-01
3.52000000000000e-08,0.00000000000000e+00,0.00000000000000e+00,7.28781845795826e-01
3.52080000000000e-08,0.00000000000000e+00,0.00000000000000e+00,7.29150056881071e-01
3.52240000000000e-08,0.00000000000000e+00,0.00000000000000e+00,7.28292643594747e-01
3.52560000000000e-08,0.00000000000000e+00,0.00000000000000e+00,7.18548374934847e-01
3.53200000000000e-08,0.00000000000000e+00,0.00000000000000e+00,7.02177999750576e-01
3.54480000000000e-08,0.00000000000000e+00,0.00000000000000e+00,7.18119782852789e-01
3.56865811585315e-08,0.00000000000000e+00,0.00000000000000e+00,7.27572632107593e-01
3.59884072029666e-08,0.00000000000000e+00,0.00000000000000e+00,7.22118872183147e-01
3.65463676634906e-08,0.00000000000000e+00,0.00000000000000e+00,7.26857109651369e-01
3.73147970300664e-08,0.00000000000000e+00,0.00000000000000e+00,7.22979197285577e-01
3.88516557632179e-08,0.00000000000000e+00,0.00000000000000e+00,7.26664419139323e-01
3.91000000000000e-08,0.00000000000000e+00,0.00000000000000e+00,7.23668596148395e-01
3.94073717466303e-08,0.00000000000000e+00,0.00000000000000e+00,7.24833711943994e-01
4.00221152398910e-08,0.00000000000000e+00,0.00000000000000e+00,7.24997989799108e-01
4.12516022264122e-08,0.00000000000000e+00,0.00000000000000e+00,7.24867233705674e-01
4.37105761994547e-08,0.00000000000000e+00,0.00000000000000e+00,7.25012427462052e-01
4.50000000000000e-08,0.00000000000000e+00,0.00000000000000e+00,7.24888796374601e-01
4.50100000000000e-08,7.24999999999862e-02,0.00000000000000e+00,7.24992718700608e-01
4.50300000000000e-08,2.17500000000007e-01,0.00000000000000e+00,7.25078811630688e-01
4.50700000000000e-08,5.07500000000000e-01,0.00000000000000e+00,7.24988093917717e-01
4.51000000000000e-08,7.25000000000000e-01,0.00000000000000e+00,7.24798208387731e-01
4.51080000000000e-08,7.25000000000000e-01,0.00000000000000e+00,7.24724782052718e-01
4.51240000000000e-08,7.25000000000000e-01,0.00000000000000e+00,7.24634276774514e-01
4.51560000000000e-08,7.25000000000000e-01,0.00000000000000e+00,7.24658271215123e-01
4.52200000000000e-08,7.25000000000000e-01,0.00000000000000e+00,7.25198891232534e-01
4.53480000000000e-08,7.25000000000000e-01,0.00000000000000e+00,7.34455885805924e-01
4.56040000000000e-08,7.25000000000000e-01,0.00000000000000e+00,3.00132181172367e-01
4.59746294780093e-08,7.25000000000000e-01,0.00000000000000e+00,-7.79255060651143e-02
4.64122296884287e-08,7.25000000000000e-01,0.00000000000000e+00,5.61348160585748e-02
4.71540739617220e-08,7.25000000000000e-01,0.00000000000000e+00,-3.75761491432100e-02
4.79637230054788e-08,7.25000000000000e-01,0.00000000000000e+00,3.17197870170080e-02
4.95830210929925e-08,7.25000000000000e-01,0.00000000000000e+00,-2.58794239720463e-02
5.00000000000000e-08,7.25000000000000e-01,0.00000000000000e+00,1.65038862219829e-02
5.00100000000000e-08,7.25000000000000e-01,7.24999999999862e-02,1.44807259387895e-02
5.00300000000000e-08,7.25000000000000e-01,2.17499999999959e-01,1.01905038843847e-02
5.00700000000000e-08,7.25000000000000e-01,5.07500000000000e-01,4.12475810924217e-03
5.01000000000000e-08,7.25000000000000e-01,7.25000000000000e-01,2.20527052156250e-03
5.01080000000000e-08,7.25000000000000e-01,7.25000000000000e-01,1.87463638839269e-03
5.01240000000000e-08,7.25000000000000e-01,7.25000000000000e-01,1.31954697405354e-03
5.01560000000000e-08,7.25000000000000e-01,7.25000000000000e-01,6.63752011756349e-04
5.02200000000000e-08,7.25000000000000e-01,7.25000000000000e-01,1.28332142365149e-04
5.03480000000000e-08,7.25000000000000e-01,7.25000000000000e-01,-1.80977249152198e-05
5.06040000000000e-08,7.25000000000000e-01,7.25000000000000e-01,1.00039967047653e-05
5.11160000000001e-08,7.25000000000000e-01,7.25000000000000e-01,-7.69558141846226e-06
5.21400000000002e-08,7.25000000000000e-01,7.25000000000000e-01,9.05567371211127e-06
5.41880000000003e-08,7.25000000000000e-01,7.25000000000000e-01,-5.46659322552771e-06
5.51000000000000e-08,7.25000000000000e-01,7.25000000000000e-01,7.26340486230728e-06
5.51100000000000e-08,6.52500000000026e-01,7.25000000000000e-01,-9.01332450911063e-05
5.51300000000000e-08,5.07500000000005e-01,7.25000000000000e-01,-2.18805852600965e-04
5.51700000000000e-08,2.17500000000012e-01,7.25000000000000e-01,-4.89432418310232e-05
5.52000000000000e-08,0.00000000000000e+00,7.25000000000000e-01,4.07323238833537e-04
5.52080000000000e-08,0.00000000000000e+00,7.25000000000000e-01,5.64974100603535e-04
5.52240000000000e-08,0.00000000000000e+00,7.25000000000000e-01,6.17121713070240e-04
5.52560000000000e-08,0.00000000000000e+00,7.25000000000000e-01,-2.86538184301438e-04
5.53200000000000e-08,0.00000000000000e+00,7.25000000000000e-01,-1.69570473389966e-03
5.54480000000000e-08,0.00000000000000e+00,7.25000000000000e-01,-3.54598505019295e-04
5.57040000000000e-08,0.00000000000000e+00,7.25000000000000e-01,6.76754566012426e-05
5.60239435849827e-08,0.00000000000000e+00,7.25000000000000e-01,-5.71853268721383e-05
5.65748997435911e-08,0.00000000000000e+00,7.25000000000000e-01,2.27526260807395e-04
5.73532054773694e-08,0.00000000000000e+00,7.25000000000000e-01,-2.84719530024312e-04
5.86164014058561e-08,0.00000000000000e+00,7.25000000000000e-01,3.08928400150896e-04
6.11427932628296e-08,0.00000000000000e+00,7.25000000000000e-01,-3.12475191016038e-04
6.49427932628296e-08,0.00000000000000e+00,7.25000000000000e-01,3.19048963676986e-04
6.50000000000000e-08,0.00000000000000e+00,7.25000000000000e-01,-1.18813236632397e-04
6.50100000000000e-08,7.24999999999862e-02,7.25000000000000e-01,6.59886674572313e-05
6.50300000000000e-08,2.17499999999959e-01,7.25000000000000e-01,3.31883969457908e-04
6.50700000000000e-08,5.07499999999904e-01,7.25000000000000e-01,5.98077079365114e-04
6.51000000000000e-08,7.24999999999958e-01,7.25000000000000e-01,-3.70973505521677e-04
6.51080000000000e-08,7.25000000000000e-01,7.25000000000000e-01,-1.11258179042115e-03
6.51240000000000e-08,7.25000000000000e-01,7.25000000000000e-01,-2.64791676790306e-03
6.51560000000000e-08,7.25000000000000e-01,7.25000000000000e-01,-5.21686438731424e-03
6.52200000000000e-08,7.25000000000000e-01,7.25000000000000e-01,-4.61555089308185e-03
6.53480000000000e-08,7.25000000000000e-01,7.25000000000000e-01,2.04625608075899e-01
6.56040000000000e-08,7.25000000000000e-01,7.25000000000000e-01,7.06226566651461e-01
6.60597937489336e-08,7.25000000000000e-01,7.25000000000000e-01,7.30592802103285e-01
6.66143425768709e-08,7.25000000000000e-01,7.25000000000000e-01,7.19632030482223e-01
6.74540719594118e-08,7.25000000000000e-01,7.25000000000000e-01,7.29625533934821e-01
6.86533129474055e-08,7.25000000000000e-01,7.25000000000000e-01,7.20365181394925e-01
7.01000000000000e-08,7.25000000000000e-01,7.25000000000000e-01,7.29300079252943e-01
7.01100000000000e-08,7.25000000000000e-01,6.52500000000014e-01,7.27304401353689e-01
7.01300000000000e-08,7.25000000000000e-01,5.07500000000041e-01,7.25183271193101e-01
7.01700000000000e-08,7.25000000000000e-01,2.17500000000096e-01,7.25004691377776e-01
7.02000000000000e-08,7.25000000000000e-01,4.15223411209809e-14,7.25044851113577e-01
7.02080000000000e-08,7.25000000000000e-01,0.00000000000000e+00,7.25036101508710e-01
7.02240000000000e-08,7.25000000000000e-01,0.00000000000000e+00,7.25021667342078e-01
7.02560000000000e-08,7.25000000000000e-01,0.00000000000000e+00,7.24990553948077e-01
7.03200000000000e-08,7.25000000000000e-01,0.00000000000000e+00,7.24976219935834e-01
7.04480000000000e-08,7.25000000000000e-01,0.00000000000000e+00,7.25006904216458e-01
7.06568276854997e-08,7.25000000000000e-01,0.00000000000000e+00,7.24975389758860e-01
7.09908345135896e-08,7.25000000000000e-01,0.00000000000000e+00,7.24986509811360e-01
7.15035126267056e-08,7.25000000000000e-01,0.00000000000000e+00,7.24986412348637e-01
7.25288688529375e-08,7.25000000000000e-01,0.00000000000000e+00,7.24985162516125e-01
7.45795813054014e-08,7.25000000000000e-01,0.00000000000000e+00,7.24990588798493e-01
7.51000000000000e-08,7.25000000000000e-01,0.00000000000000e+00,7.24985699874712e-01
7.51100000000000e-08,6.52500000000074e-01,0.00000000000000e+00,7.24903579967850e-01
7.51300000000000e-08,5.07500000000101e-01,0.00000000000000e+00,7.24828093821248e-01
7.51700000000000e-08,2.17500000000156e-01,0.00000000000000e+00,7.26130882125135e-01
7.52000000000000e-08,1.01474384450739e-13,0.00000000000000e+00,7.28781845921909e-01
7.52080000000000e-08,0.00000000000000e+00,0.00000000000000e+00,7.29150185250144e-01
7.52240000000000e-08,0.00000000000000e+00,0.00000000000000e+00,7.28292850554558e-01
7.52560000000000e-08,0.00000000000000e+00,0.00000000000000e+00,7.18548021823306e-01
7.53200000000000e-08,0.00000000000000e+00,0.00000000000000e+00,7.02177010668049e-01
7.54480000000000e-08,0.00000000000000e+00,0.00000000000000e+00,7.18119448268337e-01
7.56865811726315e-08,0.00000000000000e+00,0.00000000000000e+00,7.27572556266793e-01
7.59884072172129e-08,0.00000000000000e+00,0.00000000000000e+00,7.22118937946746e-01
7.65463676911238e-08,0.00000000000000e+00,0.00000000000000e+00,7.26857024418615e-01
7.73147970766255e-08,0.00000000000000e+00,0.00000000000000e+00,7.22979283575151e-01
7.81000000000000e-08,0.00000000000000e+00,0.00000000000000e+00,7.26552622508173e-01
7.82536858771004e-08,0.00000000000000e+00,0.00000000000000e+00,7.25090004647885e-01
7.85610576313010e-08,0.00000000000000e+00,0.00000000000000e+00,7.24748550321385e-01
7.91758011397024e-08,0.00000000000000e+00,0.00000000000000e+00,7.25042636989625e-01
8.04052881565051e-08,0.00000000000000e+00,0.00000000000000e+00,7.24805120019594e-01
8.28642621901106e-08,0.00000000000000e+00,0.00000000000000e+00,7.25061871444803e-01
8.50000000000000e-08,0.00000000000000e+00,0.00000000000000e+00,7.24836036821528e-01
8.50100000000000e-08,7.24999999999862e-02,0.00000000000000e+00,7.24950316064410e-01
8.50300000000000e-08,2.17499999999959e-01,0.00000000000000e+00,7.25053787704246e-01
8.50700000000000e-08,5.07499999999904e-01,0.00000000000000e+00,7.24985903437130e-01
8.51000000000000e-08,7.24999999999958e-01,0.00000000000000e+00,7.24813485385948e-01
8.51080000000000e-08,7.25000000000000e-01,0.00000000000000e+00,7.24729841487780e-01
8.51240000000000e-08,7.25000000000000e-01,0.00000000000000e+00,7.24652232922130e-01
8.51560000000000e-08,7.25000000000000e-01,0.00000000000000e+00,7.24675933553434e-01
8.52200000000000e-08,7.25000000000000e-01,0.00000000000000e+00,7.25173175303360e-01
8.53480000000000e-08,7.25000000000000e-01,0.00000000000000e+00,7.34480642106092e-01
8.56040000000000e-08,7.25000000000000e-01,0.00000000000000e+00,3.00091412093508e-01
8.59740715128778e-08,7.25000000000000e-01,0.00000000000000e+00,-7.78044249385016e-02
8.64118367324336e-08,7.25000000000000e-01,0.00000000000000e+00,5.60883940798130e-02
8.71526762896665e-08,7.25000000000000e-01,0.00000000000000e+00,-3.75308580325350e-02
8.79622392503289e-08,7.25000000000000e-01,0.00000000000000e+00,3.16808071602331e-02
8.95813651716538e-08,7.25000000000000e-01,0.00000000000000e+00,-2.58481077049175e-02
9.00000000000000e-08,7.25000000000000e-01,0.00000000000000e+00,1.65177627503457e-02
9.00100000000000e-08,7.25000000000000e-01,7.24999999999862e-02,1.44925239517544e-02
9.00300000000000e-08,7.25000000000000e-01,2.17499999999959e-01,1.01988068940308e-02
9.00700000000000e-08,7.25000000000000e-01,5.07499999999904e-01,4.12845478617668e-03
9.01000000000000e-08,7.25000000000000e-01,7.24999999999958e-01,2.20712652870765e-03
9.01080000000000e-08,7.25000000000000e-01,7.25000000000000e-01,1.87623811497059e-03
9.01240000000000e-08,7.25000000000000e-01,7.25000000000000e-01,1.32068927725872e-03
9.01560000000000e-08,7.25000000000000e-01,7.25000000000000e-01,6.64319249751161e-04
9.02200000000000e-08,7.25000000000000e-01,7.25000000000000e-01,1.28443492573647e-04
9.03480000000000e-08,7.25000000000000e-01,7.25000000000000e-01,-1.81192333847183e-05
9.06040000000000e-08,7.25000000000000e-01,7.25000000000000e-01,1.00103070100159e-05
9.11159999999999e-08,7.25000000000000e-01,7.25000000000000e-01,-7.70832034063459e-06
9.21399999999999e-08,7.25000000000000e-01,7.25000000000000e-01,9.06090775894784e-06
9.41879999999998e-08,7.25000000000000e-01,7.25000000000000e-01,-5.47712316245532e-06
9.51000000000000e-08,7.25000000000000e-01,7.25000000000000e-01,7.26724987566880e-06
9.51100000000000e-08,6.52500000000074e-01,7.25000000000000e-01,-9.01284088296456e-05
9.51300000000000e-08,5.07500000000101e-01,7.25000000000000e-01,-2.18800644161424e-04
9.51700000000000e-08,2.17500000000156e-01,7.25000000000000e-01,-4.89428082088572e-05
9.52000000000000e-08,1.01474384450739e-13,7.25000000000000e-01,4.07287528376099e-04
9.52080000000000e-08,0.00000000000000e+00,7.25000000000000e-01,5.64897100949119e-04
9.52240000000000e-08,0.00000000000000e+00,7.25000000000000e-01,6.16886425163762e-04
9.52560000000000e-08,0.00000000000000e+00,7.25000000000000e-01,-2.87322822475455e-04
9.53200000000000e-08,0.00000000000000e+00,7.25000000000000e-01,-1.69813066429488e-03
9.54480000000000e-08,0.00000000000000e+00,7.25000000000000e-01,-3.55521202399560e-04
9.57039851177029e-08,0.00000000000000e+00,7.25000000000000e-01,6.84066845449485e-05
9.60239320004523e-08,0.00000000000000e+00,7.25000000000000e-01,-5.77726361615308e-05
9.65748570019570e-08,0.00000000000000e+00,7.25000000000000e-01,2.28042079304307e-04
9.73531594301635e-08,0.00000000000000e+00,7.25000000000000e-01,-2.85188234798766e-04
9.86163000211410e-08,0.00000000000000e+00,7.25000000000000e-01,3.09369229750722e-04
1.01142581203096e-07,0.00000000000000e+00,7.25000000000000e-01,-3.12906120818603e-04
1.04942581203096e-07,0.00000000000000e+00,7.25000000000000e-01,3.19469266098426e-04
1.05000000000000e-07,0.00000000000000e+00,7.25000000000000e-01,-1.19637243033731e-04
1.05010000000000e-07,7.24999999999862e-02,7.25000000000000e-01,6.54651281617319e-05
1.05030000000000e-07,2.17499999999959e-01,7.25000000000000e-01,3.31729111747239e-04
1.05070000000000e-07,5.07499999999904e-01,7.25000000000000e-01,5.98102331057518e-04
1.05100000000000e-07,7.24999999999958e-01,7.25000000000000e-01,-3.70912647900096e-04
1.05108000000000e-07,7.25000000000000e-01,7.25000000000000e-01,-1.11251680984208e-03
1.05124000000000e-07,7.25000000000000e-01,7.25000000000000e-01,-2.64785263594353e-03
1.05156000000000e-07,7.25000000000000e-01,7.25000000000000e-01,-5.21681919487664e-03
1.05220000000000e-07,7.25000000000000e-01,7.25000000000000e-01,-4.61538608871621e-03
1.05348000000000e-07,7.25000000000000e-01,7.25000000000000e-01,2.04627914975103e-01
1.05604000000000e-07,7.25000000000000e-01,7.25000000000000e-01,7.06227276236708e-01
1.06059790213022e-07,7.25000000000000e-01,7.25000000000000e-01,7.30592521037757e-01
