Time,v(clk),v(data),v(out),v(reset)
1.00000000000000e-08,7.00000000000000e-01,0.00000000000000e+00,2.21928349695465e-05,0.00000000000000e+00
1.00100000000000e-08,7.00000000000000e-01,6.99999999999983e-02,1.45227347615393e-05,0.00000000000000e+00
1.00300000000000e-08,7.00000000000000e-01,2.09999999999995e-01,4.68927564584165e-06,0.00000000000000e+00
1.00700000000000e-08,7.00000000000000e-01,4.89999999999988e-01,-8.05730471648003e-08,0.00000000000000e+00
1.01000000000000e-08,7.00000000000000e-01,6.99999999999995e-01,-3.55863850123872e-08,0.00000000000000e+00
1.01080000000000e-08,7.00000000000000e-01,7.00000000000000e-01,3.55370129843935e-07,0.00000000000000e+00
1.01240000000000e-08,7.00000000000000e-01,7.00000000000000e-01,1.40999869657071e-06,0.00000000000000e+00
1.01560000000000e-08,7.00000000000000e-01,7.00000000000000e-01,2.53553880433244e-06,0.00000000000000e+00
1.02200000000000e-08,7.00000000000000e-01,7.00000000000000e-01,2.79354717805380e-06,0.00000000000000e+00
1.03480000000000e-08,7.00000000000000e-01,7.00000000000000e-01,1.50522874061906e-06,0.00000000000000e+00
1.06040000000000e-08,7.00000000000000e-01,7.00000000000000e-01,2.78643586479853e-06,0.00000000000000e+00
1.11160000000000e-08,7.00000000000000e-01,7.00000000000000e-01,2.09147602242988e-06,0.00000000000000e+00
1.21400000000000e-08,7.00000000000000e-01,7.00000000000000e-01,2.11209955828075e-06,0.00000000000000e+00
1.41880000000000e-08,7.00000000000000e-01,7.00000000000000e-01,1.63980555603410e-06,0.00000000000000e+00
1.51000000000000e-08,7.00000000000000e-01,7.00000000000000e-01,1.58684476005231e-06,0.00000000000000e+00
1.51100000000000e-08,6.29999999999990e-01,7.00000000000000e-01,1.75770284584896e-04,7.00000000000099e-02
1.51300000000000e-08,4.89999999999994e-01,7.00000000000000e-01,3.30418512492700e-04,2.10000000000007e-01
1.51700000000000e-08,2.10000000000000e-01,7.00000000000000e-01,1.88427335088386e-04,4.90000000000000e-01
1.52000000000000e-08,0.00000000000000e+00,7.00000000000000e-01,7.12897832942302e-05,7.00000000000000e-01
1.52080000000000e-08,0.00000000000000e+00,7.00000000000000e-01,4.01391765767686e-05,7.00000000000000e-01
1.52240000000000e-08,0.00000000000000e+00,7.00000000000000e-01,2.45696241206461e-06,7.00000000000000e-01
1.52560000000000e-08,0.00000000000000e+00,7.00000000000000e-01,-1.29138706528586e-05,7.00000000000000e-01
1.53200000000000e-08,0.00000000000000e+00,7.00000000000000e-01,-9.41793572191221e-05,7.00000000000000e-01
1.54480000000000e-08,0.00000000000000e+00,7.00000000000000e-01,-1.33731771475722e-04,7.00000000000000e-01
1.57040000000000e-08,0.00000000000000e+00,7.00000000000000e-01,-1.32275117180636e-04,7.00000000000000e-01
1.61215864619527e-08,0.00000000000000e+00,7.00000000000000e-01,5.65698214417629e-05,7.00000000000000e-01
1.66677384142607e-08,0.00000000000000e+00,7.00000000000000e-01,9.87459124647616e-05,7.00000000000000e-01
1.76523262541222e-08,0.00000000000000e+00,7.00000000000000e-01,-1.38016796802752e-04,7.00000000000000e-01
1.87302993362396e-08,0.00000000000000e+00,7.00000000000000e-01,1.48447434461516e-04,7.00000000000000e-01
2.08862455004744e-08,0.00000000000000e+00,7.00000000000000e-01,-1.48450217953176e-04,7.00000000000000e-01
2.40633216499590e-08,0.00000000000000e+00,7.00000000000000e-01,1.48919977667477e-04,7.00000000000000e-01
2.50000000000000e-08,0.00000000000000e+00,7.00000000000000e-01,-1.42313587477836e-04,7.00000000000000e-01
2.50100000000000e-08,6.99999999999867e-02,7.00000000000000e-01,3.96068593104537e-06,7.00000000000000e-01
2.50300000000000e-08,2.10000000000007e-01,7.00000000000000e-01,2.09598113637285e-04,7.00000000000000e-01
2.50700000000000e-08,4.90000000000000e-01,7.00000000000000e-01,1.29643403768337e-04,7.00000000000000e-01
2.51000000000000e-08,7.00000000000000e-01,7.00000000000000e-01,-1.75394654904081e-03,7.00000000000000e-01
2.51080000000000e-08,7.00000000000000e-01,7.00000000000000e-01,-2.67409151474550e-03,7.00000000000000e-01
2.51240000000000e-08,7.00000000000000e-01,7.00000000000000e-01,-4.32003717622380e-03,7.00000000000000e-01
2.51560000000000e-08,7.00000000000000e-01,7.00000000000000e-01,-6.20867305152387e-03,7.00000000000000e-01
2.52200000000000e-08,7.00000000000000e-01,7.00000000000000e-01,1.39241303601987e-02,7.00000000000000e-01
2.53480000000000e-08,7.00000000000000e-01,7.00000000000000e-01,2.81717941919986e-01,7.00000000000000e-01
2.56040000000000e-08,7.00000000000000e-01,7.00000000000000e-01,6.96063415417527e-01,7.00000000000000e-01
2.60181273133546e-08,7.00000000000000e-01,7.00000000000000e-01,6.99102568604025e-01,7.00000000000000e-01
2.65745317104253e-08,7.00000000000000e-01,7.00000000000000e-01,7.01657712005621e-01,7.00000000000000e-01
2.74493778089676e-08,7.00000000000000e-01,7.00000000000000e-01,6.98059342567639e-01,7.00000000000000e-01
2.85541715433732e-08,7.00000000000000e-01,7.00000000000000e-01,7.02034037504080e-01,7.00000000000000e-01
3.07637590121845e-08,7.00000000000000e-01,7.00000000000000e-01,6.97931514927535e-01,7.00000000000000e-01
3.44160159518050e-08,7.00000000000000e-01,7.00000000000000e-01,7.02104475660990e-01,7.00000000000000e-01
3.51000000000000e-08,6.99999999999965e-01,7.00000000000000e-01,6.97906585157868e-01,7.00000000000000e-01
3.51100000000000e-08,6.29999999999979e-01,7.00000000000000e-01,6.98732767344051e-01,7.00000000000000e-01
3.51300000000000e-08,4.89999999999959e-01,7.00000000000000e-01,6.99689331519689e-01,7.00000000000000e-01
3.51700000000000e-08,2.09999999999966e-01,7.00000000000000e-01,7.00595429553174e-01,7.00000000000000e-01
3.52000000000000e-08,0.00000000000000e+00,7.00000000000000e-01,7.02109395213976e-01,7.00000000000000e-01
3.52080000000000e-08,0.00000000000000e+00,7.00000000000000e-01,7.02536939098179e-01,7.00000000000000e-01
3.52240000000000e-08,0.00000000000000e+00,7.00000000000000e-01,7.03072449377789e-01,7.00000000000000e-01
3.52560000000000e-08,0.00000000000000e+00,7.00000000000000e-01,7.02301520633743e-01,7.00000000000000e-01
3.53200000000000e-08,0.00000000000000e+00,7.00000000000000e-01,6.91598501141626e-01,7.00000000000000e-01
3.54480000000000e-08,0.00000000000000e+00,7.00000000000000e-01,6.69879672960822e-01,7.00000000000000e-01
3.57040000000000e-08,0.00000000000000e+00,7.00000000000000e-01,6.88542433837126e-01,7.00000000000000e-01
3.62160000000000e-08,0.00000000000000e+00,7.00000000000000e-01,7.05053908639256e-01,7.00000000000000e-01
3.68478076029715e-08,0.00000000000000e+00,7.00000000000000e-01,6.95324874640945e-01,7.00000000000000e-01
3.81114228089146e-08,0.00000000000000e+00,7.00000000000000e-01,7.03275581305097e-01,7.00000000000000e-01
4.06386532208006e-08,0.00000000000000e+00,7.00000000000000e-01,6.96476805240716e-01,7.00000000000000e-01
4.44386532208006e-08,0.00000000000000e+00,7.00000000000000e-01,7.02970743878946e-01,7.00000000000000e-01
4.50000000000000e-08,0.00000000000000e+00,7.00000000000000e-01,6.97575077934016e-01,7.00000000000000e-01
4.50100000000000e-08,6.99999999999867e-02,7.00000000000000e-01,6.97876511103390e-01,6.30000000000013e-01
4.50300000000000e-08,2.10000000000007e-01,7.00000000000000e-01,6.98393800735687e-01,4.89999999999994e-01
4.50700000000000e-08,4.90000000000000e-01,7.00000000000000e-01,7.00517652236918e-01,2.10000000000000e-01
4.51000000000000e-08,7.00000000000000e-01,7.00000000000000e-01,7.04805059680518e-01,0.00000000000000e+00
4.51080000000000e-08,7.00000000000000e-01,7.00000000000000e-01,7.06242049532202e-01,0.00000000000000e+00
4.51240000000000e-08,7.00000000000000e-01,7.00000000000000e-01,7.08760872891399e-01,0.00000000000000e+00
4.51560000000000e-08,7.00000000000000e-01,7.00000000000000e-01,7.12876726712373e-01,0.00000000000000e+00
4.52200000000000e-08,7.00000000000000e-01,7.00000000000000e-01,7.17923944913824e-01,0.00000000000000e+00
4.53480000000000e-08,7.00000000000000e-01,7.00000000000000e-01,3.68291222792867e-01,0.00000000000000e+00
4.56040000000000e-08,7.00000000000000e-01,7.00000000000000e-01,-5.21146768520079e-02,0.00000000000000e+00
4.58987573466300e-08,7.00000000000000e-01,7.00000000000000e-01,3.70617140961168e-02,0.00000000000000e+00
4.64882720398899e-08,7.00000000000000e-01,7.00000000000000e-01,-2.81449151744819e-02,0.00000000000000e+00
4.70691768666322e-08,7.00000000000000e-01,7.00000000000000e-01,2.40260444063662e-02,0.00000000000000e+00
4.82309865201168e-08,7.00000000000000e-01,7.00000000000000e-01,-2.07971721894515e-02,0.00000000000000e+00
5.01000000000000e-08,7.00000000000000e-01,6.99999999999960e-01,2.02638216457596e-02,0.00000000000000e+00
5.03323619306969e-08,7.00000000000000e-01,7.00000000000000e-01,2.23206910813351e-03,0.00000000000000e+00
5.07970857920908e-08,7.00000000000000e-01,7.00000000000000e-01,-1.70511084154439e-03,0.00000000000000e+00
5.17265335148785e-08,7.00000000000000e-01,7.00000000000000e-01,1.50151835722185e-03,0.00000000000000e+00
5.35854289604540e-08,7.00000000000000e-01,7.00000000000000e-01,-1.40095516601344e-03,0.00000000000000e+00
5.51000000000000e-08,7.00000000000000e-01,7.00000000000000e-01,1.29729740451188e-03,0.00000000000000e+00
5.51100000000000e-08,6.30000000000025e-01,7.00000000000000e-01,1.14291350157628e-03,6.99999999999752e-02
5.51300000000000e-08,4.90000000000005e-01,7.00000000000000e-01,8.20690156934735e-04,2.09999999999995e-01
5.51700000000000e-08,2.10000000000012e-01,7.00000000000000e-01,2.92472915309927e-04,4.89999999999988e-01
5.52000000000000e-08,0.00000000000000e+00,7.00000000000000e-01,1.01372828252518e-04,7.00000000000000e-01
5.52080000000000e-08,0.00000000000000e+00,7.00000000000000e-01,6.30036111336843e-05,7.00000000000000e-01
5.52240000000000e-08,0.00000000000000e+00,7.00000000000000e-01,1.13761747842223e-05,7.00000000000000e-01
5.52560000000000e-08,0.00000000000000e+00,7.00000000000000e-01,-4.04149565325085e-05,7.00000000000000e-01
5.53200000000000e-08,0.00000000000000e+00,7.00000000000000e-01,-4.95486566899961e-04,7.00000000000000e-01
5.54480000000000e-08,0.00000000000000e+00,7.00000000000000e-01,-6.11692789234324e-04,7.00000000000000e-01
5.57040000000000e-08,0.00000000000000e+00,7.00000000000000e-01,3.31421907723208e-04,7.00000000000000e-01
5.61220360961970e-08,0.00000000000000e+00,7.00000000000000e-01,-3.66008792008746e-04,7.00000000000000e-01
5.66673139473345e-08,0.00000000000000e+00,7.00000000000000e-01,3.11446531381398e-04,7.00000000000000e-01
5.76563260083594e-08,0.00000000000000e+00,7.00000000000000e-01,-2.35424742157501e-04,7.00000000000000e-01
5.87383354936041e-08,0.00000000000000e+00,7.00000000000000e-01,1.82283188386680e-04,7.00000000000000e-01
6.09023544640936e-08,0.00000000000000e+00,7.00000000000000e-01,-1.55681098521197e-04,7.00000000000000e-01
6.41202913952261e-08,0.00000000000000e+00,7.00000000000000e-01,1.42280286753046e-04,7.00000000000000e-01
6.50000000000000e-08,0.00000000000000e+00,7.00000000000000e-01,-9.22299532012186e-05,7.00000000000000e-01
6.50100000000000e-08,6.99999999999867e-02,7.00000000000000e-01,7.38862529545831e-06,7.00000000000000e-01
6.50300000000000e-08,2.09999999999960e-01,7.00000000000000e-01,1.61960553219168e-04,7.00000000000000e-01
6.50700000000000e-08,4.89999999999907e-01,7.00000000000000e-01,1.14228326561390e-04,7.00000000000000e-01
6.51000000000000e-08,6.99999999999960e-01,7.00000000000000e-01,-1.72723180241093e-03,7.00000000000000e-01
6.51080000000000e-08,7.00000000000000e-01,7.00000000000000e-01,-2.64586753831341e-03,7.00000000000000e-01
6.51240000000000e-08,7.00000000000000e-01,7.00000000000000e-01,-4.29376847762362e-03,7.00000000000000e-01
6.51560000000000e-08,7.00000000000000e-01,7.00000000000000e-01,-6.21521174710016e-03,7.00000000000000e-01
6.52200000000000e-08,7.00000000000000e-01,7.00000000000000e-01,1.30509077015738e-02,7.00000000000000e-01
6.53480000000000e-08,7.00000000000000e-01,7.00000000000000e-01,2.78618264903650e-01,7.00000000000000e-01
6.56040000000000e-08,7.00000000000000e-01,7.00000000000000e-01,6.95348234348802e-01,7.00000000000000e-01
6.60195657937769e-08,7.00000000000000e-01,7.00000000000000e-01,6.99468107536686e-01,7.00000000000000e-01
6.65747804568561e-08,7.00000000000000e-01,7.00000000000000e-01,7.01323682888575e-01,7.00000000000000e-01
6.74513902515103e-08,7.00000000000000e-01,7.00000000000000e-01,6.98334946314330e-01,7.00000000000000e-01
6.85535610577161e-08,7.00000000000000e-01,7.00000000000000e-01,7.01768478141067e-01,7.00000000000000e-01
7.07579026701277e-08,7.00000000000000e-01,7.00000000000000e-01,6.98174767424629e-01,7.00000000000000e-01
7.44047613905024e-08,7.00000000000000e-01,7.00000000000000e-01,7.01856961634214e-01,7.00000000000000e-01
7.51000000000000e-08,7.00000000000000e-01,7.00000000000000e-01,6.98114583841875e-01,7.00000000000000e-01
7.51100000000000e-08,6.30000000000071e-01,7.00000000000000e-01,6.98880725908765e-01,7.00000000000000e-01
7.51300000000000e-08,4.90000000000098e-01,7.00000000000000e-01,6.99751368596716e-01,7.00000000000000e-01
7.51700000000000e-08,2.10000000000151e-01,7.00000000000000e-01,7.00603350275986e-01,7.00000000000000e-01
7.52000000000000e-08,9.80326930744013e-14,7.00000000000000e-01,7.02112402721310e-01,7.00000000000000e-01
7.52080000000000e-08,0.00000000000000e+00,7.00000000000000e-01,7.02539544457837e-01,7.00000000000000e-01
7.52240000000000e-08,0.00000000000000e+00,7.00000000000000e-01,7.03074816549398e-01,7.00000000000000e-01
7.52560000000000e-08,0.00000000000000e+00,7.00000000000000e-01,7.02306401738932e-01,7.00000000000000e-01
7.53200000000000e-08,0.00000000000000e+00,7.00000000000000e-01,6.91611775367165e-01,7.00000000000000e-01
7.54480000000000e-08,0.00000000000000e+00,7.00000000000000e-01,6.69886692381359e-01,7.00000000000000e-01
7.57040000000000e-08,0.00000000000000e+00,7.00000000000000e-01,6.88536682258325e-01,7.00000000000000e-01
7.62159999999999e-08,0.00000000000000e+00,7.00000000000000e-01,7.05058542980424e-01,7.00000000000000e-01
7.68477993569416e-08,0.00000000000000e+00,7.00000000000000e-01,6.95321227352110e-01,7.00000000000000e-01
7.81113980708248e-08,0.00000000000000e+00,7.00000000000000e-01,7.03278586370078e-01,7.00000000000000e-01
8.06385954985913e-08,0.00000000000000e+00,7.00000000000000e-01,6.96473912431868e-01,7.00000000000000e-01
8.44385954985913e-08,0.00000000000000e+00,7.00000000000000e-01,7.02973411823900e-01,7.00000000000000e-01
8.50000000000000e-08,0.00000000000000e+00,7.00000000000000e-01,6.97573033642603e-01,7.00000000000000e-01
8.50100000000000e-08,6.99999999999867e-02,7.00000000000000e-01,6.97874207783637e-01,6.30000000000013e-01
8.50300000000000e-08,2.09999999999960e-01,7.00000000000000e-01,6.98392546640267e-01,4.90000000000040e-01
8.50700000000000e-08,4.89999999999907e-01,7.00000000000000e-01,7.00517299630196e-01,2.10000000000093e-01
8.51000000000000e-08,6.99999999999960e-01,7.00000000000000e-01,7.04804971858813e-01,4.00790511889682e-14
8.51080000000000e-08,7.00000000000000e-01,7.00000000000000e-01,7.06241992312628e-01,0.00000000000000e+00
8.51240000000000e-08,7.00000000000000e-01,7.00000000000000e-01,7.08760849669302e-01,0.00000000000000e+00
8.51560000000000e-08,7.00000000000000e-01,7.00000000000000e-01,7.12876674943977e-01,0.00000000000000e+00
8.52200000000000e-08,7.00000000000000e-01,7.00000000000000e-01,7.17923929776194e-01,0.00000000000000e+00
8.53480000000000e-08,7.00000000000000e-01,7.00000000000000e-01,3.68293111180422e-01,0.00000000000000e+00
8.56040000000000e-08,7.00000000000000e-01,7.00000000000000e-01,-5.21144341639120e-02,0.00000000000000e+00
8.58987555351062e-08,7.00000000000000e-01,7.00000000000000e-01,3.70614057347414e-02,0.00000000000000e+00
8.64882666053186e-08,7.00000000000000e-01,7.00000000000000e-01,-2.81445840123551e-02,0.00000000000000e+00
8.70691698946992e-08,7.00000000000000e-01,7.00000000000000e-01,2.40257526363798e-02,0.00000000000000e+00
8.82309764734604e-08,7.00000000000000e-01,7.00000000000000e-01,-2.07968721880152e-02,0.00000000000000e+00
9.01000000000000e-08,7.00000000000000e-01,6.99999999999960e-01,2.02635541597631e-02,0.00000000000000e+00
9.03323613157522e-08,7.00000000000000e-01,7.00000000000000e-01,2.23206031041871e-03,0.00000000000000e+00
9.07970839472567e-08,7.00000000000000e-01,7.00000000000000e-01,-1.70510188904077e-03,0.00000000000000e+00
9.17265292102657e-08,7.00000000000000e-01,7.00000000000000e-01,1.50150944739194e-03,0.00000000000000e+00
9.35854197362837e-08,7.00000000000000e-01,7.00000000000000e-01,-1.40094626416688e-03,0.00000000000000e+00
9.51000000000000e-08,7.00000000000000e-01,7.00000000000000e-01,1.29728955711414e-03,0.00000000000000e+00
9.51100000000000e-08,6.30000000000071e-01,7.00000000000000e-01,1.14290914155138e-03,6.99999999999288e-02
9.51300000000000e-08,4.90000000000098e-01,7.00000000000000e-01,8.20689214383816e-04,2.09999999999902e-01
9.51700000000000e-08,2.10000000000151e-01,7.00000000000000e-01,2.92472672712228e-04,4.89999999999849e-01
9.52000000000000e-08,9.80326930744013e-14,7.00000000000000e-01,1.01372493979471e-04,6.99999999999902e-01
9.52080000000000e-08,0.00000000000000e+00,7.00000000000000e-01,6.30031705912554e-05,7.00000000000000e-01
9.52240000000000e-08,0.00000000000000e+00,7.00000000000000e-01,1.13763901988667e-05,7.00000000000000e-01
9.52560000000000e-08,0.00000000000000e+00,7.00000000000000e-01,-4.04112053966413e-05,7.00000000000000e-01
9.53200000000000e-08,0.00000000000000e+00,7.00000000000000e-01,-4.95464759547710e-04,7.00000000000000e-01
9.54480000000000e-08,0.00000000000000e+00,7.00000000000000e-01,-6.11651428210219e-04,7.00000000000000e-01
9.57040000000000e-08,0.00000000000000e+00,7.00000000000000e-01,3.31406332210583e-04,7.00000000000000e-01
9.61220354560739e-08,0.00000000000000e+00,7.00000000000000e-01,-3.66001343059802e-04,7.00000000000000e-01
9.66673135593616e-08,0.00000000000000e+00,7.00000000000000e-01,3.11443420892322e-04,7.00000000000000e-01
9.76563235469853e-08,0.00000000000000e+00,7.00000000000000e-01,-2.35423511874530e-04,7.00000000000000e-01
9.87383327200477e-08,0.00000000000000e+00,7.00000000000000e-01,1.82283447517499e-04,7.00000000000000e-01
1.00902351066173e-07,0.00000000000000e+00,7.00000000000000e-01,-1.55682013026140e-04,7.00000000000000e-01
1.04120287036588e-07,0.00000000000000e+00,7.00000000000000e-01,1.42281598608650e-04,7.00000000000000e-01
1.05000000000000e-07,0.00000000000000e+00,7.00000000000000e-01,-9.22327668415523e-05,7.00000000000000e-01
1.05010000000000e-07,6.99999999999867e-02,7.00000000000000e-01,7.38950415806600e-06,7.00000000000000e-01
1.05030000000000e-07,2.09999999999960e-01,7.00000000000000e-01,1.61964349305377e-04,7.00000000000000e-01
1.05070000000000e-07,4.89999999999907e-01,7.00000000000000e-01,1.14230036143199e-04,7.00000000000000e-01
1.05100000000000e-07,6.99999999999960e-01,7.00000000000000e-01,-1.72723140391637e-03,7.00000000000000e-01
1.05108000000000e-07,7.00000000000000e-01,7.00000000000000e-01,-2.64586734897064e-03,7.00000000000000e-01
1.05124000000000e-07,7.00000000000000e-01,7.00000000000000e-01,-4.29376849249931e-03,7.00000000000000e-01
1.05156000000000e-07,7.00000000000000e-01,7.00000000000000e-01,-6.21521169073321e-03,7.00000000000000e-01
1.05220000000000e-07,7.00000000000000e-01,7.00000000000000e-01,1.30509117149876e-02,7.00000000000000e-01
1.05348000000000e-07,7.00000000000000e-01,7.00000000000000e-01,2.78618279095575e-01,7.00000000000000e-01
1.05604000000000e-07,7.00000000000000e-01,7.00000000000000e-01,6.95348237580126e-01,7.00000000000000e-01
1.06019565787220e-07,7.00000000000000e-01,7.00000000000000e-01,6.99468105892456e-01,7.00000000000000e-01
1.06574780455360e-07,7.00000000000000e-01,7.00000000000000e-01,7.01323684372792e-01,7.00000000000000e-01
1.07451390242324e-07,7.00000000000000e-01,7.00000000000000e-01,6.98334945079605e-01,7.00000000000000e-01
1.08553561060176e-07,7.00000000000000e-01,7.00000000000000e-01,7.01768479326664e-01,7.00000000000000e-01
1.10757902695881e-07,7.00000000000000e-01,7.00000000000000e-01,6.98174766341066e-01,7.00000000000000e-01
1.14404761456306e-07,7.00000000000000e-01,7.00000000000000e-01,7.01856962737226e-01,7.00000000000000e-01
1.15100000000000e-07,7.00000000000000e-01,7.00000000000000e-01,6.98114582915661e-01,7.00000000000000e-01
