Time,v(clk),v(data),v(out)
1.00000000000000e-08,5.50000000000000e-01,0.00000000000000e+00,1.44241911776495e-05
1.00100000000000e-08,5.50000000000000e-01,5.49999999999987e-02,1.72706212106521e-05
1.00300000000000e-08,5.50000000000000e-01,1.64999999999996e-01,1.63283128102459e-05
1.00700000000000e-08,5.50000000000000e-01,3.84999999999991e-01,7.61954373591778e-06
1.01000000000000e-08,5.50000000000000e-01,5.49999999999996e-01,4.32265282975658e-06
1.01080000000000e-08,5.50000000000000e-01,5.50000000000000e-01,3.47123064831784e-06
1.01240000000000e-08,5.50000000000000e-01,5.50000000000000e-01,4.08579228536321e-06
1.01560000000000e-08,5.50000000000000e-01,5.50000000000000e-01,7.19800257112380e-06
1.02200000000000e-08,5.50000000000000e-01,5.50000000000000e-01,7.86349511615325e-06
1.03480000000000e-08,5.50000000000000e-01,5.50000000000000e-01,3.22357318758432e-06
1.06040000000000e-08,5.50000000000000e-01,5.50000000000000e-01,3.41657902773462e-06
1.11160000000000e-08,5.50000000000000e-01,5.50000000000000e-01,4.01103776322652e-06
1.21400000000000e-08,5.50000000000000e-01,5.50000000000000e-01,3.09492479522947e-06
1.41880000000000e-08,5.50000000000000e-01,5.50000000000000e-01,3.51628534622046e-06
1.51000000000000e-08,5.50000000000000e-01,5.50000000000000e-01,2.75374250084670e-06
1.51100000000000e-08,4.94999999999992e-01,5.50000000000000e-01,-7.42706325748480e-05
1.51300000000000e-08,3.84999999999995e-01,5.50000000000000e-01,-1.77649530550238e-04
1.51700000000000e-08,1.65000000000000e-01,5.50000000000000e-01,-1.30568387855454e-04
1.52000000000000e-08,0.00000000000000e+00,5.50000000000000e-01,2.20524996111596e-04
1.52080000000000e-08,0.00000000000000e+00,5.50000000000000e-01,3.88019573069165e-04
1.52240000000000e-08,0.00000000000000e+00,5.50000000000000e-01,5.61763299421494e-04
1.52560000000000e-08,0.00000000000000e+00,5.50000000000000e-01,4.18152881712062e-04
1.53200000000000e-08,0.00000000000000e+00,5.50000000000000e-01,-1.56505309812073e-04
1.54480000000000e-08,0.00000000000000e+00,5.50000000000000e-01,-3.00024128844636e-04
1.57040000000000e-08,0.00000000000000e+00,5.50000000000000e-01,1.07298326298914e-04
1.60971316030585e-08,0.00000000000000e+00,5.50000000000000e-01,-1.30664408285099e-04
1.66467102482004e-08,0.00000000000000e+00,5.50000000000000e-01,2.20987779351941e-04
1.77458675384842e-08,0.00000000000000e+00,5.50000000000000e-01,-2.31840297826801e-04
1.89519685782076e-08,0.00000000000000e+00,5.50000000000000e-01,2.37042274677776e-04
2.13641706576544e-08,0.00000000000000e+00,5.50000000000000e-01,-2.32142599546144e-04
2.50000000000000e-08,0.00000000000000e+00,5.50000000000000e-01,2.33054874415967e-04
2.50100000000000e-08,5.49999999999896e-02,5.50000000000000e-01,3.43301291792004e-04
2.50300000000000e-08,1.65000000000005e-01,5.50000000000000e-01,4.93751605260939e-04
2.50700000000000e-08,3.85000000000000e-01,5.50000000000000e-01,5.87439919776674e-04
2.51000000000000e-08,5.50000000000000e-01,5.50000000000000e-01,7.72199081841562e-05
2.51080000000000e-08,5.50000000000000e-01,5.50000000000000e-01,-3.79733625301228e-04
2.51240000000000e-08,5.50000000000000e-01,5.50000000000000e-01,-1.39574646221667e-03
2.51560000000000e-08,5.50000000000000e-01,5.50000000000000e-01,-3.33345549028537e-03
2.52200000000000e-08,5.50000000000000e-01,5.50000000000000e-01,-5.49209626828399e-03
2.53480000000000e-08,5.50000000000000e-01,5.50000000000000e-01,3.98565108224250e-02
2.56040000000000e-08,5.50000000000000e-01,5.50000000000000e-01,4.64908760781513e-01
2.61160000000000e-08,5.50000000000000e-01,5.50000000000000e-01,5.69135640875354e-01
2.66587938294612e-08,5.50000000000000e-01,5.50000000000000e-01,5.30677129279579e-01
2.77443814883837e-08,5.50000000000000e-01,5.50000000000000e-01,5.66880516660002e-01
2.93596133762927e-08,5.50000000000000e-01,5.50000000000000e-01,5.32257512142118e-01
3.01000000000000e-08,5.50000000000000e-01,5.50000000000000e-01,5.65350515576045e-01
3.01100000000000e-08,5.50000000000000e-01,4.95000000000029e-01,5.58262424350872e-01
3.01300000000000e-08,5.50000000000000e-01,3.85000000000013e-01,5.50625162687872e-01
3.01700000000000e-08,5.50000000000000e-01,1.65000000000018e-01,5.49827704163875e-01
3.02000000000000e-08,5.50000000000000e-01,1.33226762955019e-14,5.50011552158059e-01
3.02080000000000e-08,5.50000000000000e-01,0.00000000000000e+00,5.50005185445942e-01
3.02240000000000e-08,5.50000000000000e-01,0.00000000000000e+00,5.49991528660288e-01
3.02560000000000e-08,5.50000000000000e-01,0.00000000000000e+00,5.49971654177755e-01
3.03200000000000e-08,5.50000000000000e-01,0.00000000000000e+00,5.49960915224836e-01
3.04480000000000e-08,5.50000000000000e-01,0.00000000000000e+00,5.49992968597292e-01
3.06871961368032e-08,5.50000000000000e-01,0.00000000000000e+00,5.49979765375889e-01
3.10871411506931e-08,5.50000000000000e-01,0.00000000000000e+00,5.49978117623361e-01
3.16291146188311e-08,5.50000000000000e-01,0.00000000000000e+00,5.49988476725920e-01
3.27130615551073e-08,5.50000000000000e-01,0.00000000000000e+00,5.49977993278835e-01
3.48809554276596e-08,5.50000000000000e-01,0.00000000000000e+00,5.49993143521379e-01
3.51000000000000e-08,5.49999999999973e-01,0.00000000000000e+00,5.49978554524191e-01
3.51100000000000e-08,4.94999999999983e-01,0.00000000000000e+00,5.49915854746920e-01
3.51300000000000e-08,3.84999999999968e-01,0.00000000000000e+00,5.49838836531962e-01
3.51700000000000e-08,1.64999999999973e-01,0.00000000000000e+00,5.50408640575161e-01
3.52000000000000e-08,0.00000000000000e+00,0.00000000000000e+00,5.52391105513115e-01
3.52080000000000e-08,0.00000000000000e+00,0.00000000000000e+00,5.52931148767585e-01
3.52240000000000e-08,0.00000000000000e+00,0.00000000000000e+00,5.53530981503238e-01
3.52560000000000e-08,0.00000000000000e+00,0.00000000000000e+00,5.52040198348614e-01
3.53200000000000e-08,0.00000000000000e+00,0.00000000000000e+00,5.40017865154309e-01
3.54480000000000e-08,0.00000000000000e+00,0.00000000000000e+00,5.37478171775723e-01
3.56883581726132e-08,0.00000000000000e+00,0.00000000000000e+00,5.52593010452184e-01
3.60167996801855e-08,0.00000000000000e+00,0.00000000000000e+00,5.47036972446865e-01
3.66736826953303e-08,0.00000000000000e+00,0.00000000000000e+00,5.51920453347130e-01
3.74314416233501e-08,0.00000000000000e+00,0.00000000000000e+00,5.47925358213399e-01
3.89469594793896e-08,0.00000000000000e+00,0.00000000000000e+00,5.51680222103324e-01
3.91000000000000e-08,0.00000000000000e+00,0.00000000000000e+00,5.48955557039470e-01
3.94031035712079e-08,0.00000000000000e+00,0.00000000000000e+00,5.49833787349206e-01
4.00093107136237e-08,0.00000000000000e+00,0.00000000000000e+00,5.49975671399407e-01
4.12217249984554e-08,0.00000000000000e+00,0.00000000000000e+00,5.49869931281149e-01
4.36465535681186e-08,0.00000000000000e+00,0.00000000000000e+00,5.49993491289479e-01
4.50000000000000e-08,0.00000000000000e+00,0.00000000000000e+00,5.49893320036240e-01
4.50100000000000e-08,5.49999999999896e-02,0.00000000000000e+00,5.49982013546459e-01
4.50300000000000e-08,1.65000000000005e-01,0.00000000000000e+00,5.50068715250019e-01
4.50700000000000e-08,3.85000000000000e-01,0.00000000000000e+00,5.49995105506043e-01
4.51000000000000e-08,5.50000000000000e-01,0.00000000000000e+00,5.49850417380591e-01
4.51080000000000e-08,5.50000000000000e-01,0.00000000000000e+00,5.49783441861721e-01
4.51240000000000e-08,5.50000000000000e-01,0.00000000000000e+00,5.49709841636585e-01
4.51560000000000e-08,5.50000000000000e-01,0.00000000000000e+00,5.49698780001411e-01
4.52200000000000e-08,5.50000000000000e-01,0.00000000000000e+00,5.49824036046568e-01
4.53480000000000e-08,5.50000000000000e-01,0.00000000000000e+00,5.52356505722604e-01
4.56040000000000e-08,5.50000000000000e-01,0.00000000000000e+00,3.37774490351807e-01
4.61160000000000e-08,5.50000000000000e-01,0.00000000000000e+00,-3.32362473160966e-02
4.66557498312325e-08,5.50000000000000e-01,0.00000000000000e+00,2.67787765159219e-02
4.77352494936976e-08,5.50000000000000e-01,0.00000000000000e+00,-1.80612321618558e-02
4.89321589642459e-08,5.50000000000000e-01,0.00000000000000e+00,1.73525531306779e-02
5.00000000000000e-08,5.50000000000000e-01,0.00000000000000e+00,-1.19006114971461e-02
5.00100000000000e-08,5.50000000000000e-01,5.49999999999896e-02,-1.11695860962549e-02
5.00300000000000e-08,5.50000000000000e-01,1.64999999999969e-01,-8.46012953773026e-03
5.00700000000000e-08,5.50000000000000e-01,3.85000000000000e-01,-3.36463145384719e-03
5.01000000000000e-08,5.50000000000000e-01,5.50000000000000e-01,-1.81161021760851e-03
5.01080000000000e-08,5.50000000000000e-01,5.50000000000000e-01,-1.52940936329275e-03
5.01240000000000e-08,5.50000000000000e-01,5.50000000000000e-01,-1.06355599093141e-03
5.01560000000000e-08,5.50000000000000e-01,5.50000000000000e-01,-5.25132661502510e-04
5.02200000000000e-08,5.50000000000000e-01,5.50000000000000e-01,-8.81500451940104e-05
5.03480000000000e-08,5.50000000000000e-01,5.50000000000000e-01,1.34270579689733e-05
5.06040000000000e-08,5.50000000000000e-01,5.50000000000000e-01,-4.26427471483456e-06
5.11160000000001e-08,5.50000000000000e-01,5.50000000000000e-01,7.27414358080505e-06
5.21400000000002e-08,5.50000000000000e-01,5.50000000000000e-01,-3.39527527155273e-06
5.41880000000003e-08,5.50000000000000e-01,5.50000000000000e-01,5.69891242087816e-06
5.51000000000000e-08,5.50000000000000e-01,5.50000000000000e-01,-2.02338091875431e-06
5.51100000000000e-08,4.95000000000020e-01,5.50000000000000e-01,-7.99266907058754e-05
5.51300000000000e-08,3.85000000000004e-01,5.50000000000000e-01,-1.80100444280802e-04
5.51700000000000e-08,1.65000000000009e-01,5.50000000000000e-01,-1.27085784599808e-04
5.52000000000000e-08,0.00000000000000e+00,5.50000000000000e-01,2.16769787524815e-04
5.52080000000000e-08,0.00000000000000e+00,5.50000000000000e-01,3.82769603634231e-04
5.52240000000000e-08,0.00000000000000e+00,5.50000000000000e-01,5.46221625670501e-04
5.52560000000000e-08,0.00000000000000e+00,5.50000000000000e-01,3.46041774021991e-04
5.53200000000000e-08,0.00000000000000e+00,5.50000000000000e-01,-6.22585844890125e-04
5.54480000000000e-08,0.00000000000000e+00,5.50000000000000e-01,-5.32593013161563e-04
5.57040000000000e-08,0.00000000000000e+00,5.50000000000000e-01,2.67310745010407e-04
5.60964682007575e-08,0.00000000000000e+00,5.50000000000000e-01,-2.57057501832449e-04
5.66463792780690e-08,0.00000000000000e+00,5.50000000000000e-01,3.25515395124404e-04
5.77462014326920e-08,0.00000000000000e+00,5.50000000000000e-01,-3.29122333138324e-04
5.89515822195969e-08,0.00000000000000e+00,5.50000000000000e-01,3.26421363843954e-04
6.13623437934068e-08,0.00000000000000e+00,5.50000000000000e-01,-3.19535717055344e-04
6.50000000000000e-08,0.00000000000000e+00,5.50000000000000e-01,3.17985092203004e-04
6.50100000000000e-08,5.49999999999896e-02,5.50000000000000e-01,3.89316322172359e-04
6.50300000000000e-08,1.64999999999969e-01,5.50000000000000e-01,5.08046241788927e-04
6.50700000000000e-08,3.84999999999927e-01,5.50000000000000e-01,5.90754933941000e-04
6.51000000000000e-08,5.49999999999969e-01,5.50000000000000e-01,7.59782682619933e-05
6.51080000000000e-08,5.50000000000000e-01,5.50000000000000e-01,-3.80451007356758e-04
6.51240000000000e-08,5.50000000000000e-01,5.50000000000000e-01,-1.39617201117397e-03
6.51560000000000e-08,5.50000000000000e-01,5.50000000000000e-01,-3.33402910908818e-03
6.52200000000000e-08,5.50000000000000e-01,5.50000000000000e-01,-5.49219390707912e-03
6.53480000000000e-08,5.50000000000000e-01,5.50000000000000e-01,3.98646215390908e-02
6.56040000000000e-08,5.50000000000000e-01,5.50000000000000e-01,4.64916436347405e-01
6.61159999999999e-08,5.50000000000000e-01,5.50000000000000e-01,5.69134728814331e-01
6.66587996615247e-08,5.50000000000000e-01,5.50000000000000e-01,5.30677962305786e-01
6.77443989845743e-08,5.50000000000000e-01,5.50000000000000e-01,5.66879748360622e-01
6.93596214459292e-08,5.50000000000000e-01,5.50000000000000e-01,5.32258301729805e-01
7.01000000000000e-08,5.50000000000000e-01,5.50000000000000e-01,5.65349801117265e-01
7.01100000000000e-08,5.50000000000000e-01,4.95000000000010e-01,5.58262058213057e-01
7.01300000000000e-08,5.50000000000000e-01,3.85000000000031e-01,5.50625152105993e-01
7.01700000000000e-08,5.50000000000000e-01,1.65000000000073e-01,5.49827700610570e-01
7.02000000000000e-08,5.50000000000000e-01,3.15303338993544e-14,5.50011552467983e-01
7.02080000000000e-08,5.50000000000000e-01,0.00000000000000e+00,5.50005180242158e-01
7.02240000000000e-08,5.50000000000000e-01,0.00000000000000e+00,5.49991519896880e-01
7.02560000000000e-08,5.50000000000000e-01,0.00000000000000e+00,5.49971653066247e-01
7.03200000000000e-08,5.50000000000000e-01,0.00000000000000e+00,5.49960921823500e-01
7.04480000000000e-08,5.50000000000000e-01,0.00000000000000e+00,5.49992969697570e-01
7.06871966912001e-08,5.50000000000000e-01,0.00000000000000e+00,5.49979771372045e-01
7.10871414229887e-08,5.50000000000000e-01,0.00000000000000e+00,5.49978113137576e-01
7.16291175139871e-08,5.50000000000000e-01,0.00000000000000e+00,5.49988482656798e-01
7.27130696959839e-08,5.50000000000000e-01,0.00000000000000e+00,5.49977988559573e-01
7.48809740599774e-08,5.50000000000000e-01,0.00000000000000e+00,5.49993149003323e-01
7.51000000000000e-08,5.50000000000000e-01,0.00000000000000e+00,5.49978549163771e-01
7.51100000000000e-08,4.95000000000056e-01,0.00000000000000e+00,5.49915849100046e-01
7.51300000000000e-08,3.85000000000077e-01,0.00000000000000e+00,5.49838831492947e-01
7.51700000000000e-08,1.65000000000118e-01,0.00000000000000e+00,5.50408639799143e-01
7.52000000000000e-08,7.69384556065233e-14,0.00000000000000e+00,5.52391105187686e-01
7.52080000000000e-08,0.00000000000000e+00,0.00000000000000e+00,5.52931146773542e-01
7.52240000000000e-08,0.00000000000000e+00,0.00000000000000e+00,5.53530980697346e-01
7.52560000000000e-08,0.00000000000000e+00,0.00000000000000e+00,5.52040228931160e-01
7.53200000000000e-08,0.00000000000000e+00,0.00000000000000e+00,5.40017940861481e-01
7.54480000000000e-08,0.00000000000000e+00,0.00000000000000e+00,5.37478186904999e-01
7.56883581682429e-08,0.00000000000000e+00,0.00000000000000e+00,5.52592994500327e-01
7.60167996777866e-08,0.00000000000000e+00,0.00000000000000e+00,5.47036985877661e-01
7.66736826968741e-08,0.00000000000000e+00,0.00000000000000e+00,5.51920442232836e-01
7.74314416215247e-08,0.00000000000000e+00,0.00000000000000e+00,5.47925368324561e-01
7.81000000000000e-08,0.00000000000000e+00,0.00000000000000e+00,5.51518349034748e-01
7.82515517849301e-08,0.00000000000000e+00,0.00000000000000e+00,5.50094027563356e-01
7.85546553547903e-08,0.00000000000000e+00,0.00000000000000e+00,5.49727210794867e-01
7.91608624945108e-08,0.00000000000000e+00,0.00000000000000e+00,5.50033431357738e-01
8.03732767739516e-08,0.00000000000000e+00,0.00000000000000e+00,5.49794330621233e-01
8.27981053328334e-08,0.00000000000000e+00,0.00000000000000e+00,5.50054043969030e-01
8.50000000000000e-08,0.00000000000000e+00,0.00000000000000e+00,5.49830133812424e-01
8.50100000000000e-08,5.49999999999896e-02,0.00000000000000e+00,5.49932054612236e-01
8.50300000000000e-08,1.64999999999969e-01,0.00000000000000e+00,5.50039422575659e-01
8.50700000000000e-08,3.84999999999927e-01,0.00000000000000e+00,5.49991032231990e-01
8.51000000000000e-08,5.49999999999969e-01,0.00000000000000e+00,5.49862500264043e-01
8.51080000000000e-08,5.50000000000000e-01,0.00000000000000e+00,5.49793010150031e-01
8.51240000000000e-08,5.50000000000000e-01,0.00000000000000e+00,5.49713844336207e-01
8.51560000000000e-08,5.50000000000000e-01,0.00000000000000e+00,5.49699424838170e-01
8.52200000000000e-08,5.50000000000000e-01,0.00000000000000e+00,5.49823654351132e-01
8.53480000000000e-08,5.50000000000000e-01,0.00000000000000e+00,5.52357516569278e-01
8.56040000000000e-08,5.50000000000000e-01,0.00000000000000e+00,3.37725324661052e-01
8.61159999999999e-08,5.50000000000000e-01,0.00000000000000e+00,-3.32509798384183e-02
8.66557431867377e-08,5.50000000000000e-01,0.00000000000000e+00,2.67917958296738e-02
8.77352295602132e-08,5.50000000000000e-01,0.00000000000000e+00,-1.80702047787402e-02
8.89321168325010e-08,5.50000000000000e-01,0.00000000000000e+00,1.73611272757879e-02
9.00000000000000e-08,5.50000000000000e-01,0.00000000000000e+00,-1.19071850815895e-02
9.00100000000000e-08,5.50000000000000e-01,5.49999999999896e-02,-1.11746139158725e-02
9.00300000000000e-08,5.50000000000000e-01,1.64999999999969e-01,-8.46307985550665e-03
9.00700000000000e-08,5.50000000000000e-01,3.84999999999927e-01,-3.36585568888331e-03
9.01000000000000e-08,5.50000000000000e-01,5.49999999999969e-01,-1.81219803341501e-03
9.01080000000000e-08,5.50000000000000e-01,5.50000000000000e-01,-1.52992077821132e-03
9.01240000000000e-08,5.50000000000000e-01,5.50000000000000e-01,-1.06392241386803e-03
9.01560000000000e-08,5.50000000000000e-01,5.50000000000000e-01,-5.25312563984484e-04
9.02200000000000e-08,5.50000000000000e-01,5.50000000000000e-01,-8.81883368526390e-05
9.03480000000000e-08,5.50000000000000e-01,5.50000000000000e-01,1.34335889459200e-05
9.06040000000000e-08,5.50000000000000e-01,5.50000000000000e-01,-4.26721003414163e-06
9.11159999999999e-08,5.50000000000000e-01,5.50000000000000e-01,7.27768903543459e-06
9.21399999999999e-08,5.50000000000000e-01,5.50000000000000e-01,-3.39797664641612e-06
9.41879999999998e-08,5.50000000000000e-01,5.50000000000000e-01,5.70176363961453e-06
9.51000000000000e-08,5.50000000000000e-01,5.50000000000000e-01,-2.02552457015306e-06
9.51100000000000e-08,4.95000000000056e-01,5.50000000000000e-01,-7.99282816898103e-05
9.51300000000000e-08,3.85000000000077e-01,5.50000000000000e-01,-1.80102263638904e-04
9.51700000000000e-08,1.65000000000118e-01,5.50000000000000e-01,-1.27087230921308e-04
9.52000000000000e-08,7.69384556065233e-14,5.50000000000000e-01,2.16769642702938e-04
9.52080000000000e-08,0.00000000000000e+00,5.50000000000000e-01,3.82769982572473e-04
9.52240000000000e-08,0.00000000000000e+00,5.50000000000000e-01,5.46224118997338e-04
9.52560000000000e-08,0.00000000000000e+00,5.50000000000000e-01,3.46059553582238e-04
9.53200000000000e-08,0.00000000000000e+00,5.50000000000000e-01,-6.22417844742491e-04
9.54480000000000e-08,0.00000000000000e+00,5.50000000000000e-01,-5.32485403325039e-04
9.57040000000000e-08,0.00000000000000e+00,5.50000000000000e-01,2.67245537988112e-04
9.60964685434427e-08,0.00000000000000e+00,5.50000000000000e-01,-2.57009306580583e-04
9.66463794649656e-08,0.00000000000000e+00,5.50000000000000e-01,3.25476595466860e-04
9.77462013080116e-08,0.00000000000000e+00,5.50000000000000e-01,-3.29086792783668e-04
9.89515824704501e-08,0.00000000000000e+00,5.50000000000000e-01,3.26388991384266e-04
1.01362344795327e-07,0.00000000000000e+00,5.50000000000000e-01,-3.19504484771789e-04
1.05000000000000e-07,0.00000000000000e+00,5.50000000000000e-01,3.17954855190487e-04
1.05010000000000e-07,5.49999999999896e-02,5.50000000000000e-01,3.89297465155390e-04
1.05030000000000e-07,1.64999999999969e-01,5.50000000000000e-01,5.08038957615392e-04
1.05070000000000e-07,3.84999999999927e-01,5.50000000000000e-01,5.90752076147970e-04
1.05100000000000e-07,5.49999999999969e-01,5.50000000000000e-01,7.59778814898582e-05
1.05108000000000e-07,5.50000000000000e-01,5.50000000000000e-01,-3.80451488216797e-04
1.05124000000000e-07,5.50000000000000e-01,5.50000000000000e-01,-1.39617239941089e-03
1.05156000000000e-07,5.50000000000000e-01,5.50000000000000e-01,-3.33402917281135e-03
1.05220000000000e-07,5.50000000000000e-01,5.50000000000000e-01,-5.49219395644465e-03
1.05348000000000e-07,5.50000000000000e-01,5.50000000000000e-01,3.98646171279116e-02
1.05604000000000e-07,5.50000000000000e-01,5.50000000000000e-01,4.64916432371578e-01
1.06116000000000e-07,5.50000000000000e-01,5.50000000000000e-01,5.69134729281370e-01
1.06658799658300e-07,5.50000000000000e-01,5.50000000000000e-01,5.30677961881616e-01
1.07744398974899e-07,5.50000000000000e-01,5.50000000000000e-01,5.66879748770081e-01
1.09359621440514e-07,5.50000000000000e-01,5.50000000000000e-01,5.32258301307402e-01
1.10100000000000e-07,5.50000000000000e-01,5.50000000000000e-01,5.65349801498829e-01
1.10110000000000e-07,5.50000000000000e-01,4.95000000000083e-01,5.58262058408383e-01
