Time,v(clk),v(data),v(out)
1.00000000000000e-08,5.50000000000000e-01,0.00000000000000e+00,6.58824229063815e-06
1.00100000000000e-08,5.50000000000000e-01,5.49999999999987e-02,1.31477381152684e-05
1.00300000000000e-08,5.50000000000000e-01,1.64999999999996e-01,1.84528627265243e-05
1.00700000000000e-08,5.50000000000000e-01,3.84999999999991e-01,1.63046602214695e-05
1.01000000000000e-08,5.50000000000000e-01,5.49999999999996e-01,1.33569755490642e-05
1.01080000000000e-08,5.50000000000000e-01,5.50000000000000e-01,1.16609578302632e-05
1.01240000000000e-08,5.50000000000000e-01,5.50000000000000e-01,1.06274753173333e-05
1.01560000000000e-08,5.50000000000000e-01,5.50000000000000e-01,1.35187783174839e-05
1.02200000000000e-08,5.50000000000000e-01,5.50000000000000e-01,1.98341466027471e-05
1.03480000000000e-08,5.50000000000000e-01,5.50000000000000e-01,1.37900443433897e-05
1.06040000000000e-08,5.50000000000000e-01,5.50000000000000e-01,1.30510930122889e-05
1.11160000000000e-08,5.50000000000000e-01,5.50000000000000e-01,1.35132119146713e-05
1.21400000000000e-08,5.50000000000000e-01,5.50000000000000e-01,1.30258814807788e-05
1.41880000000000e-08,5.50000000000000e-01,5.50000000000000e-01,1.23921417211617e-05
1.51000000000000e-08,5.50000000000000e-01,5.50000000000000e-01,1.24868775440313e-05
1.51100000000000e-08,4.94999999999992e-01,5.50000000000000e-01,-6.80426196372069e-05
1.51300000000000e-08,3.84999999999995e-01,5.50000000000000e-01,-1.86861613833904e-04
1.51700000000000e-08,1.65000000000000e-01,5.50000000000000e-01,-1.58000410107204e-04
1.52000000000000e-08,0.00000000000000e+00,5.50000000000000e-01,1.95903249705857e-04
1.52080000000000e-08,0.00000000000000e+00,5.50000000000000e-01,3.71047769540597e-04
1.52240000000000e-08,0.00000000000000e+00,5.50000000000000e-01,5.75404254257894e-04
1.52560000000000e-08,0.00000000000000e+00,5.50000000000000e-01,5.06136632381714e-04
1.53200000000000e-08,0.00000000000000e+00,5.50000000000000e-01,-7.76671602953846e-05
1.54480000000000e-08,0.00000000000000e+00,5.50000000000000e-01,-4.17948714630745e-04
1.57040000000000e-08,0.00000000000000e+00,5.50000000000000e-01,1.50519395595034e-04
1.61137441904946e-08,0.00000000000000e+00,5.50000000000000e-01,-1.75312437634773e-04
1.67657444645356e-08,0.00000000000000e+00,5.50000000000000e-01,2.38334822954631e-04
1.80697450126176e-08,0.00000000000000e+00,5.50000000000000e-01,-1.98550259006178e-04
1.93329096034981e-08,0.00000000000000e+00,5.50000000000000e-01,1.96234919965892e-04
2.18592387852590e-08,0.00000000000000e+00,5.50000000000000e-01,-1.62775339558136e-04
2.50000000000000e-08,0.00000000000000e+00,5.50000000000000e-01,1.75238176435453e-04
2.50100000000000e-08,5.49999999999896e-02,5.50000000000000e-01,3.06464850530742e-04
2.50300000000000e-08,1.65000000000005e-01,5.50000000000000e-01,5.03094872134673e-04
2.50700000000000e-08,3.85000000000000e-01,5.50000000000000e-01,6.69299557419907e-04
2.51000000000000e-08,5.50000000000000e-01,5.50000000000000e-01,3.93802697418066e-04
2.51080000000000e-08,5.50000000000000e-01,5.50000000000000e-01,7.38205247161894e-05
2.51240000000000e-08,5.50000000000000e-01,5.50000000000000e-01,-6.84672023502017e-04
2.51560000000000e-08,5.50000000000000e-01,5.50000000000000e-01,-2.35266981767779e-03
2.52200000000000e-08,5.50000000000000e-01,5.50000000000000e-01,-4.64897108076689e-03
2.53480000000000e-08,5.50000000000000e-01,5.50000000000000e-01,6.45802271764457e-03
2.56040000000000e-08,5.50000000000000e-01,5.50000000000000e-01,3.64469925840439e-01
2.61160000000000e-08,5.50000000000000e-01,5.50000000000000e-01,5.69876346915672e-01
2.67054815603286e-08,5.50000000000000e-01,5.50000000000000e-01,5.33467049661637e-01
2.78844446809857e-08,5.50000000000000e-01,5.50000000000000e-01,5.66008992209531e-01
2.94458789997730e-08,5.50000000000000e-01,5.50000000000000e-01,5.34331875825257e-01
3.01000000000000e-08,5.50000000000000e-01,5.50000000000000e-01,5.64114078538303e-01
3.01100000000000e-08,5.50000000000000e-01,4.95000000000029e-01,5.57962579125177e-01
3.01300000000000e-08,5.50000000000000e-01,3.85000000000013e-01,5.51014303265528e-01
3.01700000000000e-08,5.50000000000000e-01,1.65000000000018e-01,5.49704816339473e-01
3.02000000000000e-08,5.50000000000000e-01,1.33226762955019e-14,5.49985293645044e-01
3.02080000000000e-08,5.50000000000000e-01,0.00000000000000e+00,5.49964673481631e-01
3.02240000000000e-08,5.50000000000000e-01,0.00000000000000e+00,5.49933144729630e-01
3.02560000000000e-08,5.50000000000000e-01,0.00000000000000e+00,5.49920927399414e-01
3.03200000000000e-08,5.50000000000000e-01,0.00000000000000e+00,5.49940079662753e-01
3.04480000000000e-08,5.50000000000000e-01,0.00000000000000e+00,5.49967023007691e-01
3.07040000000000e-08,5.50000000000000e-01,0.00000000000000e+00,5.49975887893697e-01
3.11128046980769e-08,5.50000000000000e-01,0.00000000000000e+00,5.49958057356756e-01
3.17084508757620e-08,5.50000000000000e-01,0.00000000000000e+00,5.49981713288798e-01
3.28997432311322e-08,5.50000000000000e-01,0.00000000000000e+00,5.49963313749048e-01
3.51000000000000e-08,5.49999999999973e-01,0.00000000000000e+00,5.49988427788552e-01
3.51100000000000e-08,4.94999999999983e-01,0.00000000000000e+00,5.49909734272393e-01
3.51300000000000e-08,3.84999999999968e-01,0.00000000000000e+00,5.49824551755734e-01
3.51700000000000e-08,1.64999999999973e-01,0.00000000000000e+00,5.50444196266225e-01
3.52000000000000e-08,0.00000000000000e+00,0.00000000000000e+00,5.52412017856738e-01
3.52080000000000e-08,0.00000000000000e+00,0.00000000000000e+00,5.52946367513242e-01
3.52240000000000e-08,0.00000000000000e+00,0.00000000000000e+00,5.53567073685205e-01
3.52560000000000e-08,0.00000000000000e+00,0.00000000000000e+00,5.52655388413132e-01
3.53200000000000e-08,0.00000000000000e+00,0.00000000000000e+00,5.42494829146895e-01
3.54480000000000e-08,0.00000000000000e+00,0.00000000000000e+00,5.36080988147928e-01
3.57040000000000e-08,0.00000000000000e+00,0.00000000000000e+00,5.50944073405072e-01
3.60741430064387e-08,0.00000000000000e+00,0.00000000000000e+00,5.48149225506838e-01
3.67465375153396e-08,0.00000000000000e+00,0.00000000000000e+00,5.50833027291152e-01
3.75921295964746e-08,0.00000000000000e+00,0.00000000000000e+00,5.48787662216540e-01
3.91000000000000e-08,0.00000000000000e+00,0.00000000000000e+00,5.50780999253707e-01
3.92691184162270e-08,0.00000000000000e+00,0.00000000000000e+00,5.49980263328894e-01
3.96073552486810e-08,0.00000000000000e+00,0.00000000000000e+00,5.49773588746543e-01
4.02838289135890e-08,0.00000000000000e+00,0.00000000000000e+00,5.49948890603085e-01
4.16367762434050e-08,0.00000000000000e+00,0.00000000000000e+00,5.49816232351894e-01
4.43426709030370e-08,0.00000000000000e+00,0.00000000000000e+00,5.49967236290008e-01
4.50000000000000e-08,0.00000000000000e+00,0.00000000000000e+00,5.49843818375215e-01
4.50100000000000e-08,5.49999999999896e-02,0.00000000000000e+00,5.49931221278494e-01
4.50300000000000e-08,1.65000000000005e-01,0.00000000000000e+00,5.50023097183490e-01
4.50700000000000e-08,3.85000000000000e-01,0.00000000000000e+00,5.49972752399574e-01
4.51000000000000e-08,5.50000000000000e-01,0.00000000000000e+00,5.49844561014441e-01
4.51080000000000e-08,5.50000000000000e-01,0.00000000000000e+00,5.49770349423761e-01
4.51240000000000e-08,5.50000000000000e-01,0.00000000000000e+00,5.49683177115958e-01
4.51560000000000e-08,5.50000000000000e-01,0.00000000000000e+00,5.49686783149559e-01
4.52200000000000e-08,5.50000000000000e-01,0.00000000000000e+00,5.49752934428824e-01
4.53480000000000e-08,5.50000000000000e-01,0.00000000000000e+00,5.50643814718805e-01
4.56040000000000e-08,5.50000000000000e-01,0.00000000000000e+00,5.48505628152174e-01
4.61160000000000e-08,5.50000000000000e-01,0.00000000000000e+00,8.67264668123813e-02
4.66558349616960e-08,5.50000000000000e-01,0.00000000000000e+00,-4.44518963616502e-02
4.77355048850881e-08,5.50000000000000e-01,0.00000000000000e+00,3.99204298077955e-02
4.90359402590739e-08,5.50000000000000e-01,0.00000000000000e+00,-3.06375251527686e-02
5.00000000000000e-08,5.50000000000000e-01,0.00000000000000e+00,2.61302966800268e-02
5.00100000000000e-08,5.50000000000000e-01,5.49999999999896e-02,2.11145813032788e-02
5.00300000000000e-08,5.50000000000000e-01,1.64999999999969e-01,1.39036354758718e-02
5.00700000000000e-08,5.50000000000000e-01,3.85000000000000e-01,7.05372356221146e-03
5.01000000000000e-08,5.50000000000000e-01,5.50000000000000e-01,4.25502015420790e-03
5.01080000000000e-08,5.50000000000000e-01,5.50000000000000e-01,3.77440770869296e-03
5.01240000000000e-08,5.50000000000000e-01,5.50000000000000e-01,2.91614728727903e-03
5.01560000000000e-08,5.50000000000000e-01,5.50000000000000e-01,1.71137458995920e-03
5.02200000000000e-08,5.50000000000000e-01,5.50000000000000e-01,5.47402867589544e-04
5.03480000000000e-08,5.50000000000000e-01,5.50000000000000e-01,-5.48917422792811e-06
5.06040000000000e-08,5.50000000000000e-01,5.50000000000000e-01,9.05800118992245e-06
5.11160000000001e-08,5.50000000000000e-01,5.50000000000000e-01,3.32142943701083e-06
5.21400000000002e-08,5.50000000000000e-01,5.50000000000000e-01,8.08331619536664e-06
5.41880000000003e-08,5.50000000000000e-01,5.50000000000000e-01,4.19674763205320e-06
5.51000000000000e-08,5.50000000000000e-01,5.50000000000000e-01,7.81687485534865e-06
5.51100000000000e-08,4.95000000000020e-01,5.50000000000000e-01,-7.43657142293908e-05
5.51300000000000e-08,3.85000000000004e-01,5.50000000000000e-01,-1.89490784911657e-04
5.51700000000000e-08,1.65000000000009e-01,5.50000000000000e-01,-1.51795516798121e-04
5.52000000000000e-08,0.00000000000000e+00,5.50000000000000e-01,1.87204888353686e-04
5.52080000000000e-08,0.00000000000000e+00,5.50000000000000e-01,3.58690850270987e-04
5.52240000000000e-08,0.00000000000000e+00,5.50000000000000e-01,5.46208976903342e-04
5.52560000000000e-08,0.00000000000000e+00,5.50000000000000e-01,3.62896676363945e-04
5.53200000000000e-08,0.00000000000000e+00,5.50000000000000e-01,-9.36762307869279e-04
5.54480000000000e-08,0.00000000000000e+00,5.50000000000000e-01,-1.47513159597436e-03
5.57040000000000e-08,0.00000000000000e+00,5.50000000000000e-01,3.63920188287847e-04
5.61121178268189e-08,0.00000000000000e+00,5.50000000000000e-01,-2.27759092530540e-04
5.67209929210161e-08,0.00000000000000e+00,5.50000000000000e-01,2.40934638493749e-04
5.79387431094105e-08,0.00000000000000e+00,5.50000000000000e-01,-1.79644433715908e-04
5.91722052701521e-08,0.00000000000000e+00,5.50000000000000e-01,1.67211937072229e-04
6.16391295916352e-08,0.00000000000000e+00,5.50000000000000e-01,-1.30248795636499e-04
6.50000000000000e-08,0.00000000000000e+00,5.50000000000000e-01,1.41370884212630e-04
6.50100000000000e-08,5.49999999999896e-02,5.50000000000000e-01,2.80675431699386e-04
6.50300000000000e-08,1.64999999999969e-01,5.50000000000000e-01,4.98162415480889e-04
6.50700000000000e-08,3.84999999999927e-01,5.50000000000000e-01,6.85501113647513e-04
6.51000000000000e-08,5.49999999999969e-01,5.50000000000000e-01,4.04732049491693e-04
6.51080000000000e-08,5.50000000000000e-01,5.50000000000000e-01,8.34194128659926e-05
6.51240000000000e-08,5.50000000000000e-01,5.50000000000000e-01,-6.77442105359680e-04
6.51560000000000e-08,5.50000000000000e-01,5.50000000000000e-01,-2.34937937428759e-03
6.52200000000000e-08,5.50000000000000e-01,5.50000000000000e-01,-4.64736491734060e-03
6.53480000000000e-08,5.50000000000000e-01,5.50000000000000e-01,6.50723845948123e-03
6.56040000000000e-08,5.50000000000000e-01,5.50000000000000e-01,3.64686706032834e-01
6.61159999999999e-08,5.50000000000000e-01,5.50000000000000e-01,5.69887199422933e-01
6.67053116673097e-08,5.50000000000000e-01,5.50000000000000e-01,5.33452920373017e-01
6.78839350019293e-08,5.50000000000000e-01,5.50000000000000e-01,5.66019485139492e-01
6.94455417342511e-08,5.50000000000000e-01,5.50000000000000e-01,5.34319558412953e-01
7.01000000000000e-08,5.50000000000000e-01,5.50000000000000e-01,5.64124170693464e-01
7.01100000000000e-08,5.50000000000000e-01,4.95000000000010e-01,5.57968325611098e-01
7.01300000000000e-08,5.50000000000000e-01,3.85000000000031e-01,5.51015197931930e-01
7.01700000000000e-08,5.50000000000000e-01,1.65000000000073e-01,5.49704708299120e-01
7.02000000000000e-08,5.50000000000000e-01,3.15303338993544e-14,5.49985398367244e-01
7.02080000000000e-08,5.50000000000000e-01,0.00000000000000e+00,5.49964755521200e-01
7.02240000000000e-08,5.50000000000000e-01,0.00000000000000e+00,5.49933198258901e-01
7.02560000000000e-08,5.50000000000000e-01,0.00000000000000e+00,5.49920961042770e-01
7.03200000000000e-08,5.50000000000000e-01,0.00000000000000e+00,5.49940085877455e-01
7.04480000000000e-08,5.50000000000000e-01,0.00000000000000e+00,5.49967031178512e-01
7.07040000000000e-08,5.50000000000000e-01,0.00000000000000e+00,5.49975883855322e-01
7.11128038945512e-08,5.50000000000000e-01,0.00000000000000e+00,5.49958058636092e-01
7.17084785202298e-08,5.50000000000000e-01,0.00000000000000e+00,5.49981711091749e-01
7.28998277715869e-08,5.50000000000000e-01,0.00000000000000e+00,5.49963314807549e-01
7.51000000000000e-08,5.50000000000000e-01,0.00000000000000e+00,5.49988425885846e-01
7.51100000000000e-08,4.95000000000056e-01,0.00000000000000e+00,5.49909733139356e-01
7.51300000000000e-08,3.85000000000077e-01,0.00000000000000e+00,5.49824551510474e-01
7.51700000000000e-08,1.65000000000118e-01,0.00000000000000e+00,5.50444196090380e-01
7.52000000000000e-08,7.69384556065233e-14,0.00000000000000e+00,5.52412016797293e-01
7.52080000000000e-08,0.00000000000000e+00,0.00000000000000e+00,5.52946365575756e-01
7.52240000000000e-08,0.00000000000000e+00,0.00000000000000e+00,5.53567068903669e-01
7.52560000000000e-08,0.00000000000000e+00,0.00000000000000e+00,5.52655366487949e-01
7.53200000000000e-08,0.00000000000000e+00,0.00000000000000e+00,5.42494776347830e-01
7.54480000000000e-08,0.00000000000000e+00,0.00000000000000e+00,5.36080976271261e-01
7.57040000000000e-08,0.00000000000000e+00,0.00000000000000e+00,5.50944088967273e-01
7.60741430065443e-08,0.00000000000000e+00,0.00000000000000e+00,5.48149212402335e-01
7.67465375049673e-08,0.00000000000000e+00,0.00000000000000e+00,5.50833037892111e-01
7.75921295882715e-08,0.00000000000000e+00,0.00000000000000e+00,5.48787652572133e-01
7.81000000000000e-08,0.00000000000000e+00,0.00000000000000e+00,5.50622868532731e-01
7.82691184166608e-08,0.00000000000000e+00,0.00000000000000e+00,5.49933022801768e-01
7.86073552499825e-08,0.00000000000000e+00,0.00000000000000e+00,5.49758330844851e-01
7.92838289166258e-08,0.00000000000000e+00,0.00000000000000e+00,5.49920079903543e-01
8.06367762499125e-08,0.00000000000000e+00,0.00000000000000e+00,5.49816176330706e-01
8.33426709164858e-08,0.00000000000000e+00,0.00000000000000e+00,5.49953909951255e-01
8.50000000000000e-08,0.00000000000000e+00,0.00000000000000e+00,5.49847215225831e-01
8.50100000000000e-08,5.49999999999896e-02,0.00000000000000e+00,5.49932785636197e-01
8.50300000000000e-08,1.64999999999969e-01,0.00000000000000e+00,5.50022326202699e-01
8.50700000000000e-08,3.84999999999927e-01,0.00000000000000e+00,5.49971856441239e-01
8.51000000000000e-08,5.49999999999969e-01,0.00000000000000e+00,5.49844031957254e-01
8.51080000000000e-08,5.50000000000000e-01,0.00000000000000e+00,5.49769784753080e-01
8.51240000000000e-08,5.50000000000000e-01,0.00000000000000e+00,5.49682657513443e-01
8.51560000000000e-08,5.50000000000000e-01,0.00000000000000e+00,5.49686463592602e-01
8.52200000000000e-08,5.50000000000000e-01,0.00000000000000e+00,5.49753031597349e-01
8.53480000000000e-08,5.50000000000000e-01,0.00000000000000e+00,5.50643851033600e-01
8.56040000000000e-08,5.50000000000000e-01,0.00000000000000e+00,5.48482352732882e-01
8.61159999999999e-08,5.50000000000000e-01,0.00000000000000e+00,8.67086995985548e-02
8.66558385745649e-08,5.50000000000000e-01,0.00000000000000e+00,-4.44458257984139e-02
8.77355157236947e-08,5.50000000000000e-01,0.00000000000000e+00,3.99142553446128e-02
8.90359915559629e-08,5.50000000000000e-01,0.00000000000000e+00,-3.06336434431219e-02
9.00000000000000e-08,5.50000000000000e-01,0.00000000000000e+00,2.61263856847881e-02
9.00100000000000e-08,5.50000000000000e-01,5.49999999999896e-02,2.11112903540878e-02
9.00300000000000e-08,5.50000000000000e-01,1.64999999999969e-01,1.39012858719427e-02
9.00700000000000e-08,5.50000000000000e-01,3.84999999999927e-01,7.05247105571548e-03
9.01000000000000e-08,5.50000000000000e-01,5.49999999999969e-01,4.25426109645781e-03
9.01080000000000e-08,5.50000000000000e-01,5.50000000000000e-01,3.77373500489643e-03
9.01240000000000e-08,5.50000000000000e-01,5.50000000000000e-01,2.91562784183200e-03
9.01560000000000e-08,5.50000000000000e-01,5.50000000000000e-01,1.71106962164957e-03
9.02200000000000e-08,5.50000000000000e-01,5.50000000000000e-01,5.47306160001163e-04
9.03480000000000e-08,5.50000000000000e-01,5.50000000000000e-01,-5.48693730328259e-06
9.06040000000000e-08,5.50000000000000e-01,5.50000000000000e-01,9.05814162446492e-06
9.11159999999999e-08,5.50000000000000e-01,5.50000000000000e-01,3.32223642860417e-06
9.21399999999999e-08,5.50000000000000e-01,5.50000000000000e-01,8.08346843645964e-06
9.41879999999998e-08,5.50000000000000e-01,5.50000000000000e-01,4.19742963062020e-06
9.51000000000000e-08,5.50000000000000e-01,5.50000000000000e-01,7.81704806827963e-06
9.51100000000000e-08,4.95000000000056e-01,5.50000000000000e-01,-7.43647644350851e-05
9.51300000000000e-08,3.85000000000077e-01,5.50000000000000e-01,-1.89490480036962e-04
9.51700000000000e-08,1.65000000000118e-01,5.50000000000000e-01,-1.51795239824656e-04
9.52000000000000e-08,7.69384556065233e-14,5.50000000000000e-01,1.87205573388409e-04
9.52080000000000e-08,0.00000000000000e+00,5.50000000000000e-01,3.58691870508632e-04
9.52240000000000e-08,0.00000000000000e+00,5.50000000000000e-01,5.46211265962479e-04
9.52560000000000e-08,0.00000000000000e+00,5.50000000000000e-01,3.62906266900553e-04
9.53200000000000e-08,0.00000000000000e+00,5.50000000000000e-01,-9.36731968156621e-04
9.54480000000000e-08,0.00000000000000e+00,5.50000000000000e-01,-1.47507005481513e-03
9.57040000000000e-08,0.00000000000000e+00,5.50000000000000e-01,3.63923653748929e-04
9.61121178347675e-08,0.00000000000000e+00,5.50000000000000e-01,-2.27772042154921e-04
9.67210031177627e-08,0.00000000000000e+00,5.50000000000000e-01,2.40949416497502e-04
9.79387736837531e-08,0.00000000000000e+00,5.50000000000000e-01,-1.79660111300519e-04
9.91722423771427e-08,0.00000000000000e+00,5.50000000000000e-01,1.67227532489152e-04
1.01639179763922e-07,0.00000000000000e+00,5.50000000000000e-01,-1.30264302652116e-04
1.05000000000000e-07,0.00000000000000e+00,5.50000000000000e-01,1.41386037971470e-04
1.05010000000000e-07,5.49999999999896e-02,5.50000000000000e-01,2.80685233490986e-04
1.05030000000000e-07,1.64999999999969e-01,5.50000000000000e-01,4.98165750448858e-04
1.05070000000000e-07,3.84999999999927e-01,5.50000000000000e-01,6.85501013701718e-04
1.05100000000000e-07,5.49999999999969e-01,5.50000000000000e-01,4.04731640199621e-04
1.05108000000000e-07,5.50000000000000e-01,5.50000000000000e-01,8.34192217900806e-05
1.05124000000000e-07,5.50000000000000e-01,5.50000000000000e-01,-6.77442044351960e-04
1.05156000000000e-07,5.50000000000000e-01,5.50000000000000e-01,-2.34937904369993e-03
1.05220000000000e-07,5.50000000000000e-01,5.50000000000000e-01,-4.64736483488106e-03
1.05348000000000e-07,5.50000000000000e-01,5.50000000000000e-01,6.50722821795042e-03
1.05604000000000e-07,5.50000000000000e-01,5.50000000000000e-01,3.64686660587418e-01
1.06116000000000e-07,5.50000000000000e-01,5.50000000000000e-01,5.69887197203202e-01
1.06705311702614e-07,5.50000000000000e-01,5.50000000000000e-01,5.33452923270832e-01
1.07883935107841e-07,5.50000000000000e-01,5.50000000000000e-01,5.66019483005069e-01
1.09445541805874e-07,5.50000000000000e-01,5.50000000000000e-01,5.34319560942312e-01
1.10100000000000e-07,5.50000000000000e-01,5.50000000000000e-01,5.64124168624055e-01
1.10110000000000e-07,5.50000000000000e-01,4.95000000000083e-01,5.57968324435691e-01
1.10130000000000e-07,5.50000000000000e-01,3.85000000000104e-01,5.51015197751840e-01
1.10170000000000e-07,5.50000000000000e-01,1.65000000000146e-01,5.49704708321040e-01
