Time,v(clk),v(data),v(out)
1.00000000000000e-08,5.50000000000000e-01,0.00000000000000e+00,-1.35782005471876e-05
1.00100000000000e-08,5.50000000000000e-01,5.49999999999987e-02,-7.08475361416855e-06
1.00300000000000e-08,5.50000000000000e-01,1.64999999999996e-01,5.44832028818998e-07
1.00700000000000e-08,5.50000000000000e-01,3.84999999999991e-01,9.61176925377838e-07
1.01000000000000e-08,5.50000000000000e-01,5.49999999999996e-01,-3.09426705534521e-06
1.01080000000000e-08,5.50000000000000e-01,5.50000000000000e-01,-4.06117165205333e-06
1.01240000000000e-08,5.50000000000000e-01,5.50000000000000e-01,-3.74982493564491e-06
1.01560000000000e-08,5.50000000000000e-01,5.50000000000000e-01,1.16156002064743e-06
1.02200000000000e-08,5.50000000000000e-01,5.50000000000000e-01,6.85421308341955e-06
1.03480000000000e-08,5.50000000000000e-01,5.50000000000000e-01,6.91864766719924e-06
1.06040000000000e-08,5.50000000000000e-01,5.50000000000000e-01,2.13328812808875e-06
1.11104020335096e-08,5.50000000000000e-01,5.50000000000000e-01,5.29824937358161e-06
1.21232061005287e-08,5.50000000000000e-01,5.50000000000000e-01,2.71439336334105e-06
1.41488142345671e-08,5.50000000000000e-01,5.50000000000000e-01,4.53786064353364e-06
1.51000000000000e-08,5.50000000000000e-01,5.50000000000000e-01,2.53168184312022e-06
1.51100000000000e-08,4.94999999999992e-01,5.50000000000000e-01,-8.38417628100940e-05
1.51300000000000e-08,3.84999999999995e-01,5.50000000000000e-01,-2.16746266387020e-04
1.51700000000000e-08,1.65000000000000e-01,5.50000000000000e-01,-2.50463549666853e-04
1.52000000000000e-08,0.00000000000000e+00,5.50000000000000e-01,7.41926261019349e-05
1.52080000000000e-08,0.00000000000000e+00,5.50000000000000e-01,2.72190413448600e-04
1.52240000000000e-08,0.00000000000000e+00,5.50000000000000e-01,5.31198929693416e-04
1.52560000000000e-08,0.00000000000000e+00,5.50000000000000e-01,5.95377538671546e-04
1.53200000000000e-08,0.00000000000000e+00,5.50000000000000e-01,2.29832578530972e-04
1.54480000000000e-08,0.00000000000000e+00,5.50000000000000e-01,-3.58038514156632e-04
1.57040000000000e-08,0.00000000000000e+00,5.50000000000000e-01,1.41202200059955e-05
1.62160000000000e-08,0.00000000000000e+00,5.50000000000000e-01,-1.09266681384342e-04
1.68787985923305e-08,0.00000000000000e+00,5.50000000000000e-01,9.35748041019265e-05
1.81517466776015e-08,0.00000000000000e+00,5.50000000000000e-01,-5.35522212168245e-06
1.97547192096568e-08,0.00000000000000e+00,5.50000000000000e-01,-3.66991906973202e-05
2.29342830646119e-08,0.00000000000000e+00,5.50000000000000e-01,5.80850634175163e-05
2.50000000000000e-08,0.00000000000000e+00,5.50000000000000e-01,-7.59156619376550e-05
2.50100000000000e-08,5.49999999999896e-02,5.50000000000000e-01,1.02148932558020e-04
2.50300000000000e-08,1.65000000000005e-01,5.50000000000000e-01,3.96103765505473e-04
2.50700000000000e-08,3.85000000000000e-01,5.50000000000000e-01,6.92670911409919e-04
2.51000000000000e-08,5.50000000000000e-01,5.50000000000000e-01,6.35806051461428e-04
2.51080000000000e-08,5.50000000000000e-01,5.50000000000000e-01,4.63783452632517e-04
2.51240000000000e-08,5.50000000000000e-01,5.50000000000000e-01,1.02968891644087e-05
2.51560000000000e-08,5.50000000000000e-01,5.50000000000000e-01,-1.31430253419631e-03
2.52200000000000e-08,5.50000000000000e-01,5.50000000000000e-01,-3.80983445262736e-03
2.53480000000000e-08,5.50000000000000e-01,5.50000000000000e-01,-5.20624750099814e-03
2.56040000000000e-08,5.50000000000000e-01,5.50000000000000e-01,1.78018820405202e-01
2.61160000000000e-08,5.50000000000000e-01,5.50000000000000e-01,5.45327967564068e-01
2.70565720992233e-08,5.50000000000000e-01,5.50000000000000e-01,5.50934741303035e-01
2.82480568173003e-08,5.50000000000000e-01,5.50000000000000e-01,5.49300174790352e-01
3.01000000000000e-08,5.50000000000000e-01,5.50000000000000e-01,5.50418868634069e-01
3.01100000000000e-08,5.50000000000000e-01,4.95000000000029e-01,5.50465209114715e-01
3.01300000000000e-08,5.50000000000000e-01,3.85000000000013e-01,5.50427424752960e-01
3.01700000000000e-08,5.50000000000000e-01,1.65000000000018e-01,5.50235738466971e-01
3.02000000000000e-08,5.50000000000000e-01,1.33226762955019e-14,5.50193121271040e-01
3.02080000000000e-08,5.50000000000000e-01,0.00000000000000e+00,5.50179085383570e-01
3.02240000000000e-08,5.50000000000000e-01,0.00000000000000e+00,5.50153232425690e-01
3.02560000000000e-08,5.50000000000000e-01,0.00000000000000e+00,5.50117845944313e-01
3.03200000000000e-08,5.50000000000000e-01,0.00000000000000e+00,5.50042904077743e-01
3.04480000000000e-08,5.50000000000000e-01,0.00000000000000e+00,5.50011461628499e-01
3.07040000000000e-08,5.50000000000000e-01,0.00000000000000e+00,5.49998638407104e-01
3.11150047044190e-08,5.50000000000000e-01,0.00000000000000e+00,5.49972306401844e-01
3.18128300977805e-08,5.50000000000000e-01,0.00000000000000e+00,5.49988678071616e-01
3.28991954836002e-08,5.50000000000000e-01,0.00000000000000e+00,5.49980589823387e-01
3.50719262552396e-08,5.50000000000000e-01,0.00000000000000e+00,5.49988917326045e-01
3.51000000000000e-08,5.49999999999973e-01,0.00000000000000e+00,5.49992338430691e-01
3.51100000000000e-08,4.94999999999983e-01,0.00000000000000e+00,5.49907501546215e-01
3.51300000000000e-08,3.84999999999968e-01,0.00000000000000e+00,5.49806066486667e-01
3.51700000000000e-08,1.64999999999973e-01,0.00000000000000e+00,5.50272275811168e-01
3.52000000000000e-08,0.00000000000000e+00,0.00000000000000e+00,5.52083184141039e-01
3.52080000000000e-08,0.00000000000000e+00,0.00000000000000e+00,5.52646420473633e-01
3.52240000000000e-08,0.00000000000000e+00,0.00000000000000e+00,5.53399771908205e-01
3.52560000000000e-08,0.00000000000000e+00,0.00000000000000e+00,5.53564355359551e-01
3.53200000000000e-08,0.00000000000000e+00,0.00000000000000e+00,5.47760452896008e-01
3.54480000000000e-08,0.00000000000000e+00,0.00000000000000e+00,5.34381977427752e-01
3.57040000000000e-08,0.00000000000000e+00,0.00000000000000e+00,5.45205402949849e-01
3.61265590567634e-08,0.00000000000000e+00,0.00000000000000e+00,5.52176581874556e-01
3.67879142334973e-08,0.00000000000000e+00,0.00000000000000e+00,5.47515980461350e-01
3.77876287739213e-08,0.00000000000000e+00,0.00000000000000e+00,5.51685178150456e-01
3.91000000000000e-08,0.00000000000000e+00,0.00000000000000e+00,5.48171433536840e-01
3.92999429080848e-08,0.00000000000000e+00,0.00000000000000e+00,5.49616970692189e-01
3.96998287242544e-08,0.00000000000000e+00,0.00000000000000e+00,5.50062148456217e-01
4.04996003565935e-08,0.00000000000000e+00,0.00000000000000e+00,5.49744418119651e-01
4.20991436212718e-08,0.00000000000000e+00,0.00000000000000e+00,5.50055732339868e-01
4.50000000000000e-08,0.00000000000000e+00,0.00000000000000e+00,5.49800594651172e-01
4.50100000000000e-08,5.49999999999896e-02,0.00000000000000e+00,5.49925263326934e-01
4.50300000000000e-08,1.65000000000005e-01,0.00000000000000e+00,5.50077958223509e-01
4.50700000000000e-08,3.85000000000000e-01,0.00000000000000e+00,5.50062709084273e-01
4.51000000000000e-08,5.50000000000000e-01,0.00000000000000e+00,5.49917186311060e-01
4.51080000000000e-08,5.50000000000000e-01,0.00000000000000e+00,5.49834477462846e-01
4.51240000000000e-08,5.50000000000000e-01,0.00000000000000e+00,5.49722558728792e-01
4.51560000000000e-08,5.50000000000000e-01,0.00000000000000e+00,5.49681522654677e-01
4.52200000000000e-08,5.50000000000000e-01,0.00000000000000e+00,5.49724584453943e-01
4.53480000000000e-08,5.50000000000000e-01,0.00000000000000e+00,5.49979425124472e-01
4.56040000000000e-08,5.50000000000000e-01,0.00000000000000e+00,5.59816967695948e-01
4.61160000000000e-08,5.50000000000000e-01,0.00000000000000e+00,1.74569228446030e-01
4.68795367851980e-08,5.50000000000000e-01,0.00000000000000e+00,-6.37729120710354e-02
4.77832814245143e-08,5.50000000000000e-01,0.00000000000000e+00,5.69511679003449e-02
4.94145809170603e-08,5.50000000000000e-01,0.00000000000000e+00,-3.92074197913962e-02
5.00000000000000e-08,5.50000000000000e-01,0.00000000000000e+00,2.65877888152532e-02
5.00100000000000e-08,5.50000000000000e-01,5.49999999999896e-02,2.37643038291371e-02
5.00300000000000e-08,5.50000000000000e-01,1.64999999999969e-01,1.84771912166641e-02
5.00700000000000e-08,5.50000000000000e-01,3.85000000000000e-01,1.05968313893018e-02
5.01000000000000e-08,5.50000000000000e-01,5.50000000000000e-01,6.98047262281365e-03
5.01080000000000e-08,5.50000000000000e-01,5.50000000000000e-01,6.28303465792621e-03
5.01240000000000e-08,5.50000000000000e-01,5.50000000000000e-01,5.02010080270677e-03
5.01560000000000e-08,5.50000000000000e-01,5.50000000000000e-01,3.20409181904772e-03
5.02200000000000e-08,5.50000000000000e-01,5.50000000000000e-01,1.23102518954131e-03
5.03480000000000e-08,5.50000000000000e-01,5.50000000000000e-01,7.50143526974251e-05
5.06040000000000e-08,5.50000000000000e-01,5.50000000000000e-01,-2.14006234414421e-05
5.11160000000001e-08,5.50000000000000e-01,5.50000000000000e-01,1.17296736496814e-05
5.21400000000002e-08,5.50000000000000e-01,5.50000000000000e-01,-9.68717293551614e-06
5.41880000000003e-08,5.50000000000000e-01,5.50000000000000e-01,9.76670426388118e-06
5.51000000000000e-08,5.50000000000000e-01,5.50000000000000e-01,-8.70669074826830e-06
5.51100000000000e-08,4.95000000000020e-01,5.50000000000000e-01,-1.01077706981166e-04
5.51300000000000e-08,3.85000000000004e-01,5.50000000000000e-01,-2.25036407468931e-04
5.51700000000000e-08,1.65000000000009e-01,5.50000000000000e-01,-2.45002834700699e-04
5.52000000000000e-08,0.00000000000000e+00,5.50000000000000e-01,7.07500094548758e-05
5.52080000000000e-08,0.00000000000000e+00,5.50000000000000e-01,2.67337137087639e-04
5.52240000000000e-08,0.00000000000000e+00,5.50000000000000e-01,5.15944915702379e-04
5.52560000000000e-08,0.00000000000000e+00,5.50000000000000e-01,5.44721440554952e-04
5.53200000000000e-08,0.00000000000000e+00,5.50000000000000e-01,-1.64008493202354e-04
5.54480000000000e-08,0.00000000000000e+00,5.50000000000000e-01,-1.40897444165644e-03
5.57040000000000e-08,0.00000000000000e+00,5.50000000000000e-01,-4.17412207896380e-05
5.61726386622559e-08,0.00000000000000e+00,5.50000000000000e-01,2.77385951071851e-05
5.68506882468574e-08,0.00000000000000e+00,5.50000000000000e-01,-6.23149981373097e-05
5.80112146812376e-08,0.00000000000000e+00,5.50000000000000e-01,1.61950408022791e-04
5.95941933817893e-08,0.00000000000000e+00,5.50000000000000e-01,-2.03659388602262e-04
6.25636523153364e-08,0.00000000000000e+00,5.50000000000000e-01,2.22646405742885e-04
6.50000000000000e-08,0.00000000000000e+00,5.50000000000000e-01,-2.35026486300943e-04
6.50100000000000e-08,5.49999999999896e-02,5.50000000000000e-01,-8.75761092877791e-06
6.50300000000000e-08,1.64999999999969e-01,5.50000000000000e-01,3.46796361252039e-04
6.50700000000000e-08,3.84999999999927e-01,5.50000000000000e-01,6.85467593386217e-04
6.51000000000000e-08,5.49999999999969e-01,5.50000000000000e-01,6.51656931755132e-04
6.51080000000000e-08,5.50000000000000e-01,5.50000000000000e-01,4.93056751461649e-04
6.51240000000000e-08,5.50000000000000e-01,5.50000000000000e-01,7.23036317152106e-05
6.51560000000000e-08,5.50000000000000e-01,5.50000000000000e-01,-1.21197033843121e-03
6.52200000000000e-08,5.50000000000000e-01,5.50000000000000e-01,-3.73501331637953e-03
6.53480000000000e-08,5.50000000000000e-01,5.50000000000000e-01,-5.27838334413996e-03
6.56040000000000e-08,5.50000000000000e-01,5.50000000000000e-01,1.75473264240628e-01
6.61159999999999e-08,5.50000000000000e-01,5.50000000000000e-01,5.44696910124926e-01
6.70658859537723e-08,5.50000000000000e-01,5.50000000000000e-01,5.51180586763883e-01
6.82533535016037e-08,5.50000000000000e-01,5.50000000000000e-01,5.48980235097504e-01
7.01000000000000e-08,5.50000000000000e-01,5.50000000000000e-01,5.50689095888466e-01
7.01100000000000e-08,5.50000000000000e-01,4.95000000000010e-01,5.50636006853545e-01
7.01300000000000e-08,5.50000000000000e-01,3.85000000000031e-01,5.50473831041144e-01
7.01700000000000e-08,5.50000000000000e-01,1.65000000000073e-01,5.50234131694315e-01
7.02000000000000e-08,5.50000000000000e-01,3.15303338993544e-14,5.50194510201982e-01
7.02080000000000e-08,5.50000000000000e-01,0.00000000000000e+00,5.50181586594672e-01
7.02240000000000e-08,5.50000000000000e-01,0.00000000000000e+00,5.50156329010226e-01
7.02560000000000e-08,5.50000000000000e-01,0.00000000000000e+00,5.50117803669827e-01
7.03200000000000e-08,5.50000000000000e-01,0.00000000000000e+00,5.50041670676377e-01
7.04480000000000e-08,5.50000000000000e-01,0.00000000000000e+00,5.50011091561926e-01
7.07040000000000e-08,5.50000000000000e-01,0.00000000000000e+00,5.49996942214187e-01
7.11146142876599e-08,5.50000000000000e-01,0.00000000000000e+00,5.49973570608668e-01
7.18126265610783e-08,5.50000000000000e-01,0.00000000000000e+00,5.49987598647222e-01
7.28970899543396e-08,5.50000000000000e-01,0.00000000000000e+00,5.49981665684111e-01
7.50660167408622e-08,5.50000000000000e-01,0.00000000000000e+00,5.49987946367927e-01
7.51000000000000e-08,5.50000000000000e-01,0.00000000000000e+00,5.49992284554348e-01
7.51100000000000e-08,4.95000000000056e-01,0.00000000000000e+00,5.49907115860515e-01
7.51300000000000e-08,3.85000000000077e-01,0.00000000000000e+00,5.49805808178426e-01
7.51700000000000e-08,1.65000000000118e-01,0.00000000000000e+00,5.50272521325350e-01
7.52000000000000e-08,7.69384556065233e-14,0.00000000000000e+00,5.52083198485063e-01
7.52080000000000e-08,0.00000000000000e+00,0.00000000000000e+00,5.52646522449658e-01
7.52240000000000e-08,0.00000000000000e+00,0.00000000000000e+00,5.53400059593995e-01
7.52560000000000e-08,0.00000000000000e+00,0.00000000000000e+00,5.53565367143659e-01
7.53200000000000e-08,0.00000000000000e+00,0.00000000000000e+00,5.47764558663714e-01
7.54480000000000e-08,0.00000000000000e+00,0.00000000000000e+00,5.34385496272130e-01
7.57040000000000e-08,0.00000000000000e+00,0.00000000000000e+00,5.45203859617505e-01
7.61265685431669e-08,0.00000000000000e+00,0.00000000000000e+00,5.52177732389617e-01
7.67879367729021e-08,0.00000000000000e+00,0.00000000000000e+00,5.47514991217870e-01
7.77876551078453e-08,0.00000000000000e+00,0.00000000000000e+00,5.51686060507176e-01
7.81000000000000e-08,0.00000000000000e+00,0.00000000000000e+00,5.48622625749678e-01
7.82999436669886e-08,0.00000000000000e+00,0.00000000000000e+00,5.49653345286430e-01
7.86998310009659e-08,0.00000000000000e+00,0.00000000000000e+00,5.49981729557648e-01
7.94996056689204e-08,0.00000000000000e+00,0.00000000000000e+00,5.49770413868617e-01
8.10991550048294e-08,0.00000000000000e+00,0.00000000000000e+00,5.50002003557200e-01
8.42982536766474e-08,0.00000000000000e+00,0.00000000000000e+00,5.49838603157194e-01
8.50000000000000e-08,0.00000000000000e+00,0.00000000000000e+00,5.50009736289552e-01
8.50100000000000e-08,5.49999999999896e-02,0.00000000000000e+00,5.50093175172588e-01
8.50300000000000e-08,1.64999999999969e-01,0.00000000000000e+00,5.50173023299216e-01
8.50700000000000e-08,3.84999999999927e-01,0.00000000000000e+00,5.50086812949794e-01
8.51000000000000e-08,5.49999999999969e-01,0.00000000000000e+00,5.49926056442213e-01
8.51080000000000e-08,5.50000000000000e-01,0.00000000000000e+00,5.49842440922189e-01
8.51240000000000e-08,5.50000000000000e-01,0.00000000000000e+00,5.49728662213702e-01
8.51560000000000e-08,5.50000000000000e-01,0.00000000000000e+00,5.49684015262427e-01
8.52200000000000e-08,5.50000000000000e-01,0.00000000000000e+00,5.49722250657276e-01
8.53480000000000e-08,5.50000000000000e-01,0.00000000000000e+00,5.49977312517028e-01
8.56040000000000e-08,5.50000000000000e-01,0.00000000000000e+00,5.59811061966413e-01
8.61159999999999e-08,5.50000000000000e-01,0.00000000000000e+00,1.74585785046005e-01
8.68795452144792e-08,5.50000000000000e-01,0.00000000000000e+00,-6.37698754757398e-02
8.77832699157078e-08,5.50000000000000e-01,0.00000000000000e+00,5.69492619709471e-02
8.94146464009042e-08,5.50000000000000e-01,0.00000000000000e+00,-3.92048872331955e-02
9.00000000000000e-08,5.50000000000000e-01,0.00000000000000e+00,2.65845432819045e-02
9.00100000000000e-08,5.50000000000000e-01,5.49999999999896e-02,2.37619858096209e-02
9.00300000000000e-08,5.50000000000000e-01,1.64999999999969e-01,1.84760677789590e-02
9.00700000000000e-08,5.50000000000000e-01,3.84999999999927e-01,1.05963781684679e-02
9.01000000000000e-08,5.50000000000000e-01,5.49999999999969e-01,6.98018799431434e-03
9.01080000000000e-08,5.50000000000000e-01,5.50000000000000e-01,6.28277757589979e-03
9.01240000000000e-08,5.50000000000000e-01,5.50000000000000e-01,5.01989646578413e-03
9.01560000000000e-08,5.50000000000000e-01,5.50000000000000e-01,3.20396198663452e-03
9.02200000000000e-08,5.50000000000000e-01,5.50000000000000e-01,1.23097541533951e-03
9.03480000000000e-08,5.50000000000000e-01,5.50000000000000e-01,7.50124617656597e-05
9.06040000000000e-08,5.50000000000000e-01,5.50000000000000e-01,-2.13997938778195e-05
9.11159999999999e-08,5.50000000000000e-01,5.50000000000000e-01,1.17302632946237e-05
9.21399999999999e-08,5.50000000000000e-01,5.50000000000000e-01,-9.68659987950204e-06
9.41879999999998e-08,5.50000000000000e-01,5.50000000000000e-01,9.76729903997674e-06
9.51000000000000e-08,5.50000000000000e-01,5.50000000000000e-01,-8.70618984653848e-06
9.51100000000000e-08,4.95000000000056e-01,5.50000000000000e-01,-1.01081154151722e-04
9.51300000000000e-08,3.85000000000077e-01,5.50000000000000e-01,-2.25035629967278e-04
9.51700000000000e-08,1.65000000000118e-01,5.50000000000000e-01,-2.45001382336518e-04
9.52000000000000e-08,7.69384556065233e-14,5.50000000000000e-01,7.07513386030492e-05
9.52080000000000e-08,0.00000000000000e+00,5.50000000000000e-01,2.67338757923966e-04
9.52240000000000e-08,0.00000000000000e+00,5.50000000000000e-01,5.15947938663414e-04
9.52560000000000e-08,0.00000000000000e+00,5.50000000000000e-01,5.44736483065737e-04
9.53200000000000e-08,0.00000000000000e+00,5.50000000000000e-01,-1.63923197677510e-04
9.54480000000000e-08,0.00000000000000e+00,5.50000000000000e-01,-1.40864076599405e-03
9.57040000000000e-08,0.00000000000000e+00,5.50000000000000e-01,-4.16847386874829e-05
9.61727144440776e-08,0.00000000000000e+00,5.50000000000000e-01,2.76740724796491e-05
9.68507371548424e-08,0.00000000000000e+00,5.50000000000000e-01,-6.22456458481812e-05
9.80114518849783e-08,0.00000000000000e+00,5.50000000000000e-01,1.61861155712276e-04
9.95944662810832e-08,0.00000000000000e+00,5.50000000000000e-01,-2.03570093823006e-04
1.02564276393673e-07,0.00000000000000e+00,5.50000000000000e-01,2.22557975839797e-04
1.05000000000000e-07,0.00000000000000e+00,5.50000000000000e-01,-2.34943390443482e-04
1.05010000000000e-07,5.49999999999896e-02,5.50000000000000e-01,-8.69777259101395e-06
1.05030000000000e-07,1.64999999999969e-01,5.50000000000000e-01,3.46829420697636e-04
1.05070000000000e-07,3.84999999999927e-01,5.50000000000000e-01,6.85481778823452e-04
1.05100000000000e-07,5.49999999999969e-01,5.50000000000000e-01,6.51642471739058e-04
1.05108000000000e-07,5.50000000000000e-01,5.50000000000000e-01,4.93018372594911e-04
1.05124000000000e-07,5.50000000000000e-01,5.50000000000000e-01,7.22038364717112e-05
1.05156000000000e-07,5.50000000000000e-01,5.50000000000000e-01,-1.21215209185487e-03
1.05220000000000e-07,5.50000000000000e-01,5.50000000000000e-01,-3.73515121067214e-03
1.05348000000000e-07,5.50000000000000e-01,5.50000000000000e-01,-5.27825323067088e-03
1.05604000000000e-07,5.50000000000000e-01,5.50000000000000e-01,1.75478165888527e-01
1.06116000000000e-07,5.50000000000000e-01,5.50000000000000e-01,5.44698135620510e-01
1.07065867647735e-07,5.50000000000000e-01,5.50000000000000e-01,5.51180041285167e-01
1.08253342908547e-07,5.50000000000000e-01,5.50000000000000e-01,5.48980850414837e-01
1.10100000000000e-07,5.50000000000000e-01,5.50000000000000e-01,5.50688576813553e-01
1.10110000000000e-07,5.50000000000000e-01,4.95000000000083e-01,5.50635681708957e-01
1.10130000000000e-07,5.50000000000000e-01,3.85000000000104e-01,5.50473746912113e-01
1.10170000000000e-07,5.50000000000000e-01,1.65000000000146e-01,5.50234134629675e-01
1.10200000000000e-07,5.50000000000000e-01,1.04249942012302e-13,5.50194507657362e-01
1.10208000000000e-07,5.50000000000000e-01,0.00000000000000e+00,5.50181582507082e-01
