Time,v(clk),v(data),v(out),v(reset)
1.00000000000000e-08,7.00000000000000e-01,0.00000000000000e+00,1.72845823323376e-03,0.00000000000000e+00
1.00100000000000e-08,7.00000000000000e-01,6.99999999999983e-02,1.39545999682637e-03,0.00000000000000e+00
1.00300000000000e-08,7.00000000000000e-01,2.09999999999995e-01,9.79955902553828e-04,0.00000000000000e+00
1.00700000000000e-08,7.00000000000000e-01,4.89999999999988e-01,3.15954976625843e-04,0.00000000000000e+00
1.01000000000000e-08,7.00000000000000e-01,6.99999999999995e-01,1.62307188227781e-04,0.00000000000000e+00
1.01080000000000e-08,7.00000000000000e-01,7.00000000000000e-01,1.35117689279665e-04,0.00000000000000e+00
1.01240000000000e-08,7.00000000000000e-01,7.00000000000000e-01,8.70887536573092e-05,0.00000000000000e+00
1.01560000000000e-08,7.00000000000000e-01,7.00000000000000e-01,4.27509535780163e-05,0.00000000000000e+00
1.02200000000000e-08,7.00000000000000e-01,7.00000000000000e-01,1.36794881181457e-05,0.00000000000000e+00
1.03480000000000e-08,7.00000000000000e-01,7.00000000000000e-01,1.05304685221637e-05,0.00000000000000e+00
1.06040000000000e-08,7.00000000000000e-01,7.00000000000000e-01,1.01751531118195e-05,0.00000000000000e+00
1.11160000000000e-08,7.00000000000000e-01,7.00000000000000e-01,1.00962682442474e-05,0.00000000000000e+00
1.21400000000000e-08,7.00000000000000e-01,7.00000000000000e-01,9.80580078540402e-06,0.00000000000000e+00
1.41880000000000e-08,7.00000000000000e-01,7.00000000000000e-01,9.73190103964287e-06,0.00000000000000e+00
1.51000000000000e-08,7.00000000000000e-01,7.00000000000000e-01,9.43595908333913e-06,0.00000000000000e+00
1.51100000000000e-08,6.29999999999990e-01,7.00000000000000e-01,1.58472253622949e-04,7.00000000000099e-02
1.51300000000000e-08,4.89999999999994e-01,7.00000000000000e-01,2.61515605820876e-04,2.10000000000007e-01
1.51700000000000e-08,2.10000000000000e-01,7.00000000000000e-01,1.70383868557528e-04,4.90000000000000e-01
1.52000000000000e-08,0.00000000000000e+00,7.00000000000000e-01,1.85445584290234e-04,7.00000000000000e-01
1.52080000000000e-08,0.00000000000000e+00,7.00000000000000e-01,1.58549245238129e-04,7.00000000000000e-01
1.52240000000000e-08,0.00000000000000e+00,7.00000000000000e-01,9.51932483213083e-05,7.00000000000000e-01
1.52560000000000e-08,0.00000000000000e+00,7.00000000000000e-01,-1.25892984318254e-04,7.00000000000000e-01
1.53200000000000e-08,0.00000000000000e+00,7.00000000000000e-01,-4.18012460250555e-04,7.00000000000000e-01
1.54480000000000e-08,0.00000000000000e+00,7.00000000000000e-01,-1.05107076880412e-04,7.00000000000000e-01
1.56693387809870e-08,0.00000000000000e+00,7.00000000000000e-01,-1.79515049190070e-04,7.00000000000000e-01
1.60161257281686e-08,0.00000000000000e+00,7.00000000000000e-01,1.74012483252297e-04,7.00000000000000e-01
1.65244465894177e-08,0.00000000000000e+00,7.00000000000000e-01,4.17240347519859e-05,7.00000000000000e-01
1.73160471373295e-08,0.00000000000000e+00,7.00000000000000e-01,-9.61870686849130e-05,7.00000000000000e-01
1.85617503939177e-08,0.00000000000000e+00,7.00000000000000e-01,1.42793272699899e-04,7.00000000000000e-01
2.10531569070939e-08,0.00000000000000e+00,7.00000000000000e-01,-1.37370819625776e-04,7.00000000000000e-01
2.48531569070939e-08,0.00000000000000e+00,7.00000000000000e-01,1.60129635408136e-04,7.00000000000000e-01
2.50000000000000e-08,0.00000000000000e+00,7.00000000000000e-01,-1.63168397091445e-04,7.00000000000000e-01
2.50100000000000e-08,6.99999999999867e-02,7.00000000000000e-01,-2.13003520251956e-05,7.00000000000000e-01
2.50300000000000e-08,2.10000000000007e-01,7.00000000000000e-01,1.86423717209332e-04,7.00000000000000e-01
2.50700000000000e-08,4.90000000000000e-01,7.00000000000000e-01,2.58518735156393e-04,7.00000000000000e-01
2.51000000000000e-08,7.00000000000000e-01,7.00000000000000e-01,-1.00356266299588e-03,7.00000000000000e-01
2.51080000000000e-08,7.00000000000000e-01,7.00000000000000e-01,-1.75341608279072e-03,7.00000000000000e-01
2.51240000000000e-08,7.00000000000000e-01,7.00000000000000e-01,-3.20302315817467e-03,7.00000000000000e-01
2.51560000000000e-08,7.00000000000000e-01,7.00000000000000e-01,-5.16977239745346e-03,7.00000000000000e-01
2.52200000000000e-08,7.00000000000000e-01,7.00000000000000e-01,8.37812709415666e-03,7.00000000000000e-01
2.53480000000000e-08,7.00000000000000e-01,7.00000000000000e-01,3.17023320794443e-01,7.00000000000000e-01
2.56040000000000e-08,7.00000000000000e-01,7.00000000000000e-01,7.11635261808085e-01,7.00000000000000e-01
2.59542607602468e-08,7.00000000000000e-01,7.00000000000000e-01,6.90933749388007e-01,7.00000000000000e-01
2.65616055784164e-08,7.00000000000000e-01,7.00000000000000e-01,7.08982743628994e-01,7.00000000000000e-01
2.73074915579760e-08,7.00000000000000e-01,7.00000000000000e-01,6.91577109422921e-01,7.00000000000000e-01
2.84527256836871e-08,7.00000000000000e-01,7.00000000000000e-01,7.08185409551765e-01,7.00000000000000e-01
3.07431939351095e-08,7.00000000000000e-01,7.00000000000000e-01,6.91987154993197e-01,7.00000000000000e-01
3.45431939351095e-08,7.00000000000000e-01,7.00000000000000e-01,7.07956363720858e-01,7.00000000000000e-01
3.51000000000000e-08,6.99999999999965e-01,7.00000000000000e-01,6.92637026063402e-01,7.00000000000000e-01
3.51100000000000e-08,6.29999999999979e-01,7.00000000000000e-01,6.95948808805224e-01,7.00000000000000e-01
3.51300000000000e-08,4.89999999999959e-01,7.00000000000000e-01,6.99553304615286e-01,7.00000000000000e-01
3.51700000000000e-08,2.09999999999966e-01,7.00000000000000e-01,7.00918900272269e-01,7.00000000000000e-01
3.52000000000000e-08,0.00000000000000e+00,7.00000000000000e-01,7.02659534793556e-01,7.00000000000000e-01
3.52080000000000e-08,0.00000000000000e+00,7.00000000000000e-01,7.02932491397691e-01,7.00000000000000e-01
3.52240000000000e-08,0.00000000000000e+00,7.00000000000000e-01,7.02581393219029e-01,7.00000000000000e-01
3.52560000000000e-08,0.00000000000000e+00,7.00000000000000e-01,6.95768978219936e-01,7.00000000000000e-01
3.53200000000000e-08,0.00000000000000e+00,7.00000000000000e-01,6.76760089519446e-01,7.00000000000000e-01
3.54480000000000e-08,0.00000000000000e+00,7.00000000000000e-01,6.85629915828739e-01,7.00000000000000e-01
3.57040000000000e-08,0.00000000000000e+00,7.00000000000000e-01,7.04584536166820e-01,7.00000000000000e-01
3.60494639148268e-08,0.00000000000000e+00,7.00000000000000e-01,6.95354724493639e-01,7.00000000000000e-01
3.67184130856317e-08,0.00000000000000e+00,7.00000000000000e-01,7.03162436677735e-01,7.00000000000000e-01
3.80563114272414e-08,0.00000000000000e+00,7.00000000000000e-01,6.96542123797518e-01,7.00000000000000e-01
4.07321081104608e-08,0.00000000000000e+00,7.00000000000000e-01,7.02967483367018e-01,7.00000000000000e-01
4.45321081104608e-08,0.00000000000000e+00,7.00000000000000e-01,6.96811901730606e-01,7.00000000000000e-01
4.50000000000000e-08,0.00000000000000e+00,7.00000000000000e-01,7.02339340237936e-01,7.00000000000000e-01
4.50100000000000e-08,6.99999999999867e-02,7.00000000000000e-01,7.01488791693397e-01,6.30000000000013e-01
4.50300000000000e-08,2.10000000000007e-01,7.00000000000000e-01,7.00339348446351e-01,4.89999999999994e-01
4.50700000000000e-08,4.90000000000000e-01,7.00000000000000e-01,7.02401513019446e-01,2.10000000000000e-01
4.51000000000000e-08,7.00000000000000e-01,7.00000000000000e-01,7.08896786735693e-01,0.00000000000000e+00
4.51080000000000e-08,7.00000000000000e-01,7.00000000000000e-01,7.11017660560465e-01,0.00000000000000e+00
4.51240000000000e-08,7.00000000000000e-01,7.00000000000000e-01,7.14938026102600e-01,0.00000000000000e+00
4.51560000000000e-08,7.00000000000000e-01,7.00000000000000e-01,7.22282751980710e-01,0.00000000000000e+00
4.52200000000000e-08,7.00000000000000e-01,7.00000000000000e-01,5.97551751495743e-01,0.00000000000000e+00
4.53480000000000e-08,7.00000000000000e-01,7.00000000000000e-01,1.22334633074086e-01,0.00000000000000e+00
4.55479559894023e-08,7.00000000000000e-01,7.00000000000000e-01,-3.86879873545789e-02,0.00000000000000e+00
4.58667066307631e-08,7.00000000000000e-01,7.00000000000000e-01,2.53964938723458e-02,0.00000000000000e+00
4.63597030315974e-08,7.00000000000000e-01,7.00000000000000e-01,-1.80947799401617e-02,0.00000000000000e+00
4.71439753930917e-08,7.00000000000000e-01,7.00000000000000e-01,1.56366843612370e-02,0.00000000000000e+00
4.85522546753957e-08,7.00000000000000e-01,7.00000000000000e-01,-1.37817337551052e-02,0.00000000000000e+00
5.01000000000000e-08,7.00000000000000e-01,6.99999999999960e-01,1.29825408186966e-02,0.00000000000000e+00
5.03816558564608e-08,7.00000000000000e-01,7.00000000000000e-01,1.35468977423008e-03,0.00000000000000e+00
5.09449675693824e-08,7.00000000000000e-01,7.00000000000000e-01,-1.01124003829780e-03,0.00000000000000e+00
5.20715909952256e-08,7.00000000000000e-01,7.00000000000000e-01,9.01448151906969e-04,0.00000000000000e+00
5.43248378469119e-08,7.00000000000000e-01,7.00000000000000e-01,-8.24470073086862e-04,0.00000000000000e+00
5.51000000000000e-08,7.00000000000000e-01,7.00000000000000e-01,6.93254544105944e-04,0.00000000000000e+00
5.51100000000000e-08,6.30000000000025e-01,7.00000000000000e-01,6.86636374333201e-04,6.99999999999752e-02
5.51300000000000e-08,4.90000000000005e-01,7.00000000000000e-01,5.64917300619083e-04,2.09999999999995e-01
5.51700000000000e-08,2.10000000000012e-01,7.00000000000000e-01,2.72242115605066e-04,4.89999999999988e-01
5.52000000000000e-08,0.00000000000000e+00,7.00000000000000e-01,2.26226070623184e-04,7.00000000000000e-01
5.52080000000000e-08,0.00000000000000e+00,7.00000000000000e-01,1.89393378750589e-04,7.00000000000000e-01
5.52240000000000e-08,0.00000000000000e+00,7.00000000000000e-01,9.20867580596479e-05,7.00000000000000e-01
5.52560000000000e-08,0.00000000000000e+00,7.00000000000000e-01,-3.77863297712340e-04,7.00000000000000e-01
5.53200000000000e-08,0.00000000000000e+00,7.00000000000000e-01,-1.14386439413906e-03,7.00000000000000e-01
5.54480000000000e-08,0.00000000000000e+00,7.00000000000000e-01,-2.75883969947446e-04,7.00000000000000e-01
5.56480247182251e-08,0.00000000000000e+00,7.00000000000000e-01,2.39253333943024e-04,7.00000000000000e-01
5.60052294936840e-08,0.00000000000000e+00,7.00000000000000e-01,-2.67473374732421e-04,7.00000000000000e-01
5.64680471915604e-08,0.00000000000000e+00,7.00000000000000e-01,3.10672641028915e-04,7.00000000000000e-01
5.72599688579279e-08,0.00000000000000e+00,7.00000000000000e-01,-2.79203346160305e-04,7.00000000000000e-01
5.85703558106638e-08,0.00000000000000e+00,7.00000000000000e-01,2.84487371498726e-04,7.00000000000000e-01
6.08021004468486e-08,0.00000000000000e+00,7.00000000000000e-01,-2.59311914020506e-04,7.00000000000000e-01
6.46021004468486e-08,0.00000000000000e+00,7.00000000000000e-01,2.71433986868269e-04,7.00000000000000e-01
6.50000000000000e-08,0.00000000000000e+00,7.00000000000000e-01,-2.05046883110436e-04,7.00000000000000e-01
6.50100000000000e-08,6.99999999999867e-02,7.00000000000000e-01,-4.68634909689611e-05,7.00000000000000e-01
6.50300000000000e-08,2.09999999999960e-01,7.00000000000000e-01,1.73669503839922e-04,7.00000000000000e-01
6.50700000000000e-08,4.89999999999907e-01,7.00000000000000e-01,2.35837733621604e-04,7.00000000000000e-01
6.51000000000000e-08,6.99999999999960e-01,7.00000000000000e-01,-1.05573776450114e-03,7.00000000000000e-01
6.51080000000000e-08,7.00000000000000e-01,7.00000000000000e-01,-1.81073649352378e-03,7.00000000000000e-01
6.51240000000000e-08,7.00000000000000e-01,7.00000000000000e-01,-3.25898203844830e-03,7.00000000000000e-01
6.51560000000000e-08,7.00000000000000e-01,7.00000000000000e-01,-5.18930824224300e-03,7.00000000000000e-01
6.52200000000000e-08,7.00000000000000e-01,7.00000000000000e-01,8.88874600745305e-03,7.00000000000000e-01
6.53480000000000e-08,7.00000000000000e-01,7.00000000000000e-01,3.19557784770517e-01,7.00000000000000e-01
6.56040000000000e-08,7.00000000000000e-01,7.00000000000000e-01,7.12041842729022e-01,7.00000000000000e-01
6.59532481365977e-08,7.00000000000000e-01,7.00000000000000e-01,6.90667974117615e-01,7.00000000000000e-01
6.65614535212531e-08,7.00000000000000e-01,7.00000000000000e-01,7.09228617726787e-01,7.00000000000000e-01
6.73065437300114e-08,7.00000000000000e-01,7.00000000000000e-01,6.91346260216836e-01,7.00000000000000e-01
6.84532578591228e-08,7.00000000000000e-01,7.00000000000000e-01,7.08402799204993e-01,7.00000000000000e-01
7.07466861173457e-08,7.00000000000000e-01,7.00000000000000e-01,6.91771007866744e-01,7.00000000000000e-01
7.45466861173457e-08,7.00000000000000e-01,7.00000000000000e-01,7.08165733437573e-01,7.00000000000000e-01
7.51000000000000e-08,7.00000000000000e-01,7.00000000000000e-01,6.92446062842190e-01,7.00000000000000e-01
7.51100000000000e-08,6.30000000000071e-01,7.00000000000000e-01,6.95841326130477e-01,7.00000000000000e-01
7.51300000000000e-08,4.90000000000098e-01,7.00000000000000e-01,6.99539334571191e-01,7.00000000000000e-01
7.51700000000000e-08,2.10000000000151e-01,7.00000000000000e-01,7.00921664199819e-01,7.00000000000000e-01
7.52000000000000e-08,9.80326930744013e-14,7.00000000000000e-01,7.02658807554671e-01,7.00000000000000e-01
7.52080000000000e-08,0.00000000000000e+00,7.00000000000000e-01,7.02931798430735e-01,7.00000000000000e-01
7.52240000000000e-08,0.00000000000000e+00,7.00000000000000e-01,7.02580185496705e-01,7.00000000000000e-01
7.52560000000000e-08,0.00000000000000e+00,7.00000000000000e-01,6.95765304273646e-01,7.00000000000000e-01
7.53200000000000e-08,0.00000000000000e+00,7.00000000000000e-01,6.76756761439652e-01,7.00000000000000e-01
7.54480000000000e-08,0.00000000000000e+00,7.00000000000000e-01,6.85631434769955e-01,7.00000000000000e-01
7.57040000000000e-08,0.00000000000000e+00,7.00000000000000e-01,7.04583776182105e-01,7.00000000000000e-01
7.60494696003789e-08,0.00000000000000e+00,7.00000000000000e-01,6.95355335627106e-01,7.00000000000000e-01
7.67184199555772e-08,0.00000000000000e+00,7.00000000000000e-01,7.03161934350021e-01,7.00000000000000e-01
7.80563206659738e-08,0.00000000000000e+00,7.00000000000000e-01,6.96542607892637e-01,7.00000000000000e-01
8.07321220867669e-08,0.00000000000000e+00,7.00000000000000e-01,7.02967028423402e-01,7.00000000000000e-01
8.45321220867669e-08,0.00000000000000e+00,7.00000000000000e-01,6.96812356010098e-01,7.00000000000000e-01
8.50000000000000e-08,0.00000000000000e+00,7.00000000000000e-01,7.02338963159658e-01,7.00000000000000e-01
8.50100000000000e-08,6.99999999999867e-02,7.00000000000000e-01,7.01488541266576e-01,6.30000000000013e-01
8.50300000000000e-08,2.09999999999960e-01,7.00000000000000e-01,7.00339232686948e-01,4.90000000000040e-01
8.50700000000000e-08,4.89999999999907e-01,7.00000000000000e-01,7.02401483638799e-01,2.10000000000093e-01
8.51000000000000e-08,6.99999999999960e-01,7.00000000000000e-01,7.08896777737817e-01,4.00790511889682e-14
8.51080000000000e-08,7.00000000000000e-01,7.00000000000000e-01,7.11017646064455e-01,0.00000000000000e+00
8.51240000000000e-08,7.00000000000000e-01,7.00000000000000e-01,7.14938006123351e-01,0.00000000000000e+00
8.51560000000000e-08,7.00000000000000e-01,7.00000000000000e-01,7.22282782918668e-01,0.00000000000000e+00
8.52200000000000e-08,7.00000000000000e-01,7.00000000000000e-01,5.97552135694347e-01,0.00000000000000e+00
8.53480000000000e-08,7.00000000000000e-01,7.00000000000000e-01,1.22335076827889e-01,0.00000000000000e+00
8.55480196715195e-08,7.00000000000000e-01,7.00000000000000e-01,-3.87015986172653e-02,0.00000000000000e+00
8.58667538683431e-08,7.00000000000000e-01,7.00000000000000e-01,2.54037822876250e-02,0.00000000000000e+00
8.63598051018658e-08,7.00000000000000e-01,7.00000000000000e-01,-1.81001308886942e-02,0.00000000000000e+00
8.71441187478386e-08,7.00000000000000e-01,7.00000000000000e-01,1.56414334577865e-02,0.00000000000000e+00
8.85529605892435e-08,7.00000000000000e-01,7.00000000000000e-01,-1.37862854057192e-02,0.00000000000000e+00
9.01000000000000e-08,7.00000000000000e-01,6.99999999999960e-01,1.29861512680245e-02,0.00000000000000e+00
9.03817683682810e-08,7.00000000000000e-01,7.00000000000000e-01,1.35468169610528e-03,0.00000000000000e+00
9.09453051048429e-08,7.00000000000000e-01,7.00000000000000e-01,-1.01134407674638e-03,0.00000000000000e+00
9.20723785779668e-08,7.00000000000000e-01,7.00000000000000e-01,9.01584835375145e-04,0.00000000000000e+00
9.43265255242147e-08,7.00000000000000e-01,7.00000000000000e-01,-8.24618332277529e-04,0.00000000000000e+00
9.51000000000000e-08,7.00000000000000e-01,7.00000000000000e-01,6.93076912093603e-04,0.00000000000000e+00
9.51100000000000e-08,6.30000000000071e-01,7.00000000000000e-01,6.86503720006441e-04,6.99999999999288e-02
9.51300000000000e-08,4.90000000000098e-01,7.00000000000000e-01,5.64843698545814e-04,2.09999999999902e-01
9.51700000000000e-08,2.10000000000151e-01,7.00000000000000e-01,2.72216187359092e-04,4.89999999999849e-01
9.52000000000000e-08,9.80326930744013e-14,7.00000000000000e-01,2.26215056354721e-04,6.99999999999902e-01
9.52080000000000e-08,0.00000000000000e+00,7.00000000000000e-01,1.89383843427891e-04,7.00000000000000e-01
9.52240000000000e-08,0.00000000000000e+00,7.00000000000000e-01,9.20796740890156e-05,7.00000000000000e-01
9.52560000000000e-08,0.00000000000000e+00,7.00000000000000e-01,-3.77867945727056e-04,7.00000000000000e-01
9.53200000000000e-08,0.00000000000000e+00,7.00000000000000e-01,-1.14387190407637e-03,7.00000000000000e-01
9.54480000000000e-08,0.00000000000000e+00,7.00000000000000e-01,-2.75885541449177e-04,7.00000000000000e-01
9.56480326658263e-08,0.00000000000000e+00,7.00000000000000e-01,2.39253480137730e-04,7.00000000000000e-01
9.60052328456491e-08,0.00000000000000e+00,7.00000000000000e-01,-2.67469965287634e-04,7.00000000000000e-01
9.64680671518250e-08,0.00000000000000e+00,7.00000000000000e-01,3.10667876536488e-04,7.00000000000000e-01
9.72599915851139e-08,0.00000000000000e+00,7.00000000000000e-01,-2.79200074167947e-04,7.00000000000000e-01
9.85704460310357e-08,0.00000000000000e+00,7.00000000000000e-01,2.84485731708994e-04,7.00000000000000e-01
1.00802289561149e-07,0.00000000000000e+00,7.00000000000000e-01,-2.59311128379550e-04,7.00000000000000e-01
1.04602289561149e-07,0.00000000000000e+00,7.00000000000000e-01,2.71433500377099e-04,7.00000000000000e-01
1.05000000000000e-07,0.00000000000000e+00,7.00000000000000e-01,-2.05024829885178e-04,7.00000000000000e-01
1.05010000000000e-07,6.99999999999867e-02,7.00000000000000e-01,-4.68463564810701e-05,7.00000000000000e-01
1.05030000000000e-07,2.09999999999960e-01,7.00000000000000e-01,1.73677410587547e-04,7.00000000000000e-01
1.05070000000000e-07,4.89999999999907e-01,7.00000000000000e-01,2.35838028811587e-04,7.00000000000000e-01
1.05100000000000e-07,6.99999999999960e-01,7.00000000000000e-01,-1.05573868481817e-03,7.00000000000000e-01
1.05108000000000e-07,7.00000000000000e-01,7.00000000000000e-01,-1.81073753381644e-03,7.00000000000000e-01
1.05124000000000e-07,7.00000000000000e-01,7.00000000000000e-01,-3.25898319688380e-03,7.00000000000000e-01
1.05156000000000e-07,7.00000000000000e-01,7.00000000000000e-01,-5.18930988225107e-03,7.00000000000000e-01
1.05220000000000e-07,7.00000000000000e-01,7.00000000000000e-01,8.88871311552800e-03,7.00000000000000e-01
1.05348000000000e-07,7.00000000000000e-01,7.00000000000000e-01,3.19557625937506e-01,7.00000000000000e-01
1.05604000000000e-07,7.00000000000000e-01,7.00000000000000e-01,7.12041817365498e-01,7.00000000000000e-01
1.05953248201064e-07,7.00000000000000e-01,7.00000000000000e-01,6.90667990757686e-01,7.00000000000000e-01
1.06561453529035e-07,7.00000000000000e-01,7.00000000000000e-01,7.09228602688597e-01,7.00000000000000e-01
1.07306543795427e-07,7.00000000000000e-01,7.00000000000000e-01,6.91346274275845e-01,7.00000000000000e-01
1.08453257826059e-07,7.00000000000000e-01,7.00000000000000e-01,7.08402785909238e-01,7.00000000000000e-01
1.10746685887323e-07,7.00000000000000e-01,7.00000000000000e-01,6.91771021073703e-01,7.00000000000000e-01
1.14546685887323e-07,7.00000000000000e-01,7.00000000000000e-01,7.08165720598383e-01,7.00000000000000e-01
1.15100000000000e-07,7.00000000000000e-01,7.00000000000000e-01,6.92446074517187e-01,7.00000000000000e-01
