Time,v(clk),v(data),v(out)
1.00000000000000e-08,7.00000000000000e-01,0.00000000000000e+00,1.13601242636256e-06
1.00100000000000e-08,7.00000000000000e-01,6.99999999999983e-02,5.06107402464817e-06
1.00300000000000e-08,7.00000000000000e-01,2.09999999999995e-01,8.22144757708226e-06
1.00700000000000e-08,7.00000000000000e-01,4.89999999999988e-01,6.51396452705510e-06
1.01000000000000e-08,7.00000000000000e-01,6.99999999999995e-01,4.28706017929076e-06
1.01080000000000e-08,7.00000000000000e-01,7.00000000000000e-01,4.00004039626672e-06
1.01240000000000e-08,7.00000000000000e-01,7.00000000000000e-01,4.51614011425655e-06
1.01560000000000e-08,7.00000000000000e-01,7.00000000000000e-01,7.28904578519568e-06
1.02200000000000e-08,7.00000000000000e-01,7.00000000000000e-01,9.65650445441252e-06
1.03480000000000e-08,7.00000000000000e-01,7.00000000000000e-01,7.41618767298446e-06
1.06040000000000e-08,7.00000000000000e-01,7.00000000000000e-01,6.38693240945926e-06
1.10726255879174e-08,7.00000000000000e-01,7.00000000000000e-01,6.39124087464457e-06
1.20098767637521e-08,7.00000000000000e-01,7.00000000000000e-01,6.73981474767250e-06
1.38843791154215e-08,7.00000000000000e-01,7.00000000000000e-01,6.02101275821564e-06
1.51000000000000e-08,7.00000000000000e-01,7.00000000000000e-01,6.21493515974743e-06
1.51100000000000e-08,6.29999999999990e-01,7.00000000000000e-01,-5.57307598469184e-05
1.51300000000000e-08,4.89999999999994e-01,7.00000000000000e-01,-1.50021566701485e-04
1.51700000000000e-08,2.10000000000000e-01,7.00000000000000e-01,-7.23383546418002e-05
1.52000000000000e-08,0.00000000000000e+00,7.00000000000000e-01,2.53141236900234e-04
1.52080000000000e-08,0.00000000000000e+00,7.00000000000000e-01,3.85702529384108e-04
1.52240000000000e-08,0.00000000000000e+00,7.00000000000000e-01,5.30763836456824e-04
1.52560000000000e-08,0.00000000000000e+00,7.00000000000000e-01,4.14884920900804e-04
1.53200000000000e-08,0.00000000000000e+00,7.00000000000000e-01,-1.45849917326739e-04
1.54480000000000e-08,0.00000000000000e+00,7.00000000000000e-01,-2.65489487881493e-04
1.57040000000000e-08,0.00000000000000e+00,7.00000000000000e-01,-5.03926921862907e-05
1.60384717235991e-08,0.00000000000000e+00,7.00000000000000e-01,-8.98913448316857e-06
1.65731704399999e-08,0.00000000000000e+00,7.00000000000000e-01,1.89137938741668e-04
1.76391485158128e-08,0.00000000000000e+00,7.00000000000000e-01,-2.07085162115601e-04
1.87453721639302e-08,0.00000000000000e+00,7.00000000000000e-01,2.27495918961927e-04
2.09578194601650e-08,0.00000000000000e+00,7.00000000000000e-01,-2.18622811748944e-04
2.47578194601650e-08,0.00000000000000e+00,7.00000000000000e-01,2.25615711427971e-04
2.50000000000000e-08,0.00000000000000e+00,7.00000000000000e-01,-1.57066320179609e-04
2.50100000000000e-08,6.99999999999867e-02,7.00000000000000e-01,-2.29532691811696e-05
2.50300000000000e-08,2.10000000000007e-01,7.00000000000000e-01,1.95476972662596e-04
2.50700000000000e-08,4.90000000000000e-01,7.00000000000000e-01,4.67064210525919e-04
2.51000000000000e-08,7.00000000000000e-01,7.00000000000000e-01,2.45668333279075e-04
2.51080000000000e-08,7.00000000000000e-01,7.00000000000000e-01,-3.97853282183280e-05
2.51240000000000e-08,7.00000000000000e-01,7.00000000000000e-01,-7.34328233550172e-04
2.51560000000000e-08,7.00000000000000e-01,7.00000000000000e-01,-2.39866766698815e-03
2.52200000000000e-08,7.00000000000000e-01,7.00000000000000e-01,-4.94302068794440e-03
2.53480000000000e-08,7.00000000000000e-01,7.00000000000000e-01,1.90268463039600e-02
2.56040000000000e-08,7.00000000000000e-01,7.00000000000000e-01,5.35417403259086e-01
2.61160000000000e-08,7.00000000000000e-01,7.00000000000000e-01,7.25358889813031e-01
2.66204282591063e-08,7.00000000000000e-01,7.00000000000000e-01,6.77579089937467e-01
2.76292847773189e-08,7.00000000000000e-01,7.00000000000000e-01,7.20905451419331e-01
2.91800362095085e-08,7.00000000000000e-01,7.00000000000000e-01,6.78877187956282e-01
3.01000000000000e-08,7.00000000000000e-01,7.00000000000000e-01,7.19354019929455e-01
3.01100000000000e-08,7.00000000000000e-01,6.30000000000037e-01,7.09714258138090e-01
3.01300000000000e-08,7.00000000000000e-01,4.90000000000017e-01,7.00058236596380e-01
3.01700000000000e-08,7.00000000000000e-01,2.10000000000023e-01,6.99968370951179e-01
3.02000000000000e-08,7.00000000000000e-01,1.68753899743024e-14,6.99978557338551e-01
3.02080000000000e-08,7.00000000000000e-01,0.00000000000000e+00,6.99977078907647e-01
3.02240000000000e-08,7.00000000000000e-01,0.00000000000000e+00,6.99971829433913e-01
3.02560000000000e-08,7.00000000000000e-01,0.00000000000000e+00,6.99962734389395e-01
3.03200000000000e-08,7.00000000000000e-01,0.00000000000000e+00,6.99969223999187e-01
3.04480000000000e-08,7.00000000000000e-01,0.00000000000000e+00,6.99988626034707e-01
3.06911772674961e-08,7.00000000000000e-01,0.00000000000000e+00,6.99976649745147e-01
3.10283063865899e-08,7.00000000000000e-01,0.00000000000000e+00,6.99986085521787e-01
3.16093877919255e-08,7.00000000000000e-01,0.00000000000000e+00,6.99981441732645e-01
3.27715506025968e-08,7.00000000000000e-01,0.00000000000000e+00,6.99987865905630e-01
3.50958762239394e-08,7.00000000000000e-01,0.00000000000000e+00,6.99985754049171e-01
3.51000000000000e-08,6.99999999999965e-01,0.00000000000000e+00,6.99985549029391e-01
3.51082475521211e-08,6.42267135152214e-01,0.00000000000000e+00,6.99938335079586e-01
3.51247426563633e-08,5.26801405456712e-01,0.00000000000000e+00,6.99885159177006e-01
3.51577328648478e-08,2.95869946065708e-01,0.00000000000000e+00,7.00324809769763e-01
3.52000000000000e-08,0.00000000000000e+00,0.00000000000000e+00,7.02812031970719e-01
3.52065980416969e-08,0.00000000000000e+00,0.00000000000000e+00,7.03103588776889e-01
3.52197941250907e-08,0.00000000000000e+00,0.00000000000000e+00,7.02937055256843e-01
3.52461862918782e-08,0.00000000000000e+00,0.00000000000000e+00,6.98012369159891e-01
3.52989706254533e-08,0.00000000000000e+00,0.00000000000000e+00,6.81317422069339e-01
3.54045392926035e-08,0.00000000000000e+00,0.00000000000000e+00,6.83082943676494e-01
3.56156766269038e-08,0.00000000000000e+00,0.00000000000000e+00,7.02927856925386e-01
3.59187997238369e-08,0.00000000000000e+00,0.00000000000000e+00,6.96671855835162e-01
3.64775239737547e-08,0.00000000000000e+00,0.00000000000000e+00,7.02155743606404e-01
3.72298974638122e-08,0.00000000000000e+00,0.00000000000000e+00,6.97648757388318e-01
3.87346444439271e-08,0.00000000000000e+00,0.00000000000000e+00,7.01951424353322e-01
3.91000000000000e-08,0.00000000000000e+00,0.00000000000000e+00,6.98264111326562e-01
3.94009493960230e-08,0.00000000000000e+00,0.00000000000000e+00,6.99807779090319e-01
4.00028481880690e-08,0.00000000000000e+00,0.00000000000000e+00,7.00017441745572e-01
4.12066457721609e-08,0.00000000000000e+00,0.00000000000000e+00,6.99848849702949e-01
4.36142409403447e-08,0.00000000000000e+00,0.00000000000000e+00,7.00036146093138e-01
4.50000000000000e-08,0.00000000000000e+00,0.00000000000000e+00,6.99876941029376e-01
4.50100000000000e-08,6.99999999999867e-02,0.00000000000000e+00,6.99951079001357e-01
4.50300000000000e-08,2.10000000000007e-01,0.00000000000000e+00,7.00021868030553e-01
4.50700000000000e-08,4.90000000000000e-01,0.00000000000000e+00,6.99985560694499e-01
4.51000000000000e-08,7.00000000000000e-01,0.00000000000000e+00,6.99899559477079e-01
4.51080000000000e-08,7.00000000000000e-01,0.00000000000000e+00,6.99858436431753e-01
4.51240000000000e-08,7.00000000000000e-01,0.00000000000000e+00,6.99819883193485e-01
4.51560000000000e-08,7.00000000000000e-01,0.00000000000000e+00,6.99846454919903e-01
4.52200000000000e-08,7.00000000000000e-01,0.00000000000000e+00,6.99873737710434e-01
4.53480000000000e-08,7.00000000000000e-01,0.00000000000000e+00,7.00860820666008e-01
4.56040000000000e-08,7.00000000000000e-01,0.00000000000000e+00,6.13642847586186e-01
4.61160000000000e-08,7.00000000000000e-01,0.00000000000000e+00,5.93894459992471e-02
4.65932849408865e-08,7.00000000000000e-01,0.00000000000000e+00,-3.04372616779193e-02
4.75478548226595e-08,7.00000000000000e-01,0.00000000000000e+00,2.46821182326444e-02
4.88203894778894e-08,7.00000000000000e-01,0.00000000000000e+00,-1.95967535826650e-02
5.00000000000000e-08,7.00000000000000e-01,0.00000000000000e+00,1.69130845410201e-02
5.00100000000000e-08,7.00000000000000e-01,6.99999999999867e-02,1.28965692636380e-02
5.00300000000000e-08,7.00000000000000e-01,2.09999999999960e-01,7.81895942901222e-03
5.00700000000000e-08,7.00000000000000e-01,4.90000000000000e-01,4.50591079812276e-03
5.01000000000000e-08,7.00000000000000e-01,7.00000000000000e-01,3.00720450279515e-03
5.01080000000000e-08,7.00000000000000e-01,7.00000000000000e-01,2.72121138264122e-03
5.01240000000000e-08,7.00000000000000e-01,7.00000000000000e-01,2.19664653797032e-03
5.01560000000000e-08,7.00000000000000e-01,7.00000000000000e-01,1.42938458483471e-03
5.02200000000000e-08,7.00000000000000e-01,7.00000000000000e-01,5.77457316683620e-04
5.03480000000000e-08,7.00000000000000e-01,7.00000000000000e-01,5.09802365831133e-05
5.06040000000000e-08,7.00000000000000e-01,7.00000000000000e-01,-1.10979556709016e-05
5.10956131330484e-08,7.00000000000000e-01,7.00000000000000e-01,1.01052192109652e-05
5.20788393991451e-08,7.00000000000000e-01,7.00000000000000e-01,-4.32173740121979e-06
5.40452919313384e-08,7.00000000000000e-01,7.00000000000000e-01,8.71448783979888e-06
5.51000000000000e-08,7.00000000000000e-01,7.00000000000000e-01,-1.15171833038261e-06
5.51100000000000e-08,6.30000000000025e-01,7.00000000000000e-01,-6.23785908311497e-05
5.51300000000000e-08,4.90000000000005e-01,7.00000000000000e-01,-1.53615960208603e-04
5.51700000000000e-08,2.10000000000012e-01,7.00000000000000e-01,-7.13093511497467e-05
5.52000000000000e-08,0.00000000000000e+00,7.00000000000000e-01,2.35137876332288e-04
5.52080000000000e-08,0.00000000000000e+00,7.00000000000000e-01,3.51555823160696e-04
5.52240000000000e-08,0.00000000000000e+00,7.00000000000000e-01,4.21307432007925e-04
5.52560000000000e-08,0.00000000000000e+00,7.00000000000000e-01,-1.66454752821517e-04
5.53200000000000e-08,0.00000000000000e+00,7.00000000000000e-01,-2.03852347600229e-03
5.54480000000000e-08,0.00000000000000e+00,7.00000000000000e-01,-1.71027480136843e-03
5.56942375316092e-08,0.00000000000000e+00,7.00000000000000e-01,2.47885352657774e-04
5.60311708687388e-08,0.00000000000000e+00,7.00000000000000e-01,-1.31604026228836e-04
5.65552353243414e-08,0.00000000000000e+00,7.00000000000000e-01,2.69506301347424e-04
5.76033642355467e-08,0.00000000000000e+00,7.00000000000000e-01,-2.73069547916661e-04
5.86869279163141e-08,0.00000000000000e+00,7.00000000000000e-01,2.80899331052104e-04
6.08540552778489e-08,0.00000000000000e+00,7.00000000000000e-01,-2.68586861899379e-04
6.46540552778488e-08,0.00000000000000e+00,7.00000000000000e-01,2.73171258166522e-04
6.50000000000000e-08,0.00000000000000e+00,7.00000000000000e-01,-2.16378633356027e-04
6.50100000000000e-08,6.99999999999867e-02,7.00000000000000e-01,-4.79367598632194e-05
6.50300000000000e-08,2.09999999999960e-01,7.00000000000000e-01,2.00423152048206e-04
6.50700000000000e-08,4.89999999999907e-01,7.00000000000000e-01,4.65909507011739e-04
6.51000000000000e-08,6.99999999999960e-01,7.00000000000000e-01,2.44505647325907e-04
6.51080000000000e-08,7.00000000000000e-01,7.00000000000000e-01,-4.18044716581079e-05
6.51240000000000e-08,7.00000000000000e-01,7.00000000000000e-01,-7.37445776573725e-04
6.51560000000000e-08,7.00000000000000e-01,7.00000000000000e-01,-2.40222243371484e-03
6.52200000000000e-08,7.00000000000000e-01,7.00000000000000e-01,-4.94429930504710e-03
6.53480000000000e-08,7.00000000000000e-01,7.00000000000000e-01,1.91322376846387e-02
6.56040000000000e-08,7.00000000000000e-01,7.00000000000000e-01,5.35670231317718e-01
6.61159999999999e-08,7.00000000000000e-01,7.00000000000000e-01,7.25359404027106e-01
6.66203760294357e-08,7.00000000000000e-01,7.00000000000000e-01,6.77574460249634e-01
6.76291280883073e-08,7.00000000000000e-01,7.00000000000000e-01,7.20908339303025e-01
6.91803156345232e-08,7.00000000000000e-01,7.00000000000000e-01,6.78873218564335e-01
7.01000000000000e-08,7.00000000000000e-01,7.00000000000000e-01,7.19356634162564e-01
7.01100000000000e-08,7.00000000000000e-01,6.30000000000013e-01,7.09715650993198e-01
7.01300000000000e-08,7.00000000000000e-01,4.90000000000040e-01,7.00058287787605e-01
7.01700000000000e-08,7.00000000000000e-01,2.10000000000093e-01,6.99968418135667e-01
7.02000000000000e-08,7.00000000000000e-01,4.00790511889682e-14,6.99978556363915e-01
7.02080000000000e-08,7.00000000000000e-01,0.00000000000000e+00,6.99977090451677e-01
7.02240000000000e-08,7.00000000000000e-01,0.00000000000000e+00,6.99971855335040e-01
7.02560000000000e-08,7.00000000000000e-01,0.00000000000000e+00,6.99962753102138e-01
7.03200000000000e-08,7.00000000000000e-01,0.00000000000000e+00,6.99969230078573e-01
7.04480000000000e-08,7.00000000000000e-01,0.00000000000000e+00,6.99988628923123e-01
7.06912061942051e-08,7.00000000000000e-01,0.00000000000000e+00,6.99976638730890e-01
7.10283274981587e-08,7.00000000000000e-01,0.00000000000000e+00,6.99986059901588e-01
7.16095296004309e-08,7.00000000000000e-01,0.00000000000000e+00,6.99981452119787e-01
7.27719338049753e-08,7.00000000000000e-01,0.00000000000000e+00,6.99987843568254e-01
7.50967422140641e-08,7.00000000000000e-01,0.00000000000000e+00,6.99985767541629e-01
7.51000000000000e-08,7.00000000000000e-01,0.00000000000000e+00,6.99985623572969e-01
7.51065155718719e-08,6.54390996897075e-01,0.00000000000000e+00,6.99944740294574e-01
7.51195467156156e-08,5.63172990691109e-01,0.00000000000000e+00,6.99891898907157e-01
7.51456090031030e-08,3.80736978279176e-01,0.00000000000000e+00,7.00003251914700e-01
7.51977335780778e-08,1.58649534553115e-02,0.00000000000000e+00,7.02625184697798e-01
7.52000000000000e-08,9.80326930744013e-14,0.00000000000000e+00,7.02815408523967e-01
7.52045328438443e-08,0.00000000000000e+00,0.00000000000000e+00,7.03060795183678e-01
7.52135985315330e-08,0.00000000000000e+00,0.00000000000000e+00,7.03188603187724e-01
7.52317299069104e-08,0.00000000000000e+00,0.00000000000000e+00,7.01264319873108e-01
7.52679926576652e-08,0.00000000000000e+00,0.00000000000000e+00,6.90335913684203e-01
7.53405181591747e-08,0.00000000000000e+00,0.00000000000000e+00,6.76656867788494e-01
7.54855691621938e-08,0.00000000000000e+00,0.00000000000000e+00,6.94777651630761e-01
7.57729350970179e-08,0.00000000000000e+00,0.00000000000000e+00,7.01543323321012e-01
7.61222425138959e-08,0.00000000000000e+00,0.00000000000000e+00,6.97857640183040e-01
7.68208573476518e-08,0.00000000000000e+00,0.00000000000000e+00,7.01286429794575e-01
7.77079069893413e-08,0.00000000000000e+00,0.00000000000000e+00,6.98494332688175e-01
7.81000000000000e-08,0.00000000000000e+00,0.00000000000000e+00,7.00959601731464e-01
7.82774099283379e-08,0.00000000000000e+00,0.00000000000000e+00,6.99999169012289e-01
7.86322297850137e-08,0.00000000000000e+00,0.00000000000000e+00,6.99801953127573e-01
7.93418694983653e-08,0.00000000000000e+00,0.00000000000000e+00,6.99991552687438e-01
8.07611489250684e-08,0.00000000000000e+00,0.00000000000000e+00,6.99855119128895e-01
8.35997077784747e-08,0.00000000000000e+00,0.00000000000000e+00,7.00024533536752e-01
8.50000000000000e-08,0.00000000000000e+00,0.00000000000000e+00,6.99887389275463e-01
8.50100000000000e-08,6.99999999999867e-02,0.00000000000000e+00,6.99961175103939e-01
8.50300000000000e-08,2.09999999999960e-01,0.00000000000000e+00,7.00028770426141e-01
8.50700000000000e-08,4.89999999999907e-01,0.00000000000000e+00,6.99987019908456e-01
8.51000000000000e-08,6.99999999999960e-01,0.00000000000000e+00,6.99899577784952e-01
8.51080000000000e-08,7.00000000000000e-01,0.00000000000000e+00,6.99859459109129e-01
8.51240000000000e-08,7.00000000000000e-01,0.00000000000000e+00,6.99821853492998e-01
8.51560000000000e-08,7.00000000000000e-01,0.00000000000000e+00,6.99846782435890e-01
8.52200000000000e-08,7.00000000000000e-01,0.00000000000000e+00,6.99870219166409e-01
8.53480000000000e-08,7.00000000000000e-01,0.00000000000000e+00,7.00860432528922e-01
8.56040000000000e-08,7.00000000000000e-01,0.00000000000000e+00,6.13430429537060e-01
8.61159999999999e-08,7.00000000000000e-01,0.00000000000000e+00,5.92485466315733e-02
8.65932030732227e-08,7.00000000000000e-01,0.00000000000000e+00,-3.03756272603412e-02
8.75476092196681e-08,7.00000000000000e-01,0.00000000000000e+00,2.46316753810663e-02
8.88204702522990e-08,7.00000000000000e-01,0.00000000000000e+00,-1.95602178305163e-02
9.00000000000000e-08,7.00000000000000e-01,0.00000000000000e+00,1.68825793791986e-02
9.00100000000000e-08,7.00000000000000e-01,6.99999999999867e-02,1.28705444643228e-02
9.00300000000000e-08,7.00000000000000e-01,2.09999999999960e-01,7.79987454079480e-03
9.00700000000000e-08,7.00000000000000e-01,4.89999999999907e-01,4.49474295255609e-03
9.01000000000000e-08,7.00000000000000e-01,6.99999999999960e-01,2.99973277915288e-03
9.01080000000000e-08,7.00000000000000e-01,7.00000000000000e-01,2.71445753924298e-03
9.01240000000000e-08,7.00000000000000e-01,7.00000000000000e-01,2.19119763981118e-03
9.01560000000000e-08,7.00000000000000e-01,7.00000000000000e-01,1.42583923398977e-03
9.02200000000000e-08,7.00000000000000e-01,7.00000000000000e-01,5.76035710629107e-04
9.03480000000000e-08,7.00000000000000e-01,7.00000000000000e-01,5.08663398494022e-05
9.06040000000000e-08,7.00000000000000e-01,7.00000000000000e-01,-1.10652233417212e-05
9.10957065902495e-08,7.00000000000000e-01,7.00000000000000e-01,1.00927313648261e-05
9.20791197707487e-08,7.00000000000000e-01,7.00000000000000e-01,-4.30590362627235e-06
9.40459461317470e-08,7.00000000000000e-01,7.00000000000000e-01,8.70491400513634e-06
9.51000000000000e-08,7.00000000000000e-01,7.00000000000000e-01,-1.14247733844913e-06
9.51100000000000e-08,6.30000000000071e-01,7.00000000000000e-01,-6.23697459375405e-05
9.51300000000000e-08,4.90000000000098e-01,7.00000000000000e-01,-1.53609053131436e-04
9.51700000000000e-08,2.10000000000151e-01,7.00000000000000e-01,-7.13030294833272e-05
9.52000000000000e-08,9.80326930744013e-14,7.00000000000000e-01,2.35154546319560e-04
9.52080000000000e-08,0.00000000000000e+00,7.00000000000000e-01,3.51585386570777e-04
9.52240000000000e-08,0.00000000000000e+00,7.00000000000000e-01,4.21387636102652e-04
9.52560000000000e-08,0.00000000000000e+00,7.00000000000000e-01,-1.66193869885777e-04
9.53200000000000e-08,0.00000000000000e+00,7.00000000000000e-01,-2.03766533417080e-03
9.54480000000000e-08,0.00000000000000e+00,7.00000000000000e-01,-1.70928917332919e-03
9.56942776198076e-08,0.00000000000000e+00,7.00000000000000e-01,2.47991727784089e-04
9.60311967437959e-08,0.00000000000000e+00,7.00000000000000e-01,-1.31680005555083e-04
9.65553033715354e-08,0.00000000000000e+00,7.00000000000000e-01,2.69574040870857e-04
9.76035166270144e-08,0.00000000000000e+00,7.00000000000000e-01,-2.73143437465007e-04
9.86871610400573e-08,0.00000000000000e+00,7.00000000000000e-01,2.80973670002209e-04
1.00854449866143e-07,0.00000000000000e+00,7.00000000000000e-01,-2.68661320794147e-04
1.04654449866143e-07,0.00000000000000e+00,7.00000000000000e-01,2.73244403069181e-04
1.05000000000000e-07,0.00000000000000e+00,7.00000000000000e-01,-2.16375969150431e-04
1.05010000000000e-07,6.99999999999867e-02,7.00000000000000e-01,-4.79426058542856e-05
1.05030000000000e-07,2.09999999999960e-01,7.00000000000000e-01,2.00408049187861e-04
1.05070000000000e-07,4.89999999999907e-01,7.00000000000000e-01,4.65901710407522e-04
1.05100000000000e-07,6.99999999999960e-01,7.00000000000000e-01,2.44506545793055e-04
1.05108000000000e-07,7.00000000000000e-01,7.00000000000000e-01,-4.18009518170087e-05
1.05124000000000e-07,7.00000000000000e-01,7.00000000000000e-01,-7.37438163333146e-04
1.05156000000000e-07,7.00000000000000e-01,7.00000000000000e-01,-2.40221206018425e-03
1.05220000000000e-07,7.00000000000000e-01,7.00000000000000e-01,-4.94429538486862e-03
1.05348000000000e-07,7.00000000000000e-01,7.00000000000000e-01,1.91319281219570e-02
1.05604000000000e-07,7.00000000000000e-01,7.00000000000000e-01,5.35669489019486e-01
1.06116000000000e-07,7.00000000000000e-01,7.00000000000000e-01,7.25359402554392e-01
