Time,v(clk),v(data),v(out)
1.00000000000000e-08,6.00000000000000e-01,0.00000000000000e+00,1.30369824063829e-06
1.00100000000000e-08,6.00000000000000e-01,5.99999999999985e-02,7.95488863078453e-06
1.00300000000000e-08,6.00000000000000e-01,1.79999999999996e-01,1.40060289323257e-05
1.00700000000000e-08,6.00000000000000e-01,4.19999999999990e-01,1.12773648689030e-05
1.01000000000000e-08,6.00000000000000e-01,5.99999999999995e-01,9.21906722144150e-06
1.01080000000000e-08,6.00000000000000e-01,6.00000000000000e-01,7.92260413387536e-06
1.01240000000000e-08,6.00000000000000e-01,6.00000000000000e-01,8.93393924161767e-06
1.01560000000000e-08,6.00000000000000e-01,6.00000000000000e-01,1.42254087788229e-05
1.02200000000000e-08,6.00000000000000e-01,6.00000000000000e-01,1.78062015390931e-05
1.03480000000000e-08,6.00000000000000e-01,6.00000000000000e-01,1.81101614497303e-05
1.06040000000000e-08,6.00000000000000e-01,6.00000000000000e-01,1.66958174504864e-05
1.11142510513183e-08,6.00000000000000e-01,6.00000000000000e-01,1.72762085940241e-05
1.21347531539548e-08,6.00000000000000e-01,6.00000000000000e-01,1.55649413002903e-05
1.41757573592278e-08,6.00000000000000e-01,6.00000000000000e-01,1.64681485858055e-05
1.51000000000000e-08,6.00000000000000e-01,6.00000000000000e-01,1.47683331413705e-05
1.51100000000000e-08,5.39999999999991e-01,6.00000000000000e-01,-1.00025636693118e-04
1.51300000000000e-08,4.19999999999994e-01,6.00000000000000e-01,-2.78267918995739e-04
1.51700000000000e-08,1.80000000000000e-01,6.00000000000000e-01,-2.38470807339464e-04
1.52000000000000e-08,0.00000000000000e+00,6.00000000000000e-01,2.77861028132362e-04
1.52080000000000e-08,0.00000000000000e+00,6.00000000000000e-01,5.33891513869289e-04
1.52240000000000e-08,0.00000000000000e+00,6.00000000000000e-01,8.53283121129034e-04
1.52560000000000e-08,0.00000000000000e+00,6.00000000000000e-01,8.54825882229002e-04
1.53200000000000e-08,0.00000000000000e+00,6.00000000000000e-01,8.79493433071227e-05
1.54480000000000e-08,0.00000000000000e+00,6.00000000000000e-01,-6.12826401131750e-04
1.57040000000000e-08,0.00000000000000e+00,6.00000000000000e-01,1.92299229436282e-04
1.60884180809636e-08,0.00000000000000e+00,6.00000000000000e-01,-2.69945792620643e-04
1.67458913613282e-08,0.00000000000000e+00,6.00000000000000e-01,2.46630447986122e-04
1.77772167958038e-08,0.00000000000000e+00,6.00000000000000e-01,-8.49255813518621e-05
1.90419823673331e-08,0.00000000000000e+00,6.00000000000000e-01,4.09818764087397e-05
2.15715135103915e-08,0.00000000000000e+00,6.00000000000000e-01,1.18415554539722e-05
2.50000000000000e-08,0.00000000000000e+00,6.00000000000000e-01,-1.42475844715304e-06
2.50100000000000e-08,5.99999999999886e-02,6.00000000000000e-01,2.19543950150655e-04
2.50300000000000e-08,1.80000000000006e-01,6.00000000000000e-01,5.81230825172960e-04
2.50700000000000e-08,4.20000000000000e-01,6.00000000000000e-01,9.85824209033065e-04
2.51000000000000e-08,6.00000000000000e-01,6.00000000000000e-01,9.73969858076920e-04
2.51080000000000e-08,6.00000000000000e-01,6.00000000000000e-01,7.55240894629708e-04
2.51240000000000e-08,6.00000000000000e-01,6.00000000000000e-01,2.16602748283279e-04
2.51560000000000e-08,6.00000000000000e-01,6.00000000000000e-01,-1.23655212936030e-03
2.52200000000000e-08,6.00000000000000e-01,6.00000000000000e-01,-3.99355393280897e-03
2.53480000000000e-08,6.00000000000000e-01,6.00000000000000e-01,-4.85061650729234e-03
2.56040000000000e-08,6.00000000000000e-01,6.00000000000000e-01,2.00672868833408e-01
2.61160000000000e-08,6.00000000000000e-01,6.00000000000000e-01,5.96235050010103e-01
2.69723562879292e-08,6.00000000000000e-01,6.00000000000000e-01,6.00218574353819e-01
2.81408603679792e-08,6.00000000000000e-01,6.00000000000000e-01,5.99965783578383e-01
2.97811491462777e-08,6.00000000000000e-01,6.00000000000000e-01,5.99864093396212e-01
3.01000000000000e-08,6.00000000000000e-01,6.00000000000000e-01,6.00304655541956e-01
3.01100000000000e-08,6.00000000000000e-01,5.40000000000031e-01,6.00100186346051e-01
3.01300000000000e-08,6.00000000000000e-01,4.20000000000014e-01,5.99923787812188e-01
3.01700000000000e-08,6.00000000000000e-01,1.80000000000020e-01,5.99979157209701e-01
3.02000000000000e-08,6.00000000000000e-01,1.44328993201270e-14,6.00010981742391e-01
3.02080000000000e-08,6.00000000000000e-01,0.00000000000000e+00,5.99995327403901e-01
3.02240000000000e-08,6.00000000000000e-01,0.00000000000000e+00,5.99969796434207e-01
3.02560000000000e-08,6.00000000000000e-01,0.00000000000000e+00,5.99952665141018e-01
3.03200000000000e-08,6.00000000000000e-01,0.00000000000000e+00,5.99961233713316e-01
3.04480000000000e-08,6.00000000000000e-01,0.00000000000000e+00,5.99977455738200e-01
3.07040000000000e-08,6.00000000000000e-01,0.00000000000000e+00,5.99992917016724e-01
3.10871032611747e-08,6.00000000000000e-01,0.00000000000000e+00,5.99958774680923e-01
3.17149828310851e-08,6.00000000000000e-01,0.00000000000000e+00,5.99994113357416e-01
3.29707419709060e-08,6.00000000000000e-01,0.00000000000000e+00,5.99964013891715e-01
3.51000000000000e-08,5.99999999999970e-01,0.00000000000000e+00,5.99998350209263e-01
3.51100000000000e-08,5.39999999999982e-01,0.00000000000000e+00,5.99887258290584e-01
3.51300000000000e-08,4.19999999999965e-01,0.00000000000000e+00,5.99780250332988e-01
3.51700000000000e-08,1.79999999999970e-01,0.00000000000000e+00,6.00680366650941e-01
3.52000000000000e-08,0.00000000000000e+00,0.00000000000000e+00,6.03200754720865e-01
3.52080000000000e-08,0.00000000000000e+00,0.00000000000000e+00,6.03891110024799e-01
3.52240000000000e-08,0.00000000000000e+00,0.00000000000000e+00,6.04704429830426e-01
3.52560000000000e-08,0.00000000000000e+00,0.00000000000000e+00,6.03626668591613e-01
3.53200000000000e-08,0.00000000000000e+00,0.00000000000000e+00,5.92355151565049e-01
3.54480000000000e-08,0.00000000000000e+00,0.00000000000000e+00,5.85672549809409e-01
3.57040000000000e-08,0.00000000000000e+00,0.00000000000000e+00,6.01318178679105e-01
3.61004196663400e-08,0.00000000000000e+00,0.00000000000000e+00,5.97869176134355e-01
3.67189595697691e-08,0.00000000000000e+00,0.00000000000000e+00,6.01055730673376e-01
3.76780039905012e-08,0.00000000000000e+00,0.00000000000000e+00,5.98600546696510e-01
3.91000000000000e-08,0.00000000000000e+00,0.00000000000000e+00,6.00981258198502e-01
3.92918088841464e-08,0.00000000000000e+00,0.00000000000000e+00,6.00007474717163e-01
3.96754266524393e-08,0.00000000000000e+00,0.00000000000000e+00,5.99780725995272e-01
4.04426621890249e-08,0.00000000000000e+00,0.00000000000000e+00,5.99978486949469e-01
4.19771332621963e-08,0.00000000000000e+00,0.00000000000000e+00,5.99827806302669e-01
4.50000000000000e-08,0.00000000000000e+00,0.00000000000000e+00,6.00000938265302e-01
4.50100000000000e-08,5.99999999999886e-02,0.00000000000000e+00,6.00090507029793e-01
4.50300000000000e-08,1.80000000000006e-01,0.00000000000000e+00,6.00159912370753e-01
4.50700000000000e-08,4.20000000000000e-01,0.00000000000000e+00,6.00058564911543e-01
4.51000000000000e-08,6.00000000000000e-01,0.00000000000000e+00,5.99915025352533e-01
4.51080000000000e-08,6.00000000000000e-01,0.00000000000000e+00,5.99822654999815e-01
4.51240000000000e-08,6.00000000000000e-01,0.00000000000000e+00,5.99686079665340e-01
4.51560000000000e-08,6.00000000000000e-01,0.00000000000000e+00,5.99620043499064e-01
4.52200000000000e-08,6.00000000000000e-01,0.00000000000000e+00,5.99745717806092e-01
4.53480000000000e-08,6.00000000000000e-01,0.00000000000000e+00,6.00042904067256e-01
4.56040000000000e-08,6.00000000000000e-01,0.00000000000000e+00,6.10916385606216e-01
4.61160000000000e-08,6.00000000000000e-01,0.00000000000000e+00,2.05462437474816e-01
4.67926629546814e-08,6.00000000000000e-01,0.00000000000000e+00,-6.60312557167937e-02
4.77150722551174e-08,6.00000000000000e-01,0.00000000000000e+00,5.33585902748858e-02
4.91406038305806e-08,6.00000000000000e-01,0.00000000000000e+00,-3.63878350467157e-02
5.00000000000000e-08,6.00000000000000e-01,0.00000000000000e+00,2.65266772893260e-02
5.00100000000000e-08,6.00000000000000e-01,5.99999999999886e-02,2.39933769007478e-02
5.00300000000000e-08,6.00000000000000e-01,1.79999999999966e-01,1.92628886122601e-02
5.00700000000000e-08,6.00000000000000e-01,4.20000000000000e-01,1.20121623690240e-02
5.01000000000000e-08,6.00000000000000e-01,6.00000000000000e-01,8.43298892358821e-03
5.01080000000000e-08,6.00000000000000e-01,6.00000000000000e-01,7.70876752716954e-03
5.01240000000000e-08,6.00000000000000e-01,6.00000000000000e-01,6.37933913526216e-03
5.01560000000000e-08,6.00000000000000e-01,6.00000000000000e-01,4.36978913641098e-03
5.02200000000000e-08,6.00000000000000e-01,6.00000000000000e-01,1.98041196132419e-03
5.03480000000000e-08,6.00000000000000e-01,6.00000000000000e-01,2.87793723331160e-04
5.06040000000000e-08,6.00000000000000e-01,6.00000000000000e-01,-4.85042101141739e-05
5.11160000000001e-08,6.00000000000000e-01,6.00000000000000e-01,3.76691442325570e-05
5.21400000000002e-08,6.00000000000000e-01,6.00000000000000e-01,-1.00786197532472e-05
5.41880000000003e-08,6.00000000000000e-01,6.00000000000000e-01,3.98887216241798e-05
5.51000000000000e-08,6.00000000000000e-01,6.00000000000000e-01,-1.05433104359790e-05
5.51100000000000e-08,5.40000000000021e-01,6.00000000000000e-01,-1.25062353384942e-04
5.51300000000000e-08,4.20000000000004e-01,6.00000000000000e-01,-2.95625607325906e-04
5.51700000000000e-08,1.80000000000010e-01,6.00000000000000e-01,-2.40802134314239e-04
5.52000000000000e-08,0.00000000000000e+00,6.00000000000000e-01,2.64544913182049e-04
5.52080000000000e-08,0.00000000000000e+00,6.00000000000000e-01,5.18257597046712e-04
5.52240000000000e-08,0.00000000000000e+00,6.00000000000000e-01,8.16192504765140e-04
5.52560000000000e-08,0.00000000000000e+00,6.00000000000000e-01,7.03334970842573e-04
5.53200000000000e-08,0.00000000000000e+00,6.00000000000000e-01,-7.85352901565534e-04
5.54480000000000e-08,0.00000000000000e+00,6.00000000000000e-01,-1.73849600633075e-03
5.57040000000000e-08,0.00000000000000e+00,6.00000000000000e-01,2.59003870227419e-04
5.60870165276387e-08,0.00000000000000e+00,6.00000000000000e-01,-2.46349007316005e-04
5.67488818705526e-08,0.00000000000000e+00,6.00000000000000e-01,2.15577147242976e-04
5.77749022691304e-08,0.00000000000000e+00,6.00000000000000e-01,-4.95149054676163e-05
5.90431696941994e-08,0.00000000000000e+00,6.00000000000000e-01,9.59520233115990e-06
6.15797045443374e-08,0.00000000000000e+00,6.00000000000000e-01,4.11213996852925e-05
6.50000000000000e-08,0.00000000000000e+00,6.00000000000000e-01,-2.89746557489024e-05
6.50100000000000e-08,5.99999999999886e-02,6.00000000000000e-01,1.86968033658336e-04
6.50300000000000e-08,1.79999999999966e-01,6.00000000000000e-01,5.52996563546529e-04
6.50700000000000e-08,4.19999999999920e-01,6.00000000000000e-01,9.79965767826163e-04
6.51000000000000e-08,5.99999999999966e-01,6.00000000000000e-01,9.74643392468083e-04
6.51080000000000e-08,6.00000000000000e-01,6.00000000000000e-01,7.58892839977474e-04
6.51240000000000e-08,6.00000000000000e-01,6.00000000000000e-01,2.26109193948915e-04
6.51560000000000e-08,6.00000000000000e-01,6.00000000000000e-01,-1.22078824058430e-03
6.52200000000000e-08,6.00000000000000e-01,6.00000000000000e-01,-3.98064374680268e-03
6.53480000000000e-08,6.00000000000000e-01,6.00000000000000e-01,-4.86918178866118e-03
6.56040000000000e-08,6.00000000000000e-01,6.00000000000000e-01,2.00204775603366e-01
6.61159999999999e-08,6.00000000000000e-01,6.00000000000000e-01,5.96138503758794e-01
6.69736378908210e-08,6.00000000000000e-01,6.00000000000000e-01,6.00262220923196e-01
6.81413112737531e-08,6.00000000000000e-01,6.00000000000000e-01,5.99917736839350e-01
6.97830720303428e-08,6.00000000000000e-01,6.00000000000000e-01,5.99906787551619e-01
7.01000000000000e-08,6.00000000000000e-01,6.00000000000000e-01,6.00268828545175e-01
7.01100000000000e-08,6.00000000000000e-01,5.40000000000011e-01,6.00080331233442e-01
7.01300000000000e-08,6.00000000000000e-01,4.20000000000034e-01,5.99921441366434e-01
7.01700000000000e-08,6.00000000000000e-01,1.80000000000080e-01,5.99979887938039e-01
7.02000000000000e-08,6.00000000000000e-01,3.44169137633799e-14,6.00011360625770e-01
7.02080000000000e-08,6.00000000000000e-01,0.00000000000000e+00,5.99995661446698e-01
7.02240000000000e-08,6.00000000000000e-01,0.00000000000000e+00,5.99970136052614e-01
7.02560000000000e-08,6.00000000000000e-01,0.00000000000000e+00,5.99952976108818e-01
7.03200000000000e-08,6.00000000000000e-01,0.00000000000000e+00,5.99961386839057e-01
7.04480000000000e-08,6.00000000000000e-01,0.00000000000000e+00,5.99977558901376e-01
7.07040000000000e-08,6.00000000000000e-01,0.00000000000000e+00,5.99992890514065e-01
7.10871033691175e-08,6.00000000000000e-01,0.00000000000000e+00,5.99958812830953e-01
7.17149329968694e-08,6.00000000000000e-01,0.00000000000000e+00,5.99994042459655e-01
7.29705922523734e-08,6.00000000000000e-01,0.00000000000000e+00,5.99964071040941e-01
7.51000000000000e-08,6.00000000000000e-01,0.00000000000000e+00,5.99998294125647e-01
7.51100000000000e-08,5.40000000000061e-01,0.00000000000000e+00,5.99887642829926e-01
7.51300000000000e-08,4.20000000000084e-01,0.00000000000000e+00,5.99780977114948e-01
7.51700000000000e-08,1.80000000000129e-01,0.00000000000000e+00,6.00680608845629e-01
7.52000000000000e-08,8.40438829641244e-14,0.00000000000000e+00,6.03200856752208e-01
7.52080000000000e-08,0.00000000000000e+00,0.00000000000000e+00,6.03891383923261e-01
7.52240000000000e-08,0.00000000000000e+00,0.00000000000000e+00,6.04704878697538e-01
7.52560000000000e-08,0.00000000000000e+00,0.00000000000000e+00,6.03626801380455e-01
7.53200000000000e-08,0.00000000000000e+00,0.00000000000000e+00,5.92354307433070e-01
7.54480000000000e-08,0.00000000000000e+00,0.00000000000000e+00,5.85671355811484e-01
7.57040000000000e-08,0.00000000000000e+00,0.00000000000000e+00,6.01318356601557e-01
7.61004196745059e-08,0.00000000000000e+00,0.00000000000000e+00,5.97868954852968e-01
7.67189597701339e-08,0.00000000000000e+00,0.00000000000000e+00,6.01055989168252e-01
7.76780040924305e-08,0.00000000000000e+00,0.00000000000000e+00,5.98600304900977e-01
7.81000000000000e-08,0.00000000000000e+00,0.00000000000000e+00,6.00756613932054e-01
7.82918088644593e-08,0.00000000000000e+00,0.00000000000000e+00,5.99952476914520e-01
7.86754265933780e-08,0.00000000000000e+00,0.00000000000000e+00,5.99771008679027e-01
7.94426620512152e-08,0.00000000000000e+00,0.00000000000000e+00,5.99944981331278e-01
8.09771329668897e-08,0.00000000000000e+00,0.00000000000000e+00,5.99833040921228e-01
8.40460747982386e-08,0.00000000000000e+00,0.00000000000000e+00,5.99982982824324e-01
8.50000000000000e-08,0.00000000000000e+00,0.00000000000000e+00,5.99867349861922e-01
8.50100000000000e-08,5.99999999999886e-02,0.00000000000000e+00,5.99985106835823e-01
8.50300000000000e-08,1.79999999999966e-01,0.00000000000000e+00,6.00111167445765e-01
8.50700000000000e-08,4.19999999999920e-01,0.00000000000000e+00,6.00050475943372e-01
8.51000000000000e-08,5.99999999999966e-01,0.00000000000000e+00,5.99914031287397e-01
8.51080000000000e-08,6.00000000000000e-01,0.00000000000000e+00,5.99822600877439e-01
8.51240000000000e-08,6.00000000000000e-01,0.00000000000000e+00,5.99686438010577e-01
8.51560000000000e-08,6.00000000000000e-01,0.00000000000000e+00,5.99618763797879e-01
8.52200000000000e-08,6.00000000000000e-01,0.00000000000000e+00,5.99747049398927e-01
8.53480000000000e-08,6.00000000000000e-01,0.00000000000000e+00,6.00043834039717e-01
8.56040000000000e-08,6.00000000000000e-01,0.00000000000000e+00,6.10921570452580e-01
8.61159999999999e-08,6.00000000000000e-01,0.00000000000000e+00,2.05438690848945e-01
8.67926277700248e-08,6.00000000000000e-01,0.00000000000000e+00,-6.60303897827854e-02
8.77151062690680e-08,6.00000000000000e-01,0.00000000000000e+00,5.33589265190270e-02
8.91405310071024e-08,6.00000000000000e-01,0.00000000000000e+00,-3.63885876512421e-02
9.00000000000000e-08,6.00000000000000e-01,0.00000000000000e+00,2.65283564854095e-02
9.00100000000000e-08,6.00000000000000e-01,5.99999999999886e-02,2.39941482776976e-02
9.00300000000000e-08,6.00000000000000e-01,1.79999999999966e-01,1.92626858331315e-02
9.00700000000000e-08,6.00000000000000e-01,4.19999999999920e-01,1.20118530648532e-02
9.01000000000000e-08,6.00000000000000e-01,5.99999999999966e-01,8.43280713259310e-03
9.01080000000000e-08,6.00000000000000e-01,6.00000000000000e-01,7.70860235738487e-03
9.01240000000000e-08,6.00000000000000e-01,6.00000000000000e-01,6.37920498100868e-03
9.01560000000000e-08,6.00000000000000e-01,6.00000000000000e-01,4.36969755629547e-03
9.02200000000000e-08,6.00000000000000e-01,6.00000000000000e-01,1.98037056585772e-03
9.03480000000000e-08,6.00000000000000e-01,6.00000000000000e-01,2.87789185918381e-04
9.06040000000000e-08,6.00000000000000e-01,6.00000000000000e-01,-4.85060331944925e-05
9.11159999999999e-08,6.00000000000000e-01,6.00000000000000e-01,3.76686422368759e-05
9.21399999999999e-08,6.00000000000000e-01,6.00000000000000e-01,-1.00803906272380e-05
9.41879999999998e-08,6.00000000000000e-01,6.00000000000000e-01,3.98886284896397e-05
9.51000000000000e-08,6.00000000000000e-01,6.00000000000000e-01,-1.05451973239200e-05
9.51100000000000e-08,5.40000000000061e-01,6.00000000000000e-01,-1.25063810963999e-04
9.51300000000000e-08,4.20000000000084e-01,6.00000000000000e-01,-2.95626323198392e-04
9.51700000000000e-08,1.80000000000129e-01,6.00000000000000e-01,-2.40803003249926e-04
9.52000000000000e-08,8.40438829641244e-14,6.00000000000000e-01,2.64542937604625e-04
9.52080000000000e-08,0.00000000000000e+00,6.00000000000000e-01,5.18254571757901e-04
9.52240000000000e-08,0.00000000000000e+00,6.00000000000000e-01,8.16184411289347e-04
9.52560000000000e-08,0.00000000000000e+00,6.00000000000000e-01,7.03299854498213e-04
9.53200000000000e-08,0.00000000000000e+00,6.00000000000000e-01,-7.85490455003271e-04
9.54480000000000e-08,0.00000000000000e+00,6.00000000000000e-01,-1.73877632453586e-03
9.57040000000000e-08,0.00000000000000e+00,6.00000000000000e-01,2.58941120524749e-04
9.60870164589713e-08,0.00000000000000e+00,6.00000000000000e-01,-2.46277695256855e-04
9.67488817143563e-08,0.00000000000000e+00,6.00000000000000e-01,2.15514321529251e-04
9.77749017028599e-08,0.00000000000000e+00,6.00000000000000e-01,-4.94584502588966e-05
9.90431691587547e-08,0.00000000000000e+00,6.00000000000000e-01,9.54324716420998e-06
1.01579704070544e-07,0.00000000000000e+00,6.00000000000000e-01,4.11707780805419e-05
1.05000000000000e-07,0.00000000000000e+00,6.00000000000000e-01,-2.90225341824336e-05
1.05010000000000e-07,5.99999999999886e-02,6.00000000000000e-01,1.86933610436785e-04
1.05030000000000e-07,1.79999999999966e-01,6.00000000000000e-01,5.52978680737670e-04
1.05070000000000e-07,4.19999999999920e-01,6.00000000000000e-01,9.79959663644114e-04
1.05100000000000e-07,5.99999999999966e-01,6.00000000000000e-01,9.74641373145971e-04
1.05108000000000e-07,6.00000000000000e-01,6.00000000000000e-01,7.58891323159261e-04
1.05124000000000e-07,6.00000000000000e-01,6.00000000000000e-01,2.26108554073762e-04
1.05156000000000e-07,6.00000000000000e-01,6.00000000000000e-01,-1.22078788035861e-03
1.05220000000000e-07,6.00000000000000e-01,6.00000000000000e-01,-3.98064301102351e-03
1.05348000000000e-07,6.00000000000000e-01,6.00000000000000e-01,-4.86918171721222e-03
1.05604000000000e-07,6.00000000000000e-01,6.00000000000000e-01,2.00204770264571e-01
1.06116000000000e-07,6.00000000000000e-01,6.00000000000000e-01,5.96138502670654e-01
1.06973637905114e-07,6.00000000000000e-01,6.00000000000000e-01,6.00262221408089e-01
1.08141311280202e-07,6.00000000000000e-01,6.00000000000000e-01,5.99917736325821e-01
1.09783072052455e-07,6.00000000000000e-01,6.00000000000000e-01,5.99906788007937e-01
1.10100000000000e-07,6.00000000000000e-01,6.00000000000000e-01,6.00268828162394e-01
1.10110000000000e-07,6.00000000000000e-01,5.40000000000091e-01,6.00080331022193e-01
1.10130000000000e-07,6.00000000000000e-01,4.20000000000114e-01,5.99921441342835e-01
1.10170000000000e-07,6.00000000000000e-01,1.80000000000159e-01,5.99979887946329e-01
1.10200000000000e-07,6.00000000000000e-01,1.13686837721616e-13,6.00011360630067e-01
