Time,v(clk),v(data),v(out)
1.43693440000000e-09,0.00000000000000e+00,0.00000000000000e+00,1.24248499980363e-04
2.77911168000000e-09,0.00000000000000e+00,0.00000000000000e+00,-7.16425269059254e-05
5.00000000000000e-09,0.00000000000000e+00,0.00000000000000e+00,5.53563193827177e-05
5.01000000000000e-09,5.99999999999986e-02,0.00000000000000e+00,7.80878627757442e-04
5.03000000000000e-09,1.80000000000001e-01,0.00000000000000e+00,2.09835792198106e-03
5.07000000000000e-09,4.20000000000000e-01,0.00000000000000e+00,3.89767590190879e-03
5.10000000000000e-09,6.00000000000000e-01,0.00000000000000e+00,3.52170194254778e-03
5.10800000000000e-09,6.00000000000000e-01,0.00000000000000e+00,2.98622710465990e-03
5.12400000000000e-09,6.00000000000000e-01,0.00000000000000e+00,1.84823081426158e-03
5.15600000000000e-09,6.00000000000000e-01,0.00000000000000e+00,-1.49234937814116e-04
5.22000000000000e-09,6.00000000000000e-01,0.00000000000000e+00,-2.07102212293303e-03
5.34800000000000e-09,6.00000000000000e-01,0.00000000000000e+00,-1.92099518253314e-03
5.60400000000000e-09,6.00000000000000e-01,0.00000000000000e+00,-5.57347122667112e-04
6.11600000000000e-09,6.00000000000000e-01,0.00000000000000e+00,-2.57202487154898e-04
7.07056284367530e-09,6.00000000000000e-01,0.00000000000000e+00,4.61349697601861e-04
8.97968853102591e-09,6.00000000000000e-01,0.00000000000000e+00,-1.37495574116676e-04
1.00000000000000e-08,6.00000000000000e-01,0.00000000000000e+00,-3.84735232716593e-05
1.00100000000000e-08,6.00000000000000e-01,5.99999999999986e-02,3.13623658446116e-06
1.00300000000000e-08,6.00000000000000e-01,1.79999999999996e-01,7.39957734907926e-05
1.00700000000000e-08,6.00000000000000e-01,4.19999999999990e-01,1.34288481801303e-04
1.01000000000000e-08,6.00000000000000e-01,5.99999999999995e-01,6.37134171334042e-05
1.01080000000000e-08,6.00000000000000e-01,6.00000000000000e-01,2.45718071787693e-05
1.01240000000000e-08,6.00000000000000e-01,6.00000000000000e-01,-3.48541849776174e-05
1.01560000000000e-08,6.00000000000000e-01,6.00000000000000e-01,-1.08446617533717e-04
1.02200000000000e-08,6.00000000000000e-01,6.00000000000000e-01,-1.23320016076664e-04
1.03480000000000e-08,6.00000000000000e-01,6.00000000000000e-01,-1.99857155481348e-05
1.06040000000000e-08,6.00000000000000e-01,6.00000000000000e-01,7.53718703397493e-05
1.11160000000000e-08,6.00000000000000e-01,6.00000000000000e-01,1.02292128155226e-05
1.18836276431825e-08,6.00000000000000e-01,6.00000000000000e-01,-8.69958365090628e-06
1.34188829295475e-08,6.00000000000000e-01,6.00000000000000e-01,1.26724708511446e-05
1.51000000000000e-08,6.00000000000000e-01,6.00000000000000e-01,-1.63082094938038e-06
1.51100000000000e-08,5.39999999999992e-01,6.00000000000000e-01,-3.72066567866591e-04
1.51300000000000e-08,4.19999999999994e-01,6.00000000000000e-01,-1.18725568493465e-03
1.51700000000000e-08,1.80000000000000e-01,6.00000000000000e-01,-3.11036043492323e-03
1.52000000000000e-08,0.00000000000000e+00,6.00000000000000e-01,-3.62342729445257e-03
1.52080000000000e-08,0.00000000000000e+00,6.00000000000000e-01,-3.05822240653725e-03
1.52240000000000e-08,0.00000000000000e+00,6.00000000000000e-01,-1.99232828098050e-03
1.52560000000000e-08,0.00000000000000e+00,6.00000000000000e-01,-2.71117166209006e-04
1.53200000000000e-08,0.00000000000000e+00,6.00000000000000e-01,1.60825807307524e-03
1.54480000000000e-08,0.00000000000000e+00,6.00000000000000e-01,2.38919001931169e-03
1.57040000000000e-08,0.00000000000000e+00,6.00000000000000e-01,1.26652483527115e-03
1.62160000000000e-08,0.00000000000000e+00,6.00000000000000e-01,-8.12414331468926e-04
1.72400000000000e-08,0.00000000000000e+00,6.00000000000000e-01,-2.53063008287154e-05
1.90687956585153e-08,0.00000000000000e+00,6.00000000000000e-01,-1.42868585471120e-04
2.13450085574673e-08,0.00000000000000e+00,6.00000000000000e-01,1.80349227035657e-04
2.50000000000000e-08,0.00000000000000e+00,6.00000000000000e-01,-6.35931650629553e-05
2.50100000000000e-08,5.99999999999886e-02,6.00000000000000e-01,7.25658604269153e-04
2.50300000000000e-08,1.80000000000006e-01,6.00000000000000e-01,2.21211671330576e-03
2.50700000000000e-08,4.20000000000000e-01,6.00000000000000e-01,4.56561614201413e-03
2.51000000000000e-08,6.00000000000000e-01,6.00000000000000e-01,4.67123943269897e-03
2.51080000000000e-08,6.00000000000000e-01,6.00000000000000e-01,4.24932952051303e-03
2.51240000000000e-08,6.00000000000000e-01,6.00000000000000e-01,3.42580405195207e-03
2.51560000000000e-08,6.00000000000000e-01,6.00000000000000e-01,1.89792123255453e-03
2.52200000000000e-08,6.00000000000000e-01,6.00000000000000e-01,-1.32515626327448e-03
2.53480000000000e-08,6.00000000000000e-01,6.00000000000000e-01,-7.91649205555596e-03
2.56040000000000e-08,6.00000000000000e-01,6.00000000000000e-01,-1.54529894025546e-02
2.61160000000000e-08,6.00000000000000e-01,6.00000000000000e-01,2.35058072707764e-02
2.70980034683092e-08,6.00000000000000e-01,6.00000000000000e-01,4.60243937659847e-01
2.87851228130536e-08,6.00000000000000e-01,6.00000000000000e-01,6.23323952270098e-01
3.01000000000000e-08,6.00000000000000e-01,6.00000000000000e-01,5.81225989225148e-01
3.01100000000000e-08,6.00000000000000e-01,5.40000000000031e-01,5.83002290866660e-01
3.01300000000000e-08,6.00000000000000e-01,4.20000000000014e-01,5.86199661785241e-01
3.01700000000000e-08,6.00000000000000e-01,1.80000000000020e-01,5.90990944553092e-01
3.02000000000000e-08,6.00000000000000e-01,1.44328993201270e-14,5.93590378311507e-01
3.02080000000000e-08,6.00000000000000e-01,0.00000000000000e+00,5.94154164159523e-01
3.02240000000000e-08,6.00000000000000e-01,0.00000000000000e+00,5.95182159796929e-01
3.02560000000000e-08,6.00000000000000e-01,0.00000000000000e+00,5.96786123630635e-01
3.03200000000000e-08,6.00000000000000e-01,0.00000000000000e+00,5.98637031823451e-01
3.04480000000000e-08,6.00000000000000e-01,0.00000000000000e+00,5.99920450204547e-01
3.07040000000000e-08,6.00000000000000e-01,0.00000000000000e+00,6.00064093851332e-01
3.12160000000000e-08,6.00000000000000e-01,0.00000000000000e+00,5.99812428782578e-01
3.22400000000000e-08,6.00000000000000e-01,0.00000000000000e+00,6.00132452115426e-01
3.34534318375045e-08,6.00000000000000e-01,0.00000000000000e+00,5.99945909989979e-01
3.51000000000000e-08,5.99999999999970e-01,0.00000000000000e+00,5.99985401360046e-01
3.51100000000000e-08,5.39999999999982e-01,0.00000000000000e+00,5.99661192009021e-01
3.51300000000000e-08,4.19999999999965e-01,0.00000000000000e+00,5.98996013831686e-01
3.51700000000000e-08,1.79999999999970e-01,0.00000000000000e+00,5.97983912902057e-01
3.52000000000000e-08,0.00000000000000e+00,0.00000000000000e+00,5.98464011777737e-01
3.52080000000000e-08,0.00000000000000e+00,0.00000000000000e+00,5.99060906784221e-01
3.52240000000000e-08,0.00000000000000e+00,0.00000000000000e+00,6.00153784064642e-01
3.52560000000000e-08,0.00000000000000e+00,0.00000000000000e+00,6.02072092055457e-01
3.53200000000000e-08,0.00000000000000e+00,0.00000000000000e+00,6.04349500905468e-01
3.54480000000000e-08,0.00000000000000e+00,0.00000000000000e+00,6.05833016723368e-01
3.57040000000000e-08,0.00000000000000e+00,0.00000000000000e+00,6.05337154539929e-01
3.62160000000000e-08,0.00000000000000e+00,0.00000000000000e+00,5.95354268950616e-01
3.72400000000000e-08,0.00000000000000e+00,0.00000000000000e+00,5.89476517605361e-01
3.86985607718003e-08,0.00000000000000e+00,0.00000000000000e+00,6.03069222077685e-01
3.91000000000000e-08,0.00000000000000e+00,0.00000000000000e+00,5.99027368855847e-01
3.92868669653687e-08,0.00000000000000e+00,0.00000000000000e+00,5.99290101473986e-01
3.96606008961060e-08,0.00000000000000e+00,0.00000000000000e+00,5.99574179092961e-01
4.04080687575806e-08,0.00000000000000e+00,0.00000000000000e+00,5.99636834518214e-01
4.19030044805297e-08,0.00000000000000e+00,0.00000000000000e+00,5.99728600811045e-01
4.48928759264281e-08,0.00000000000000e+00,0.00000000000000e+00,5.99840827204969e-01
4.50000000000000e-08,0.00000000000000e+00,0.00000000000000e+00,5.99838105897095e-01
4.50100000000000e-08,5.99999999999886e-02,0.00000000000000e+00,6.00216688143619e-01
4.50300000000000e-08,1.80000000000006e-01,0.00000000000000e+00,6.00898862605295e-01
4.50700000000000e-08,4.20000000000000e-01,0.00000000000000e+00,6.01895892691590e-01
4.51000000000000e-08,6.00000000000000e-01,0.00000000000000e+00,6.01736338253022e-01
4.51080000000000e-08,6.00000000000000e-01,0.00000000000000e+00,6.01446318212600e-01
4.51240000000000e-08,6.00000000000000e-01,0.00000000000000e+00,6.00896938192550e-01
4.51560000000000e-08,6.00000000000000e-01,0.00000000000000e+00,5.99949654606649e-01
4.52200000000000e-08,6.00000000000000e-01,0.00000000000000e+00,5.98661465691952e-01
4.53480000000000e-08,6.00000000000000e-01,0.00000000000000e+00,5.97459290220521e-01
4.56040000000000e-08,6.00000000000000e-01,0.00000000000000e+00,5.97880642680089e-01
4.61160000000000e-08,6.00000000000000e-01,0.00000000000000e+00,6.11079782278524e-01
4.71400000000000e-08,6.00000000000000e-01,0.00000000000000e+00,2.69721606306787e-01
4.88740788195420e-08,6.00000000000000e-01,0.00000000000000e+00,-4.65182905703538e-02
5.00000000000000e-08,6.00000000000000e-01,0.00000000000000e+00,2.99360263886287e-02
5.00100000000000e-08,6.00000000000000e-01,5.99999999999886e-02,2.85106145914523e-02
5.00300000000000e-08,6.00000000000000e-01,1.79999999999966e-01,2.57960723004045e-02
5.00700000000000e-08,6.00000000000000e-01,4.20000000000000e-01,2.09545768375615e-02
5.01000000000000e-08,6.00000000000000e-01,6.00000000000000e-01,1.77827007447924e-02
5.01080000000000e-08,6.00000000000000e-01,6.00000000000000e-01,1.70080032036516e-02
5.01240000000000e-08,6.00000000000000e-01,6.00000000000000e-01,1.55310638667178e-02
5.01560000000000e-08,6.00000000000000e-01,6.00000000000000e-01,1.29375884650387e-02
5.02200000000000e-08,6.00000000000000e-01,6.00000000000000e-01,8.98863055268612e-03
5.03480000000000e-08,6.00000000000000e-01,6.00000000000000e-01,4.24690729367422e-03
5.06040000000000e-08,6.00000000000000e-01,6.00000000000000e-01,7.28301608228121e-04
5.11160000000001e-08,6.00000000000000e-01,6.00000000000000e-01,-1.09431877926808e-04
5.19732724512423e-08,6.00000000000000e-01,6.00000000000000e-01,4.16437800692601e-05
5.36878173537267e-08,6.00000000000000e-01,6.00000000000000e-01,-2.61055821592950e-05
5.51000000000000e-08,6.00000000000000e-01,6.00000000000000e-01,1.74471921876862e-05
5.51100000000000e-08,5.40000000000021e-01,6.00000000000000e-01,-3.60775052665449e-04
5.51300000000000e-08,4.20000000000004e-01,6.00000000000000e-01,-1.17064062095704e-03
5.51700000000000e-08,1.80000000000010e-01,6.00000000000000e-01,-3.09720089272039e-03
5.52000000000000e-08,0.00000000000000e+00,6.00000000000000e-01,-3.61999396176198e-03
5.52080000000000e-08,0.00000000000000e+00,6.00000000000000e-01,-3.05631364757121e-03
5.52240000000000e-08,0.00000000000000e+00,6.00000000000000e-01,-1.99405317558712e-03
5.52560000000000e-08,0.00000000000000e+00,6.00000000000000e-01,-2.73647295161814e-04
5.53200000000000e-08,0.00000000000000e+00,6.00000000000000e-01,1.56969938986344e-03
5.54480000000000e-08,0.00000000000000e+00,6.00000000000000e-01,2.25030329295962e-03
5.57040000000000e-08,0.00000000000000e+00,6.00000000000000e-01,7.37093292483226e-04
5.62160000000000e-08,0.00000000000000e+00,6.00000000000000e-01,-1.33022062115737e-03
5.72400000000000e-08,0.00000000000000e+00,6.00000000000000e-01,1.79288906072203e-04
5.87910623004873e-08,0.00000000000000e+00,6.00000000000000e-01,-2.76786478677900e-04
6.11712891868665e-08,0.00000000000000e+00,6.00000000000000e-01,2.37341333300266e-04
6.44460117544453e-08,0.00000000000000e+00,6.00000000000000e-01,-5.11718529927676e-05
6.50000000000000e-08,0.00000000000000e+00,6.00000000000000e-01,-2.57174094551449e-04
6.50100000000000e-08,5.99999999999886e-02,6.00000000000000e-01,5.92964594282208e-04
6.50300000000000e-08,1.79999999999966e-01,6.00000000000000e-01,2.15188803242176e-03
6.50700000000000e-08,4.19999999999920e-01,6.00000000000000e-01,4.55638485125519e-03
6.51000000000000e-08,5.99999999999966e-01,6.00000000000000e-01,4.67663200102894e-03
6.51080000000000e-08,6.00000000000000e-01,6.00000000000000e-01,4.26471788211615e-03
6.51240000000000e-08,6.00000000000000e-01,6.00000000000000e-01,3.46530305114590e-03
6.51560000000000e-08,6.00000000000000e-01,6.00000000000000e-01,2.04032245946675e-03
6.52200000000000e-08,6.00000000000000e-01,6.00000000000000e-01,-9.04078578448167e-04
6.53480000000000e-08,6.00000000000000e-01,6.00000000000000e-01,-7.36202647048598e-03
6.56040000000000e-08,6.00000000000000e-01,6.00000000000000e-01,-1.53018882726156e-02
6.61159999999999e-08,6.00000000000000e-01,6.00000000000000e-01,2.12327972636778e-02
6.70209570888777e-08,6.00000000000000e-01,6.00000000000000e-01,4.39017567714200e-01
6.86202980499398e-08,6.00000000000000e-01,6.00000000000000e-01,6.23651472558684e-01
7.01000000000000e-08,6.00000000000000e-01,6.00000000000000e-01,5.80224306351836e-01
7.01100000000000e-08,6.00000000000000e-01,5.40000000000011e-01,5.82189084093525e-01
7.01300000000000e-08,6.00000000000000e-01,4.20000000000034e-01,5.85723711982471e-01
7.01700000000000e-08,6.00000000000000e-01,1.80000000000080e-01,5.90958829076409e-01
7.02000000000000e-08,6.00000000000000e-01,3.44169137633799e-14,5.93705957303510e-01
7.02080000000000e-08,6.00000000000000e-01,0.00000000000000e+00,5.94301383436886e-01
7.02240000000000e-08,6.00000000000000e-01,0.00000000000000e+00,5.95422086148191e-01
7.02560000000000e-08,6.00000000000000e-01,0.00000000000000e+00,5.97263441218893e-01
7.03200000000000e-08,6.00000000000000e-01,0.00000000000000e+00,5.99070753280728e-01
7.04480000000000e-08,6.00000000000000e-01,0.00000000000000e+00,6.00219456730583e-01
7.07040000000000e-08,6.00000000000000e-01,0.00000000000000e+00,6.00145073738939e-01
7.12159999999999e-08,6.00000000000000e-01,0.00000000000000e+00,5.99808300034483e-01
7.22399999999999e-08,6.00000000000000e-01,0.00000000000000e+00,6.00114307093617e-01
7.34530602640106e-08,6.00000000000000e-01,0.00000000000000e+00,5.99934914191588e-01
7.51000000000000e-08,6.00000000000000e-01,0.00000000000000e+00,5.99972068670067e-01
7.51100000000000e-08,5.40000000000061e-01,0.00000000000000e+00,5.99648379345286e-01
7.51300000000000e-08,4.20000000000084e-01,0.00000000000000e+00,5.98984136826469e-01
7.51700000000000e-08,1.80000000000129e-01,0.00000000000000e+00,5.97974158367018e-01
7.52000000000000e-08,8.40438829641244e-14,0.00000000000000e+00,5.98455379794720e-01
7.52080000000000e-08,0.00000000000000e+00,0.00000000000000e+00,5.99052080257058e-01
7.52240000000000e-08,0.00000000000000e+00,0.00000000000000e+00,6.00143698646763e-01
7.52560000000000e-08,0.00000000000000e+00,0.00000000000000e+00,6.02060565224233e-01
7.53200000000000e-08,0.00000000000000e+00,0.00000000000000e+00,6.04327005954522e-01
7.54480000000000e-08,0.00000000000000e+00,0.00000000000000e+00,6.05725443991302e-01
7.57040000000000e-08,0.00000000000000e+00,0.00000000000000e+00,6.04595751243874e-01
7.62159999999999e-08,0.00000000000000e+00,0.00000000000000e+00,5.94081400981095e-01
7.72399999999999e-08,0.00000000000000e+00,0.00000000000000e+00,5.89595239540066e-01
7.81000000000000e-08,0.00000000000000e+00,0.00000000000000e+00,6.01280661773690e-01
7.82457647605744e-08,0.00000000000000e+00,0.00000000000000e+00,6.00187170318091e-01
7.85372942817232e-08,0.00000000000000e+00,0.00000000000000e+00,5.99140718804977e-01
7.91203533240208e-08,0.00000000000000e+00,0.00000000000000e+00,5.99279837061723e-01
8.02864714086160e-08,0.00000000000000e+00,0.00000000000000e+00,5.99579677117427e-01
8.26187075778064e-08,0.00000000000000e+00,0.00000000000000e+00,5.99723874604474e-01
8.50000000000000e-08,0.00000000000000e+00,0.00000000000000e+00,5.99840639140091e-01
8.50100000000000e-08,5.99999999999886e-02,0.00000000000000e+00,6.00218618832648e-01
8.50300000000000e-08,1.79999999999966e-01,0.00000000000000e+00,6.00898210034073e-01
8.50700000000000e-08,4.19999999999920e-01,0.00000000000000e+00,6.01891361038995e-01
8.51000000000000e-08,5.99999999999966e-01,0.00000000000000e+00,6.01727245665795e-01
8.51080000000000e-08,6.00000000000000e-01,0.00000000000000e+00,6.01435937116374e-01
8.51240000000000e-08,6.00000000000000e-01,0.00000000000000e+00,6.00884707509301e-01
8.51560000000000e-08,6.00000000000000e-01,0.00000000000000e+00,5.99936736371787e-01
8.52200000000000e-08,6.00000000000000e-01,0.00000000000000e+00,5.98645915676650e-01
8.53480000000000e-08,6.00000000000000e-01,0.00000000000000e+00,5.97446742221406e-01
8.56040000000000e-08,6.00000000000000e-01,0.00000000000000e+00,5.97861639627034e-01
8.61159999999999e-08,6.00000000000000e-01,0.00000000000000e+00,6.11099310529659e-01
8.71399999999999e-08,6.00000000000000e-01,0.00000000000000e+00,2.69091845920998e-01
8.88730451078478e-08,6.00000000000000e-01,0.00000000000000e+00,-4.66277749630833e-02
9.00000000000000e-08,6.00000000000000e-01,0.00000000000000e+00,3.00391648686616e-02
9.00100000000000e-08,6.00000000000000e-01,5.99999999999886e-02,2.86064665868764e-02
9.00300000000000e-08,6.00000000000000e-01,1.79999999999966e-01,2.58791595698344e-02
9.00700000000000e-08,6.00000000000000e-01,4.19999999999920e-01,2.10188356649370e-02
9.01000000000000e-08,6.00000000000000e-01,5.99999999999966e-01,1.78364345457336e-02
9.01080000000000e-08,6.00000000000000e-01,6.00000000000000e-01,1.70593192871815e-02
9.01240000000000e-08,6.00000000000000e-01,6.00000000000000e-01,1.55777740575245e-02
9.01560000000000e-08,6.00000000000000e-01,6.00000000000000e-01,1.29762340497800e-02
9.02200000000000e-08,6.00000000000000e-01,6.00000000000000e-01,9.01504926354638e-03
9.03480000000000e-08,6.00000000000000e-01,6.00000000000000e-01,4.25888943367105e-03
9.06040000000000e-08,6.00000000000000e-01,6.00000000000000e-01,7.30097161638618e-04
9.11159999999999e-08,6.00000000000000e-01,6.00000000000000e-01,-1.09685711092197e-04
9.19735341388515e-08,6.00000000000000e-01,6.00000000000000e-01,4.17697179515286e-05
9.36886024165548e-08,6.00000000000000e-01,6.00000000000000e-01,-2.61954123096375e-05
9.51000000000000e-08,6.00000000000000e-01,6.00000000000000e-01,1.74985489246569e-05
9.51100000000000e-08,5.40000000000061e-01,6.00000000000000e-01,-3.60745725594552e-04
9.51300000000000e-08,4.20000000000084e-01,6.00000000000000e-01,-1.17061327047720e-03
9.51700000000000e-08,1.80000000000129e-01,6.00000000000000e-01,-3.09717985172077e-03
9.52000000000000e-08,8.40438829641244e-14,6.00000000000000e-01,-3.61997818904231e-03
9.52080000000000e-08,0.00000000000000e+00,6.00000000000000e-01,-3.05629868132948e-03
9.52240000000000e-08,0.00000000000000e+00,6.00000000000000e-01,-1.99403982912007e-03
9.52560000000000e-08,0.00000000000000e+00,6.00000000000000e-01,-2.73636788280782e-04
9.53200000000000e-08,0.00000000000000e+00,6.00000000000000e-01,1.56970520244666e-03
9.54480000000000e-08,0.00000000000000e+00,6.00000000000000e-01,2.25030235583687e-03
9.57040000000000e-08,0.00000000000000e+00,6.00000000000000e-01,7.37033322217001e-04
9.62159999999999e-08,0.00000000000000e+00,6.00000000000000e-01,-1.33057378553308e-03
9.72399999999999e-08,0.00000000000000e+00,6.00000000000000e-01,1.79421263480899e-04
9.87908980815485e-08,0.00000000000000e+00,6.00000000000000e-01,-2.76860601442549e-04
1.01171198918627e-07,0.00000000000000e+00,6.00000000000000e-01,2.37367256727692e-04
1.04445604191562e-07,0.00000000000000e+00,6.00000000000000e-01,-5.11441449612959e-05
1.05000000000000e-07,0.00000000000000e+00,6.00000000000000e-01,-2.57177755237169e-04
1.05010000000000e-07,5.99999999999886e-02,6.00000000000000e-01,5.92977549179530e-04
1.05030000000000e-07,1.79999999999966e-01,6.00000000000000e-01,2.15192429098782e-03
1.05070000000000e-07,4.19999999999920e-01,6.00000000000000e-01,4.55642508959869e-03
1.05100000000000e-07,5.99999999999966e-01,6.00000000000000e-01,4.67666453707000e-03
1.05108000000000e-07,6.00000000000000e-01,6.00000000000000e-01,4.26475206311723e-03
1.05124000000000e-07,6.00000000000000e-01,6.00000000000000e-01,3.46534677587326e-03
1.05156000000000e-07,6.00000000000000e-01,6.00000000000000e-01,2.04042085037014e-03
1.05220000000000e-07,6.00000000000000e-01,6.00000000000000e-01,-9.03809449602264e-04
