Time,v(clk),v(data),v(out)
1.71622048964010e-09,0.00000000000000e+00,0.00000000000000e+00,8.24495433645114e-05
3.26330453801180e-09,0.00000000000000e+00,0.00000000000000e+00,-6.51512706496375e-05
5.00000000000000e-09,0.00000000000000e+00,0.00000000000000e+00,5.90041370408766e-05
5.01000000000000e-09,5.99999999999986e-02,0.00000000000000e+00,7.77426185910354e-04
5.03000000000000e-09,1.80000000000001e-01,0.00000000000000e+00,2.08259189874965e-03
5.07000000000000e-09,4.20000000000000e-01,0.00000000000000e+00,3.88166239202919e-03
5.10000000000000e-09,6.00000000000000e-01,0.00000000000000e+00,3.50749829834082e-03
5.10800000000000e-09,6.00000000000000e-01,0.00000000000000e+00,2.97268429022719e-03
5.12400000000000e-09,6.00000000000000e-01,0.00000000000000e+00,1.83577120853994e-03
5.15600000000000e-09,6.00000000000000e-01,0.00000000000000e+00,-1.60802987161271e-04
5.22000000000000e-09,6.00000000000000e-01,0.00000000000000e+00,-2.08107775015030e-03
5.34800000000000e-09,6.00000000000000e-01,0.00000000000000e+00,-1.92644555682529e-03
5.60400000000000e-09,6.00000000000000e-01,0.00000000000000e+00,-5.58291961717805e-04
6.11600000000000e-09,6.00000000000000e-01,0.00000000000000e+00,-2.57275771880477e-04
7.07021323285304e-09,6.00000000000000e-01,0.00000000000000e+00,4.61218496589196e-04
8.97863969855912e-09,6.00000000000000e-01,0.00000000000000e+00,-1.37183234211490e-04
1.00000000000000e-08,6.00000000000000e-01,0.00000000000000e+00,-3.85362285173114e-05
1.00100000000000e-08,6.00000000000000e-01,5.99999999999986e-02,2.95700697010293e-06
1.00300000000000e-08,6.00000000000000e-01,1.79999999999996e-01,7.38738843519826e-05
1.00700000000000e-08,6.00000000000000e-01,4.19999999999990e-01,1.34198874645247e-04
1.01000000000000e-08,6.00000000000000e-01,5.99999999999995e-01,6.36906745748872e-05
1.01080000000000e-08,6.00000000000000e-01,6.00000000000000e-01,2.45697028682934e-05
1.01240000000000e-08,6.00000000000000e-01,6.00000000000000e-01,-3.48063039374708e-05
1.01560000000000e-08,6.00000000000000e-01,6.00000000000000e-01,-1.08273406024970e-04
1.02200000000000e-08,6.00000000000000e-01,6.00000000000000e-01,-1.23129074224335e-04
1.03480000000000e-08,6.00000000000000e-01,6.00000000000000e-01,-1.99611683778383e-05
1.06040000000000e-08,6.00000000000000e-01,6.00000000000000e-01,7.52977072289440e-05
1.11160000000000e-08,6.00000000000000e-01,6.00000000000000e-01,1.02461773068205e-05
1.18845099043899e-08,6.00000000000000e-01,6.00000000000000e-01,-8.68982961724218e-06
1.34215297131698e-08,6.00000000000000e-01,6.00000000000000e-01,1.26762428526890e-05
1.51000000000000e-08,6.00000000000000e-01,6.00000000000000e-01,-1.63168994252519e-06
1.51100000000000e-08,5.39999999999992e-01,6.00000000000000e-01,-3.72036360242051e-04
1.51300000000000e-08,4.19999999999994e-01,6.00000000000000e-01,-1.18723276420586e-03
1.51700000000000e-08,1.80000000000000e-01,6.00000000000000e-01,-3.11034842383159e-03
1.52000000000000e-08,0.00000000000000e+00,6.00000000000000e-01,-3.62341847234079e-03
1.52080000000000e-08,0.00000000000000e+00,6.00000000000000e-01,-3.05821480238154e-03
1.52240000000000e-08,0.00000000000000e+00,6.00000000000000e-01,-1.99232234436315e-03
1.52560000000000e-08,0.00000000000000e+00,6.00000000000000e-01,-2.71114617576451e-04
1.53200000000000e-08,0.00000000000000e+00,6.00000000000000e-01,1.60825788239663e-03
1.54480000000000e-08,0.00000000000000e+00,6.00000000000000e-01,2.38919168461502e-03
1.57040000000000e-08,0.00000000000000e+00,6.00000000000000e-01,1.26653107573335e-03
1.62160000000000e-08,0.00000000000000e+00,6.00000000000000e-01,-8.12415980605601e-04
1.72400000000000e-08,0.00000000000000e+00,6.00000000000000e-01,-2.53023010798568e-05
1.90688005073794e-08,0.00000000000000e+00,6.00000000000000e-01,-1.42872381804941e-04
2.13450102088519e-08,0.00000000000000e+00,6.00000000000000e-01,1.80354466765245e-04
2.50000000000000e-08,0.00000000000000e+00,6.00000000000000e-01,-6.35993354144750e-05
2.50100000000000e-08,5.99999999999886e-02,6.00000000000000e-01,7.25652968378496e-04
2.50300000000000e-08,1.80000000000006e-01,6.00000000000000e-01,2.21211185957557e-03
2.50700000000000e-08,4.20000000000000e-01,6.00000000000000e-01,4.56561182928074e-03
2.51000000000000e-08,6.00000000000000e-01,6.00000000000000e-01,4.67123483255323e-03
2.51080000000000e-08,6.00000000000000e-01,6.00000000000000e-01,4.24932479003064e-03
2.51240000000000e-08,6.00000000000000e-01,6.00000000000000e-01,3.42579873067972e-03
2.51560000000000e-08,6.00000000000000e-01,6.00000000000000e-01,1.89791256451116e-03
2.52200000000000e-08,6.00000000000000e-01,6.00000000000000e-01,-1.32517411053847e-03
2.53480000000000e-08,6.00000000000000e-01,6.00000000000000e-01,-7.91651201602314e-03
2.56040000000000e-08,6.00000000000000e-01,6.00000000000000e-01,-1.54529936838113e-02
2.61160000000000e-08,6.00000000000000e-01,6.00000000000000e-01,2.35059479136812e-02
2.70980062980688e-08,6.00000000000000e-01,6.00000000000000e-01,4.60244708443829e-01
2.87851291951472e-08,6.00000000000000e-01,6.00000000000000e-01,6.23323930185172e-01
3.05069175376852e-08,6.00000000000000e-01,6.00000000000000e-01,5.80103336190115e-01
3.39504942227612e-08,6.00000000000000e-01,6.00000000000000e-01,6.17611824390336e-01
3.51000000000000e-08,5.99999999999970e-01,6.00000000000000e-01,5.86624402916672e-01
3.51100000000000e-08,5.39999999999982e-01,6.00000000000000e-01,5.87589794582078e-01
3.51300000000000e-08,4.19999999999965e-01,6.00000000000000e-01,5.89264444062189e-01
3.51700000000000e-08,1.79999999999970e-01,6.00000000000000e-01,5.91788915066006e-01
3.52000000000000e-08,0.00000000000000e+00,6.00000000000000e-01,5.94161132636566e-01
3.52080000000000e-08,0.00000000000000e+00,6.00000000000000e-01,5.95092635873878e-01
3.52240000000000e-08,0.00000000000000e+00,6.00000000000000e-01,5.96779149954921e-01
3.52560000000000e-08,0.00000000000000e+00,6.00000000000000e-01,5.99422297958402e-01
3.53200000000000e-08,0.00000000000000e+00,6.00000000000000e-01,6.02974869375083e-01
3.54480000000000e-08,0.00000000000000e+00,6.00000000000000e-01,6.05596496485744e-01
3.57040000000000e-08,0.00000000000000e+00,6.00000000000000e-01,6.05360528451233e-01
3.62160000000000e-08,0.00000000000000e+00,6.00000000000000e-01,5.95251886467565e-01
3.72400000000000e-08,0.00000000000000e+00,6.00000000000000e-01,5.89204224890757e-01
3.89836665344968e-08,0.00000000000000e+00,6.00000000000000e-01,6.03442943035722e-01
4.15560238480976e-08,0.00000000000000e+00,6.00000000000000e-01,5.96972868190592e-01
4.48088599565751e-08,0.00000000000000e+00,6.00000000000000e-01,6.02127616414731e-01
4.50000000000000e-08,0.00000000000000e+00,6.00000000000000e-01,6.00401792315143e-01
4.50100000000000e-08,5.99999999999886e-02,6.00000000000000e-01,6.00757865688645e-01
4.50300000000000e-08,1.80000000000006e-01,6.00000000000000e-01,6.01385158454083e-01
4.50700000000000e-08,4.20000000000000e-01,6.00000000000000e-01,6.02329436569395e-01
4.51000000000000e-08,6.00000000000000e-01,6.00000000000000e-01,6.02299633194508e-01
4.51080000000000e-08,6.00000000000000e-01,5.52000000000025e-01,6.02042970557186e-01
4.51240000000000e-08,6.00000000000000e-01,4.55999999999996e-01,6.01530781433384e-01
4.51560000000000e-08,6.00000000000000e-01,2.64000000000016e-01,6.00667117784808e-01
4.52000000000000e-08,6.00000000000000e-01,3.44169137633799e-14,5.99735320889479e-01
4.52064000000000e-08,6.00000000000000e-01,0.00000000000000e+00,5.99646662975133e-01
4.52192000000000e-08,6.00000000000000e-01,0.00000000000000e+00,5.99454384947491e-01
4.52448000000000e-08,6.00000000000000e-01,0.00000000000000e+00,5.99024406509017e-01
4.52960000000000e-08,6.00000000000000e-01,0.00000000000000e+00,5.98208656750448e-01
4.53984000000000e-08,6.00000000000000e-01,0.00000000000000e+00,5.96770431674819e-01
4.56032000000000e-08,6.00000000000000e-01,0.00000000000000e+00,5.94434531248074e-01
4.60128000000000e-08,6.00000000000000e-01,0.00000000000000e+00,5.92840076519304e-01
4.68320000000000e-08,6.00000000000000e-01,0.00000000000000e+00,5.98320623231234e-01
4.79085149889053e-08,6.00000000000000e-01,0.00000000000000e+00,6.00322195297296e-01
5.00615449667160e-08,6.00000000000000e-01,0.00000000000000e+00,5.99687989505525e-01
5.22636349337342e-08,6.00000000000000e-01,0.00000000000000e+00,6.00297883735958e-01
5.51000000000000e-08,6.00000000000000e-01,0.00000000000000e+00,5.99721107278720e-01
5.51100000000000e-08,5.40000000000021e-01,0.00000000000000e+00,5.99416031297884e-01
5.51300000000000e-08,4.20000000000004e-01,0.00000000000000e+00,5.98778563182126e-01
5.51700000000000e-08,1.80000000000010e-01,0.00000000000000e+00,5.97827003782682e-01
5.52000000000000e-08,0.00000000000000e+00,0.00000000000000e+00,5.98364736662404e-01
5.52080000000000e-08,0.00000000000000e+00,0.00000000000000e+00,5.98959333612481e-01
5.52240000000000e-08,0.00000000000000e+00,0.00000000000000e+00,6.00082502346953e-01
5.52560000000000e-08,0.00000000000000e+00,0.00000000000000e+00,6.02058493947674e-01
5.53200000000000e-08,0.00000000000000e+00,0.00000000000000e+00,6.04336440446862e-01
5.54480000000000e-08,0.00000000000000e+00,0.00000000000000e+00,6.05992688301157e-01
5.57040000000000e-08,0.00000000000000e+00,0.00000000000000e+00,6.07007958374637e-01
5.62160000000000e-08,0.00000000000000e+00,0.00000000000000e+00,6.06783754751426e-01
5.72400000000000e-08,0.00000000000000e+00,0.00000000000000e+00,5.98557185745705e-01
5.86506376145351e-08,0.00000000000000e+00,0.00000000000000e+00,6.00673591446210e-01
6.05287789094456e-08,0.00000000000000e+00,0.00000000000000e+00,5.99371256713844e-01
6.36012115833623e-08,0.00000000000000e+00,0.00000000000000e+00,6.00347844631124e-01
6.50000000000000e-08,0.00000000000000e+00,0.00000000000000e+00,5.99682682994568e-01
6.50100000000000e-08,5.99999999999886e-02,0.00000000000000e+00,6.00060088873990e-01
6.50300000000000e-08,1.79999999999966e-01,0.00000000000000e+00,6.00762127238524e-01
6.50700000000000e-08,4.19999999999920e-01,0.00000000000000e+00,6.01814490561134e-01
6.51000000000000e-08,5.99999999999966e-01,0.00000000000000e+00,6.01672695944974e-01
6.51080000000000e-08,6.00000000000000e-01,0.00000000000000e+00,6.01391891594490e-01
6.51240000000000e-08,6.00000000000000e-01,0.00000000000000e+00,6.00856936402404e-01
6.51560000000000e-08,6.00000000000000e-01,0.00000000000000e+00,5.99935227935435e-01
6.52200000000000e-08,6.00000000000000e-01,0.00000000000000e+00,5.98672556172167e-01
6.53480000000000e-08,6.00000000000000e-01,0.00000000000000e+00,5.97515274668672e-01
6.56040000000000e-08,6.00000000000000e-01,0.00000000000000e+00,5.97963049312448e-01
6.61159999999999e-08,6.00000000000000e-01,0.00000000000000e+00,6.11222648790986e-01
6.71399999999999e-08,6.00000000000000e-01,0.00000000000000e+00,2.73161111325229e-01
6.88835313812848e-08,6.00000000000000e-01,0.00000000000000e+00,-4.62695124874611e-02
7.06697549370896e-08,6.00000000000000e-01,0.00000000000000e+00,3.82179728052374e-02
7.42422020486991e-08,6.00000000000000e-01,0.00000000000000e+00,-2.65504259775858e-02
7.51000000000000e-08,6.00000000000000e-01,0.00000000000000e+00,1.26245648828990e-02
7.51100000000000e-08,5.40000000000061e-01,0.00000000000000e+00,1.16637608094016e-02
7.51300000000000e-08,4.20000000000084e-01,0.00000000000000e+00,9.74333774770335e-03
7.51700000000000e-08,1.80000000000129e-01,0.00000000000000e+00,5.85074943339495e-03
7.52000000000000e-08,8.40438829641244e-14,0.00000000000000e+00,4.04644478473036e-03
7.52080000000000e-08,0.00000000000000e+00,0.00000000000000e+00,4.28446265066165e-03
7.52240000000000e-08,0.00000000000000e+00,0.00000000000000e+00,4.70088918565660e-03
7.52560000000000e-08,0.00000000000000e+00,0.00000000000000e+00,5.22645182384818e-03
7.53200000000000e-08,0.00000000000000e+00,0.00000000000000e+00,5.35777510942875e-03
7.54480000000000e-08,0.00000000000000e+00,0.00000000000000e+00,4.07359308186069e-03
7.57040000000000e-08,0.00000000000000e+00,0.00000000000000e+00,1.05165997703828e-03
7.62159999999999e-08,0.00000000000000e+00,0.00000000000000e+00,-1.41241421443195e-03
7.72399999999999e-08,0.00000000000000e+00,0.00000000000000e+00,9.85379664332348e-05
7.87648186705949e-08,0.00000000000000e+00,0.00000000000000e+00,1.15354744311735e-04
8.13798374157072e-08,0.00000000000000e+00,0.00000000000000e+00,-1.58898265122416e-04
8.48085163300092e-08,0.00000000000000e+00,0.00000000000000e+00,1.76364010414275e-04
8.50000000000000e-08,0.00000000000000e+00,0.00000000000000e+00,-7.08459388220756e-05
8.50100000000000e-08,5.99999999999886e-02,0.00000000000000e+00,6.74034150516797e-04
8.50300000000000e-08,1.79999999999966e-01,0.00000000000000e+00,2.01949404922236e-03
8.50700000000000e-08,4.19999999999920e-01,0.00000000000000e+00,3.80495724919802e-03
8.51000000000000e-08,5.99999999999966e-01,0.00000000000000e+00,3.21956433005659e-03
8.51080000000000e-08,6.00000000000000e-01,0.00000000000000e+00,2.59199606203543e-03
8.51240000000000e-08,6.00000000000000e-01,0.00000000000000e+00,1.38378366150922e-03
8.51560000000000e-08,6.00000000000000e-01,0.00000000000000e+00,-4.24973508241569e-04
8.52200000000000e-08,6.00000000000000e-01,0.00000000000000e+00,-1.92548179238722e-03
8.53480000000000e-08,6.00000000000000e-01,0.00000000000000e+00,-1.75477358190991e-03
8.56040000000000e-08,6.00000000000000e-01,0.00000000000000e+00,-6.45082300128011e-04
8.61159999999999e-08,6.00000000000000e-01,0.00000000000000e+00,-2.39704956109810e-04
8.71399999999999e-08,6.00000000000000e-01,0.00000000000000e+00,4.80716213564519e-04
8.91879999999998e-08,6.00000000000000e-01,0.00000000000000e+00,-1.95394782484138e-04
9.00000000000000e-08,6.00000000000000e-01,0.00000000000000e+00,-3.11621188972058e-05
9.00100000000000e-08,6.00000000000000e-01,5.99999999999886e-02,1.02845501701448e-05
9.00300000000000e-08,6.00000000000000e-01,1.79999999999966e-01,7.68538228883148e-05
9.00700000000000e-08,6.00000000000000e-01,4.19999999999920e-01,1.33775185224408e-04
9.01000000000000e-08,6.00000000000000e-01,5.99999999999966e-01,6.26254887188260e-05
9.01080000000000e-08,6.00000000000000e-01,6.00000000000000e-01,2.36699390084444e-05
9.01240000000000e-08,6.00000000000000e-01,6.00000000000000e-01,-3.48996606700236e-05
9.01560000000000e-08,6.00000000000000e-01,6.00000000000000e-01,-1.02116138251937e-04
9.02200000000000e-08,6.00000000000000e-01,6.00000000000000e-01,-1.19931943343018e-04
9.03480000000000e-08,6.00000000000000e-01,6.00000000000000e-01,-2.83848709042162e-05
9.06040000000000e-08,6.00000000000000e-01,6.00000000000000e-01,6.54395955310000e-05
9.11159999999999e-08,6.00000000000000e-01,6.00000000000000e-01,1.08870932848740e-05
9.19528407674535e-08,6.00000000000000e-01,6.00000000000000e-01,-8.10822126482563e-06
9.36265223023606e-08,6.00000000000000e-01,6.00000000000000e-01,1.29260330593746e-05
9.51000000000000e-08,6.00000000000000e-01,6.00000000000000e-01,-1.77884828425623e-06
9.51100000000000e-08,5.40000000000061e-01,6.00000000000000e-01,-3.71765067356519e-04
9.51300000000000e-08,4.20000000000084e-01,6.00000000000000e-01,-1.18924317487801e-03
9.51700000000000e-08,1.80000000000129e-01,6.00000000000000e-01,-3.11020255292116e-03
9.52000000000000e-08,8.40438829641244e-14,6.00000000000000e-01,-3.62320374760365e-03
9.52080000000000e-08,0.00000000000000e+00,6.00000000000000e-01,-3.05794517370141e-03
9.52240000000000e-08,0.00000000000000e+00,6.00000000000000e-01,-1.99204538622040e-03
9.52560000000000e-08,0.00000000000000e+00,6.00000000000000e-01,-2.70702838654616e-04
9.53200000000000e-08,0.00000000000000e+00,6.00000000000000e-01,1.60863937450297e-03
9.54480000000000e-08,0.00000000000000e+00,6.00000000000000e-01,2.38899123409757e-03
9.57040000000000e-08,0.00000000000000e+00,6.00000000000000e-01,1.26527636757610e-03
9.62159999999999e-08,0.00000000000000e+00,6.00000000000000e-01,-8.12562198195185e-04
9.72399999999999e-08,0.00000000000000e+00,6.00000000000000e-01,-2.54213175698709e-05
9.90684718013716e-08,0.00000000000000e+00,6.00000000000000e-01,-1.42731056576785e-04
1.01344873004202e-07,0.00000000000000e+00,6.00000000000000e-01,1.80107931134489e-04
1.05000000000000e-07,0.00000000000000e+00,6.00000000000000e-01,-6.32877694128169e-05
1.05010000000000e-07,5.99999999999886e-02,6.00000000000000e-01,7.25931905520338e-04
1.05030000000000e-07,1.79999999999966e-01,6.00000000000000e-01,2.21234317944569e-03
1.05070000000000e-07,4.19999999999920e-01,6.00000000000000e-01,4.56581280436180e-03
1.05100000000000e-07,5.99999999999966e-01,6.00000000000000e-01,4.67145539413300e-03
1.05108000000000e-07,6.00000000000000e-01,6.00000000000000e-01,4.24955417495543e-03
1.05124000000000e-07,6.00000000000000e-01,6.00000000000000e-01,3.42606493994378e-03
1.05156000000000e-07,6.00000000000000e-01,6.00000000000000e-01,1.89838023669532e-03
1.05220000000000e-07,6.00000000000000e-01,6.00000000000000e-01,-1.32415885802034e-03
1.05348000000000e-07,6.00000000000000e-01,6.00000000000000e-01,-7.91535655061763e-03
1.05604000000000e-07,6.00000000000000e-01,6.00000000000000e-01,-1.54527428150700e-02
1.06116000000000e-07,6.00000000000000e-01,6.00000000000000e-01,2.34977768501291e-02
1.07097840287729e-07,6.00000000000000e-01,6.00000000000000e-01,4.60199635987005e-01
1.08784754980983e-07,6.00000000000000e-01,6.00000000000000e-01,6.23325219663893e-01
1.10506324492476e-07,6.00000000000000e-01,6.00000000000000e-01,5.80102365888888e-01
1.13949463515460e-07,6.00000000000000e-01,6.00000000000000e-01,6.17613606296298e-01
1.15100000000000e-07,6.00000000000000e-01,6.00000000000000e-01,5.86618994831274e-01
1.15110000000000e-07,5.40000000000061e-01,6.00000000000000e-01,5.87584723919417e-01
1.15130000000000e-07,4.20000000000084e-01,6.00000000000000e-01,5.89260511051042e-01
1.15170000000000e-07,1.80000000000129e-01,6.00000000000000e-01,5.91786625308090e-01
1.15200000000000e-07,8.40438829641244e-14,6.00000000000000e-01,5.94159514040127e-01
1.15208000000000e-07,0.00000000000000e+00,6.00000000000000e-01,5.95091148709651e-01
1.15224000000000e-07,0.00000000000000e+00,6.00000000000000e-01,5.96778056150423e-01
1.15256000000000e-07,0.00000000000000e+00,6.00000000000000e-01,5.99421695806761e-01
1.15320000000000e-07,0.00000000000000e+00,6.00000000000000e-01,6.02974611055820e-01
1.15448000000000e-07,0.00000000000000e+00,6.00000000000000e-01,6.05596394712805e-01
1.15704000000000e-07,0.00000000000000e+00,6.00000000000000e-01,6.05358863906672e-01
1.16216000000000e-07,0.00000000000000e+00,6.00000000000000e-01,5.95248442986738e-01
1.17240000000000e-07,0.00000000000000e+00,6.00000000000000e-01,5.89204404008044e-01
1.18983648327926e-07,0.00000000000000e+00,6.00000000000000e-01,6.03443471831006e-01
1.21555996935488e-07,0.00000000000000e+00,6.00000000000000e-01,5.96972404471319e-01
1.24808811280596e-07,0.00000000000000e+00,6.00000000000000e-01,6.02127940779484e-01
1.25000000000000e-07,0.00000000000000e+00,6.00000000000000e-01,6.00401595989755e-01
1.25010000000000e-07,5.99999999999092e-02,6.00000000000000e-01,6.00757681891918e-01
1.25030000000000e-07,1.79999999999886e-01,6.00000000000000e-01,6.01384997282966e-01
1.25070000000000e-07,4.19999999999841e-01,6.00000000000000e-01,6.02329314321571e-01
1.25100000000000e-07,5.99999999999886e-01,6.00000000000000e-01,6.02299534085333e-01
1.25108000000000e-07,6.00000000000000e-01,5.51999999999946e-01,6.02042877013194e-01
1.25124000000000e-07,6.00000000000000e-01,4.55999999999996e-01,6.01530696206522e-01
1.25156000000000e-07,6.00000000000000e-01,2.63999999999937e-01,6.00667049489794e-01
1.25200000000000e-07,6.00000000000000e-01,0.00000000000000e+00,5.99735272094648e-01
1.25206400000000e-07,6.00000000000000e-01,0.00000000000000e+00,5.99646615887802e-01
1.25219200000000e-07,6.00000000000000e-01,0.00000000000000e+00,5.99454341309582e-01
1.25244800000000e-07,6.00000000000000e-01,0.00000000000000e+00,5.99024368724890e-01
1.25296000000000e-07,6.00000000000000e-01,0.00000000000000e+00,5.98208630450250e-01
1.25398400000000e-07,6.00000000000000e-01,0.00000000000000e+00,5.96770421643451e-01
1.25603200000000e-07,6.00000000000000e-01,0.00000000000000e+00,5.94434538717378e-01
1.26012800000000e-07,6.00000000000000e-01,0.00000000000000e+00,5.92840074710661e-01
1.26832000000000e-07,6.00000000000000e-01,0.00000000000000e+00,5.98320614963399e-01
