Time,v(clk),v(data),v(out),v(reset)
1.00000000000000e-08,5.00000000000000e-01,0.00000000000000e+00,-3.81441797490077e-06,0.00000000000000e+00
1.00100000000000e-08,5.00000000000000e-01,4.99999999999988e-02,3.58124400994669e-06,0.00000000000000e+00
1.00300000000000e-08,5.00000000000000e-01,1.49999999999996e-01,1.08628330588653e-05,0.00000000000000e+00
1.00700000000000e-08,5.00000000000000e-01,3.49999999999992e-01,1.08831554133659e-05,0.00000000000000e+00
1.01000000000000e-08,5.00000000000000e-01,4.99999999999996e-01,7.93718308395724e-06,0.00000000000000e+00
1.01080000000000e-08,5.00000000000000e-01,5.00000000000000e-01,7.20118974884693e-06,0.00000000000000e+00
1.01240000000000e-08,5.00000000000000e-01,5.00000000000000e-01,6.13539506103683e-06,0.00000000000000e+00
1.01560000000000e-08,5.00000000000000e-01,5.00000000000000e-01,5.26669204178182e-06,0.00000000000000e+00
1.02200000000000e-08,5.00000000000000e-01,5.00000000000000e-01,4.77171804994653e-06,0.00000000000000e+00
1.03480000000000e-08,5.00000000000000e-01,5.00000000000000e-01,1.77459442817635e-06,0.00000000000000e+00
1.06040000000000e-08,5.00000000000000e-01,5.00000000000000e-01,1.63066549101198e-06,0.00000000000000e+00
1.11160000000000e-08,5.00000000000000e-01,5.00000000000000e-01,1.50886768439211e-06,0.00000000000000e+00
1.21400000000000e-08,5.00000000000000e-01,5.00000000000000e-01,1.50426632454645e-06,0.00000000000000e+00
1.41880000000000e-08,5.00000000000000e-01,5.00000000000000e-01,1.08539871912982e-06,0.00000000000000e+00
1.51000000000000e-08,5.00000000000000e-01,5.00000000000000e-01,1.28258309487015e-06,0.00000000000000e+00
1.51100000000000e-08,4.49999999999993e-01,5.00000000000000e-01,1.65037405996861e-04,5.00000000000071e-02
1.51300000000000e-08,3.49999999999995e-01,5.00000000000000e-01,3.63225852341734e-04,1.50000000000005e-01
1.51700000000000e-08,1.50000000000000e-01,5.00000000000000e-01,2.59336351644865e-04,3.50000000000000e-01
1.52000000000000e-08,0.00000000000000e+00,5.00000000000000e-01,8.18076986568578e-05,5.00000000000000e-01
1.52080000000000e-08,0.00000000000000e+00,5.00000000000000e-01,3.62923472211688e-05,5.00000000000000e-01
1.52240000000000e-08,0.00000000000000e+00,5.00000000000000e-01,-2.71907168100036e-05,5.00000000000000e-01
1.52560000000000e-08,0.00000000000000e+00,5.00000000000000e-01,-5.55635731707138e-05,5.00000000000000e-01
1.53200000000000e-08,0.00000000000000e+00,5.00000000000000e-01,-2.39656217002754e-05,5.00000000000000e-01
1.54480000000000e-08,0.00000000000000e+00,5.00000000000000e-01,-3.53768901857968e-06,5.00000000000000e-01
1.57040000000000e-08,0.00000000000000e+00,5.00000000000000e-01,-6.21068699942929e-05,5.00000000000000e-01
1.62160000000000e-08,0.00000000000000e+00,5.00000000000000e-01,-2.60228919207262e-05,5.00000000000000e-01
1.72093508975987e-08,0.00000000000000e+00,5.00000000000000e-01,-1.27032822884185e-05,5.00000000000000e-01
1.85232558293586e-08,0.00000000000000e+00,5.00000000000000e-01,5.78135487629230e-05,5.00000000000000e-01
2.08865813871671e-08,0.00000000000000e+00,5.00000000000000e-01,-6.17544503776100e-05,5.00000000000000e-01
2.39660061291610e-08,0.00000000000000e+00,5.00000000000000e-01,6.24106446650932e-05,5.00000000000000e-01
2.50000000000000e-08,0.00000000000000e+00,5.00000000000000e-01,-5.67747691576095e-05,5.00000000000000e-01
2.50100000000000e-08,4.99999999999905e-02,5.00000000000000e-01,4.34748406519386e-05,5.00000000000000e-01
2.50300000000000e-08,1.50000000000005e-01,5.00000000000000e-01,2.00944969903201e-04,5.00000000000000e-01
2.50700000000000e-08,3.50000000000000e-01,5.00000000000000e-01,3.01866362417996e-04,5.00000000000000e-01
2.51000000000000e-08,5.00000000000000e-01,5.00000000000000e-01,1.01882228514052e-05,5.00000000000000e-01
2.51080000000000e-08,5.00000000000000e-01,5.00000000000000e-01,-2.78746285667798e-04,5.00000000000000e-01
2.51240000000000e-08,5.00000000000000e-01,5.00000000000000e-01,-1.01006772281487e-03,5.00000000000000e-01
2.51560000000000e-08,5.00000000000000e-01,5.00000000000000e-01,-2.60228056544208e-03,5.00000000000000e-01
2.52200000000000e-08,5.00000000000000e-01,5.00000000000000e-01,-4.75216399642155e-03,5.00000000000000e-01
2.53480000000000e-08,5.00000000000000e-01,5.00000000000000e-01,1.62807402557124e-03,5.00000000000000e-01
2.56040000000000e-08,5.00000000000000e-01,5.00000000000000e-01,1.88759453875675e-01,5.00000000000000e-01
2.61160000000000e-08,5.00000000000000e-01,5.00000000000000e-01,4.98632606133188e-01,5.00000000000000e-01
2.70735158417584e-08,5.00000000000000e-01,5.00000000000000e-01,4.99068696608052e-01,5.00000000000000e-01
2.82406047036007e-08,5.00000000000000e-01,5.00000000000000e-01,5.01755846063563e-01,5.00000000000000e-01
3.04265199067637e-08,5.00000000000000e-01,5.00000000000000e-01,4.98268501287699e-01,5.00000000000000e-01
3.31737916884391e-08,5.00000000000000e-01,5.00000000000000e-01,5.02094344843829e-01,5.00000000000000e-01
3.51000000000000e-08,4.99999999999975e-01,5.00000000000000e-01,4.98017445292670e-01,5.00000000000000e-01
3.51100000000000e-08,4.49999999999985e-01,5.00000000000000e-01,4.98670002094719e-01,5.00000000000000e-01
3.51300000000000e-08,3.49999999999971e-01,5.00000000000000e-01,4.99554512194695e-01,5.00000000000000e-01
3.51700000000000e-08,1.49999999999975e-01,5.00000000000000e-01,5.00267920215445e-01,5.00000000000000e-01
3.52000000000000e-08,0.00000000000000e+00,5.00000000000000e-01,5.01003733976552e-01,5.00000000000000e-01
3.52080000000000e-08,0.00000000000000e+00,5.00000000000000e-01,5.01287331875197e-01,5.00000000000000e-01
3.52240000000000e-08,0.00000000000000e+00,5.00000000000000e-01,5.01738507041311e-01,5.00000000000000e-01
3.52560000000000e-08,0.00000000000000e+00,5.00000000000000e-01,5.02183780220565e-01,5.00000000000000e-01
3.53200000000000e-08,0.00000000000000e+00,5.00000000000000e-01,5.02251877680377e-01,5.00000000000000e-01
3.54480000000000e-08,0.00000000000000e+00,5.00000000000000e-01,4.98352385784774e-01,5.00000000000000e-01
3.57040000000000e-08,0.00000000000000e+00,5.00000000000000e-01,4.82138158887634e-01,5.00000000000000e-01
3.62160000000000e-08,0.00000000000000e+00,5.00000000000000e-01,4.88906528987166e-01,5.00000000000000e-01
3.72400000000000e-08,0.00000000000000e+00,5.00000000000000e-01,5.04888453287553e-01,5.00000000000000e-01
3.88072133394165e-08,0.00000000000000e+00,5.00000000000000e-01,4.95162605917216e-01,5.00000000000000e-01
4.16680969917487e-08,0.00000000000000e+00,5.00000000000000e-01,5.03647551747361e-01,5.00000000000000e-01
4.50000000000000e-08,0.00000000000000e+00,5.00000000000000e-01,4.96285302972822e-01,5.00000000000000e-01
4.50100000000000e-08,4.99999999999905e-02,5.00000000000000e-01,4.96590741088201e-01,4.50000000000010e-01
4.50300000000000e-08,1.50000000000005e-01,5.00000000000000e-01,4.97134338092620e-01,3.49999999999995e-01
4.50700000000000e-08,3.50000000000000e-01,5.00000000000000e-01,4.98150963622257e-01,1.50000000000000e-01
4.51000000000000e-08,5.00000000000000e-01,5.00000000000000e-01,5.00069136014551e-01,0.00000000000000e+00
4.51080000000000e-08,5.00000000000000e-01,5.00000000000000e-01,5.00887686730028e-01,0.00000000000000e+00
4.51240000000000e-08,5.00000000000000e-01,5.00000000000000e-01,5.02294554846454e-01,0.00000000000000e+00
4.51560000000000e-08,5.00000000000000e-01,5.00000000000000e-01,5.04374613740183e-01,0.00000000000000e+00
4.52200000000000e-08,5.00000000000000e-01,5.00000000000000e-01,5.07740651205374e-01,0.00000000000000e+00
4.53480000000000e-08,5.00000000000000e-01,5.00000000000000e-01,5.15294030625201e-01,0.00000000000000e+00
4.56040000000000e-08,5.00000000000000e-01,5.00000000000000e-01,3.35650245115000e-01,0.00000000000000e+00
4.61160000000000e-08,5.00000000000000e-01,5.00000000000000e-01,-1.24382427919730e-02,0.00000000000000e+00
4.67530204318757e-08,5.00000000000000e-01,5.00000000000000e-01,9.94053380197618e-03,0.00000000000000e+00
4.80270612956272e-08,5.00000000000000e-01,5.00000000000000e-01,-7.98814747892017e-03,0.00000000000000e+00
4.94566336220374e-08,5.00000000000000e-01,5.00000000000000e-01,7.39162121385760e-03,0.00000000000000e+00
5.01000000000000e-08,5.00000000000000e-01,4.99999999999971e-01,-5.10193804928688e-03,0.00000000000000e+00
5.03859144652820e-08,5.00000000000000e-01,5.00000000000000e-01,-7.83356424919383e-04,0.00000000000000e+00
5.09577433958461e-08,5.00000000000000e-01,5.00000000000000e-01,5.72893680718669e-04,0.00000000000000e+00
5.21014012569743e-08,5.00000000000000e-01,5.00000000000000e-01,-4.87214424997332e-04,0.00000000000000e+00
5.43887169792306e-08,5.00000000000000e-01,5.00000000000000e-01,4.51512097533045e-04,0.00000000000000e+00
5.51000000000000e-08,5.00000000000000e-01,5.00000000000000e-01,-3.47811782836946e-04,0.00000000000000e+00
5.51100000000000e-08,4.50000000000018e-01,5.00000000000000e-01,-1.26645541178853e-04,4.99999999999822e-02
5.51300000000000e-08,3.50000000000004e-01,5.00000000000000e-01,1.76772861252450e-04,1.49999999999996e-01
5.51700000000000e-08,1.50000000000008e-01,5.00000000000000e-01,1.90134465557122e-04,3.49999999999992e-01
5.52000000000000e-08,0.00000000000000e+00,5.00000000000000e-01,4.36139709565284e-05,5.00000000000000e-01
5.52080000000000e-08,0.00000000000000e+00,5.00000000000000e-01,3.14997394754851e-06,5.00000000000000e-01
5.52240000000000e-08,0.00000000000000e+00,5.00000000000000e-01,-5.14524043609826e-05,5.00000000000000e-01
5.52560000000000e-08,0.00000000000000e+00,5.00000000000000e-01,-7.16123726174009e-05,5.00000000000000e-01
5.53200000000000e-08,0.00000000000000e+00,5.00000000000000e-01,-2.76482656896317e-05,5.00000000000000e-01
5.54480000000000e-08,0.00000000000000e+00,5.00000000000000e-01,-7.85936848779513e-05,5.00000000000000e-01
5.57040000000000e-08,0.00000000000000e+00,5.00000000000000e-01,-4.01394225585213e-04,5.00000000000000e-01
5.62160000000000e-08,0.00000000000000e+00,5.00000000000000e-01,2.22668881961180e-04,5.00000000000000e-01
5.71646782670264e-08,0.00000000000000e+00,5.00000000000000e-01,-2.18812426480503e-04,5.00000000000000e-01
5.84926488732827e-08,0.00000000000000e+00,5.00000000000000e-01,1.89289969237353e-04,5.00000000000000e-01
6.07996065601800e-08,0.00000000000000e+00,5.00000000000000e-01,-1.58907434055591e-04,5.00000000000000e-01
6.38577758649824e-08,0.00000000000000e+00,5.00000000000000e-01,1.39682751151740e-04,5.00000000000000e-01
6.50000000000000e-08,0.00000000000000e+00,5.00000000000000e-01,-9.10742781122971e-05,5.00000000000000e-01
6.50100000000000e-08,4.99999999999905e-02,5.00000000000000e-01,-1.47014859632061e-05,5.00000000000000e-01
6.50300000000000e-08,1.49999999999972e-01,5.00000000000000e-01,1.26354906127786e-04,5.00000000000000e-01
6.50700000000000e-08,3.49999999999934e-01,5.00000000000000e-01,2.55694706764828e-04,5.00000000000000e-01
6.51000000000000e-08,4.99999999999971e-01,5.00000000000000e-01,-1.56416110492219e-05,5.00000000000000e-01
6.51080000000000e-08,5.00000000000000e-01,5.00000000000000e-01,-3.00682995731431e-04,5.00000000000000e-01
6.51240000000000e-08,5.00000000000000e-01,5.00000000000000e-01,-1.02506142488590e-03,5.00000000000000e-01
6.51560000000000e-08,5.00000000000000e-01,5.00000000000000e-01,-2.60807948888756e-03,5.00000000000000e-01
6.52200000000000e-08,5.00000000000000e-01,5.00000000000000e-01,-4.74474539450728e-03,5.00000000000000e-01
6.53480000000000e-08,5.00000000000000e-01,5.00000000000000e-01,1.43356215965715e-03,5.00000000000000e-01
6.56040000000000e-08,5.00000000000000e-01,5.00000000000000e-01,1.87953975781770e-01,5.00000000000000e-01
6.61159999999999e-08,5.00000000000000e-01,5.00000000000000e-01,4.98431807977514e-01,5.00000000000000e-01
6.70750068369953e-08,5.00000000000000e-01,5.00000000000000e-01,4.99162396782533e-01,5.00000000000000e-01
6.82414673698555e-08,5.00000000000000e-01,5.00000000000000e-01,5.01652523255823e-01,5.00000000000000e-01
7.04290673079174e-08,5.00000000000000e-01,5.00000000000000e-01,4.98346425977849e-01,5.00000000000000e-01
7.31752752418422e-08,5.00000000000000e-01,5.00000000000000e-01,5.02007933002000e-01,5.00000000000000e-01
7.51000000000000e-08,5.00000000000000e-01,5.00000000000000e-01,4.98085737972918e-01,5.00000000000000e-01
7.51100000000000e-08,4.50000000000051e-01,5.00000000000000e-01,4.98725149308169e-01,5.00000000000000e-01
7.51300000000000e-08,3.50000000000070e-01,5.00000000000000e-01,4.99588330608686e-01,5.00000000000000e-01
7.51700000000000e-08,1.50000000000108e-01,5.00000000000000e-01,5.00271179626112e-01,5.00000000000000e-01
7.52000000000000e-08,6.99995617026161e-14,5.00000000000000e-01,5.01005621184104e-01,5.00000000000000e-01
7.52080000000000e-08,0.00000000000000e+00,5.00000000000000e-01,5.01289012041704e-01,5.00000000000000e-01
7.52240000000000e-08,0.00000000000000e+00,5.00000000000000e-01,5.01739848003210e-01,5.00000000000000e-01
7.52560000000000e-08,0.00000000000000e+00,5.00000000000000e-01,5.02184646646855e-01,5.00000000000000e-01
7.53200000000000e-08,0.00000000000000e+00,5.00000000000000e-01,5.02252379464701e-01,5.00000000000000e-01
7.54480000000000e-08,0.00000000000000e+00,5.00000000000000e-01,4.98353039059494e-01,5.00000000000000e-01
7.57040000000000e-08,0.00000000000000e+00,5.00000000000000e-01,4.82138852296331e-01,5.00000000000000e-01
7.62159999999999e-08,0.00000000000000e+00,5.00000000000000e-01,4.88906557471681e-01,5.00000000000000e-01
7.72399999999999e-08,0.00000000000000e+00,5.00000000000000e-01,5.04888592346910e-01,5.00000000000000e-01
7.88071972535478e-08,0.00000000000000e+00,5.00000000000000e-01,4.95162476457010e-01,5.00000000000000e-01
8.16681494851461e-08,0.00000000000000e+00,5.00000000000000e-01,5.03647669581032e-01,5.00000000000000e-01
8.50000000000000e-08,0.00000000000000e+00,5.00000000000000e-01,4.96285197165020e-01,5.00000000000000e-01
8.50100000000000e-08,4.99999999999905e-02,5.00000000000000e-01,4.96590707104918e-01,4.50000000000010e-01
8.50300000000000e-08,1.49999999999972e-01,5.00000000000000e-01,4.97134268440482e-01,3.50000000000028e-01
8.50700000000000e-08,3.49999999999934e-01,5.00000000000000e-01,4.98150859467598e-01,1.50000000000066e-01
8.51000000000000e-08,4.99999999999971e-01,5.00000000000000e-01,5.00069095884160e-01,2.86437540353290e-14
8.51080000000000e-08,5.00000000000000e-01,5.00000000000000e-01,5.00887659661979e-01,0.00000000000000e+00
8.51240000000000e-08,5.00000000000000e-01,5.00000000000000e-01,5.02294546900037e-01,0.00000000000000e+00
8.51560000000000e-08,5.00000000000000e-01,5.00000000000000e-01,5.04374618737742e-01,0.00000000000000e+00
8.52200000000000e-08,5.00000000000000e-01,5.00000000000000e-01,5.07740650566611e-01,0.00000000000000e+00
8.53480000000000e-08,5.00000000000000e-01,5.00000000000000e-01,5.15294012086650e-01,0.00000000000000e+00
8.56040000000000e-08,5.00000000000000e-01,5.00000000000000e-01,3.35650265622573e-01,0.00000000000000e+00
8.61159999999999e-08,5.00000000000000e-01,5.00000000000000e-01,-1.24382893881268e-02,0.00000000000000e+00
8.67530196413384e-08,5.00000000000000e-01,5.00000000000000e-01,9.94056800162546e-03,0.00000000000000e+00
8.80270589240154e-08,5.00000000000000e-01,5.00000000000000e-01,-7.98817523776914e-03,0.00000000000000e+00
8.94566308810096e-08,5.00000000000000e-01,5.00000000000000e-01,7.39164824633629e-03,0.00000000000000e+00
9.01000000000000e-08,5.00000000000000e-01,4.99999999999971e-01,-5.10196518449183e-03,0.00000000000000e+00
9.03859143913988e-08,5.00000000000000e-01,5.00000000000000e-01,-7.83358908946786e-04,0.00000000000000e+00
9.09577431741965e-08,5.00000000000000e-01,5.00000000000000e-01,5.72895642217304e-04,0.00000000000000e+00
9.21014007397918e-08,5.00000000000000e-01,5.00000000000000e-01,-4.87216173408776e-04,0.00000000000000e+00
9.43887158709824e-08,5.00000000000000e-01,5.00000000000000e-01,4.51513761237086e-04,0.00000000000000e+00
9.51000000000000e-08,5.00000000000000e-01,5.00000000000000e-01,-3.47813427346536e-04,0.00000000000000e+00
9.51100000000000e-08,4.50000000000051e-01,5.00000000000000e-01,-1.26646701494461e-04,4.99999999999492e-02
9.51300000000000e-08,3.50000000000070e-01,5.00000000000000e-01,1.76772567508039e-04,1.49999999999930e-01
9.51700000000000e-08,1.50000000000108e-01,5.00000000000000e-01,1.90134767485160e-04,3.49999999999892e-01
9.52000000000000e-08,6.99995617026161e-14,5.00000000000000e-01,4.36140727501019e-05,4.99999999999930e-01
9.52080000000000e-08,0.00000000000000e+00,5.00000000000000e-01,3.14997529879402e-06,5.00000000000000e-01
9.52240000000000e-08,0.00000000000000e+00,5.00000000000000e-01,-5.14526752440556e-05,5.00000000000000e-01
9.52560000000000e-08,0.00000000000000e+00,5.00000000000000e-01,-7.16127811495326e-05,5.00000000000000e-01
9.53200000000000e-08,0.00000000000000e+00,5.00000000000000e-01,-2.76482459175137e-05,5.00000000000000e-01
9.54480000000000e-08,0.00000000000000e+00,5.00000000000000e-01,-7.85927170576343e-05,5.00000000000000e-01
9.57040000000000e-08,0.00000000000000e+00,5.00000000000000e-01,-4.01391466314122e-04,5.00000000000000e-01
9.62159999999999e-08,0.00000000000000e+00,5.00000000000000e-01,2.22667382412552e-04,5.00000000000000e-01
9.71646819322860e-08,0.00000000000000e+00,5.00000000000000e-01,-2.18812365218432e-04,5.00000000000000e-01
9.84926517922066e-08,0.00000000000000e+00,5.00000000000000e-01,1.89290490287122e-04,5.00000000000000e-01
1.00799614115870e-07,0.00000000000000e+00,5.00000000000000e-01,-1.58907799410535e-04,5.00000000000000e-01
1.03857786680309e-07,0.00000000000000e+00,5.00000000000000e-01,1.39683058161585e-04,5.00000000000000e-01
1.05000000000000e-07,0.00000000000000e+00,5.00000000000000e-01,-9.10739816320167e-05,5.00000000000000e-01
1.05010000000000e-07,4.99999999999905e-02,5.00000000000000e-01,-1.47010644651613e-05,5.00000000000000e-01
1.05030000000000e-07,1.49999999999972e-01,5.00000000000000e-01,1.26355420051419e-04,5.00000000000000e-01
1.05070000000000e-07,3.49999999999934e-01,5.00000000000000e-01,2.55695277323789e-04,5.00000000000000e-01
1.05100000000000e-07,4.99999999999971e-01,5.00000000000000e-01,-1.56380771982809e-05,5.00000000000000e-01
1.05108000000000e-07,5.00000000000000e-01,5.00000000000000e-01,-3.00677877191000e-04,5.00000000000000e-01
1.05124000000000e-07,5.00000000000000e-01,5.00000000000000e-01,-1.02505434554794e-03,5.00000000000000e-01
1.05156000000000e-07,5.00000000000000e-01,5.00000000000000e-01,-2.60807319343220e-03,5.00000000000000e-01
1.05220000000000e-07,5.00000000000000e-01,5.00000000000000e-01,-4.74474199365015e-03,5.00000000000000e-01
1.05348000000000e-07,5.00000000000000e-01,5.00000000000000e-01,1.43352170136841e-03,5.00000000000000e-01
1.05604000000000e-07,5.00000000000000e-01,5.00000000000000e-01,1.87953808541452e-01,5.00000000000000e-01
1.06116000000000e-07,5.00000000000000e-01,5.00000000000000e-01,4.98431765681470e-01,5.00000000000000e-01
1.07075007143145e-07,5.00000000000000e-01,5.00000000000000e-01,4.99162416491031e-01,5.00000000000000e-01
1.08241467547717e-07,5.00000000000000e-01,5.00000000000000e-01,5.01652501491539e-01,5.00000000000000e-01
1.10429067830346e-07,5.00000000000000e-01,5.00000000000000e-01,4.98346442239194e-01,5.00000000000000e-01
1.13175275545498e-07,5.00000000000000e-01,5.00000000000000e-01,5.02007915440820e-01,5.00000000000000e-01
1.15100000000000e-07,5.00000000000000e-01,5.00000000000000e-01,4.98085751836620e-01,5.00000000000000e-01
1.15110000000000e-07,4.50000000000051e-01,5.00000000000000e-01,4.98725160485629e-01,5.00000000000000e-01
1.15130000000000e-07,3.50000000000070e-01,5.00000000000000e-01,4.99588337445770e-01,5.00000000000000e-01
1.15170000000000e-07,1.50000000000108e-01,5.00000000000000e-01,5.00271182306646e-01,5.00000000000000e-01
1.15200000000000e-07,6.99995617026161e-14,5.00000000000000e-01,5.01005622438599e-01,5.00000000000000e-01
1.15208000000000e-07,0.00000000000000e+00,5.00000000000000e-01,5.01289013106751e-01,5.00000000000000e-01
1.15224000000000e-07,0.00000000000000e+00,5.00000000000000e-01,5.01739848757674e-01,5.00000000000000e-01
1.15256000000000e-07,0.00000000000000e+00,5.00000000000000e-01,5.02184647041568e-01,5.00000000000000e-01
1.15320000000000e-07,0.00000000000000e+00,5.00000000000000e-01,5.02252379566089e-01,5.00000000000000e-01
