Time,v(clk),v(data),v(out),v(reset)
1.43693440000000e-09,0.00000000000000e+00,0.00000000000000e+00,-7.17064513670734e-05,6.00000000000000e-01
2.77911168000000e-09,0.00000000000000e+00,0.00000000000000e+00,5.61121873789844e-05,6.00000000000000e-01
5.00000000000000e-09,0.00000000000000e+00,0.00000000000000e+00,-4.37010961888296e-05,6.00000000000000e-01
5.01000000000000e-09,5.99999999999986e-02,0.00000000000000e+00,6.78349200176925e-04,6.00000000000000e-01
5.03000000000000e-09,1.80000000000001e-01,0.00000000000000e+00,1.90407543736010e-03,6.00000000000000e-01
5.07000000000000e-09,4.20000000000000e-01,0.00000000000000e+00,3.20351697533380e-03,6.00000000000000e-01
5.10000000000000e-09,6.00000000000000e-01,0.00000000000000e+00,2.01943929743013e-03,6.00000000000000e-01
5.10800000000000e-09,6.00000000000000e-01,0.00000000000000e+00,1.15047461640565e-03,6.00000000000000e-01
5.12400000000000e-09,6.00000000000000e-01,0.00000000000000e+00,-4.22376354218074e-04,6.00000000000000e-01
5.15600000000000e-09,6.00000000000000e-01,0.00000000000000e+00,-2.05799540303511e-03,6.00000000000000e-01
5.22000000000000e-09,6.00000000000000e-01,0.00000000000000e+00,-2.23843579287647e-03,6.00000000000000e-01
5.34800000000000e-09,6.00000000000000e-01,0.00000000000000e+00,-9.39902947850846e-04,6.00000000000000e-01
5.60400000000000e-09,6.00000000000000e-01,0.00000000000000e+00,-3.39716821264505e-04,6.00000000000000e-01
6.10551837743576e-09,6.00000000000000e-01,0.00000000000000e+00,3.39983346443765e-04,6.00000000000000e-01
7.07547019266275e-09,6.00000000000000e-01,0.00000000000000e+00,1.68471488948337e-04,6.00000000000000e-01
8.32260212576132e-09,6.00000000000000e-01,0.00000000000000e+00,-1.98736592932951e-04,6.00000000000000e-01
1.00000000000000e-08,6.00000000000000e-01,0.00000000000000e+00,1.93977629822869e-04,6.00000000000000e-01
1.00100000000000e-08,6.00000000000000e-01,5.99999999999986e-02,2.05293278926613e-04,6.00000000000000e-01
1.00300000000000e-08,6.00000000000000e-01,1.79999999999996e-01,2.17379510646543e-04,6.00000000000000e-01
1.00700000000000e-08,6.00000000000000e-01,4.19999999999990e-01,1.65955585616898e-04,6.00000000000000e-01
1.01000000000000e-08,6.00000000000000e-01,5.99999999999995e-01,2.56978958233650e-05,6.00000000000000e-01
1.01080000000000e-08,6.00000000000000e-01,6.00000000000000e-01,-2.00596854230545e-05,6.00000000000000e-01
1.01240000000000e-08,6.00000000000000e-01,6.00000000000000e-01,-8.17066171463765e-05,6.00000000000000e-01
1.01560000000000e-08,6.00000000000000e-01,6.00000000000000e-01,-1.19360670999741e-04,6.00000000000000e-01
1.02200000000000e-08,6.00000000000000e-01,6.00000000000000e-01,-6.36915262510196e-05,6.00000000000000e-01
1.03480000000000e-08,6.00000000000000e-01,6.00000000000000e-01,4.40453051836209e-05,6.00000000000000e-01
1.06040000000000e-08,6.00000000000000e-01,6.00000000000000e-01,3.15093594661989e-05,6.00000000000000e-01
1.10236514684933e-08,6.00000000000000e-01,6.00000000000000e-01,-1.53365791953908e-05,6.00000000000000e-01
1.18629544054798e-08,6.00000000000000e-01,6.00000000000000e-01,1.39107133882987e-05,6.00000000000000e-01
1.35415602794529e-08,6.00000000000000e-01,6.00000000000000e-01,-2.06658103073243e-06,6.00000000000000e-01
1.51000000000000e-08,6.00000000000000e-01,6.00000000000000e-01,9.12038624532874e-06,6.00000000000000e-01
1.51100000000000e-08,5.39999999999992e-01,6.00000000000000e-01,-3.61744036362646e-04,6.00000000000000e-01
1.51300000000000e-08,4.19999999999994e-01,6.00000000000000e-01,-1.15970945120975e-03,6.00000000000000e-01
1.51700000000000e-08,1.80000000000000e-01,6.00000000000000e-01,-2.70466748855869e-03,6.00000000000000e-01
1.52000000000000e-08,0.00000000000000e+00,6.00000000000000e-01,-2.58770186503630e-03,6.00000000000000e-01
1.52080000000000e-08,0.00000000000000e+00,6.00000000000000e-01,-1.83603074282744e-03,6.00000000000000e-01
1.52240000000000e-08,0.00000000000000e+00,6.00000000000000e-01,-4.86428512138537e-04,6.00000000000000e-01
1.52560000000000e-08,0.00000000000000e+00,6.00000000000000e-01,1.24081186011242e-03,6.00000000000000e-01
1.53200000000000e-08,0.00000000000000e+00,6.00000000000000e-01,2.39489329398467e-03,6.00000000000000e-01
1.54480000000000e-08,0.00000000000000e+00,6.00000000000000e-01,1.83007584380254e-03,6.00000000000000e-01
1.57040000000000e-08,0.00000000000000e+00,6.00000000000000e-01,-1.40315021180670e-04,6.00000000000000e-01
1.62160000000000e-08,0.00000000000000e+00,6.00000000000000e-01,-8.43362739967594e-04,6.00000000000000e-01
1.72262437094519e-08,0.00000000000000e+00,6.00000000000000e-01,5.56290399763938e-04,6.00000000000000e-01
1.82759857481232e-08,0.00000000000000e+00,6.00000000000000e-01,-6.96922908301617e-04,6.00000000000000e-01
1.99663162545306e-08,0.00000000000000e+00,6.00000000000000e-01,8.75137782701901e-04,6.00000000000000e-01
2.23825911615247e-08,0.00000000000000e+00,6.00000000000000e-01,-8.82772581550860e-04,6.00000000000000e-01
2.50000000000000e-08,0.00000000000000e+00,6.00000000000000e-01,8.45085998169471e-04,6.00000000000000e-01
2.50100000000000e-08,5.99999999999886e-02,6.00000000000000e-01,1.58612806063795e-03,6.00000000000000e-01
2.50300000000000e-08,1.80000000000006e-01,6.00000000000000e-01,2.89492516303537e-03,6.00000000000000e-01
2.50700000000000e-08,4.20000000000000e-01,6.00000000000000e-01,4.76452927207714e-03,6.00000000000000e-01
2.51000000000000e-08,6.00000000000000e-01,6.00000000000000e-01,4.50439233489625e-03,6.00000000000000e-01
2.51080000000000e-08,6.00000000000000e-01,6.00000000000000e-01,3.91872263231180e-03,6.00000000000000e-01
2.51240000000000e-08,6.00000000000000e-01,6.00000000000000e-01,2.68078515434578e-03,6.00000000000000e-01
2.51560000000000e-08,6.00000000000000e-01,6.00000000000000e-01,-1.22612937850680e-04,6.00000000000000e-01
2.52200000000000e-08,6.00000000000000e-01,6.00000000000000e-01,-6.15185721986108e-03,6.00000000000000e-01
2.53480000000000e-08,6.00000000000000e-01,6.00000000000000e-01,-1.42223227270943e-02,6.00000000000000e-01
2.56040000000000e-08,6.00000000000000e-01,6.00000000000000e-01,-8.96762011505499e-03,6.00000000000000e-01
2.61088926951070e-08,6.00000000000000e-01,6.00000000000000e-01,3.06534564839070e-01,6.00000000000000e-01
2.71186780853208e-08,6.00000000000000e-01,6.00000000000000e-01,6.14345685923162e-01,6.00000000000000e-01
2.80673229931035e-08,6.00000000000000e-01,6.00000000000000e-01,5.85723625716874e-01,6.00000000000000e-01
2.99544864485901e-08,6.00000000000000e-01,6.00000000000000e-01,6.14057831450627e-01,6.00000000000000e-01
3.01000000000000e-08,6.00000000000000e-01,6.00000000000000e-01,5.96788882838711e-01,6.00000000000000e-01
3.01100000000000e-08,6.00000000000000e-01,5.40000000000031e-01,5.97100195549746e-01,6.00000000000000e-01
3.01300000000000e-08,6.00000000000000e-01,4.20000000000014e-01,5.97599318175911e-01,6.00000000000000e-01
3.01700000000000e-08,6.00000000000000e-01,1.80000000000020e-01,5.98343572546759e-01,6.00000000000000e-01
3.02000000000000e-08,6.00000000000000e-01,1.44328993201270e-14,5.98858459484387e-01,6.00000000000000e-01
3.02080000000000e-08,6.00000000000000e-01,0.00000000000000e+00,5.98980007421146e-01,6.00000000000000e-01
3.02240000000000e-08,6.00000000000000e-01,0.00000000000000e+00,5.99201604889893e-01,6.00000000000000e-01
3.02560000000000e-08,6.00000000000000e-01,0.00000000000000e+00,5.99443413418824e-01,6.00000000000000e-01
3.03200000000000e-08,6.00000000000000e-01,0.00000000000000e+00,5.99667738617849e-01,6.00000000000000e-01
3.04480000000000e-08,6.00000000000000e-01,0.00000000000000e+00,5.99720320216462e-01,6.00000000000000e-01
3.07040000000000e-08,6.00000000000000e-01,0.00000000000000e+00,5.99788586324439e-01,6.00000000000000e-01
3.12160000000000e-08,6.00000000000000e-01,0.00000000000000e+00,5.99977576579735e-01,6.00000000000000e-01
3.19280721432732e-08,6.00000000000000e-01,0.00000000000000e+00,6.00101021280707e-01,6.00000000000000e-01
3.33428100618137e-08,6.00000000000000e-01,0.00000000000000e+00,5.99861974820934e-01,6.00000000000000e-01
3.41000000000000e-08,6.00000000000000e-01,0.00000000000000e+00,6.00096737092936e-01,6.00000000000000e-01
3.41100000000000e-08,6.00000000000000e-01,0.00000000000000e+00,5.99363114957615e-01,5.40000000000011e-01
3.41300000000000e-08,6.00000000000000e-01,0.00000000000000e+00,5.97972561453071e-01,4.19999999999994e-01
3.41700000000000e-08,6.00000000000000e-01,0.00000000000000e+00,5.97257253644102e-01,1.80000000000000e-01
3.42000000000000e-08,6.00000000000000e-01,0.00000000000000e+00,6.01770597939612e-01,0.00000000000000e+00
3.42080000000000e-08,6.00000000000000e-01,0.00000000000000e+00,6.04222888709474e-01,0.00000000000000e+00
3.42240000000000e-08,6.00000000000000e-01,0.00000000000000e+00,6.08586267471862e-01,0.00000000000000e+00
3.42560000000000e-08,6.00000000000000e-01,0.00000000000000e+00,6.14743646677516e-01,0.00000000000000e+00
3.43200000000000e-08,6.00000000000000e-01,0.00000000000000e+00,6.21660458582160e-01,0.00000000000000e+00
3.44480000000000e-08,6.00000000000000e-01,0.00000000000000e+00,6.29597839327978e-01,0.00000000000000e+00
3.47040000000000e-08,6.00000000000000e-01,0.00000000000000e+00,6.33946916177941e-01,0.00000000000000e+00
3.51000000000000e-08,5.99999999999970e-01,0.00000000000000e+00,2.94901591639980e-01,0.00000000000000e+00
3.51100000000000e-08,5.39999999999982e-01,0.00000000000000e+00,2.79409651199156e-01,0.00000000000000e+00
3.51300000000000e-08,4.19999999999965e-01,0.00000000000000e+00,2.48923743733804e-01,0.00000000000000e+00
3.51700000000000e-08,1.79999999999970e-01,0.00000000000000e+00,1.92549301062377e-01,0.00000000000000e+00
3.52000000000000e-08,0.00000000000000e+00,0.00000000000000e+00,1.56615976324097e-01,0.00000000000000e+00
3.52080000000000e-08,0.00000000000000e+00,0.00000000000000e+00,1.48513430839935e-01,0.00000000000000e+00
3.52240000000000e-08,0.00000000000000e+00,0.00000000000000e+00,1.33163865777712e-01,0.00000000000000e+00
3.52560000000000e-08,0.00000000000000e+00,0.00000000000000e+00,1.06100374351101e-01,0.00000000000000e+00
3.53200000000000e-08,0.00000000000000e+00,0.00000000000000e+00,6.50832793114742e-02,0.00000000000000e+00
3.54480000000000e-08,0.00000000000000e+00,0.00000000000000e+00,2.09454291650251e-02,0.00000000000000e+00
3.57040000000000e-08,0.00000000000000e+00,0.00000000000000e+00,-6.99394723083460e-04,0.00000000000000e+00
3.62160000000000e-08,0.00000000000000e+00,0.00000000000000e+00,2.80799451421961e-04,0.00000000000000e+00
3.72400000000000e-08,0.00000000000000e+00,0.00000000000000e+00,-1.86971869774288e-04,0.00000000000000e+00
3.80000000000000e-08,0.00000000000000e+00,0.00000000000000e+00,1.10319318513880e-04,0.00000000000000e+00
3.80100000000000e-08,0.00000000000000e+00,0.00000000000000e+00,1.56923490884921e-03,5.99999999999886e-02
3.80300000000000e-08,0.00000000000000e+00,0.00000000000000e+00,3.98604957368198e-03,1.80000000000006e-01
3.80700000000000e-08,0.00000000000000e+00,0.00000000000000e+00,6.27803407803411e-03,4.20000000000000e-01
3.81000000000000e-08,0.00000000000000e+00,0.00000000000000e+00,4.13358154844225e-03,6.00000000000000e-01
3.81080000000000e-08,0.00000000000000e+00,0.00000000000000e+00,2.81042019919779e-03,6.00000000000000e-01
3.81240000000000e-08,0.00000000000000e+00,0.00000000000000e+00,4.58469057003030e-04,6.00000000000000e-01
3.81560000000000e-08,0.00000000000000e+00,0.00000000000000e+00,-2.76974782311776e-03,6.00000000000000e-01
3.82200000000000e-08,0.00000000000000e+00,0.00000000000000e+00,-4.62724080775698e-03,6.00000000000000e-01
3.83480000000000e-08,0.00000000000000e+00,0.00000000000000e+00,-2.68543338892910e-03,6.00000000000000e-01
3.86040000000000e-08,0.00000000000000e+00,0.00000000000000e+00,-1.95695205474494e-06,6.00000000000000e-01
3.90503240077688e-08,0.00000000000000e+00,0.00000000000000e+00,-4.43283548687903e-05,6.00000000000000e-01
3.99429720233064e-08,0.00000000000000e+00,0.00000000000000e+00,4.01207040005153e-05,6.00000000000000e-01
4.17282680543817e-08,0.00000000000000e+00,0.00000000000000e+00,-3.19872275779173e-05,6.00000000000000e-01
4.50000000000000e-08,0.00000000000000e+00,0.00000000000000e+00,3.36066716940748e-05,6.00000000000000e-01
4.50100000000000e-08,5.99999999999886e-02,0.00000000000000e+00,7.44503343238501e-04,6.00000000000000e-01
4.50300000000000e-08,1.80000000000006e-01,0.00000000000000e+00,1.95366540608355e-03,6.00000000000000e-01
4.50700000000000e-08,4.20000000000000e-01,0.00000000000000e+00,3.15165311188512e-03,6.00000000000000e-01
4.51000000000000e-08,6.00000000000000e-01,0.00000000000000e+00,1.71883543188713e-03,6.00000000000000e-01
4.51080000000000e-08,6.00000000000000e-01,0.00000000000000e+00,8.69663690865483e-04,6.00000000000000e-01
4.51240000000000e-08,6.00000000000000e-01,0.00000000000000e+00,-5.52846577454053e-04,6.00000000000000e-01
4.51560000000000e-08,6.00000000000000e-01,0.00000000000000e+00,-1.92686018757209e-03,6.00000000000000e-01
4.52200000000000e-08,6.00000000000000e-01,0.00000000000000e+00,-2.04225312859843e-03,6.00000000000000e-01
4.53480000000000e-08,6.00000000000000e-01,0.00000000000000e+00,-9.37246106251871e-04,6.00000000000000e-01
4.56040000000000e-08,6.00000000000000e-01,0.00000000000000e+00,-3.81569643711381e-04,6.00000000000000e-01
4.61160000000000e-08,6.00000000000000e-01,0.00000000000000e+00,3.76665968515474e-04,6.00000000000000e-01
4.71022957137314e-08,6.00000000000000e-01,0.00000000000000e+00,1.29256913832618e-04,6.00000000000000e-01
4.83581197969559e-08,6.00000000000000e-01,0.00000000000000e+00,-1.73972405267012e-04,6.00000000000000e-01
5.00000000000000e-08,6.00000000000000e-01,0.00000000000000e+00,1.76734347668938e-04,6.00000000000000e-01
5.00100000000000e-08,6.00000000000000e-01,5.99999999999886e-02,1.89487639434327e-04,6.00000000000000e-01
5.00300000000000e-08,6.00000000000000e-01,1.79999999999966e-01,2.04224527535588e-04,6.00000000000000e-01
5.00700000000000e-08,6.00000000000000e-01,4.20000000000000e-01,1.57879871481525e-04,6.00000000000000e-01
5.01000000000000e-08,6.00000000000000e-01,6.00000000000000e-01,2.55638718604928e-05,6.00000000000000e-01
5.01080000000000e-08,6.00000000000000e-01,6.00000000000000e-01,-1.72510435133416e-05,6.00000000000000e-01
5.01240000000000e-08,6.00000000000000e-01,6.00000000000000e-01,-7.49261414134117e-05,6.00000000000000e-01
5.01560000000000e-08,6.00000000000000e-01,6.00000000000000e-01,-1.11203619141798e-04,6.00000000000000e-01
5.02200000000000e-08,6.00000000000000e-01,6.00000000000000e-01,-6.96276881360092e-05,6.00000000000000e-01
5.03480000000000e-08,6.00000000000000e-01,6.00000000000000e-01,3.51847331222094e-05,6.00000000000000e-01
5.06040000000000e-08,6.00000000000000e-01,6.00000000000000e-01,3.08475959511847e-05,6.00000000000000e-01
5.10600383763020e-08,6.00000000000000e-01,6.00000000000000e-01,-1.46593031531000e-05,6.00000000000000e-01
5.19721151289060e-08,6.00000000000000e-01,6.00000000000000e-01,1.45524913378429e-05,6.00000000000000e-01
5.37962686341139e-08,6.00000000000000e-01,6.00000000000000e-01,-2.53482274486377e-06,6.00000000000000e-01
5.51000000000000e-08,6.00000000000000e-01,6.00000000000000e-01,9.02667900099657e-06,6.00000000000000e-01
5.51100000000000e-08,5.40000000000021e-01,6.00000000000000e-01,-3.63154159289683e-04,6.00000000000000e-01
5.51300000000000e-08,4.20000000000004e-01,6.00000000000000e-01,-1.16456028087743e-03,6.00000000000000e-01
5.51700000000000e-08,1.80000000000010e-01,6.00000000000000e-01,-2.70697374241133e-03,6.00000000000000e-01
5.52000000000000e-08,0.00000000000000e+00,6.00000000000000e-01,-2.58908990276877e-03,6.00000000000000e-01
5.52080000000000e-08,0.00000000000000e+00,6.00000000000000e-01,-1.83724038320598e-03,6.00000000000000e-01
5.52240000000000e-08,0.00000000000000e+00,6.00000000000000e-01,-4.87183985536432e-04,6.00000000000000e-01
5.52560000000000e-08,0.00000000000000e+00,6.00000000000000e-01,1.24076095277321e-03,6.00000000000000e-01
5.53200000000000e-08,0.00000000000000e+00,6.00000000000000e-01,2.39587062109481e-03,6.00000000000000e-01
5.54480000000000e-08,0.00000000000000e+00,6.00000000000000e-01,1.83287553593567e-03,6.00000000000000e-01
5.57040000000000e-08,0.00000000000000e+00,6.00000000000000e-01,-1.38699538584350e-04,6.00000000000000e-01
5.62160000000000e-08,0.00000000000000e+00,6.00000000000000e-01,-8.43767233880799e-04,6.00000000000000e-01
5.72264577274243e-08,0.00000000000000e+00,6.00000000000000e-01,5.56486282958488e-04,6.00000000000000e-01
5.82761483824635e-08,0.00000000000000e+00,6.00000000000000e-01,-6.96913538715052e-04,6.00000000000000e-01
5.99667752411318e-08,0.00000000000000e+00,6.00000000000000e-01,8.75008422217143e-04,6.00000000000000e-01
6.23830147898647e-08,0.00000000000000e+00,6.00000000000000e-01,-8.82612941052210e-04,6.00000000000000e-01
6.50000000000000e-08,0.00000000000000e+00,6.00000000000000e-01,8.44901650403061e-04,6.00000000000000e-01
6.50100000000000e-08,5.99999999999886e-02,6.00000000000000e-01,1.58601802403598e-03,6.00000000000000e-01
6.50300000000000e-08,1.79999999999966e-01,6.00000000000000e-01,2.89492554838620e-03,6.00000000000000e-01
6.50700000000000e-08,4.19999999999920e-01,6.00000000000000e-01,4.76459992433365e-03,6.00000000000000e-01
6.51000000000000e-08,5.99999999999966e-01,6.00000000000000e-01,4.50452248551297e-03,6.00000000000000e-01
6.51080000000000e-08,6.00000000000000e-01,6.00000000000000e-01,3.91886384432566e-03,6.00000000000000e-01
6.51240000000000e-08,6.00000000000000e-01,6.00000000000000e-01,2.68092685797951e-03,6.00000000000000e-01
6.51560000000000e-08,6.00000000000000e-01,6.00000000000000e-01,-1.22568653850241e-04,6.00000000000000e-01
6.52200000000000e-08,6.00000000000000e-01,6.00000000000000e-01,-6.15201215507176e-03,6.00000000000000e-01
6.53480000000000e-08,6.00000000000000e-01,6.00000000000000e-01,-1.42225539074809e-02,6.00000000000000e-01
6.56040000000000e-08,6.00000000000000e-01,6.00000000000000e-01,-8.96720623491694e-03,6.00000000000000e-01
6.61089117511017e-08,6.00000000000000e-01,6.00000000000000e-01,3.06554172579838e-01,6.00000000000000e-01
6.71187352533052e-08,6.00000000000000e-01,6.00000000000000e-01,6.14349358332155e-01,6.00000000000000e-01
6.80673676648288e-08,6.00000000000000e-01,6.00000000000000e-01,5.85721395180327e-01,6.00000000000000e-01
6.99546490166835e-08,6.00000000000000e-01,6.00000000000000e-01,6.14059675340892e-01,6.00000000000000e-01
7.01000000000000e-08,6.00000000000000e-01,6.00000000000000e-01,5.96796501504426e-01,6.00000000000000e-01
7.01100000000000e-08,6.00000000000000e-01,5.40000000000011e-01,5.97106644018008e-01,6.00000000000000e-01
7.01300000000000e-08,6.00000000000000e-01,4.20000000000034e-01,5.97603644884112e-01,6.00000000000000e-01
7.01700000000000e-08,6.00000000000000e-01,1.80000000000080e-01,5.98345560192466e-01,6.00000000000000e-01
7.02000000000000e-08,6.00000000000000e-01,3.44169137633799e-14,5.98859495555887e-01,6.00000000000000e-01
7.02080000000000e-08,6.00000000000000e-01,0.00000000000000e+00,5.98980860034691e-01,6.00000000000000e-01
7.02240000000000e-08,6.00000000000000e-01,0.00000000000000e+00,5.99202129144974e-01,6.00000000000000e-01
7.02560000000000e-08,6.00000000000000e-01,0.00000000000000e+00,5.99443502235018e-01,6.00000000000000e-01
7.03200000000000e-08,6.00000000000000e-01,0.00000000000000e+00,5.99667579865706e-01,6.00000000000000e-01
7.04480000000000e-08,6.00000000000000e-01,0.00000000000000e+00,5.99720137511957e-01,6.00000000000000e-01
7.07040000000000e-08,6.00000000000000e-01,0.00000000000000e+00,5.99788525665852e-01,6.00000000000000e-01
7.12159999999999e-08,6.00000000000000e-01,0.00000000000000e+00,5.99977590652004e-01,6.00000000000000e-01
7.19280648165549e-08,6.00000000000000e-01,0.00000000000000e+00,6.00101000720535e-01,6.00000000000000e-01
7.21000000000000e-08,6.00000000000000e-01,0.00000000000000e+00,5.99913092134018e-01,6.00000000000000e-01
7.21100000000000e-08,6.00000000000000e-01,0.00000000000000e+00,5.99222747865338e-01,5.40000000000011e-01
7.21300000000000e-08,6.00000000000000e-01,0.00000000000000e+00,5.97868220354769e-01,4.20000000000034e-01
7.21700000000000e-08,6.00000000000000e-01,0.00000000000000e+00,5.97180605372769e-01,1.80000000000080e-01
