Time,v(clk),v(data),v(out),v(reset)
1.00000000000000e-08,3.30000000000000e-01,0.00000000000000e+00,8.80362779066054e-06,0.00000000000000e+00
1.00100000000000e-08,3.30000000000000e-01,3.29999999999992e-02,9.31574684782249e-06,0.00000000000000e+00
1.00300000000000e-08,3.30000000000000e-01,9.89999999999976e-02,1.01320704622397e-05,0.00000000000000e+00
1.00700000000000e-08,3.30000000000000e-01,2.30999999999994e-01,1.18009326122610e-05,0.00000000000000e+00
1.01000000000000e-08,3.30000000000000e-01,3.29999999999998e-01,1.24271988572108e-05,0.00000000000000e+00
1.01080000000000e-08,3.30000000000000e-01,3.30000000000000e-01,1.24571981971085e-05,0.00000000000000e+00
1.01240000000000e-08,3.30000000000000e-01,3.30000000000000e-01,1.26275184381790e-05,0.00000000000000e+00
1.01560000000000e-08,3.30000000000000e-01,3.30000000000000e-01,1.28111868691778e-05,0.00000000000000e+00
1.02200000000000e-08,3.30000000000000e-01,3.30000000000000e-01,1.36096756806862e-05,0.00000000000000e+00
1.03480000000000e-08,3.30000000000000e-01,3.30000000000000e-01,1.49906220991477e-05,0.00000000000000e+00
1.06040000000000e-08,3.30000000000000e-01,3.30000000000000e-01,1.58160170168620e-05,0.00000000000000e+00
1.11160000000000e-08,3.30000000000000e-01,3.30000000000000e-01,1.51531478821462e-05,0.00000000000000e+00
1.21400000000000e-08,3.30000000000000e-01,3.30000000000000e-01,1.40020645877708e-05,0.00000000000000e+00
1.41880000000000e-08,3.30000000000000e-01,3.30000000000000e-01,1.27290368231920e-05,0.00000000000000e+00
1.51000000000000e-08,3.30000000000000e-01,3.30000000000000e-01,1.21543037959974e-05,0.00000000000000e+00
1.51100000000000e-08,2.96999999999995e-01,3.30000000000000e-01,5.20154895467494e-05,3.30000000000047e-02
1.51300000000000e-08,2.30999999999997e-01,3.30000000000000e-01,1.18674225947118e-04,9.90000000000031e-02
1.51700000000000e-08,9.90000000000001e-02,3.30000000000000e-01,1.72956531830006e-04,2.31000000000000e-01
1.52000000000000e-08,0.00000000000000e+00,3.30000000000000e-01,1.63792262214552e-04,3.30000000000000e-01
1.52080000000000e-08,0.00000000000000e+00,3.30000000000000e-01,1.52092064673797e-04,3.30000000000000e-01
1.52240000000000e-08,0.00000000000000e+00,3.30000000000000e-01,1.30350639081622e-04,3.30000000000000e-01
1.52560000000000e-08,0.00000000000000e+00,3.30000000000000e-01,9.45182428924371e-05,3.30000000000000e-01
1.53200000000000e-08,0.00000000000000e+00,3.30000000000000e-01,4.75342868719031e-05,3.30000000000000e-01
1.54480000000000e-08,0.00000000000000e+00,3.30000000000000e-01,8.37160748720991e-06,3.30000000000000e-01
1.57040000000000e-08,0.00000000000000e+00,3.30000000000000e-01,-1.06931635687584e-06,3.30000000000000e-01
1.62160000000000e-08,0.00000000000000e+00,3.30000000000000e-01,-1.46961411910691e-05,3.30000000000000e-01
1.72400000000000e-08,0.00000000000000e+00,3.30000000000000e-01,-4.17436885701726e-05,3.30000000000000e-01
1.92880000000000e-08,0.00000000000000e+00,3.30000000000000e-01,1.31090746195053e-05,3.30000000000000e-01
2.30880000000000e-08,0.00000000000000e+00,3.30000000000000e-01,-2.41607807738968e-05,3.30000000000000e-01
2.50000000000000e-08,0.00000000000000e+00,3.30000000000000e-01,5.72374004773890e-05,3.30000000000000e-01
2.50100000000000e-08,3.29999999999937e-02,3.30000000000000e-01,8.51271299465335e-05,3.30000000000000e-01
2.50300000000000e-08,9.90000000000031e-02,3.30000000000000e-01,1.28640491306287e-04,3.30000000000000e-01
2.50700000000000e-08,2.31000000000000e-01,3.30000000000000e-01,1.79970710726920e-04,3.30000000000000e-01
2.51000000000000e-08,3.30000000000000e-01,3.30000000000000e-01,1.87830010934413e-04,3.30000000000000e-01
2.51080000000000e-08,3.30000000000000e-01,3.30000000000000e-01,1.73142308724963e-04,3.30000000000000e-01
2.51240000000000e-08,3.30000000000000e-01,3.30000000000000e-01,1.42222838874637e-04,3.30000000000000e-01
2.51560000000000e-08,3.30000000000000e-01,3.30000000000000e-01,7.40660770235137e-05,3.30000000000000e-01
2.52200000000000e-08,3.30000000000000e-01,3.30000000000000e-01,-1.12237283822408e-04,3.30000000000000e-01
2.53480000000000e-08,3.30000000000000e-01,3.30000000000000e-01,-6.68057381340934e-04,3.30000000000000e-01
2.56040000000000e-08,3.30000000000000e-01,3.30000000000000e-01,-1.85641029881004e-03,3.30000000000000e-01
2.61160000000000e-08,3.30000000000000e-01,3.30000000000000e-01,-1.00644751781184e-03,3.30000000000000e-01
2.71400000000000e-08,3.30000000000000e-01,3.30000000000000e-01,8.71939315503685e-02,3.30000000000000e-01
2.91880000000000e-08,3.30000000000000e-01,3.30000000000000e-01,3.11717378847495e-01,3.30000000000000e-01
3.29880000000000e-08,3.30000000000000e-01,3.30000000000000e-01,3.35227714153936e-01,3.30000000000000e-01
3.51000000000000e-08,3.29999999999984e-01,3.30000000000000e-01,3.24362514376887e-01,3.30000000000000e-01
3.51100000000000e-08,2.96999999999990e-01,3.30000000000000e-01,3.24610213418971e-01,3.30000000000000e-01
3.51300000000000e-08,2.30999999999981e-01,3.30000000000000e-01,3.25040976227657e-01,3.30000000000000e-01
3.51700000000000e-08,9.89999999999837e-02,3.30000000000000e-01,3.25811774070130e-01,3.30000000000000e-01
3.52000000000000e-08,0.00000000000000e+00,3.30000000000000e-01,3.26386945330844e-01,3.30000000000000e-01
3.52080000000000e-08,0.00000000000000e+00,3.30000000000000e-01,3.26552778693167e-01,3.30000000000000e-01
3.52240000000000e-08,0.00000000000000e+00,3.30000000000000e-01,3.26861798754166e-01,3.30000000000000e-01
3.52560000000000e-08,0.00000000000000e+00,3.30000000000000e-01,3.27390189583575e-01,3.30000000000000e-01
3.53200000000000e-08,0.00000000000000e+00,3.30000000000000e-01,3.28192113135465e-01,3.30000000000000e-01
3.54480000000000e-08,0.00000000000000e+00,3.30000000000000e-01,3.29097315901060e-01,3.30000000000000e-01
3.57040000000000e-08,0.00000000000000e+00,3.30000000000000e-01,3.29548232281156e-01,3.30000000000000e-01
3.62160000000000e-08,0.00000000000000e+00,3.30000000000000e-01,3.27739126925762e-01,3.30000000000000e-01
3.72400000000000e-08,0.00000000000000e+00,3.30000000000000e-01,3.19788539262883e-01,3.30000000000000e-01
3.92880000000000e-08,0.00000000000000e+00,3.30000000000000e-01,3.20307113798695e-01,3.30000000000000e-01
4.30880000000000e-08,0.00000000000000e+00,3.30000000000000e-01,3.30374416627587e-01,3.30000000000000e-01
4.50000000000000e-08,0.00000000000000e+00,3.30000000000000e-01,3.28233543233688e-01,3.30000000000000e-01
4.50100000000000e-08,3.29999999999937e-02,3.30000000000000e-01,3.28233837313717e-01,2.97000000000006e-01
4.50300000000000e-08,9.90000000000031e-02,3.30000000000000e-01,3.28229075136817e-01,2.30999999999997e-01
4.50700000000000e-08,2.31000000000000e-01,3.30000000000000e-01,3.28218572617296e-01,9.90000000000001e-02
4.51000000000000e-08,3.30000000000000e-01,3.30000000000000e-01,3.28377629423637e-01,0.00000000000000e+00
4.51080000000000e-08,3.30000000000000e-01,3.30000000000000e-01,3.28481722284412e-01,0.00000000000000e+00
4.51240000000000e-08,3.30000000000000e-01,3.30000000000000e-01,3.28676103942372e-01,0.00000000000000e+00
4.51560000000000e-08,3.30000000000000e-01,3.30000000000000e-01,3.29027873407361e-01,0.00000000000000e+00
4.52200000000000e-08,3.30000000000000e-01,3.30000000000000e-01,3.29597216033941e-01,0.00000000000000e+00
4.53480000000000e-08,3.30000000000000e-01,3.30000000000000e-01,3.30421098155587e-01,0.00000000000000e+00
4.56040000000000e-08,3.30000000000000e-01,3.30000000000000e-01,3.31615351646790e-01,0.00000000000000e+00
4.61160000000000e-08,3.30000000000000e-01,3.30000000000000e-01,3.33388247948307e-01,0.00000000000000e+00
4.71400000000000e-08,3.30000000000000e-01,3.30000000000000e-01,2.98344746883824e-01,0.00000000000000e+00
4.91880000000000e-08,3.30000000000000e-01,3.30000000000000e-01,2.90935050799934e-02,0.00000000000000e+00
5.01000000000000e-08,3.30000000000000e-01,3.29999999999981e-01,-1.00382262578068e-02,0.00000000000000e+00
5.04800000000000e-08,3.30000000000000e-01,3.30000000000000e-01,-2.86704829140300e-03,0.00000000000000e+00
5.12400000000000e-08,3.30000000000000e-01,3.30000000000000e-01,1.14800968829353e-03,0.00000000000000e+00
5.27600000000000e-08,3.30000000000000e-01,3.30000000000000e-01,-7.17681733368453e-04,0.00000000000000e+00
5.51000000000000e-08,3.30000000000000e-01,3.30000000000000e-01,5.58960002725262e-04,0.00000000000000e+00
5.51100000000000e-08,2.97000000000012e-01,3.30000000000000e-01,5.59139375717430e-04,3.29999999999883e-02
5.51300000000000e-08,2.31000000000002e-01,3.30000000000000e-01,5.57775330212930e-04,9.89999999999976e-02
5.51700000000000e-08,9.90000000000056e-02,3.30000000000000e-01,5.12699362297774e-04,2.30999999999994e-01
5.52000000000000e-08,0.00000000000000e+00,3.30000000000000e-01,4.47144709176943e-04,3.30000000000000e-01
5.52080000000000e-08,0.00000000000000e+00,3.30000000000000e-01,4.22269765046199e-04,3.30000000000000e-01
5.52240000000000e-08,0.00000000000000e+00,3.30000000000000e-01,3.75355315779376e-04,3.30000000000000e-01
5.52560000000000e-08,0.00000000000000e+00,3.30000000000000e-01,2.96211336849272e-04,3.30000000000000e-01
5.53200000000000e-08,0.00000000000000e+00,3.30000000000000e-01,1.82597377455934e-04,3.30000000000000e-01
5.54480000000000e-08,0.00000000000000e+00,3.30000000000000e-01,6.63120683676559e-05,3.30000000000000e-01
5.57040000000000e-08,0.00000000000000e+00,3.30000000000000e-01,-4.26427192253866e-06,3.30000000000000e-01
5.62160000000000e-08,0.00000000000000e+00,3.30000000000000e-01,-5.73769451552523e-05,3.30000000000000e-01
5.72400000000000e-08,0.00000000000000e+00,3.30000000000000e-01,-2.62810749249925e-04,3.30000000000000e-01
5.92880000000000e-08,0.00000000000000e+00,3.30000000000000e-01,1.08277078063420e-04,3.30000000000000e-01
6.30880000000000e-08,0.00000000000000e+00,3.30000000000000e-01,-8.03274932601411e-05,3.30000000000000e-01
6.50000000000000e-08,0.00000000000000e+00,3.30000000000000e-01,4.32992596399152e-05,3.30000000000000e-01
6.50100000000000e-08,3.29999999999937e-02,3.30000000000000e-01,7.82980610710554e-05,3.30000000000000e-01
6.50300000000000e-08,9.89999999999812e-02,3.30000000000000e-01,1.33796011844208e-04,3.30000000000000e-01
6.50700000000000e-08,2.30999999999956e-01,3.30000000000000e-01,1.97911279508748e-04,3.30000000000000e-01
6.51000000000000e-08,3.29999999999981e-01,3.30000000000000e-01,2.10310713616345e-04,3.30000000000000e-01
6.51080000000000e-08,3.30000000000000e-01,3.30000000000000e-01,1.96065863424154e-04,3.30000000000000e-01
6.51240000000000e-08,3.30000000000000e-01,3.30000000000000e-01,1.65800815429162e-04,3.30000000000000e-01
6.51560000000000e-08,3.30000000000000e-01,3.30000000000000e-01,9.82716734951594e-05,3.30000000000000e-01
6.52200000000000e-08,3.30000000000000e-01,3.30000000000000e-01,-8.89270528294430e-05,3.30000000000000e-01
6.53480000000000e-08,3.30000000000000e-01,3.30000000000000e-01,-6.91697534055145e-04,3.30000000000000e-01
6.56040000000000e-08,3.30000000000000e-01,3.30000000000000e-01,-1.85416838937600e-03,3.30000000000000e-01
6.61159999999999e-08,3.30000000000000e-01,3.30000000000000e-01,-1.07575080012621e-03,3.30000000000000e-01
6.71399999999999e-08,3.30000000000000e-01,3.30000000000000e-01,8.65850208811129e-02,3.30000000000000e-01
6.91879999999998e-08,3.30000000000000e-01,3.30000000000000e-01,3.11424747259259e-01,3.30000000000000e-01
7.29879999999998e-08,3.30000000000000e-01,3.30000000000000e-01,3.35317516663548e-01,3.30000000000000e-01
7.51000000000000e-08,3.30000000000000e-01,3.30000000000000e-01,3.24264627283426e-01,3.30000000000000e-01
7.51100000000000e-08,2.97000000000034e-01,3.30000000000000e-01,3.24518170698354e-01,3.30000000000000e-01
7.51300000000000e-08,2.31000000000046e-01,3.30000000000000e-01,3.24958629244029e-01,3.30000000000000e-01
7.51700000000000e-08,9.90000000000711e-02,3.30000000000000e-01,3.25746383380853e-01,3.30000000000000e-01
7.52000000000000e-08,4.61852778244065e-14,3.30000000000000e-01,3.26331964387925e-01,3.30000000000000e-01
7.52080000000000e-08,0.00000000000000e+00,3.30000000000000e-01,3.26500198968906e-01,3.30000000000000e-01
7.52240000000000e-08,0.00000000000000e+00,3.30000000000000e-01,3.26813788473592e-01,3.30000000000000e-01
7.52560000000000e-08,0.00000000000000e+00,3.30000000000000e-01,3.27350068894548e-01,3.30000000000000e-01
7.53200000000000e-08,0.00000000000000e+00,3.30000000000000e-01,3.28163884033136e-01,3.30000000000000e-01
7.54480000000000e-08,0.00000000000000e+00,3.30000000000000e-01,3.29083139331954e-01,3.30000000000000e-01
7.57040000000000e-08,0.00000000000000e+00,3.30000000000000e-01,3.29544122566103e-01,3.30000000000000e-01
7.62159999999999e-08,0.00000000000000e+00,3.30000000000000e-01,3.27739392055086e-01,3.30000000000000e-01
7.72399999999999e-08,0.00000000000000e+00,3.30000000000000e-01,3.19788000029830e-01,3.30000000000000e-01
7.92879999999998e-08,0.00000000000000e+00,3.30000000000000e-01,3.20306611449401e-01,3.30000000000000e-01
8.30879999999998e-08,0.00000000000000e+00,3.30000000000000e-01,3.30374447290274e-01,3.30000000000000e-01
8.50000000000000e-08,0.00000000000000e+00,3.30000000000000e-01,3.28233461189789e-01,3.30000000000000e-01
8.50100000000000e-08,3.29999999999937e-02,3.30000000000000e-01,3.28233760243077e-01,2.97000000000006e-01
8.50300000000000e-08,9.89999999999812e-02,3.30000000000000e-01,3.28229001417421e-01,2.31000000000019e-01
8.50700000000000e-08,2.30999999999956e-01,3.30000000000000e-01,3.28218509453421e-01,9.90000000000438e-02
8.51000000000000e-08,3.29999999999981e-01,3.30000000000000e-01,3.28377586905777e-01,1.88737914186277e-14
8.51080000000000e-08,3.30000000000000e-01,3.30000000000000e-01,3.28481686858485e-01,0.00000000000000e+00
8.51240000000000e-08,3.30000000000000e-01,3.30000000000000e-01,3.28676081485506e-01,0.00000000000000e+00
8.51560000000000e-08,3.30000000000000e-01,3.30000000000000e-01,3.29027868260968e-01,0.00000000000000e+00
8.52200000000000e-08,3.30000000000000e-01,3.30000000000000e-01,3.29597223567602e-01,0.00000000000000e+00
8.53480000000000e-08,3.30000000000000e-01,3.30000000000000e-01,3.30421095659753e-01,0.00000000000000e+00
8.56040000000000e-08,3.30000000000000e-01,3.30000000000000e-01,3.31615300010252e-01,0.00000000000000e+00
8.61159999999999e-08,3.30000000000000e-01,3.30000000000000e-01,3.33388090692086e-01,0.00000000000000e+00
8.71399999999999e-08,3.30000000000000e-01,3.30000000000000e-01,2.98344882676607e-01,0.00000000000000e+00
8.91879999999998e-08,3.30000000000000e-01,3.30000000000000e-01,2.90939324380516e-02,0.00000000000000e+00
9.01000000000000e-08,3.30000000000000e-01,3.29999999999981e-01,-1.00382529127486e-02,0.00000000000000e+00
9.04800000000000e-08,3.30000000000000e-01,3.30000000000000e-01,-2.86705957513865e-03,0.00000000000000e+00
9.12400000000000e-08,3.30000000000000e-01,3.30000000000000e-01,1.14801631862218e-03,0.00000000000000e+00
9.27600000000000e-08,3.30000000000000e-01,3.30000000000000e-01,-7.17680999523581e-04,0.00000000000000e+00
9.51000000000000e-08,3.30000000000000e-01,3.30000000000000e-01,5.58959317745604e-04,0.00000000000000e+00
9.51100000000000e-08,2.97000000000034e-01,3.30000000000000e-01,5.59138478622746e-04,3.29999999999664e-02
9.51300000000000e-08,2.31000000000046e-01,3.30000000000000e-01,5.57774747213382e-04,9.89999999999539e-02
9.51700000000000e-08,9.90000000000711e-02,3.30000000000000e-01,5.12699152034043e-04,2.30999999999929e-01
9.52000000000000e-08,4.61852778244065e-14,3.30000000000000e-01,4.47144746801825e-04,3.29999999999954e-01
9.52080000000000e-08,0.00000000000000e+00,3.30000000000000e-01,4.22269863280294e-04,3.30000000000000e-01
9.52240000000000e-08,0.00000000000000e+00,3.30000000000000e-01,3.75355578652505e-04,3.30000000000000e-01
9.52560000000000e-08,0.00000000000000e+00,3.30000000000000e-01,2.96211878771175e-04,3.30000000000000e-01
9.53200000000000e-08,0.00000000000000e+00,3.30000000000000e-01,1.82598380594076e-04,3.30000000000000e-01
9.54480000000000e-08,0.00000000000000e+00,3.30000000000000e-01,6.63130749502736e-05,3.30000000000000e-01
9.57040000000000e-08,0.00000000000000e+00,3.30000000000000e-01,-4.26120647262565e-06,3.30000000000000e-01
9.62159999999999e-08,0.00000000000000e+00,3.30000000000000e-01,-5.73748228217159e-05,3.30000000000000e-01
9.72399999999999e-08,0.00000000000000e+00,3.30000000000000e-01,-2.62789053614250e-04,3.30000000000000e-01
9.92879999999998e-08,0.00000000000000e+00,3.30000000000000e-01,1.08270853403003e-04,3.30000000000000e-01
1.03088000000000e-07,0.00000000000000e+00,3.30000000000000e-01,-8.03229929707524e-05,3.30000000000000e-01
1.05000000000000e-07,0.00000000000000e+00,3.30000000000000e-01,4.32978665173148e-05,3.30000000000000e-01
1.05010000000000e-07,3.29999999999937e-02,3.30000000000000e-01,7.82959575843650e-05,3.30000000000000e-01
1.05030000000000e-07,9.89999999999812e-02,3.30000000000000e-01,1.33792923879879e-04,3.30000000000000e-01
1.05070000000000e-07,2.30999999999956e-01,3.30000000000000e-01,1.97907263983766e-04,3.30000000000000e-01
1.05100000000000e-07,3.29999999999981e-01,3.30000000000000e-01,2.10306903616262e-04,3.30000000000000e-01
1.05108000000000e-07,3.30000000000000e-01,3.30000000000000e-01,1.96062096797688e-04,3.30000000000000e-01
1.05124000000000e-07,3.30000000000000e-01,3.30000000000000e-01,1.65797118270590e-04,3.30000000000000e-01
1.05156000000000e-07,3.30000000000000e-01,3.30000000000000e-01,9.82682893672406e-05,3.30000000000000e-01
1.05220000000000e-07,3.30000000000000e-01,3.30000000000000e-01,-8.89297734546404e-05,3.30000000000000e-01
1.05348000000000e-07,3.30000000000000e-01,3.30000000000000e-01,-6.91698813230944e-04,3.30000000000000e-01
1.05604000000000e-07,3.30000000000000e-01,3.30000000000000e-01,-1.85416850903108e-03,3.30000000000000e-01
1.06116000000000e-07,3.30000000000000e-01,3.30000000000000e-01,-1.07575634546660e-03,3.30000000000000e-01
1.07140000000000e-07,3.30000000000000e-01,3.30000000000000e-01,8.65849696628363e-02,3.30000000000000e-01
1.09188000000000e-07,3.30000000000000e-01,3.30000000000000e-01,3.11424721862668e-01,3.30000000000000e-01
1.12988000000000e-07,3.30000000000000e-01,3.30000000000000e-01,3.35317524468786e-01,3.30000000000000e-01
1.15100000000000e-07,3.30000000000000e-01,3.30000000000000e-01,3.24264618856561e-01,3.30000000000000e-01
1.15110000000000e-07,2.97000000000034e-01,3.30000000000000e-01,3.24518162778984e-01,3.30000000000000e-01
1.15130000000000e-07,2.31000000000046e-01,3.30000000000000e-01,3.24958622162272e-01,3.30000000000000e-01
1.15170000000000e-07,9.90000000000711e-02,3.30000000000000e-01,3.25746377768298e-01,3.30000000000000e-01
1.15200000000000e-07,4.61852778244065e-14,3.30000000000000e-01,3.26331959676103e-01,3.30000000000000e-01
1.15208000000000e-07,0.00000000000000e+00,3.30000000000000e-01,3.26500194464149e-01,3.30000000000000e-01
1.15224000000000e-07,0.00000000000000e+00,3.30000000000000e-01,3.26813784362691e-01,3.30000000000000e-01
1.15256000000000e-07,0.00000000000000e+00,3.30000000000000e-01,3.27350065465960e-01,3.30000000000000e-01
1.15320000000000e-07,0.00000000000000e+00,3.30000000000000e-01,3.28163881628358e-01,3.30000000000000e-01
1.15448000000000e-07,0.00000000000000e+00,3.30000000000000e-01,3.29083138139342e-01,3.30000000000000e-01
1.15704000000000e-07,0.00000000000000e+00,3.30000000000000e-01,3.29544122322324e-01,3.30000000000000e-01
1.16216000000000e-07,0.00000000000000e+00,3.30000000000000e-01,3.27739392191140e-01,3.30000000000000e-01
1.17240000000000e-07,0.00000000000000e+00,3.30000000000000e-01,3.19788000145649e-01,3.30000000000000e-01
1.19288000000000e-07,0.00000000000000e+00,3.30000000000000e-01,3.20306611515086e-01,3.30000000000000e-01
1.23088000000000e-07,0.00000000000000e+00,3.30000000000000e-01,3.30374447309767e-01,3.30000000000000e-01
1.25000000000000e-07,0.00000000000000e+00,3.30000000000000e-01,3.28233461165693e-01,3.30000000000000e-01
1.25010000000000e-07,3.29999999999501e-02,3.30000000000000e-01,3.28233760220570e-01,2.97000000000050e-01
1.25030000000000e-07,9.89999999999376e-02,3.30000000000000e-01,3.28229001396386e-01,2.31000000000062e-01
1.25070000000000e-07,2.30999999999913e-01,3.30000000000000e-01,3.28218509432409e-01,9.90000000000875e-02
