Time,v(clk),v(data),v(out)
1.00000000000000e-08,6.00000000000000e-01,0.00000000000000e+00,-1.11671239147459e-06
1.00100000000000e-08,6.00000000000000e-01,5.99999999999985e-02,4.50870430569045e-06
1.00300000000000e-08,6.00000000000000e-01,1.79999999999996e-01,9.27465830027896e-06
1.00700000000000e-08,6.00000000000000e-01,4.19999999999990e-01,7.31185666678902e-06
1.01000000000000e-08,6.00000000000000e-01,5.99999999999995e-01,3.33909901209517e-06
1.01080000000000e-08,6.00000000000000e-01,6.00000000000000e-01,2.68260315319097e-06
1.01240000000000e-08,6.00000000000000e-01,6.00000000000000e-01,2.87697987578356e-06
1.01560000000000e-08,6.00000000000000e-01,6.00000000000000e-01,5.35675102281141e-06
1.02200000000000e-08,6.00000000000000e-01,6.00000000000000e-01,7.85487429878773e-06
1.03480000000000e-08,6.00000000000000e-01,6.00000000000000e-01,4.76856973101111e-06
1.06040000000000e-08,6.00000000000000e-01,6.00000000000000e-01,2.56427539746182e-06
1.11036329783059e-08,6.00000000000000e-01,6.00000000000000e-01,4.38204183373855e-06
1.21028989349177e-08,6.00000000000000e-01,6.00000000000000e-01,2.65138876728768e-06
1.41014308481414e-08,6.00000000000000e-01,6.00000000000000e-01,3.72614702558996e-06
1.51000000000000e-08,6.00000000000000e-01,6.00000000000000e-01,2.37634402800065e-06
1.51100000000000e-08,5.39999999999991e-01,6.00000000000000e-01,-6.40356103874182e-05
1.51300000000000e-08,4.19999999999994e-01,6.00000000000000e-01,-1.67034179658729e-04
1.51700000000000e-08,1.80000000000000e-01,6.00000000000000e-01,-1.77167422469836e-04
1.52000000000000e-08,0.00000000000000e+00,6.00000000000000e-01,7.74347032382397e-05
1.52080000000000e-08,0.00000000000000e+00,6.00000000000000e-01,2.25438799053866e-04
1.52240000000000e-08,0.00000000000000e+00,6.00000000000000e-01,4.13465026095114e-04
1.52560000000000e-08,0.00000000000000e+00,6.00000000000000e-01,4.32651828154024e-04
1.53200000000000e-08,0.00000000000000e+00,6.00000000000000e-01,1.05285137723427e-04
1.54480000000000e-08,0.00000000000000e+00,6.00000000000000e-01,-2.89212536739483e-04
1.57040000000000e-08,0.00000000000000e+00,6.00000000000000e-01,8.38580427991314e-06
1.62160000000000e-08,0.00000000000000e+00,6.00000000000000e-01,-9.85334168645251e-05
1.68689683656874e-08,0.00000000000000e+00,6.00000000000000e-01,1.57435253638490e-04
1.81749050970623e-08,0.00000000000000e+00,6.00000000000000e-01,-1.18971261185860e-04
1.96061894246062e-08,0.00000000000000e+00,6.00000000000000e-01,9.55739163679770e-05
2.24687580796941e-08,0.00000000000000e+00,6.00000000000000e-01,-8.03534594787650e-05
2.50000000000000e-08,0.00000000000000e+00,6.00000000000000e-01,7.16197047307280e-05
2.50100000000000e-08,5.99999999999886e-02,6.00000000000000e-01,1.93703042930551e-04
2.50300000000000e-08,1.80000000000006e-01,6.00000000000000e-01,3.85205711931055e-04
2.50700000000000e-08,4.20000000000000e-01,6.00000000000000e-01,5.45207417267476e-04
2.51000000000000e-08,6.00000000000000e-01,6.00000000000000e-01,2.56297862296258e-04
2.51080000000000e-08,6.00000000000000e-01,6.00000000000000e-01,-5.12139210714357e-05
2.51240000000000e-08,6.00000000000000e-01,6.00000000000000e-01,-8.12945507074177e-04
2.51560000000000e-08,6.00000000000000e-01,6.00000000000000e-01,-2.56398279868587e-03
2.52200000000000e-08,6.00000000000000e-01,6.00000000000000e-01,-5.00644555567545e-03
2.53480000000000e-08,6.00000000000000e-01,6.00000000000000e-01,1.18172920848552e-02
2.56040000000000e-08,6.00000000000000e-01,6.00000000000000e-01,3.92098000474537e-01
2.61160000000000e-08,6.00000000000000e-01,6.00000000000000e-01,6.25193940433398e-01
2.67155660852780e-08,6.00000000000000e-01,6.00000000000000e-01,5.78848994035944e-01
2.79146982558339e-08,6.00000000000000e-01,6.00000000000000e-01,6.20044577005382e-01
2.94901155244912e-08,6.00000000000000e-01,6.00000000000000e-01,5.80422074658594e-01
3.01000000000000e-08,6.00000000000000e-01,6.00000000000000e-01,6.17041370772338e-01
3.01100000000000e-08,6.00000000000000e-01,5.40000000000031e-01,6.10605173446084e-01
3.01300000000000e-08,6.00000000000000e-01,4.20000000000014e-01,6.02599384112946e-01
3.01700000000000e-08,6.00000000000000e-01,1.80000000000020e-01,5.99685596348883e-01
3.02000000000000e-08,6.00000000000000e-01,1.44328993201270e-14,5.99954484627239e-01
3.02080000000000e-08,6.00000000000000e-01,0.00000000000000e+00,5.99940863146369e-01
3.02240000000000e-08,6.00000000000000e-01,0.00000000000000e+00,5.99918775680593e-01
3.02560000000000e-08,6.00000000000000e-01,0.00000000000000e+00,5.99935208808016e-01
3.03200000000000e-08,6.00000000000000e-01,0.00000000000000e+00,5.99937476333866e-01
3.04480000000000e-08,6.00000000000000e-01,0.00000000000000e+00,5.99963539446691e-01
3.07040000000000e-08,6.00000000000000e-01,0.00000000000000e+00,5.99982419277540e-01
3.11008892309094e-08,6.00000000000000e-01,0.00000000000000e+00,5.99959113734610e-01
3.17923814635647e-08,6.00000000000000e-01,0.00000000000000e+00,5.99982791051190e-01
3.28973556689274e-08,6.00000000000000e-01,0.00000000000000e+00,5.99966929231104e-01
3.51000000000000e-08,5.99999999999970e-01,0.00000000000000e+00,5.99987342243121e-01
3.51100000000000e-08,5.39999999999982e-01,0.00000000000000e+00,5.99920636861012e-01
3.51300000000000e-08,4.19999999999965e-01,0.00000000000000e+00,5.99836286427803e-01
3.51700000000000e-08,1.79999999999970e-01,0.00000000000000e+00,6.00350792939103e-01
3.52000000000000e-08,0.00000000000000e+00,0.00000000000000e+00,6.01980680966574e-01
3.52080000000000e-08,0.00000000000000e+00,0.00000000000000e+00,6.02440641571836e-01
3.52240000000000e-08,0.00000000000000e+00,0.00000000000000e+00,6.03008977834158e-01
3.52560000000000e-08,0.00000000000000e+00,0.00000000000000e+00,6.02534730946280e-01
3.53200000000000e-08,0.00000000000000e+00,0.00000000000000e+00,5.93516402069403e-01
3.54480000000000e-08,0.00000000000000e+00,0.00000000000000e+00,5.78905013377386e-01
3.57040000000000e-08,0.00000000000000e+00,0.00000000000000e+00,5.95588619761110e-01
3.60919830793693e-08,0.00000000000000e+00,0.00000000000000e+00,6.01683440640253e-01
3.67460066766943e-08,0.00000000000000e+00,0.00000000000000e+00,5.97865179548846e-01
3.75603399234249e-08,0.00000000000000e+00,0.00000000000000e+00,6.01242460182193e-01
3.91000000000000e-08,0.00000000000000e+00,0.00000000000000e+00,5.98506345694383e-01
3.92628666493461e-08,0.00000000000000e+00,0.00000000000000e+00,5.99604506383626e-01
3.95885999480384e-08,0.00000000000000e+00,0.00000000000000e+00,6.00021627978984e-01
4.02400665454229e-08,0.00000000000000e+00,0.00000000000000e+00,5.99749607311367e-01
4.15429997401919e-08,0.00000000000000e+00,0.00000000000000e+00,6.00009899504288e-01
4.41488661297299e-08,0.00000000000000e+00,0.00000000000000e+00,5.99810664417088e-01
4.50000000000000e-08,0.00000000000000e+00,0.00000000000000e+00,6.00012593922948e-01
4.50100000000000e-08,5.99999999999886e-02,0.00000000000000e+00,6.00062242586288e-01
4.50300000000000e-08,1.80000000000006e-01,0.00000000000000e+00,6.00105789213375e-01
4.50700000000000e-08,4.20000000000000e-01,0.00000000000000e+00,6.00031881546119e-01
4.51000000000000e-08,6.00000000000000e-01,0.00000000000000e+00,5.99882562287174e-01
4.51080000000000e-08,6.00000000000000e-01,0.00000000000000e+00,5.99814543817925e-01
4.51240000000000e-08,6.00000000000000e-01,0.00000000000000e+00,5.99724596860877e-01
4.51560000000000e-08,6.00000000000000e-01,0.00000000000000e+00,5.99670259351916e-01
4.52200000000000e-08,6.00000000000000e-01,0.00000000000000e+00,5.99742832943539e-01
4.53480000000000e-08,6.00000000000000e-01,0.00000000000000e+00,6.00949446694802e-01
4.56040000000000e-08,6.00000000000000e-01,0.00000000000000e+00,6.05363378365384e-01
4.61160000000000e-08,6.00000000000000e-01,0.00000000000000e+00,1.03199075222988e-01
4.66714335767886e-08,6.00000000000000e-01,0.00000000000000e+00,-5.32107509861327e-02
4.77322958127680e-08,6.00000000000000e-01,0.00000000000000e+00,4.82137588060749e-02
4.90177913232981e-08,6.00000000000000e-01,0.00000000000000e+00,-3.67189952735176e-02
5.00000000000000e-08,6.00000000000000e-01,0.00000000000000e+00,3.16492003863651e-02
5.00100000000000e-08,6.00000000000000e-01,5.99999999999886e-02,2.58936232611281e-02
5.00300000000000e-08,6.00000000000000e-01,1.79999999999966e-01,1.72872044527396e-02
5.00700000000000e-08,6.00000000000000e-01,4.20000000000000e-01,8.48459854909749e-03
5.01000000000000e-08,6.00000000000000e-01,6.00000000000000e-01,4.99360488063487e-03
5.01080000000000e-08,6.00000000000000e-01,6.00000000000000e-01,4.40318193035321e-03
5.01240000000000e-08,6.00000000000000e-01,6.00000000000000e-01,3.34349762339112e-03
5.01560000000000e-08,6.00000000000000e-01,6.00000000000000e-01,1.91820596380649e-03
5.02200000000000e-08,6.00000000000000e-01,6.00000000000000e-01,5.71154373916277e-04
5.03480000000000e-08,6.00000000000000e-01,6.00000000000000e-01,-2.33101928829374e-05
5.06040000000000e-08,6.00000000000000e-01,6.00000000000000e-01,7.11994179177292e-06
5.11160000000001e-08,6.00000000000000e-01,6.00000000000000e-01,-6.11640412398994e-06
5.21400000000002e-08,6.00000000000000e-01,6.00000000000000e-01,3.58258601737375e-06
5.41880000000003e-08,6.00000000000000e-01,6.00000000000000e-01,-4.51589834503559e-06
5.51000000000000e-08,6.00000000000000e-01,6.00000000000000e-01,2.40174769475590e-06
5.51100000000000e-08,5.40000000000021e-01,6.00000000000000e-01,-6.47797870377068e-05
5.51300000000000e-08,4.20000000000004e-01,6.00000000000000e-01,-1.66823899571851e-04
5.51700000000000e-08,1.80000000000010e-01,6.00000000000000e-01,-1.80170487016677e-04
5.52000000000000e-08,0.00000000000000e+00,6.00000000000000e-01,7.06308594856861e-05
5.52080000000000e-08,0.00000000000000e+00,6.00000000000000e-01,2.16443293186742e-04
5.52240000000000e-08,0.00000000000000e+00,6.00000000000000e-01,3.95616536926137e-04
5.52560000000000e-08,0.00000000000000e+00,6.00000000000000e-01,3.46855114253287e-04
5.53200000000000e-08,0.00000000000000e+00,6.00000000000000e-01,-5.57530404951212e-04
5.54480000000000e-08,0.00000000000000e+00,6.00000000000000e-01,-1.79147799221346e-03
5.57040000000000e-08,0.00000000000000e+00,6.00000000000000e-01,1.09141352784697e-04
5.60934269726662e-08,0.00000000000000e+00,6.00000000000000e-01,-1.88063939324298e-05
5.67555635034657e-08,0.00000000000000e+00,6.00000000000000e-01,1.39807407110171e-05
5.77656064221779e-08,0.00000000000000e+00,6.00000000000000e-01,7.45250442801739e-05
5.90964227925704e-08,0.00000000000000e+00,6.00000000000000e-01,-1.15872466625216e-04
6.17580555333553e-08,0.00000000000000e+00,6.00000000000000e-01,1.35801073822134e-04
6.50000000000000e-08,0.00000000000000e+00,6.00000000000000e-01,-1.44627813233788e-04
6.50100000000000e-08,5.99999999999886e-02,6.00000000000000e-01,5.88996674460787e-05
6.50300000000000e-08,1.79999999999966e-01,6.00000000000000e-01,3.48600043791003e-04
6.50700000000000e-08,4.19999999999920e-01,6.00000000000000e-01,5.62787531602799e-04
6.51000000000000e-08,5.99999999999966e-01,6.00000000000000e-01,3.58062638716156e-04
6.51080000000000e-08,6.00000000000000e-01,6.00000000000000e-01,9.77700230255854e-05
6.51240000000000e-08,6.00000000000000e-01,6.00000000000000e-01,-5.92056026147807e-04
6.51560000000000e-08,6.00000000000000e-01,6.00000000000000e-01,-2.32777769756342e-03
6.52200000000000e-08,6.00000000000000e-01,6.00000000000000e-01,-4.90071960341199e-03
6.53480000000000e-08,6.00000000000000e-01,6.00000000000000e-01,9.85060722675370e-03
6.56040000000000e-08,6.00000000000000e-01,6.00000000000000e-01,3.85307792038677e-01
6.61159999999999e-08,6.00000000000000e-01,6.00000000000000e-01,6.24876015509587e-01
6.67196118372811e-08,6.00000000000000e-01,6.00000000000000e-01,5.79292335493557e-01
6.79268355118434e-08,6.00000000000000e-01,6.00000000000000e-01,6.19730503475529e-01
6.94959051590182e-08,6.00000000000000e-01,6.00000000000000e-01,5.80796708015061e-01
7.01000000000000e-08,6.00000000000000e-01,6.00000000000000e-01,6.16747830838050e-01
7.01100000000000e-08,6.00000000000000e-01,5.40000000000011e-01,6.10421777675446e-01
7.01300000000000e-08,6.00000000000000e-01,4.20000000000034e-01,6.02549611220925e-01
7.01700000000000e-08,6.00000000000000e-01,1.80000000000080e-01,5.99687498542095e-01
7.02000000000000e-08,6.00000000000000e-01,3.44169137633799e-14,5.99951646759617e-01
7.02080000000000e-08,6.00000000000000e-01,0.00000000000000e+00,5.99938431655974e-01
7.02240000000000e-08,6.00000000000000e-01,0.00000000000000e+00,5.99916890996268e-01
7.02560000000000e-08,6.00000000000000e-01,0.00000000000000e+00,5.99934281926787e-01
7.03200000000000e-08,6.00000000000000e-01,0.00000000000000e+00,5.99936940968561e-01
7.04480000000000e-08,6.00000000000000e-01,0.00000000000000e+00,5.99963235187131e-01
7.07040000000000e-08,6.00000000000000e-01,0.00000000000000e+00,5.99982418427329e-01
7.10996890915290e-08,6.00000000000000e-01,0.00000000000000e+00,5.99959104499679e-01
7.17916430513376e-08,6.00000000000000e-01,0.00000000000000e+00,5.99982735330350e-01
7.28903266639174e-08,6.00000000000000e-01,0.00000000000000e+00,5.99966931499630e-01
7.50876938890770e-08,6.00000000000000e-01,0.00000000000000e+00,5.99987332109948e-01
7.51000000000000e-08,6.00000000000000e-01,0.00000000000000e+00,5.99986182347907e-01
7.51100000000000e-08,5.40000000000061e-01,0.00000000000000e+00,5.99918651159617e-01
7.51300000000000e-08,4.20000000000084e-01,0.00000000000000e+00,5.99835116681242e-01
7.51700000000000e-08,1.80000000000129e-01,0.00000000000000e+00,6.00335653875565e-01
7.52000000000000e-08,8.40438829641244e-14,0.00000000000000e+00,6.01979321984816e-01
7.52080000000000e-08,0.00000000000000e+00,0.00000000000000e+00,6.02439671019480e-01
7.52240000000000e-08,0.00000000000000e+00,0.00000000000000e+00,6.03008480277084e-01
7.52560000000000e-08,0.00000000000000e+00,0.00000000000000e+00,6.02533655073015e-01
7.53200000000000e-08,0.00000000000000e+00,0.00000000000000e+00,5.93512921653980e-01
7.54480000000000e-08,0.00000000000000e+00,0.00000000000000e+00,5.78903743141244e-01
7.57040000000000e-08,0.00000000000000e+00,0.00000000000000e+00,5.95590222193618e-01
7.60919959606274e-08,0.00000000000000e+00,0.00000000000000e+00,6.01682430246753e-01
7.67460397850140e-08,0.00000000000000e+00,0.00000000000000e+00,5.97865914015319e-01
7.75603862012858e-08,0.00000000000000e+00,0.00000000000000e+00,6.01241873035234e-01
7.81000000000000e-08,0.00000000000000e+00,0.00000000000000e+00,5.98677111542469e-01
7.82628692832544e-08,0.00000000000000e+00,0.00000000000000e+00,5.99602832898644e-01
7.85886078497631e-08,0.00000000000000e+00,0.00000000000000e+00,5.99962345588985e-01
7.92400849827806e-08,0.00000000000000e+00,0.00000000000000e+00,5.99744623769659e-01
8.05430392488155e-08,0.00000000000000e+00,0.00000000000000e+00,5.99977082585277e-01
8.31489477808853e-08,0.00000000000000e+00,0.00000000000000e+00,5.99821363486400e-01
8.50000000000000e-08,0.00000000000000e+00,0.00000000000000e+00,6.00005400296852e-01
8.50100000000000e-08,5.99999999999886e-02,0.00000000000000e+00,6.00056610452109e-01
8.50300000000000e-08,1.79999999999966e-01,0.00000000000000e+00,6.00102318931657e-01
8.50700000000000e-08,4.19999999999920e-01,0.00000000000000e+00,6.00030398386488e-01
8.51000000000000e-08,5.99999999999966e-01,0.00000000000000e+00,5.99881478605868e-01
8.51080000000000e-08,6.00000000000000e-01,0.00000000000000e+00,5.99813250622370e-01
8.51240000000000e-08,6.00000000000000e-01,0.00000000000000e+00,5.99723057252099e-01
8.51560000000000e-08,6.00000000000000e-01,0.00000000000000e+00,5.99692591608871e-01
8.52200000000000e-08,6.00000000000000e-01,0.00000000000000e+00,5.99731042401678e-01
8.53480000000000e-08,6.00000000000000e-01,0.00000000000000e+00,6.00951580089627e-01
8.56040000000000e-08,6.00000000000000e-01,0.00000000000000e+00,6.05352434052288e-01
8.61159999999999e-08,6.00000000000000e-01,0.00000000000000e+00,1.03193269438269e-01
8.66711227644229e-08,6.00000000000000e-01,0.00000000000000e+00,-5.31992478744897e-02
8.77321118765337e-08,6.00000000000000e-01,0.00000000000000e+00,4.82013345125737e-02
8.90179642496255e-08,6.00000000000000e-01,0.00000000000000e+00,-3.67142268841935e-02
9.00000000000000e-08,6.00000000000000e-01,0.00000000000000e+00,3.16426771469870e-02
9.00100000000000e-08,6.00000000000000e-01,5.99999999999886e-02,2.58877375692224e-02
9.00300000000000e-08,6.00000000000000e-01,1.79999999999966e-01,1.72824061738447e-02
9.00700000000000e-08,6.00000000000000e-01,4.19999999999920e-01,8.48178562777355e-03
9.01000000000000e-08,6.00000000000000e-01,5.99999999999966e-01,4.99192486069904e-03
9.01080000000000e-08,6.00000000000000e-01,6.00000000000000e-01,4.40170241424259e-03
9.01240000000000e-08,6.00000000000000e-01,6.00000000000000e-01,3.34237244976492e-03
9.01560000000000e-08,6.00000000000000e-01,6.00000000000000e-01,1.91755973195800e-03
9.02200000000000e-08,6.00000000000000e-01,6.00000000000000e-01,5.70966002504905e-04
9.03480000000000e-08,6.00000000000000e-01,6.00000000000000e-01,-2.32966499302614e-05
9.06040000000000e-08,6.00000000000000e-01,6.00000000000000e-01,7.12300513708991e-06
9.11159999999999e-08,6.00000000000000e-01,6.00000000000000e-01,-6.10816065980090e-06
9.21399999999999e-08,6.00000000000000e-01,6.00000000000000e-01,3.58626214492543e-06
9.41879999999998e-08,6.00000000000000e-01,6.00000000000000e-01,-4.50861971533359e-06
9.51000000000000e-08,6.00000000000000e-01,6.00000000000000e-01,2.40539502292542e-06
9.51100000000000e-08,5.40000000000061e-01,6.00000000000000e-01,-6.47757373999705e-05
9.51300000000000e-08,4.20000000000084e-01,6.00000000000000e-01,-1.66819440717773e-04
9.51700000000000e-08,1.80000000000129e-01,6.00000000000000e-01,-1.80165260016907e-04
9.52000000000000e-08,8.40438829641244e-14,6.00000000000000e-01,7.06407965425579e-05
9.52080000000000e-08,0.00000000000000e+00,6.00000000000000e-01,2.16457431992410e-04
9.52240000000000e-08,0.00000000000000e+00,6.00000000000000e-01,3.95647080215458e-04
9.52560000000000e-08,0.00000000000000e+00,6.00000000000000e-01,3.47003308214702e-04
9.53200000000000e-08,0.00000000000000e+00,6.00000000000000e-01,-5.56929099967282e-04
9.54480000000000e-08,0.00000000000000e+00,6.00000000000000e-01,-1.78971939525038e-03
9.57040000000000e-08,0.00000000000000e+00,6.00000000000000e-01,1.09195158667686e-04
9.60936221493960e-08,0.00000000000000e+00,6.00000000000000e-01,-1.90601442283510e-05
9.67558699620372e-08,0.00000000000000e+00,6.00000000000000e-01,1.42643971417725e-05
9.77668297580410e-08,0.00000000000000e+00,6.00000000000000e-01,7.41414494519485e-05
9.90977895159032e-08,0.00000000000000e+00,6.00000000000000e-01,-1.15486125116458e-04
1.01759709031628e-07,0.00000000000000e+00,6.00000000000000e-01,1.35419250297629e-04
1.05000000000000e-07,0.00000000000000e+00,6.00000000000000e-01,-1.44255306769966e-04
1.05010000000000e-07,5.99999999999886e-02,6.00000000000000e-01,5.91461472514709e-05
1.05030000000000e-07,1.79999999999966e-01,6.00000000000000e-01,3.48702029351222e-04
1.05070000000000e-07,4.19999999999920e-01,6.00000000000000e-01,5.62818056090576e-04
1.05100000000000e-07,5.99999999999966e-01,6.00000000000000e-01,3.57981583105280e-04
1.05108000000000e-07,6.00000000000000e-01,6.00000000000000e-01,9.76274895130996e-05
1.05124000000000e-07,6.00000000000000e-01,6.00000000000000e-01,-5.92300204575430e-04
1.05156000000000e-07,6.00000000000000e-01,6.00000000000000e-01,-2.32806502539225e-03
1.05220000000000e-07,6.00000000000000e-01,6.00000000000000e-01,-4.90085369575206e-03
1.05348000000000e-07,6.00000000000000e-01,6.00000000000000e-01,9.85272307570189e-03
1.05604000000000e-07,6.00000000000000e-01,6.00000000000000e-01,3.85315448346265e-01
1.06116000000000e-07,6.00000000000000e-01,6.00000000000000e-01,6.24876460478989e-01
1.06719607056097e-07,6.00000000000000e-01,6.00000000000000e-01,5.79291814918529e-01
1.07926821168293e-07,6.00000000000000e-01,6.00000000000000e-01,6.19730878302634e-01
1.09495897113973e-07,6.00000000000000e-01,6.00000000000000e-01,5.80796266511783e-01
1.10100000000000e-07,6.00000000000000e-01,6.00000000000000e-01,6.16748180465188e-01
1.10110000000000e-07,6.00000000000000e-01,5.40000000000091e-01,6.10421996345367e-01
1.10130000000000e-07,6.00000000000000e-01,4.20000000000114e-01,6.02549670354975e-01
