Time,v(clk),v(data),v(out)
1.00000000000000e-08,6.00000000000000e-01,0.00000000000000e+00,2.31358226030279e-06
1.00100000000000e-08,6.00000000000000e-01,5.99999999999985e-02,9.44211980162535e-06
1.00300000000000e-08,6.00000000000000e-01,1.79999999999996e-01,1.54142609406632e-05
1.00700000000000e-08,6.00000000000000e-01,4.19999999999990e-01,1.11594755603517e-05
1.01000000000000e-08,6.00000000000000e-01,5.99999999999995e-01,8.90317251597827e-06
1.01080000000000e-08,6.00000000000000e-01,6.00000000000000e-01,8.22740912562181e-06
1.01240000000000e-08,6.00000000000000e-01,6.00000000000000e-01,8.10698020792255e-06
1.01560000000000e-08,6.00000000000000e-01,6.00000000000000e-01,1.47160531255019e-05
1.02200000000000e-08,6.00000000000000e-01,6.00000000000000e-01,2.05813392771953e-05
1.03480000000000e-08,6.00000000000000e-01,6.00000000000000e-01,1.91090923624126e-05
1.06040000000000e-08,6.00000000000000e-01,6.00000000000000e-01,1.84811154182382e-05
1.11140860150841e-08,6.00000000000000e-01,6.00000000000000e-01,1.86846213780963e-05
1.21342580452523e-08,6.00000000000000e-01,6.00000000000000e-01,1.74106878858514e-05
1.41746021055886e-08,6.00000000000000e-01,6.00000000000000e-01,1.77589259472630e-05
1.51000000000000e-08,6.00000000000000e-01,6.00000000000000e-01,1.65034887856762e-05
1.51100000000000e-08,5.39999999999991e-01,6.00000000000000e-01,-1.15029377636439e-04
1.51300000000000e-08,4.19999999999994e-01,6.00000000000000e-01,-3.12195554319022e-04
1.51700000000000e-08,1.80000000000000e-01,6.00000000000000e-01,-2.41660020569009e-04
1.52000000000000e-08,0.00000000000000e+00,6.00000000000000e-01,3.73112707223802e-04
1.52080000000000e-08,0.00000000000000e+00,6.00000000000000e-01,6.64705076231994e-04
1.52240000000000e-08,0.00000000000000e+00,6.00000000000000e-01,1.02044197711930e-03
1.52560000000000e-08,0.00000000000000e+00,6.00000000000000e-01,9.77916212838381e-04
1.53200000000000e-08,0.00000000000000e+00,6.00000000000000e-01,-5.39457072498695e-07
1.54480000000000e-08,0.00000000000000e+00,6.00000000000000e-01,-6.66684404543760e-04
1.57040000000000e-08,0.00000000000000e+00,6.00000000000000e-01,2.54289757902100e-04
1.60704083472878e-08,0.00000000000000e+00,6.00000000000000e-01,-3.10632143641652e-04
1.67646911559639e-08,0.00000000000000e+00,6.00000000000000e-01,2.73036977388574e-04
1.77177254106265e-08,0.00000000000000e+00,6.00000000000000e-01,-8.63070901168297e-05
1.89899077341273e-08,0.00000000000000e+00,6.00000000000000e-01,4.62061933604561e-05
2.15342723811290e-08,0.00000000000000e+00,6.00000000000000e-01,9.92883260257822e-06
2.50000000000000e-08,0.00000000000000e+00,6.00000000000000e-01,3.84594159785496e-06
2.50100000000000e-08,5.99999999999886e-02,6.00000000000000e-01,2.50042037509363e-04
2.50300000000000e-08,1.80000000000006e-01,6.00000000000000e-01,6.49375763196194e-04
2.50700000000000e-08,4.20000000000000e-01,6.00000000000000e-01,1.11152595087095e-03
2.51000000000000e-08,6.00000000000000e-01,6.00000000000000e-01,1.15286230736110e-03
2.51080000000000e-08,6.00000000000000e-01,6.00000000000000e-01,9.37913342811611e-04
2.51240000000000e-08,6.00000000000000e-01,6.00000000000000e-01,4.17072483842110e-04
2.51560000000000e-08,6.00000000000000e-01,6.00000000000000e-01,-1.02750716255692e-03
2.52200000000000e-08,6.00000000000000e-01,6.00000000000000e-01,-3.88228067175796e-03
2.53480000000000e-08,6.00000000000000e-01,6.00000000000000e-01,-5.49772434881242e-03
2.56040000000000e-08,6.00000000000000e-01,6.00000000000000e-01,1.76809954543744e-01
2.61160000000000e-08,6.00000000000000e-01,6.00000000000000e-01,5.91206322438952e-01
2.70506563112724e-08,6.00000000000000e-01,6.00000000000000e-01,6.02284149689307e-01
2.81705062920410e-08,6.00000000000000e-01,6.00000000000000e-01,5.97737300051744e-01
2.98731361262418e-08,6.00000000000000e-01,6.00000000000000e-01,6.01850640622315e-01
3.01000000000000e-08,6.00000000000000e-01,6.00000000000000e-01,5.98713259018278e-01
3.01100000000000e-08,6.00000000000000e-01,5.40000000000031e-01,5.99207398698713e-01
3.01300000000000e-08,6.00000000000000e-01,4.20000000000014e-01,5.99802225170865e-01
3.01700000000000e-08,6.00000000000000e-01,1.80000000000020e-01,6.00029549348259e-01
3.02000000000000e-08,6.00000000000000e-01,1.44328993201270e-14,6.00036989527397e-01
3.02080000000000e-08,6.00000000000000e-01,0.00000000000000e+00,6.00030027508352e-01
3.02240000000000e-08,6.00000000000000e-01,0.00000000000000e+00,6.00011160258991e-01
3.02560000000000e-08,6.00000000000000e-01,0.00000000000000e+00,5.99982675881162e-01
3.03200000000000e-08,6.00000000000000e-01,0.00000000000000e+00,5.99943281332272e-01
3.04480000000000e-08,6.00000000000000e-01,0.00000000000000e+00,6.00003234807228e-01
3.07040000000000e-08,6.00000000000000e-01,0.00000000000000e+00,5.99982711767373e-01
3.10683649689716e-08,6.00000000000000e-01,0.00000000000000e+00,5.99973635400225e-01
3.16836020989646e-08,6.00000000000000e-01,0.00000000000000e+00,5.99985434525552e-01
3.29140763589506e-08,6.00000000000000e-01,0.00000000000000e+00,5.99976318403516e-01
3.51000000000000e-08,5.99999999999970e-01,0.00000000000000e+00,5.99990082407850e-01
3.51100000000000e-08,5.39999999999982e-01,0.00000000000000e+00,5.99867327487293e-01
3.51300000000000e-08,4.19999999999965e-01,0.00000000000000e+00,5.99745804672719e-01
3.51700000000000e-08,1.79999999999970e-01,0.00000000000000e+00,6.00752637725302e-01
3.52000000000000e-08,0.00000000000000e+00,0.00000000000000e+00,6.03553711862443e-01
3.52080000000000e-08,0.00000000000000e+00,0.00000000000000e+00,6.04302787493395e-01
3.52240000000000e-08,0.00000000000000e+00,0.00000000000000e+00,6.05186691648529e-01
3.52560000000000e-08,0.00000000000000e+00,0.00000000000000e+00,6.03681213630365e-01
3.53200000000000e-08,0.00000000000000e+00,0.00000000000000e+00,5.91651524959149e-01
3.54480000000000e-08,0.00000000000000e+00,0.00000000000000e+00,5.87681389909369e-01
3.56970656824188e-08,0.00000000000000e+00,0.00000000000000e+00,6.02181459972283e-01
3.60699986404530e-08,0.00000000000000e+00,0.00000000000000e+00,5.97249325373405e-01
3.66879948385883e-08,0.00000000000000e+00,0.00000000000000e+00,6.01619845417099e-01
3.76164967756905e-08,0.00000000000000e+00,0.00000000000000e+00,5.98128932649763e-01
3.91000000000000e-08,0.00000000000000e+00,0.00000000000000e+00,6.01456222513787e-01
3.92857003874204e-08,0.00000000000000e+00,0.00000000000000e+00,6.00073092950804e-01
3.96571011622613e-08,0.00000000000000e+00,0.00000000000000e+00,5.99755142776672e-01
4.03999027119431e-08,0.00000000000000e+00,0.00000000000000e+00,6.00025190887444e-01
4.18855058113066e-08,0.00000000000000e+00,0.00000000000000e+00,5.99805414060618e-01
4.48567120100337e-08,0.00000000000000e+00,0.00000000000000e+00,6.00041221891411e-01
4.50000000000000e-08,0.00000000000000e+00,0.00000000000000e+00,5.99878904492086e-01
4.50100000000000e-08,5.99999999999886e-02,0.00000000000000e+00,6.00010313879260e-01
4.50300000000000e-08,1.80000000000006e-01,0.00000000000000e+00,6.00143718673752e-01
4.50700000000000e-08,4.20000000000000e-01,0.00000000000000e+00,6.00062576058828e-01
4.51000000000000e-08,6.00000000000000e-01,0.00000000000000e+00,5.99920495007472e-01
4.51080000000000e-08,6.00000000000000e-01,0.00000000000000e+00,5.99820149089858e-01
4.51240000000000e-08,6.00000000000000e-01,0.00000000000000e+00,5.99675544215108e-01
4.51560000000000e-08,6.00000000000000e-01,0.00000000000000e+00,5.99646050303550e-01
4.52200000000000e-08,6.00000000000000e-01,0.00000000000000e+00,5.99758845376077e-01
4.53480000000000e-08,6.00000000000000e-01,0.00000000000000e+00,6.00000716102143e-01
4.56040000000000e-08,6.00000000000000e-01,0.00000000000000e+00,6.10295162033150e-01
4.61160000000000e-08,6.00000000000000e-01,0.00000000000000e+00,2.13671441768626e-01
4.68052963086902e-08,6.00000000000000e-01,0.00000000000000e+00,-6.56736617080600e-02
4.77283031696679e-08,6.00000000000000e-01,0.00000000000000e+00,5.23217588042577e-02
4.91678776257152e-08,6.00000000000000e-01,0.00000000000000e+00,-3.54495953054130e-02
5.00000000000000e-08,6.00000000000000e-01,0.00000000000000e+00,2.50241884634263e-02
5.00100000000000e-08,6.00000000000000e-01,5.99999999999886e-02,2.27954624654675e-02
5.00300000000000e-08,6.00000000000000e-01,1.79999999999966e-01,1.85282471060991e-02
5.00700000000000e-08,6.00000000000000e-01,4.20000000000000e-01,1.17548438478114e-02
5.01000000000000e-08,6.00000000000000e-01,6.00000000000000e-01,8.35016314438485e-03
5.01080000000000e-08,6.00000000000000e-01,6.00000000000000e-01,7.65480235677829e-03
5.01240000000000e-08,6.00000000000000e-01,6.00000000000000e-01,6.37597734852603e-03
5.01560000000000e-08,6.00000000000000e-01,6.00000000000000e-01,4.42547053572245e-03
5.02200000000000e-08,6.00000000000000e-01,6.00000000000000e-01,2.06624455435361e-03
5.03480000000000e-08,6.00000000000000e-01,6.00000000000000e-01,3.35158079749258e-04
5.06040000000000e-08,6.00000000000000e-01,6.00000000000000e-01,-5.09523697812819e-05
5.11160000000001e-08,6.00000000000000e-01,6.00000000000000e-01,4.08350984432704e-05
5.21400000000002e-08,6.00000000000000e-01,6.00000000000000e-01,-9.14187950855870e-06
5.41880000000003e-08,6.00000000000000e-01,6.00000000000000e-01,3.08460663895945e-05
5.51000000000000e-08,6.00000000000000e-01,6.00000000000000e-01,-1.17633622156131e-06
5.51100000000000e-08,5.40000000000021e-01,6.00000000000000e-01,-1.32410622773499e-04
5.51300000000000e-08,4.20000000000004e-01,6.00000000000000e-01,-3.24062880743714e-04
5.51700000000000e-08,1.80000000000010e-01,6.00000000000000e-01,-2.40663239651190e-04
5.52000000000000e-08,0.00000000000000e+00,6.00000000000000e-01,3.61131772705026e-04
5.52080000000000e-08,0.00000000000000e+00,6.00000000000000e-01,6.49325100209291e-04
5.52240000000000e-08,0.00000000000000e+00,6.00000000000000e-01,9.86743365280110e-04
5.52560000000000e-08,0.00000000000000e+00,6.00000000000000e-01,7.93888493407072e-04
5.53200000000000e-08,0.00000000000000e+00,6.00000000000000e-01,-9.47242845957486e-04
5.54480000000000e-08,0.00000000000000e+00,6.00000000000000e-01,-1.72629696045429e-03
5.57040000000000e-08,0.00000000000000e+00,6.00000000000000e-01,3.68276024099216e-04
5.60691855654839e-08,0.00000000000000e+00,6.00000000000000e-01,-3.33230266594552e-04
5.67513292345204e-08,0.00000000000000e+00,6.00000000000000e-01,2.83324814807282e-04
5.77007745418562e-08,0.00000000000000e+00,6.00000000000000e-01,-9.92098330138483e-05
5.89621986489848e-08,0.00000000000000e+00,6.00000000000000e-01,5.76071360509044e-05
6.14850468632418e-08,0.00000000000000e+00,6.00000000000000e-01,-8.25004430474521e-07
6.50000000000000e-08,0.00000000000000e+00,6.00000000000000e-01,1.54056525050565e-05
6.50100000000000e-08,5.99999999999886e-02,6.00000000000000e-01,2.45878628853766e-04
6.50300000000000e-08,1.79999999999966e-01,6.00000000000000e-01,6.35417347349579e-04
6.50700000000000e-08,4.19999999999920e-01,6.00000000000000e-01,1.11093673749912e-03
6.51000000000000e-08,5.99999999999966e-01,6.00000000000000e-01,1.14910915526481e-03
6.51080000000000e-08,6.00000000000000e-01,6.00000000000000e-01,9.31092420284010e-04
6.51240000000000e-08,6.00000000000000e-01,6.00000000000000e-01,4.02181896731427e-04
6.51560000000000e-08,6.00000000000000e-01,6.00000000000000e-01,-1.05288884196209e-03
6.52200000000000e-08,6.00000000000000e-01,6.00000000000000e-01,-3.90404631496698e-03
6.53480000000000e-08,6.00000000000000e-01,6.00000000000000e-01,-5.47510992550926e-03
6.56040000000000e-08,6.00000000000000e-01,6.00000000000000e-01,1.77808914707194e-01
6.61159999999999e-08,6.00000000000000e-01,6.00000000000000e-01,5.91415658752810e-01
6.70469175155881e-08,6.00000000000000e-01,6.00000000000000e-01,6.02198191039351e-01
6.81685590769108e-08,6.00000000000000e-01,6.00000000000000e-01,5.97831186924928e-01
6.98670957786207e-08,6.00000000000000e-01,6.00000000000000e-01,6.01768545334562e-01
7.01000000000000e-08,6.00000000000000e-01,6.00000000000000e-01,5.98767633436107e-01
7.01100000000000e-08,6.00000000000000e-01,5.40000000000011e-01,5.99237263871649e-01
7.01300000000000e-08,6.00000000000000e-01,4.20000000000034e-01,5.99804864645246e-01
7.01700000000000e-08,6.00000000000000e-01,1.80000000000080e-01,6.00027010603999e-01
7.02000000000000e-08,6.00000000000000e-01,3.44169137633799e-14,6.00035682038395e-01
7.02080000000000e-08,6.00000000000000e-01,0.00000000000000e+00,6.00028552455041e-01
7.02240000000000e-08,6.00000000000000e-01,0.00000000000000e+00,6.00009469819970e-01
7.02560000000000e-08,6.00000000000000e-01,0.00000000000000e+00,5.99981228560408e-01
7.03200000000000e-08,6.00000000000000e-01,0.00000000000000e+00,5.99942365823795e-01
7.04480000000000e-08,6.00000000000000e-01,0.00000000000000e+00,6.00002675887338e-01
7.07040000000000e-08,6.00000000000000e-01,0.00000000000000e+00,5.99982603407424e-01
7.10683614125498e-08,6.00000000000000e-01,0.00000000000000e+00,5.99974123110149e-01
7.16837142559440e-08,6.00000000000000e-01,0.00000000000000e+00,5.99985006350683e-01
7.29144199427324e-08,6.00000000000000e-01,0.00000000000000e+00,5.99976780945151e-01
7.51000000000000e-08,6.00000000000000e-01,0.00000000000000e+00,5.99989627313137e-01
7.51100000000000e-08,5.40000000000061e-01,0.00000000000000e+00,5.99865888856081e-01
7.51300000000000e-08,4.20000000000084e-01,0.00000000000000e+00,5.99743820454652e-01
7.51700000000000e-08,1.80000000000129e-01,0.00000000000000e+00,6.00752150101703e-01
7.52000000000000e-08,8.40438829641244e-14,0.00000000000000e+00,6.03553494261162e-01
7.52080000000000e-08,0.00000000000000e+00,0.00000000000000e+00,6.04313450113637e-01
7.52240000000000e-08,0.00000000000000e+00,0.00000000000000e+00,6.05187450686237e-01
7.52560000000000e-08,0.00000000000000e+00,0.00000000000000e+00,6.03682647740945e-01
7.53200000000000e-08,0.00000000000000e+00,0.00000000000000e+00,5.91652319386213e-01
7.54480000000000e-08,0.00000000000000e+00,0.00000000000000e+00,5.87680958345776e-01
7.56970659910260e-08,0.00000000000000e+00,0.00000000000000e+00,6.02181163372793e-01
7.60699990807449e-08,0.00000000000000e+00,0.00000000000000e+00,5.97249544272958e-01
7.66879958216457e-08,0.00000000000000e+00,0.00000000000000e+00,6.01619678618992e-01
7.76164982012772e-08,0.00000000000000e+00,0.00000000000000e+00,5.98129085045078e-01
7.81000000000000e-08,0.00000000000000e+00,0.00000000000000e+00,6.01210443893195e-01
7.82857004759263e-08,0.00000000000000e+00,0.00000000000000e+00,6.00018240409133e-01
7.86571014277789e-08,0.00000000000000e+00,0.00000000000000e+00,5.99749983182438e-01
7.93999033314841e-08,0.00000000000000e+00,0.00000000000000e+00,5.99990313421349e-01
8.08855071388944e-08,0.00000000000000e+00,0.00000000000000e+00,5.99813969965913e-01
8.38567147537151e-08,0.00000000000000e+00,0.00000000000000e+00,6.00020456979259e-01
8.50000000000000e-08,0.00000000000000e+00,0.00000000000000e+00,5.99848615724169e-01
8.50100000000000e-08,5.99999999999886e-02,0.00000000000000e+00,5.99984541617214e-01
8.50300000000000e-08,1.79999999999966e-01,0.00000000000000e+00,6.00127723513316e-01
8.50700000000000e-08,4.19999999999920e-01,0.00000000000000e+00,6.00087685895780e-01
8.51000000000000e-08,5.99999999999966e-01,0.00000000000000e+00,5.99919308877313e-01
8.51080000000000e-08,6.00000000000000e-01,0.00000000000000e+00,5.99815040663732e-01
8.51240000000000e-08,6.00000000000000e-01,0.00000000000000e+00,5.99693008732687e-01
8.51560000000000e-08,6.00000000000000e-01,0.00000000000000e+00,5.99642896110628e-01
8.52200000000000e-08,6.00000000000000e-01,0.00000000000000e+00,5.99734009206259e-01
8.53480000000000e-08,6.00000000000000e-01,0.00000000000000e+00,6.00014896004102e-01
8.56040000000000e-08,6.00000000000000e-01,0.00000000000000e+00,6.10279372548896e-01
8.61159999999999e-08,6.00000000000000e-01,0.00000000000000e+00,2.13678317489756e-01
8.68049672550494e-08,6.00000000000000e-01,0.00000000000000e+00,-6.56576899744517e-02
8.77282223713633e-08,6.00000000000000e-01,0.00000000000000e+00,5.23114920027967e-02
8.91678265894482e-08,6.00000000000000e-01,0.00000000000000e+00,-3.54461817034256e-02
9.00000000000000e-08,6.00000000000000e-01,0.00000000000000e+00,2.50222886116045e-02
9.00100000000000e-08,6.00000000000000e-01,5.99999999999886e-02,2.27927307174761e-02
9.00300000000000e-08,6.00000000000000e-01,1.79999999999966e-01,1.85248410432878e-02
9.00700000000000e-08,6.00000000000000e-01,4.19999999999920e-01,1.17523814751866e-02
9.01000000000000e-08,6.00000000000000e-01,5.99999999999966e-01,8.34842064541073e-03
9.01080000000000e-08,6.00000000000000e-01,6.00000000000000e-01,7.65320395723680e-03
9.01240000000000e-08,6.00000000000000e-01,6.00000000000000e-01,6.37464500130325e-03
9.01560000000000e-08,6.00000000000000e-01,6.00000000000000e-01,4.42454531464612e-03
9.02200000000000e-08,6.00000000000000e-01,6.00000000000000e-01,2.06581472692274e-03
9.03480000000000e-08,6.00000000000000e-01,6.00000000000000e-01,3.35094475270296e-04
9.06040000000000e-08,6.00000000000000e-01,6.00000000000000e-01,-5.09360824544960e-05
9.11159999999999e-08,6.00000000000000e-01,6.00000000000000e-01,4.08338989775769e-05
9.21399999999999e-08,6.00000000000000e-01,6.00000000000000e-01,-9.13457448670392e-06
9.41879999999998e-08,6.00000000000000e-01,6.00000000000000e-01,3.08463307101547e-05
9.51000000000000e-08,6.00000000000000e-01,6.00000000000000e-01,-1.17073525977493e-06
9.51100000000000e-08,5.40000000000061e-01,6.00000000000000e-01,-1.32405899523125e-04
9.51300000000000e-08,4.20000000000084e-01,6.00000000000000e-01,-3.24058467647215e-04
9.51700000000000e-08,1.80000000000129e-01,6.00000000000000e-01,-2.40658032085270e-04
9.52000000000000e-08,8.40438829641244e-14,6.00000000000000e-01,3.61140911065122e-04
9.52080000000000e-08,0.00000000000000e+00,6.00000000000000e-01,6.49338431993135e-04
9.52240000000000e-08,0.00000000000000e+00,6.00000000000000e-01,9.86775009045149e-04
9.52560000000000e-08,0.00000000000000e+00,6.00000000000000e-01,7.94030086943995e-04
9.53200000000000e-08,0.00000000000000e+00,6.00000000000000e-01,-9.46624486011294e-04
9.54480000000000e-08,0.00000000000000e+00,6.00000000000000e-01,-1.72528531997362e-03
9.57040000000000e-08,0.00000000000000e+00,6.00000000000000e-01,3.68410412100242e-04
9.60691860330014e-08,0.00000000000000e+00,6.00000000000000e-01,-3.33404596495529e-04
9.67515237532072e-08,0.00000000000000e+00,6.00000000000000e-01,2.83497679836306e-04
9.77009599165847e-08,0.00000000000000e+00,6.00000000000000e-01,-9.93185922597735e-05
9.89625528644444e-08,0.00000000000000e+00,6.00000000000000e-01,5.77192717044171e-05
1.01485738760164e-07,0.00000000000000e+00,6.00000000000000e-01,-9.34930863491501e-07
1.05000000000000e-07,0.00000000000000e+00,6.00000000000000e-01,1.55093329836540e-05
1.05010000000000e-07,5.99999999999886e-02,6.00000000000000e-01,2.45957836231006e-04
1.05030000000000e-07,1.79999999999966e-01,6.00000000000000e-01,6.35461360606923e-04
1.05070000000000e-07,4.19999999999920e-01,6.00000000000000e-01,1.11095403783906e-03
1.05100000000000e-07,5.99999999999966e-01,6.00000000000000e-01,1.14919475715779e-03
1.05108000000000e-07,6.00000000000000e-01,6.00000000000000e-01,9.31247590778672e-04
1.05124000000000e-07,6.00000000000000e-01,6.00000000000000e-01,4.02506152190091e-04
1.05156000000000e-07,6.00000000000000e-01,6.00000000000000e-01,-1.05235720441929e-03
1.05220000000000e-07,6.00000000000000e-01,6.00000000000000e-01,-3.90359755293866e-03
1.05348000000000e-07,6.00000000000000e-01,6.00000000000000e-01,-5.47554675304984e-03
1.05604000000000e-07,6.00000000000000e-01,6.00000000000000e-01,1.77791235529506e-01
1.06116000000000e-07,6.00000000000000e-01,6.00000000000000e-01,5.91411897063861e-01
1.07046982578976e-07,6.00000000000000e-01,6.00000000000000e-01,6.02199733799791e-01
1.08168592558729e-07,6.00000000000000e-01,6.00000000000000e-01,5.97829503021078e-01
1.09867201200993e-07,6.00000000000000e-01,6.00000000000000e-01,6.01770016589071e-01
1.10100000000000e-07,6.00000000000000e-01,6.00000000000000e-01,5.98766641437804e-01
1.10110000000000e-07,6.00000000000000e-01,5.40000000000091e-01,5.99236716839178e-01
1.10130000000000e-07,6.00000000000000e-01,4.20000000000114e-01,5.99804812869113e-01
1.10170000000000e-07,6.00000000000000e-01,1.80000000000159e-01,6.00027055384453e-01
