Time,v(clk),v(data),v(out)
1.00000000000000e-08,6.00000000000000e-01,0.00000000000000e+00,-5.34494456839486e-06
1.00100000000000e-08,6.00000000000000e-01,5.99999999999985e-02,-1.72615992024422e-06
1.00300000000000e-08,6.00000000000000e-01,1.79999999999996e-01,2.98719544439968e-06
1.00700000000000e-08,6.00000000000000e-01,4.19999999999990e-01,6.18040094967076e-06
1.01000000000000e-08,6.00000000000000e-01,5.99999999999995e-01,5.53103121671283e-06
1.01080000000000e-08,6.00000000000000e-01,6.00000000000000e-01,5.35664863589302e-06
1.01240000000000e-08,6.00000000000000e-01,6.00000000000000e-01,4.72370383178267e-06
1.01560000000000e-08,6.00000000000000e-01,6.00000000000000e-01,6.15847636800670e-06
1.02200000000000e-08,6.00000000000000e-01,6.00000000000000e-01,9.93342530487135e-06
1.03480000000000e-08,6.00000000000000e-01,6.00000000000000e-01,1.39822309217046e-05
1.06040000000000e-08,6.00000000000000e-01,6.00000000000000e-01,7.78024726723683e-06
1.11141742580260e-08,6.00000000000000e-01,6.00000000000000e-01,1.04854044623327e-05
1.21345227740781e-08,6.00000000000000e-01,6.00000000000000e-01,8.13269781539758e-06
1.41752198061822e-08,6.00000000000000e-01,6.00000000000000e-01,9.10908226841494e-06
1.51000000000000e-08,6.00000000000000e-01,6.00000000000000e-01,7.53069497675535e-06
1.51100000000000e-08,5.39999999999991e-01,6.00000000000000e-01,-3.62353385663927e-05
1.51300000000000e-08,4.19999999999994e-01,6.00000000000000e-01,-1.11846123129734e-04
1.51700000000000e-08,1.80000000000000e-01,6.00000000000000e-01,-1.63838012403557e-04
1.52000000000000e-08,0.00000000000000e+00,6.00000000000000e-01,-4.30688047672392e-05
1.52080000000000e-08,0.00000000000000e+00,6.00000000000000e-01,5.27103570050619e-05
1.52240000000000e-08,0.00000000000000e+00,6.00000000000000e-01,1.95860698748392e-04
1.52560000000000e-08,0.00000000000000e+00,6.00000000000000e-01,2.92980060162804e-04
1.53200000000000e-08,0.00000000000000e+00,6.00000000000000e-01,1.80909453350822e-04
1.54480000000000e-08,0.00000000000000e+00,6.00000000000000e-01,-1.50157637071206e-04
1.57040000000000e-08,0.00000000000000e+00,6.00000000000000e-01,-1.24903414488061e-04
1.62160000000000e-08,0.00000000000000e+00,6.00000000000000e-01,-9.87394993007089e-05
1.69953545433825e-08,0.00000000000000e+00,6.00000000000000e-01,1.21617876033886e-04
1.81339587594631e-08,0.00000000000000e+00,6.00000000000000e-01,2.45826662567455e-05
2.00329881179630e-08,0.00000000000000e+00,6.00000000000000e-01,-6.39982855518339e-05
2.29396951134158e-08,0.00000000000000e+00,6.00000000000000e-01,9.69526824432781e-05
2.50000000000000e-08,0.00000000000000e+00,6.00000000000000e-01,-1.06379619546657e-04
2.50100000000000e-08,5.99999999999886e-02,6.00000000000000e-01,-3.72036775037055e-06
2.50300000000000e-08,1.80000000000006e-01,6.00000000000000e-01,1.58682951100178e-04
2.50700000000000e-08,4.20000000000000e-01,6.00000000000000e-01,3.11561717929718e-04
2.51000000000000e-08,6.00000000000000e-01,6.00000000000000e-01,2.06150628525498e-04
2.51080000000000e-08,6.00000000000000e-01,6.00000000000000e-01,6.19711948652360e-05
2.51240000000000e-08,6.00000000000000e-01,6.00000000000000e-01,-3.36836946061007e-04
2.51560000000000e-08,6.00000000000000e-01,6.00000000000000e-01,-1.52052442213983e-03
2.52200000000000e-08,6.00000000000000e-01,6.00000000000000e-01,-3.70427188818079e-03
2.53480000000000e-08,6.00000000000000e-01,6.00000000000000e-01,2.16501322104566e-04
2.56040000000000e-08,6.00000000000000e-01,6.00000000000000e-01,2.28428772099546e-01
2.61160000000000e-08,6.00000000000000e-01,6.00000000000000e-01,6.02835587412887e-01
2.69401256768632e-08,6.00000000000000e-01,6.00000000000000e-01,5.96859329727835e-01
2.81591805859318e-08,6.00000000000000e-01,6.00000000000000e-01,6.03422089455564e-01
2.99341614994531e-08,6.00000000000000e-01,6.00000000000000e-01,5.96743865970617e-01
3.01000000000000e-08,6.00000000000000e-01,6.00000000000000e-01,6.02061158604342e-01
3.01100000000000e-08,6.00000000000000e-01,5.40000000000031e-01,6.01456989810283e-01
3.01300000000000e-08,6.00000000000000e-01,4.20000000000014e-01,6.00639421002434e-01
3.01700000000000e-08,6.00000000000000e-01,1.80000000000020e-01,6.00087590905157e-01
3.02000000000000e-08,6.00000000000000e-01,1.44328993201270e-14,6.00028266036629e-01
3.02080000000000e-08,6.00000000000000e-01,0.00000000000000e+00,6.00016415038887e-01
3.02240000000000e-08,6.00000000000000e-01,0.00000000000000e+00,5.99997078157890e-01
3.02560000000000e-08,6.00000000000000e-01,0.00000000000000e+00,5.99976472096151e-01
3.03200000000000e-08,6.00000000000000e-01,0.00000000000000e+00,5.99962078678069e-01
3.04480000000000e-08,6.00000000000000e-01,0.00000000000000e+00,5.99936281263412e-01
3.07040000000000e-08,6.00000000000000e-01,0.00000000000000e+00,5.99952030272205e-01
3.11410256760587e-08,6.00000000000000e-01,0.00000000000000e+00,5.99935701211426e-01
3.19643140597251e-08,6.00000000000000e-01,0.00000000000000e+00,5.99945169516619e-01
3.29185707190562e-08,6.00000000000000e-01,0.00000000000000e+00,5.99949414754607e-01
3.48270840377184e-08,6.00000000000000e-01,0.00000000000000e+00,5.99952785621659e-01
3.51000000000000e-08,5.99999999999970e-01,0.00000000000000e+00,5.99958899333892e-01
3.51100000000000e-08,5.39999999999982e-01,0.00000000000000e+00,5.99909764892505e-01
3.51300000000000e-08,4.19999999999965e-01,0.00000000000000e+00,5.99845634469018e-01
3.51700000000000e-08,1.79999999999970e-01,0.00000000000000e+00,6.00168705023019e-01
3.52000000000000e-08,0.00000000000000e+00,0.00000000000000e+00,6.01209771699500e-01
3.52080000000000e-08,0.00000000000000e+00,0.00000000000000e+00,6.01530507471976e-01
3.52240000000000e-08,0.00000000000000e+00,0.00000000000000e+00,6.01987742751758e-01
3.52560000000000e-08,0.00000000000000e+00,0.00000000000000e+00,6.02179467043964e-01
3.53200000000000e-08,0.00000000000000e+00,0.00000000000000e+00,5.99842786430484e-01
3.54480000000000e-08,0.00000000000000e+00,0.00000000000000e+00,5.83331741325716e-01
3.57040000000000e-08,0.00000000000000e+00,0.00000000000000e+00,5.79228245633482e-01
3.61600695379421e-08,0.00000000000000e+00,0.00000000000000e+00,6.02606292679357e-01
3.67643314881621e-08,0.00000000000000e+00,0.00000000000000e+00,5.96470338712420e-01
3.79728553886022e-08,0.00000000000000e+00,0.00000000000000e+00,6.01846078968247e-01
3.91000000000000e-08,0.00000000000000e+00,0.00000000000000e+00,5.97745930061282e-01
3.92341414918341e-08,0.00000000000000e+00,0.00000000000000e+00,5.99114628485956e-01
3.95024244755022e-08,0.00000000000000e+00,0.00000000000000e+00,5.99916300930942e-01
4.00389904428384e-08,0.00000000000000e+00,0.00000000000000e+00,5.99551162979935e-01
4.11121223775108e-08,0.00000000000000e+00,0.00000000000000e+00,5.99868223617738e-01
4.32583862468555e-08,0.00000000000000e+00,0.00000000000000e+00,5.99671320481010e-01
4.50000000000000e-08,0.00000000000000e+00,0.00000000000000e+00,5.99902090918560e-01
4.50100000000000e-08,5.99999999999886e-02,0.00000000000000e+00,5.99933095561932e-01
4.50300000000000e-08,1.80000000000006e-01,0.00000000000000e+00,5.99967631170577e-01
4.50700000000000e-08,4.20000000000000e-01,0.00000000000000e+00,5.99932699920905e-01
4.51000000000000e-08,6.00000000000000e-01,0.00000000000000e+00,5.99826261995031e-01
4.51080000000000e-08,6.00000000000000e-01,0.00000000000000e+00,5.99775871014531e-01
4.51240000000000e-08,6.00000000000000e-01,0.00000000000000e+00,5.99698137262710e-01
4.51560000000000e-08,6.00000000000000e-01,0.00000000000000e+00,5.99631657386011e-01
4.52200000000000e-08,6.00000000000000e-01,0.00000000000000e+00,5.99611064962613e-01
4.53480000000000e-08,6.00000000000000e-01,0.00000000000000e+00,6.00059049904429e-01
4.56040000000000e-08,6.00000000000000e-01,0.00000000000000e+00,6.07568872030433e-01
4.61160000000000e-08,6.00000000000000e-01,0.00000000000000e+00,1.87629388045995e-01
4.68891514702512e-08,6.00000000000000e-01,0.00000000000000e+00,-7.12982086563001e-02
4.77501776598278e-08,6.00000000000000e-01,0.00000000000000e+00,6.22640892827696e-02
4.94073485015620e-08,6.00000000000000e-01,0.00000000000000e+00,-4.32095000153989e-02
5.00000000000000e-08,6.00000000000000e-01,0.00000000000000e+00,2.94537181636999e-02
5.00100000000000e-08,6.00000000000000e-01,5.99999999999886e-02,2.62830308209474e-02
5.00300000000000e-08,6.00000000000000e-01,1.79999999999966e-01,2.04215118726922e-02
5.00700000000000e-08,6.00000000000000e-01,4.20000000000000e-01,1.17660888860210e-02
5.01000000000000e-08,6.00000000000000e-01,6.00000000000000e-01,7.75621943943434e-03
5.01080000000000e-08,6.00000000000000e-01,6.00000000000000e-01,6.98358718356407e-03
5.01240000000000e-08,6.00000000000000e-01,6.00000000000000e-01,5.58103897224273e-03
5.01560000000000e-08,6.00000000000000e-01,6.00000000000000e-01,3.55992531518845e-03
5.02200000000000e-08,6.00000000000000e-01,6.00000000000000e-01,1.36271927910863e-03
5.03480000000000e-08,6.00000000000000e-01,6.00000000000000e-01,8.40116177503562e-05
5.06040000000000e-08,6.00000000000000e-01,6.00000000000000e-01,-1.93508952628166e-05
5.11160000000001e-08,6.00000000000000e-01,6.00000000000000e-01,1.45663393415797e-05
5.21400000000002e-08,6.00000000000000e-01,6.00000000000000e-01,-7.34707842955668e-06
5.41880000000003e-08,6.00000000000000e-01,6.00000000000000e-01,1.28589821086740e-05
5.51000000000000e-08,6.00000000000000e-01,6.00000000000000e-01,-3.38517131939775e-06
5.51100000000000e-08,5.40000000000021e-01,6.00000000000000e-01,-4.54669399287816e-05
5.51300000000000e-08,4.20000000000004e-01,6.00000000000000e-01,-1.18883322192717e-04
5.51700000000000e-08,1.80000000000010e-01,6.00000000000000e-01,-1.62429768098486e-04
5.52000000000000e-08,0.00000000000000e+00,6.00000000000000e-01,-4.75546351679443e-05
5.52080000000000e-08,0.00000000000000e+00,6.00000000000000e-01,4.67095936564077e-05
5.52240000000000e-08,0.00000000000000e+00,6.00000000000000e-01,1.84313206285799e-04
5.52560000000000e-08,0.00000000000000e+00,6.00000000000000e-01,2.61276671165094e-04
5.53200000000000e-08,0.00000000000000e+00,6.00000000000000e-01,7.07690250116993e-05
5.54480000000000e-08,0.00000000000000e+00,6.00000000000000e-01,-9.82468275222269e-04
5.57040000000000e-08,0.00000000000000e+00,6.00000000000000e-01,-5.26797934877022e-04
5.61844257135653e-08,0.00000000000000e+00,6.00000000000000e-01,1.88221002334685e-04
5.69783171610004e-08,0.00000000000000e+00,6.00000000000000e-01,-1.19271080458361e-04
5.80533871142258e-08,0.00000000000000e+00,6.00000000000000e-01,2.43331691405484e-04
5.99717683737692e-08,0.00000000000000e+00,6.00000000000000e-01,-2.65237004541082e-04
6.27722241209279e-08,0.00000000000000e+00,6.00000000000000e-01,2.87407170887600e-04
6.50000000000000e-08,0.00000000000000e+00,6.00000000000000e-01,-2.86132461198483e-04
6.50100000000000e-08,5.99999999999886e-02,6.00000000000000e-01,-1.32998378996989e-04
6.50300000000000e-08,1.79999999999966e-01,6.00000000000000e-01,9.20874957832871e-05
6.50700000000000e-08,4.19999999999920e-01,6.00000000000000e-01,2.82026987164091e-04
6.51000000000000e-08,5.99999999999966e-01,6.00000000000000e-01,1.98114365979697e-04
6.51080000000000e-08,6.00000000000000e-01,6.00000000000000e-01,6.03236085193887e-05
6.51240000000000e-08,6.00000000000000e-01,6.00000000000000e-01,-3.25572797641970e-04
6.51560000000000e-08,6.00000000000000e-01,6.00000000000000e-01,-1.49428217173318e-03
6.52200000000000e-08,6.00000000000000e-01,6.00000000000000e-01,-3.68378221249840e-03
6.53480000000000e-08,6.00000000000000e-01,6.00000000000000e-01,1.04644926528799e-04
6.56040000000000e-08,6.00000000000000e-01,6.00000000000000e-01,2.27574686131735e-01
6.61159999999999e-08,6.00000000000000e-01,6.00000000000000e-01,6.02617977214475e-01
6.69416300316012e-08,6.00000000000000e-01,6.00000000000000e-01,5.96978638921490e-01
6.81600851239965e-08,6.00000000000000e-01,6.00000000000000e-01,6.03302645786755e-01
6.99367397843094e-08,6.00000000000000e-01,6.00000000000000e-01,5.96848488238565e-01
7.01000000000000e-08,6.00000000000000e-01,6.00000000000000e-01,6.01991328293710e-01
7.01100000000000e-08,6.00000000000000e-01,5.40000000000011e-01,6.01408109155345e-01
7.01300000000000e-08,6.00000000000000e-01,4.20000000000034e-01,6.00618511929231e-01
7.01700000000000e-08,6.00000000000000e-01,1.80000000000080e-01,6.00086458275474e-01
7.02000000000000e-08,6.00000000000000e-01,3.44169137633799e-14,6.00029170770116e-01
7.02080000000000e-08,6.00000000000000e-01,0.00000000000000e+00,6.00017515671294e-01
7.02240000000000e-08,6.00000000000000e-01,0.00000000000000e+00,5.99998449079695e-01
7.02560000000000e-08,6.00000000000000e-01,0.00000000000000e+00,5.99978117524558e-01
7.03200000000000e-08,6.00000000000000e-01,0.00000000000000e+00,5.99963211424335e-01
7.04480000000000e-08,6.00000000000000e-01,0.00000000000000e+00,5.99936993083536e-01
7.07040000000000e-08,6.00000000000000e-01,0.00000000000000e+00,5.99951489952157e-01
7.11409746976245e-08,6.00000000000000e-01,0.00000000000000e+00,5.99936251420522e-01
7.19642985408628e-08,6.00000000000000e-01,0.00000000000000e+00,5.99944732358355e-01
7.29183279618575e-08,6.00000000000000e-01,0.00000000000000e+00,5.99949879575338e-01
7.48263868038469e-08,6.00000000000000e-01,0.00000000000000e+00,5.99952381605604e-01
7.51000000000000e-08,6.00000000000000e-01,0.00000000000000e+00,5.99959198395550e-01
7.51100000000000e-08,5.40000000000061e-01,0.00000000000000e+00,5.99909935631882e-01
7.51300000000000e-08,4.20000000000084e-01,0.00000000000000e+00,5.99845664503648e-01
7.51700000000000e-08,1.80000000000129e-01,0.00000000000000e+00,6.00168697213012e-01
7.52000000000000e-08,8.40438829641244e-14,0.00000000000000e+00,6.01209782616609e-01
7.52080000000000e-08,0.00000000000000e+00,0.00000000000000e+00,6.01530512491536e-01
7.52240000000000e-08,0.00000000000000e+00,0.00000000000000e+00,6.01987814964448e-01
7.52560000000000e-08,0.00000000000000e+00,0.00000000000000e+00,6.02179713915456e-01
7.53200000000000e-08,0.00000000000000e+00,0.00000000000000e+00,5.99843619547682e-01
7.54480000000000e-08,0.00000000000000e+00,0.00000000000000e+00,5.83333698362717e-01
7.57040000000000e-08,0.00000000000000e+00,0.00000000000000e+00,5.79228518924266e-01
7.61600701764674e-08,0.00000000000000e+00,0.00000000000000e+00,6.02605837820393e-01
7.67643321713407e-08,0.00000000000000e+00,0.00000000000000e+00,5.96470712553614e-01
7.79728561610873e-08,0.00000000000000e+00,0.00000000000000e+00,6.01845786648151e-01
7.81000000000000e-08,0.00000000000000e+00,0.00000000000000e+00,5.99352030343980e-01
7.82341415370503e-08,0.00000000000000e+00,0.00000000000000e+00,5.99511643128000e-01
7.85024246111509e-08,0.00000000000000e+00,0.00000000000000e+00,5.99630674937388e-01
7.90389907593522e-08,0.00000000000000e+00,0.00000000000000e+00,5.99639480571316e-01
8.01121230557546e-08,0.00000000000000e+00,0.00000000000000e+00,5.99718100148767e-01
8.22583876485595e-08,0.00000000000000e+00,0.00000000000000e+00,5.99761850722263e-01
8.50000000000000e-08,0.00000000000000e+00,0.00000000000000e+00,5.99809922314374e-01
8.50100000000000e-08,5.99999999999886e-02,0.00000000000000e+00,5.99849677376039e-01
8.50300000000000e-08,1.79999999999966e-01,0.00000000000000e+00,5.99901533110426e-01
8.50700000000000e-08,4.19999999999920e-01,0.00000000000000e+00,5.99898120852415e-01
8.51000000000000e-08,5.99999999999966e-01,0.00000000000000e+00,5.99806689416482e-01
8.51080000000000e-08,6.00000000000000e-01,0.00000000000000e+00,5.99757365243463e-01
8.51240000000000e-08,6.00000000000000e-01,0.00000000000000e+00,5.99681758086177e-01
8.51560000000000e-08,6.00000000000000e-01,0.00000000000000e+00,5.99622208222808e-01
8.52200000000000e-08,6.00000000000000e-01,0.00000000000000e+00,5.99615776516480e-01
8.53480000000000e-08,6.00000000000000e-01,0.00000000000000e+00,6.00067067438011e-01
8.56040000000000e-08,6.00000000000000e-01,0.00000000000000e+00,6.07564125333493e-01
8.61159999999999e-08,6.00000000000000e-01,0.00000000000000e+00,1.87639500907232e-01
8.68899130322139e-08,6.00000000000000e-01,0.00000000000000e+00,-7.13348250640749e-02
8.77507269911186e-08,6.00000000000000e-01,0.00000000000000e+00,6.22968722382654e-02
8.94088603577703e-08,6.00000000000000e-01,0.00000000000000e+00,-4.32327282963402e-02
9.00000000000000e-08,6.00000000000000e-01,0.00000000000000e+00,2.94309367725680e-02
9.00100000000000e-08,6.00000000000000e-01,5.99999999999886e-02,2.62630730095318e-02
9.00300000000000e-08,6.00000000000000e-01,1.79999999999966e-01,2.04061350357311e-02
9.00700000000000e-08,6.00000000000000e-01,4.19999999999920e-01,1.17570498932920e-02
9.01000000000000e-08,6.00000000000000e-01,5.99999999999966e-01,7.75022053896714e-03
9.01080000000000e-08,6.00000000000000e-01,6.00000000000000e-01,6.97817803929537e-03
9.01240000000000e-08,6.00000000000000e-01,6.00000000000000e-01,5.57670299808632e-03
9.01560000000000e-08,6.00000000000000e-01,6.00000000000000e-01,3.55714774300155e-03
9.02200000000000e-08,6.00000000000000e-01,6.00000000000000e-01,1.36165163125098e-03
9.03480000000000e-08,6.00000000000000e-01,6.00000000000000e-01,8.39478039422366e-05
9.06040000000000e-08,6.00000000000000e-01,6.00000000000000e-01,-1.93319517183058e-05
9.11159999999999e-08,6.00000000000000e-01,6.00000000000000e-01,1.45594704956363e-05
9.21399999999999e-08,6.00000000000000e-01,6.00000000000000e-01,-7.33843999786449e-06
9.41879999999998e-08,6.00000000000000e-01,6.00000000000000e-01,1.28530256161778e-05
9.51000000000000e-08,6.00000000000000e-01,6.00000000000000e-01,-3.37935160162148e-06
9.51100000000000e-08,5.40000000000061e-01,6.00000000000000e-01,-4.54627618860781e-05
9.51300000000000e-08,4.20000000000084e-01,6.00000000000000e-01,-1.18880890076743e-04
9.51700000000000e-08,1.80000000000129e-01,6.00000000000000e-01,-1.62428773934485e-04
9.52000000000000e-08,8.40438829641244e-14,6.00000000000000e-01,-4.75534449530454e-05
9.52080000000000e-08,0.00000000000000e+00,6.00000000000000e-01,4.67109662485657e-05
9.52240000000000e-08,0.00000000000000e+00,6.00000000000000e-01,1.84315347085171e-04
9.52560000000000e-08,0.00000000000000e+00,6.00000000000000e-01,2.61282829457005e-04
9.53200000000000e-08,0.00000000000000e+00,6.00000000000000e-01,7.08013983110670e-05
9.54480000000000e-08,0.00000000000000e+00,6.00000000000000e-01,-9.82272691459479e-04
9.57040000000000e-08,0.00000000000000e+00,6.00000000000000e-01,-5.26649970165667e-04
9.61844663881104e-08,0.00000000000000e+00,6.00000000000000e-01,1.88172991821370e-04
9.69783353643435e-08,0.00000000000000e+00,6.00000000000000e-01,-1.19236429160524e-04
9.80534856668629e-08,0.00000000000000e+00,6.00000000000000e-01,2.43293195317639e-04
9.99718379649914e-08,0.00000000000000e+00,6.00000000000000e-01,-2.65203323400523e-04
1.02772424493427e-07,0.00000000000000e+00,6.00000000000000e-01,2.87376525328723e-04
1.05000000000000e-07,0.00000000000000e+00,6.00000000000000e-01,-2.86105597358043e-04
1.05010000000000e-07,5.99999999999886e-02,6.00000000000000e-01,-1.32975321021009e-04
1.05030000000000e-07,1.79999999999966e-01,6.00000000000000e-01,9.21052035294870e-05
1.05070000000000e-07,4.19999999999920e-01,6.00000000000000e-01,2.82039606103832e-04
1.05100000000000e-07,5.99999999999966e-01,6.00000000000000e-01,1.98114894995161e-04
1.05108000000000e-07,6.00000000000000e-01,6.00000000000000e-01,6.03164950276278e-05
1.05124000000000e-07,6.00000000000000e-01,6.00000000000000e-01,-3.25595931571512e-04
1.05156000000000e-07,6.00000000000000e-01,6.00000000000000e-01,-1.49432350590218e-03
1.05220000000000e-07,6.00000000000000e-01,6.00000000000000e-01,-3.68381197127939e-03
1.05348000000000e-07,6.00000000000000e-01,6.00000000000000e-01,1.04819663720841e-04
1.05604000000000e-07,6.00000000000000e-01,6.00000000000000e-01,2.27576023387077e-01
1.06116000000000e-07,6.00000000000000e-01,6.00000000000000e-01,6.02618318946288e-01
1.06941627662835e-07,6.00000000000000e-01,6.00000000000000e-01,5.96978451662557e-01
1.08160083704872e-07,6.00000000000000e-01,6.00000000000000e-01,6.03302833119296e-01
1.09936735719452e-07,6.00000000000000e-01,6.00000000000000e-01,5.96848324199008e-01
1.10100000000000e-07,6.00000000000000e-01,6.00000000000000e-01,6.01991437216587e-01
1.10110000000000e-07,6.00000000000000e-01,5.40000000000091e-01,6.01408185395747e-01
