Time,v(clk),v(data),v(out),v(reset)
1.00000000000000e-08,7.50000000000000e-01,0.00000000000000e+00,2.44927085571280e-05,0.00000000000000e+00
1.00100000000000e-08,7.50000000000000e-01,7.49999999999982e-02,2.24306823353448e-05,0.00000000000000e+00
1.00300000000000e-08,7.50000000000000e-01,2.24999999999995e-01,1.98055943467779e-05,0.00000000000000e+00
1.00700000000000e-08,7.50000000000000e-01,5.24999999999987e-01,1.57896759424708e-05,0.00000000000000e+00
1.01000000000000e-08,7.50000000000000e-01,7.49999999999994e-01,1.58513735798727e-05,0.00000000000000e+00
1.01080000000000e-08,7.50000000000000e-01,7.50000000000000e-01,1.57351277151885e-05,0.00000000000000e+00
1.01240000000000e-08,7.50000000000000e-01,7.50000000000000e-01,1.65592864528746e-05,0.00000000000000e+00
1.01560000000000e-08,7.50000000000000e-01,7.50000000000000e-01,1.68275590038541e-05,0.00000000000000e+00
1.02200000000000e-08,7.50000000000000e-01,7.50000000000000e-01,1.51413061601977e-05,0.00000000000000e+00
1.03480000000000e-08,7.50000000000000e-01,7.50000000000000e-01,1.65890535794300e-05,0.00000000000000e+00
1.06040000000000e-08,7.50000000000000e-01,7.50000000000000e-01,1.59711396758612e-05,0.00000000000000e+00
1.11160000000000e-08,7.50000000000000e-01,7.50000000000000e-01,1.58708871806253e-05,0.00000000000000e+00
1.21400000000000e-08,7.50000000000000e-01,7.50000000000000e-01,1.52674980509870e-05,0.00000000000000e+00
1.41880000000000e-08,7.50000000000000e-01,7.50000000000000e-01,1.50353864704117e-05,0.00000000000000e+00
1.51000000000000e-08,7.50000000000000e-01,7.50000000000000e-01,1.45931719938222e-05,0.00000000000000e+00
1.51100000000000e-08,6.74999999999989e-01,7.50000000000000e-01,2.39533049232438e-04,7.50000000000106e-02
1.51300000000000e-08,5.24999999999993e-01,7.50000000000000e-01,3.51943599658650e-04,2.25000000000007e-01
1.51700000000000e-08,2.25000000000000e-01,7.50000000000000e-01,2.73388005382375e-04,5.25000000000000e-01
1.52000000000000e-08,0.00000000000000e+00,7.50000000000000e-01,4.15589205712052e-04,7.50000000000000e-01
1.52080000000000e-08,0.00000000000000e+00,7.50000000000000e-01,3.33716101185891e-04,7.50000000000000e-01
1.52240000000000e-08,0.00000000000000e+00,7.50000000000000e-01,1.47197921306894e-04,7.50000000000000e-01
1.52560000000000e-08,0.00000000000000e+00,7.50000000000000e-01,-3.11726647635263e-04,7.50000000000000e-01
1.53200000000000e-08,0.00000000000000e+00,7.50000000000000e-01,-6.20288849862920e-04,7.50000000000000e-01
1.54480000000000e-08,0.00000000000000e+00,7.50000000000000e-01,1.29604983596418e-04,7.50000000000000e-01
1.56484230497368e-08,0.00000000000000e+00,7.50000000000000e-01,-2.76746800667218e-04,7.50000000000000e-01
1.59625854926743e-08,0.00000000000000e+00,7.50000000000000e-01,3.30689050396172e-04,7.50000000000000e-01
1.64940729495609e-08,0.00000000000000e+00,7.50000000000000e-01,-1.86342886307386e-04,7.50000000000000e-01
1.70447924531990e-08,0.00000000000000e+00,7.50000000000000e-01,1.37294687950011e-04,7.50000000000000e-01
1.81462314604751e-08,0.00000000000000e+00,7.50000000000000e-01,-8.08567405392183e-05,7.50000000000000e-01
2.03491094750274e-08,0.00000000000000e+00,7.50000000000000e-01,9.46332189442271e-05,7.50000000000000e-01
2.41491094750274e-08,0.00000000000000e+00,7.50000000000000e-01,-6.06711470746064e-05,7.50000000000000e-01
2.50000000000000e-08,0.00000000000000e+00,7.50000000000000e-01,5.96276996788457e-05,7.50000000000000e-01
2.50100000000000e-08,7.49999999999858e-02,7.50000000000000e-01,2.41499294983835e-04,7.50000000000000e-01
2.50300000000000e-08,2.25000000000007e-01,7.50000000000000e-01,4.56357135444785e-04,7.50000000000000e-01
2.50700000000000e-08,5.25000000000000e-01,7.50000000000000e-01,3.73406853913613e-04,7.50000000000000e-01
2.51000000000000e-08,7.50000000000000e-01,7.50000000000000e-01,-1.42160813248375e-03,7.50000000000000e-01
2.51080000000000e-08,7.50000000000000e-01,7.50000000000000e-01,-2.40373208167492e-03,7.50000000000000e-01
2.51240000000000e-08,7.50000000000000e-01,7.50000000000000e-01,-4.19039965221622e-03,7.50000000000000e-01
2.51560000000000e-08,7.50000000000000e-01,7.50000000000000e-01,-6.08365639747099e-03,7.50000000000000e-01
2.52200000000000e-08,7.50000000000000e-01,7.50000000000000e-01,2.29023053976108e-02,7.50000000000000e-01
2.53480000000000e-08,7.50000000000000e-01,7.50000000000000e-01,4.78083969721707e-01,7.50000000000000e-01
2.56040000000000e-08,7.50000000000000e-01,7.50000000000000e-01,7.75102758873210e-01,7.50000000000000e-01
2.58793455206304e-08,7.50000000000000e-01,7.50000000000000e-01,7.29532495609109e-01,7.50000000000000e-01
2.64300365618913e-08,7.50000000000000e-01,7.50000000000000e-01,7.69215056330887e-01,7.50000000000000e-01
2.70810473201344e-08,7.50000000000000e-01,7.50000000000000e-01,7.31345037256689e-01,7.50000000000000e-01
2.82047474789652e-08,7.50000000000000e-01,7.50000000000000e-01,7.67722994088513e-01,7.50000000000000e-01
3.04521477966267e-08,7.50000000000000e-01,7.50000000000000e-01,7.32125330926911e-01,7.50000000000000e-01
3.42521477966267e-08,7.50000000000000e-01,7.50000000000000e-01,7.67326129750279e-01,7.50000000000000e-01
3.51000000000000e-08,7.49999999999963e-01,7.50000000000000e-01,7.32926926703243e-01,7.50000000000000e-01
3.51100000000000e-08,6.74999999999977e-01,7.50000000000000e-01,7.41988903292964e-01,7.50000000000000e-01
3.51300000000000e-08,5.24999999999956e-01,7.50000000000000e-01,7.50452644984732e-01,7.50000000000000e-01
3.51700000000000e-08,2.24999999999963e-01,7.50000000000000e-01,7.51215819746738e-01,7.50000000000000e-01
3.52000000000000e-08,0.00000000000000e+00,7.50000000000000e-01,7.53976115938657e-01,7.50000000000000e-01
3.52080000000000e-08,0.00000000000000e+00,7.50000000000000e-01,7.53644816098267e-01,7.50000000000000e-01
3.52240000000000e-08,0.00000000000000e+00,7.50000000000000e-01,7.50053930654233e-01,7.50000000000000e-01
3.52560000000000e-08,0.00000000000000e+00,7.50000000000000e-01,7.35500263799095e-01,7.50000000000000e-01
3.53200000000000e-08,0.00000000000000e+00,7.50000000000000e-01,7.30037522034808e-01,7.50000000000000e-01
3.54480000000000e-08,0.00000000000000e+00,7.50000000000000e-01,7.50719845258564e-01,7.50000000000000e-01
3.56671800849664e-08,0.00000000000000e+00,7.50000000000000e-01,7.48035214172308e-01,7.50000000000000e-01
3.59625657566609e-08,0.00000000000000e+00,7.50000000000000e-01,7.50817439119205e-01,7.50000000000000e-01
3.65533371000499e-08,0.00000000000000e+00,7.50000000000000e-01,7.48709040268295e-01,7.50000000000000e-01
3.77348797868278e-08,0.00000000000000e+00,7.50000000000000e-01,7.50888149363381e-01,7.50000000000000e-01
4.00979651603837e-08,0.00000000000000e+00,7.50000000000000e-01,7.48896334059027e-01,7.50000000000000e-01
4.38979651603837e-08,0.00000000000000e+00,7.50000000000000e-01,7.50896963143798e-01,7.50000000000000e-01
4.50000000000000e-08,0.00000000000000e+00,7.50000000000000e-01,7.48969686774541e-01,7.50000000000000e-01
4.50100000000000e-08,7.49999999999858e-02,7.50000000000000e-01,7.49199703070039e-01,6.75000000000014e-01
4.50300000000000e-08,2.25000000000007e-01,7.50000000000000e-01,7.49574349575396e-01,5.24999999999993e-01
4.50700000000000e-08,5.25000000000000e-01,7.50000000000000e-01,7.54729843060369e-01,2.25000000000000e-01
4.51000000000000e-08,7.50000000000000e-01,7.50000000000000e-01,7.67125456800310e-01,0.00000000000000e+00
4.51080000000000e-08,7.50000000000000e-01,7.50000000000000e-01,7.71727126515737e-01,0.00000000000000e+00
4.51240000000000e-08,7.50000000000000e-01,7.50000000000000e-01,7.81006566422993e-01,0.00000000000000e+00
4.51560000000000e-08,7.50000000000000e-01,7.50000000000000e-01,7.46166262086475e-01,0.00000000000000e+00
4.52200000000000e-08,7.50000000000000e-01,7.50000000000000e-01,4.34660301893101e-01,0.00000000000000e+00
4.53480000000000e-08,7.50000000000000e-01,7.50000000000000e-01,2.36187859925941e-02,0.00000000000000e+00
4.55246330294960e-08,7.50000000000000e-01,7.50000000000000e-01,-6.22070194454861e-03,0.00000000000000e+00
4.58206258125079e-08,7.50000000000000e-01,7.50000000000000e-01,2.45869882470031e-03,0.00000000000000e+00
4.62465069422249e-08,7.50000000000000e-01,7.50000000000000e-01,-8.35101181520154e-04,0.00000000000000e+00
4.70618145332902e-08,7.50000000000000e-01,7.50000000000000e-01,2.79133733718555e-04,0.00000000000000e+00
4.85118051165847e-08,7.50000000000000e-01,7.50000000000000e-01,3.12858402259052e-05,0.00000000000000e+00
5.01000000000000e-08,7.50000000000000e-01,7.49999999999957e-01,-2.26504973276690e-04,0.00000000000000e+00
5.03899981166589e-08,7.50000000000000e-01,7.50000000000000e-01,2.76440809942997e-04,0.00000000000000e+00
5.09699943499767e-08,7.50000000000000e-01,7.50000000000000e-01,-1.74759710389303e-04,0.00000000000000e+00
5.21299868166123e-08,7.50000000000000e-01,7.50000000000000e-01,1.69593976420493e-04,0.00000000000000e+00
5.44499717498835e-08,7.50000000000000e-01,7.50000000000000e-01,-1.29973230018354e-04,0.00000000000000e+00
5.51000000000000e-08,7.50000000000000e-01,7.50000000000000e-01,1.17410411717245e-04,0.00000000000000e+00
5.51100000000000e-08,6.75000000000027e-01,7.50000000000000e-01,3.42678567310850e-04,7.49999999999734e-02
5.51300000000000e-08,5.25000000000005e-01,7.50000000000000e-01,4.25743047747840e-04,2.24999999999995e-01
5.51700000000000e-08,2.25000000000013e-01,7.50000000000000e-01,2.89659452529026e-04,5.24999999999987e-01
5.52000000000000e-08,0.00000000000000e+00,7.50000000000000e-01,4.05185121272481e-04,7.50000000000000e-01
5.52080000000000e-08,0.00000000000000e+00,7.50000000000000e-01,2.84821304105246e-04,7.50000000000000e-01
5.52240000000000e-08,0.00000000000000e+00,7.50000000000000e-01,-1.07182903759842e-04,7.50000000000000e-01
5.52560000000000e-08,0.00000000000000e+00,7.50000000000000e-01,-1.20093380577437e-03,7.50000000000000e-01
5.53200000000000e-08,0.00000000000000e+00,7.50000000000000e-01,-1.41053635662652e-03,7.50000000000000e-01
5.54479451724273e-08,0.00000000000000e+00,7.50000000000000e-01,4.39439181210421e-04,7.50000000000000e-01
5.56478026426286e-08,0.00000000000000e+00,7.50000000000000e-01,-4.04025698361760e-04,7.50000000000000e-01
5.59648057548687e-08,0.00000000000000e+00,7.50000000000000e-01,3.14317695413791e-04,7.50000000000000e-01
5.64994661800749e-08,0.00000000000000e+00,7.50000000000000e-01,-1.68005715175924e-04,7.50000000000000e-01
5.70542031145509e-08,0.00000000000000e+00,7.50000000000000e-01,1.17878179401031e-04,7.50000000000000e-01
5.81636769835031e-08,0.00000000000000e+00,7.50000000000000e-01,-6.17398118197979e-05,7.50000000000000e-01
6.03826247214073e-08,0.00000000000000e+00,7.50000000000000e-01,7.60887396024923e-05,7.50000000000000e-01
6.41826247214073e-08,0.00000000000000e+00,7.50000000000000e-01,-4.22179239161209e-05,7.50000000000000e-01
6.50000000000000e-08,0.00000000000000e+00,7.50000000000000e-01,4.16880171564514e-05,7.50000000000000e-01
6.50100000000000e-08,7.49999999999858e-02,7.50000000000000e-01,2.14269495453515e-04,7.50000000000000e-01
6.50300000000000e-08,2.24999999999957e-01,7.50000000000000e-01,4.40029897932404e-04,7.50000000000000e-01
6.50700000000000e-08,5.24999999999900e-01,7.50000000000000e-01,3.68051511935301e-04,7.50000000000000e-01
6.51000000000000e-08,7.49999999999957e-01,7.50000000000000e-01,-1.44489231165276e-03,7.50000000000000e-01
6.51080000000000e-08,7.50000000000000e-01,7.50000000000000e-01,-2.42584989930525e-03,7.50000000000000e-01
6.51240000000000e-08,7.50000000000000e-01,7.50000000000000e-01,-4.20872332998204e-03,7.50000000000000e-01
6.51560000000000e-08,7.50000000000000e-01,7.50000000000000e-01,-6.08046141396942e-03,7.50000000000000e-01
6.52200000000000e-08,7.50000000000000e-01,7.50000000000000e-01,2.32540199342304e-02,7.50000000000000e-01
6.53480000000000e-08,7.50000000000000e-01,7.50000000000000e-01,4.79309782828310e-01,7.50000000000000e-01
6.56040000000000e-08,7.50000000000000e-01,7.50000000000000e-01,7.75171415111787e-01,7.50000000000000e-01
6.58790336160802e-08,7.50000000000000e-01,7.50000000000000e-01,7.29465580913764e-01,7.50000000000000e-01
6.64291008482406e-08,7.50000000000000e-01,7.50000000000000e-01,7.69269248879723e-01,7.50000000000000e-01
6.70803037971461e-08,7.50000000000000e-01,7.50000000000000e-01,7.31287933665881e-01,7.50000000000000e-01
6.82045013508801e-08,7.50000000000000e-01,7.50000000000000e-01,7.67773122514931e-01,7.50000000000000e-01
7.04528964583480e-08,7.50000000000000e-01,7.50000000000000e-01,7.32070964977302e-01,7.50000000000000e-01
7.42528964583480e-08,7.50000000000000e-01,7.50000000000000e-01,7.67375157064941e-01,7.50000000000000e-01
7.51000000000000e-08,7.50000000000000e-01,7.50000000000000e-01,7.32876593411592e-01,7.50000000000000e-01
7.51100000000000e-08,6.75000000000076e-01,7.50000000000000e-01,7.41964336146337e-01,7.50000000000000e-01
7.51300000000000e-08,5.25000000000105e-01,7.50000000000000e-01,7.50453339565561e-01,7.50000000000000e-01
7.51700000000000e-08,2.25000000000162e-01,7.50000000000000e-01,7.51215439084190e-01,7.50000000000000e-01
7.52000000000000e-08,1.05027098129540e-13,7.50000000000000e-01,7.53975915644397e-01,7.50000000000000e-01
7.52080000000000e-08,0.00000000000000e+00,7.50000000000000e-01,7.53644410629942e-01,7.50000000000000e-01
7.52240000000000e-08,0.00000000000000e+00,7.50000000000000e-01,7.50053008389605e-01,7.50000000000000e-01
7.52560000000000e-08,0.00000000000000e+00,7.50000000000000e-01,7.35499158581733e-01,7.50000000000000e-01
7.53200000000000e-08,0.00000000000000e+00,7.50000000000000e-01,7.30037385667341e-01,7.50000000000000e-01
7.54480000000000e-08,0.00000000000000e+00,7.50000000000000e-01,7.50719852924642e-01,7.50000000000000e-01
7.56671824733061e-08,0.00000000000000e+00,7.50000000000000e-01,7.48035215619504e-01,7.50000000000000e-01
7.59625658565245e-08,0.00000000000000e+00,7.50000000000000e-01,7.50817440344383e-01,7.50000000000000e-01
7.65533326229612e-08,0.00000000000000e+00,7.50000000000000e-01,7.48709047187132e-01,7.50000000000000e-01
7.77348661558348e-08,0.00000000000000e+00,7.50000000000000e-01,7.50888135813770e-01,7.50000000000000e-01
8.00979332215819e-08,0.00000000000000e+00,7.50000000000000e-01,7.48896348051986e-01,7.50000000000000e-01
8.38979332215819e-08,0.00000000000000e+00,7.50000000000000e-01,7.50896946236699e-01,7.50000000000000e-01
8.50000000000000e-08,0.00000000000000e+00,7.50000000000000e-01,7.48969704976018e-01,7.50000000000000e-01
8.50100000000000e-08,7.49999999999858e-02,7.50000000000000e-01,7.49199627018978e-01,6.75000000000014e-01
8.50300000000000e-08,2.24999999999957e-01,7.50000000000000e-01,7.49574343838995e-01,5.25000000000043e-01
8.50700000000000e-08,5.24999999999900e-01,7.50000000000000e-01,7.54729793460825e-01,2.25000000000100e-01
8.51000000000000e-08,7.49999999999957e-01,7.50000000000000e-01,7.67125488256199e-01,4.29656310529936e-14
8.51080000000000e-08,7.50000000000000e-01,7.50000000000000e-01,7.71727119945761e-01,0.00000000000000e+00
8.51240000000000e-08,7.50000000000000e-01,7.50000000000000e-01,7.81006531330143e-01,0.00000000000000e+00
8.51560000000000e-08,7.50000000000000e-01,7.50000000000000e-01,7.46166734066864e-01,0.00000000000000e+00
8.52200000000000e-08,7.50000000000000e-01,7.50000000000000e-01,4.34661830175308e-01,0.00000000000000e+00
8.53480000000000e-08,7.50000000000000e-01,7.50000000000000e-01,2.36194332551929e-02,0.00000000000000e+00
8.55246332712364e-08,7.50000000000000e-01,7.50000000000000e-01,-6.22089096990872e-03,0.00000000000000e+00
8.58206626756953e-08,7.50000000000000e-01,7.50000000000000e-01,2.45913544315823e-03,0.00000000000000e+00
8.62465293339428e-08,7.50000000000000e-01,7.50000000000000e-01,-8.35355814386516e-04,0.00000000000000e+00
8.70619203801763e-08,7.50000000000000e-01,7.50000000000000e-01,2.79368206513624e-04,0.00000000000000e+00
8.85117795358913e-08,7.50000000000000e-01,7.50000000000000e-01,3.10859155966039e-05,0.00000000000000e+00
9.01000000000000e-08,7.50000000000000e-01,7.49999999999957e-01,-2.26343419098454e-04,0.00000000000000e+00
9.03899718311430e-08,7.50000000000000e-01,7.50000000000000e-01,2.76486325502057e-04,0.00000000000000e+00
9.09699154934290e-08,7.50000000000000e-01,7.50000000000000e-01,-1.74785702658430e-04,0.00000000000000e+00
9.21298028180010e-08,7.50000000000000e-01,7.50000000000000e-01,1.69614885857768e-04,0.00000000000000e+00
9.44495774671450e-08,7.50000000000000e-01,7.50000000000000e-01,-1.29991264588191e-04,0.00000000000000e+00
9.51000000000000e-08,7.50000000000000e-01,7.50000000000000e-01,1.17444538149436e-04,0.00000000000000e+00
9.51100000000000e-08,6.75000000000076e-01,7.50000000000000e-01,3.42708332649475e-04,7.49999999999237e-02
9.51300000000000e-08,5.25000000000105e-01,7.50000000000000e-01,4.25762701400226e-04,2.24999999999895e-01
9.51700000000000e-08,2.25000000000162e-01,7.50000000000000e-01,2.89665743366488e-04,5.24999999999838e-01
9.52000000000000e-08,1.05027098129540e-13,7.50000000000000e-01,4.05188470458659e-04,7.49999999999895e-01
9.52080000000000e-08,0.00000000000000e+00,7.50000000000000e-01,2.84824328417879e-04,7.50000000000000e-01
9.52240000000000e-08,0.00000000000000e+00,7.50000000000000e-01,-1.07179800477461e-04,7.50000000000000e-01
9.52560000000000e-08,0.00000000000000e+00,7.50000000000000e-01,-1.20092809942828e-03,7.50000000000000e-01
9.53200000000000e-08,0.00000000000000e+00,7.50000000000000e-01,-1.41053144849198e-03,7.50000000000000e-01
9.54479458739326e-08,0.00000000000000e+00,7.50000000000000e-01,4.39444945174949e-04,7.50000000000000e-01
9.56478029551847e-08,0.00000000000000e+00,7.50000000000000e-01,-4.04009539155273e-04,7.50000000000000e-01
9.59648070883773e-08,0.00000000000000e+00,7.50000000000000e-01,3.14298777788449e-04,7.50000000000000e-01
9.64994674488810e-08,0.00000000000000e+00,7.50000000000000e-01,-1.67999758361178e-04,7.50000000000000e-01
9.70542046065855e-08,0.00000000000000e+00,7.50000000000000e-01,1.17879180301140e-04,7.50000000000000e-01
9.81636789219944e-08,0.00000000000000e+00,7.50000000000000e-01,-6.17431113409447e-05,7.50000000000000e-01
1.00382627552812e-07,0.00000000000000e+00,7.50000000000000e-01,7.60930129132184e-05,7.50000000000000e-01
1.04182627552812e-07,0.00000000000000e+00,7.50000000000000e-01,-4.22226965941508e-05,7.50000000000000e-01
1.05000000000000e-07,0.00000000000000e+00,7.50000000000000e-01,4.16945120081079e-05,7.50000000000000e-01
1.05010000000000e-07,7.49999999999858e-02,7.50000000000000e-01,2.14272587813966e-04,7.50000000000000e-01
1.05030000000000e-07,2.24999999999957e-01,7.50000000000000e-01,4.40027915260571e-04,7.50000000000000e-01
1.05070000000000e-07,5.24999999999900e-01,7.50000000000000e-01,3.68047862535727e-04,7.50000000000000e-01
1.05100000000000e-07,7.49999999999957e-01,7.50000000000000e-01,-1.44489571447744e-03,7.50000000000000e-01
1.05108000000000e-07,7.50000000000000e-01,7.50000000000000e-01,-2.42585308697041e-03,7.50000000000000e-01
1.05124000000000e-07,7.50000000000000e-01,7.50000000000000e-01,-4.20872591254530e-03,7.50000000000000e-01
1.05156000000000e-07,7.50000000000000e-01,7.50000000000000e-01,-6.08046244642745e-03,7.50000000000000e-01
1.05220000000000e-07,7.50000000000000e-01,7.50000000000000e-01,2.32540278458077e-02,7.50000000000000e-01
1.05348000000000e-07,7.50000000000000e-01,7.50000000000000e-01,4.79309810919372e-01,7.50000000000000e-01
1.05604000000000e-07,7.50000000000000e-01,7.50000000000000e-01,7.75171416712160e-01,7.50000000000000e-01
1.05879033609359e-07,7.50000000000000e-01,7.50000000000000e-01,7.29465579416484e-01,7.50000000000000e-01
1.06429100828076e-07,7.50000000000000e-01,7.50000000000000e-01,7.69269250110846e-01,7.50000000000000e-01
1.07080303783582e-07,7.50000000000000e-01,7.50000000000000e-01,7.31287932388826e-01,7.50000000000000e-01
1.08204501347502e-07,7.50000000000000e-01,7.50000000000000e-01,7.67773123645422e-01,7.50000000000000e-01
1.10452896475342e-07,7.50000000000000e-01,7.50000000000000e-01,7.32070963732211e-01,7.50000000000000e-01
1.14252896475342e-07,7.50000000000000e-01,7.50000000000000e-01,7.67375158181355e-01,7.50000000000000e-01
1.15100000000000e-07,7.50000000000000e-01,7.50000000000000e-01,7.32876592268598e-01,7.50000000000000e-01
