Time,v(clk),v(data),v(out)
1.00000000000000e-08,7.50000000000000e-01,0.00000000000000e+00,4.13740340458532e-07
1.00100000000000e-08,7.50000000000000e-01,7.49999999999982e-02,7.00076139591166e-06
1.00300000000000e-08,7.50000000000000e-01,2.24999999999995e-01,1.12920914541043e-05
1.00700000000000e-08,7.50000000000000e-01,5.24999999999987e-01,5.65272838050357e-06
1.01000000000000e-08,7.50000000000000e-01,7.49999999999994e-01,1.26353193873052e-06
1.01080000000000e-08,7.50000000000000e-01,7.50000000000000e-01,-5.18239176308666e-07
1.01240000000000e-08,7.50000000000000e-01,7.50000000000000e-01,-8.53510976756011e-07
1.01560000000000e-08,7.50000000000000e-01,7.50000000000000e-01,3.95152336560289e-06
1.02200000000000e-08,7.50000000000000e-01,7.50000000000000e-01,1.09942304174909e-05
1.03480000000000e-08,7.50000000000000e-01,7.50000000000000e-01,6.77298829345613e-06
1.06040000000000e-08,7.50000000000000e-01,7.50000000000000e-01,3.22408027733645e-06
1.10581572247058e-08,7.50000000000000e-01,7.50000000000000e-01,5.54299309145009e-06
1.19664716741174e-08,7.50000000000000e-01,7.50000000000000e-01,3.71334400017624e-06
1.37831005729406e-08,7.50000000000000e-01,7.50000000000000e-01,4.77466127250890e-06
1.51000000000000e-08,7.50000000000000e-01,7.50000000000000e-01,3.37932984862364e-06
1.51100000000000e-08,6.74999999999989e-01,7.50000000000000e-01,-1.13500374015710e-04
1.51300000000000e-08,5.24999999999993e-01,7.50000000000000e-01,-2.95596462115813e-04
1.51700000000000e-08,2.25000000000000e-01,7.50000000000000e-01,-2.37134417926832e-04
1.52000000000000e-08,0.00000000000000e+00,7.50000000000000e-01,2.69604037588592e-04
1.52080000000000e-08,0.00000000000000e+00,7.50000000000000e-01,5.12509144545342e-04
1.52240000000000e-08,0.00000000000000e+00,7.50000000000000e-01,8.11588560526308e-04
1.52560000000000e-08,0.00000000000000e+00,7.50000000000000e-01,8.06423380147553e-04
1.53200000000000e-08,0.00000000000000e+00,7.50000000000000e-01,1.31361939922747e-04
1.54480000000000e-08,0.00000000000000e+00,7.50000000000000e-01,-5.51928817916693e-04
1.57040000000000e-08,0.00000000000000e+00,7.50000000000000e-01,5.64959560894612e-05
1.60650559892746e-08,0.00000000000000e+00,7.50000000000000e-01,-1.92960489878113e-04
1.66414482499170e-08,0.00000000000000e+00,7.50000000000000e-01,3.15112100545696e-04
1.76372612577908e-08,0.00000000000000e+00,7.50000000000000e-01,-2.66250803268656e-04
1.86609903142970e-08,0.00000000000000e+00,7.50000000000000e-01,2.27962269835702e-04
2.07084484273095e-08,0.00000000000000e+00,7.50000000000000e-01,-2.02747683197740e-04
2.45084484273095e-08,0.00000000000000e+00,7.50000000000000e-01,1.96387437724618e-04
2.50000000000000e-08,0.00000000000000e+00,7.50000000000000e-01,-1.18619043747943e-04
2.50100000000000e-08,7.49999999999858e-02,7.50000000000000e-01,8.44654411157469e-05
2.50300000000000e-08,2.25000000000007e-01,7.50000000000000e-01,4.11502222363080e-04
2.50700000000000e-08,5.25000000000000e-01,7.50000000000000e-01,8.19050096191570e-04
2.51000000000000e-08,7.50000000000000e-01,7.50000000000000e-01,4.01735632976630e-04
2.51080000000000e-08,7.50000000000000e-01,7.50000000000000e-01,-7.11705047229533e-05
2.51240000000000e-08,7.50000000000000e-01,7.50000000000000e-01,-1.13044854867436e-03
2.51560000000000e-08,7.50000000000000e-01,7.50000000000000e-01,-3.34776312010299e-03
2.52200000000000e-08,7.50000000000000e-01,7.50000000000000e-01,-6.41297181028970e-03
2.53480000000000e-08,7.50000000000000e-01,7.50000000000000e-01,1.59644741697060e-02
2.56040000000000e-08,7.50000000000000e-01,7.50000000000000e-01,5.07884221185703e-01
2.61160000000000e-08,7.50000000000000e-01,7.50000000000000e-01,7.79201946806091e-01
2.66342999777799e-08,7.50000000000000e-01,7.50000000000000e-01,7.25478966467519e-01
2.76708999333397e-08,7.50000000000000e-01,7.50000000000000e-01,7.72901478576140e-01
2.89919431492691e-08,7.50000000000000e-01,7.50000000000000e-01,7.27500261509997e-01
3.01000000000000e-08,7.50000000000000e-01,7.50000000000000e-01,7.70696436314003e-01
3.01100000000000e-08,7.50000000000000e-01,6.75000000000039e-01,7.62169292923255e-01
3.01300000000000e-08,7.50000000000000e-01,5.25000000000018e-01,7.52152413062382e-01
3.01700000000000e-08,7.50000000000000e-01,2.25000000000025e-01,7.49601110537798e-01
3.02000000000000e-08,7.50000000000000e-01,1.80966353013901e-14,7.49955440949853e-01
3.02080000000000e-08,7.50000000000000e-01,0.00000000000000e+00,7.49947947951631e-01
3.02240000000000e-08,7.50000000000000e-01,0.00000000000000e+00,7.49931418813907e-01
3.02560000000000e-08,7.50000000000000e-01,0.00000000000000e+00,7.49920198613330e-01
3.03200000000000e-08,7.50000000000000e-01,0.00000000000000e+00,7.49928328930959e-01
3.04480000000000e-08,7.50000000000000e-01,0.00000000000000e+00,7.49985100107697e-01
3.06918162203552e-08,7.50000000000000e-01,0.00000000000000e+00,7.49980678980261e-01
3.10576820001986e-08,7.50000000000000e-01,0.00000000000000e+00,7.49963657640396e-01
3.16000705472260e-08,7.50000000000000e-01,0.00000000000000e+00,7.49986436473688e-01
3.26848476412809e-08,7.50000000000000e-01,0.00000000000000e+00,7.49969527340487e-01
3.48544018293906e-08,7.50000000000000e-01,0.00000000000000e+00,7.49991521868377e-01
3.51000000000000e-08,7.49999999999963e-01,0.00000000000000e+00,7.49973683184970e-01
3.51100000000000e-08,6.74999999999977e-01,0.00000000000000e+00,7.49876806909779e-01
3.51300000000000e-08,5.24999999999956e-01,0.00000000000000e+00,7.49759030548873e-01
3.51700000000000e-08,2.24999999999963e-01,0.00000000000000e+00,7.50965715701030e-01
3.52000000000000e-08,0.00000000000000e+00,0.00000000000000e+00,7.53653728572012e-01
3.52080000000000e-08,0.00000000000000e+00,0.00000000000000e+00,7.54257313466094e-01
3.52240000000000e-08,0.00000000000000e+00,0.00000000000000e+00,7.54631084457646e-01
3.52560000000000e-08,0.00000000000000e+00,0.00000000000000e+00,7.50389369819249e-01
3.53200000000000e-08,0.00000000000000e+00,0.00000000000000e+00,7.32405755711009e-01
3.54480000000000e-08,0.00000000000000e+00,0.00000000000000e+00,7.28570634711655e-01
3.56912294939969e-08,0.00000000000000e+00,0.00000000000000e+00,7.52609120742788e-01
3.60364839666485e-08,0.00000000000000e+00,0.00000000000000e+00,7.46884424240009e-01
3.66343067225743e-08,0.00000000000000e+00,0.00000000000000e+00,7.51782604860021e-01
3.74088012952908e-08,0.00000000000000e+00,0.00000000000000e+00,7.47970351976727e-01
3.89577904407236e-08,0.00000000000000e+00,0.00000000000000e+00,7.51558010529182e-01
3.91000000000000e-08,0.00000000000000e+00,0.00000000000000e+00,7.49146591866174e-01
3.93844191185527e-08,0.00000000000000e+00,0.00000000000000e+00,7.49816684105679e-01
3.99532573556582e-08,0.00000000000000e+00,0.00000000000000e+00,7.49953585701880e-01
4.10909338298690e-08,0.00000000000000e+00,0.00000000000000e+00,7.49861723779994e-01
4.33662867782908e-08,0.00000000000000e+00,0.00000000000000e+00,7.49981318105673e-01
4.50000000000000e-08,0.00000000000000e+00,0.00000000000000e+00,7.49895375621817e-01
4.50100000000000e-08,7.49999999999858e-02,0.00000000000000e+00,7.50016985646263e-01
4.50300000000000e-08,2.25000000000007e-01,0.00000000000000e+00,7.50144247787132e-01
4.50700000000000e-08,5.25000000000000e-01,0.00000000000000e+00,7.50087498600937e-01
4.51000000000000e-08,7.50000000000000e-01,0.00000000000000e+00,7.49873279999297e-01
4.51080000000000e-08,7.50000000000000e-01,0.00000000000000e+00,7.49763951196349e-01
4.51240000000000e-08,7.50000000000000e-01,0.00000000000000e+00,7.49629943051765e-01
4.51560000000000e-08,7.50000000000000e-01,0.00000000000000e+00,7.49617105636544e-01
4.52200000000000e-08,7.50000000000000e-01,0.00000000000000e+00,7.49704152885467e-01
4.53480000000000e-08,7.50000000000000e-01,0.00000000000000e+00,7.51418346875127e-01
4.56040000000000e-08,7.50000000000000e-01,0.00000000000000e+00,7.13891548992613e-01
4.61160000000000e-08,7.50000000000000e-01,0.00000000000000e+00,1.09057634348825e-01
4.65970647816160e-08,7.50000000000000e-01,0.00000000000000e+00,-5.04002147886036e-02
4.75591943448481e-08,7.50000000000000e-01,0.00000000000000e+00,4.08069382193573e-02
4.86922941103657e-08,7.50000000000000e-01,0.00000000000000e+00,-3.07764445740377e-02
5.00000000000000e-08,7.50000000000000e-01,0.00000000000000e+00,2.65469128548951e-02
5.00100000000000e-08,7.50000000000000e-01,7.49999999999858e-02,2.14853774939415e-02
5.00300000000000e-08,7.50000000000000e-01,2.24999999999957e-01,1.44047712158465e-02
5.00700000000000e-08,7.50000000000000e-01,5.25000000000000e-01,8.06573057783282e-03
5.01000000000000e-08,7.50000000000000e-01,7.50000000000000e-01,5.31222875220991e-03
5.01080000000000e-08,7.50000000000000e-01,7.50000000000000e-01,4.79693453177561e-03
5.01240000000000e-08,7.50000000000000e-01,7.50000000000000e-01,3.86437254438089e-03
5.01560000000000e-08,7.50000000000000e-01,7.50000000000000e-01,2.48550074748394e-03
5.02200000000000e-08,7.50000000000000e-01,7.50000000000000e-01,9.84449300129850e-04
5.03480000000000e-08,7.50000000000000e-01,7.50000000000000e-01,7.03576183750040e-05
5.06040000000000e-08,7.50000000000000e-01,7.50000000000000e-01,-2.04969691670887e-05
5.10807044311933e-08,7.50000000000000e-01,7.50000000000000e-01,9.86998752821114e-06
5.20341132935799e-08,7.50000000000000e-01,7.50000000000000e-01,-7.82792087697382e-06
5.39409310183529e-08,7.50000000000000e-01,7.50000000000000e-01,6.15077219915348e-06
5.51000000000000e-08,7.50000000000000e-01,7.50000000000000e-01,-5.20853247674286e-06
5.51100000000000e-08,6.75000000000027e-01,7.50000000000000e-01,-1.21569603557151e-04
5.51300000000000e-08,5.25000000000005e-01,7.50000000000000e-01,-3.03541818112568e-04
5.51700000000000e-08,2.25000000000013e-01,7.50000000000000e-01,-2.44723112699977e-04
5.52000000000000e-08,0.00000000000000e+00,7.50000000000000e-01,2.52916191515684e-04
5.52080000000000e-08,0.00000000000000e+00,7.50000000000000e-01,4.85821709086398e-04
5.52240000000000e-08,0.00000000000000e+00,7.50000000000000e-01,7.37650855468494e-04
5.52560000000000e-08,0.00000000000000e+00,7.50000000000000e-01,4.14802930880531e-04
5.53200000000000e-08,0.00000000000000e+00,7.50000000000000e-01,-1.56184043441676e-03
5.54480000000000e-08,0.00000000000000e+00,7.50000000000000e-01,-2.44244219820034e-03
5.56970687037672e-08,0.00000000000000e+00,7.50000000000000e-01,2.49953687582682e-04
5.60597934718473e-08,0.00000000000000e+00,7.50000000000000e-01,-1.73995007168637e-04
5.66114313064801e-08,0.00000000000000e+00,7.50000000000000e-01,2.53953268338304e-04
5.75920432834236e-08,0.00000000000000e+00,7.50000000000000e-01,-2.00147280403755e-04
5.85951161340597e-08,0.00000000000000e+00,7.50000000000000e-01,1.53610399377750e-04
6.06012618353320e-08,0.00000000000000e+00,7.50000000000000e-01,-1.27482790976755e-04
6.44012618353320e-08,0.00000000000000e+00,7.50000000000000e-01,1.21329191056002e-04
6.50000000000000e-08,0.00000000000000e+00,7.50000000000000e-01,-6.23403661372327e-05
6.50100000000000e-08,7.49999999999858e-02,7.50000000000000e-01,1.37782471868242e-04
6.50300000000000e-08,2.24999999999957e-01,7.50000000000000e-01,4.47396237115538e-04
6.50700000000000e-08,5.24999999999900e-01,7.50000000000000e-01,8.24978073511104e-04
6.51000000000000e-08,7.49999999999957e-01,7.50000000000000e-01,4.08142720126958e-04
6.51080000000000e-08,7.50000000000000e-01,7.50000000000000e-01,-6.36152014162755e-05
6.51240000000000e-08,7.50000000000000e-01,7.50000000000000e-01,-1.12148265315817e-03
6.51560000000000e-08,7.50000000000000e-01,7.50000000000000e-01,-3.33918383693327e-03
6.52200000000000e-08,7.50000000000000e-01,7.50000000000000e-01,-6.41063569682854e-03
6.53480000000000e-08,7.50000000000000e-01,7.50000000000000e-01,1.58139881430913e-02
6.56040000000000e-08,7.50000000000000e-01,7.50000000000000e-01,5.07370212350953e-01
6.61159999999999e-08,7.50000000000000e-01,7.50000000000000e-01,7.79179569618928e-01
6.66345128648357e-08,7.50000000000000e-01,7.50000000000000e-01,7.25506096908793e-01
6.76715385945071e-08,7.50000000000000e-01,7.50000000000000e-01,7.72880904228197e-01
6.89923053404464e-08,7.50000000000000e-01,7.50000000000000e-01,7.27523161434133e-01
7.01000000000000e-08,7.50000000000000e-01,7.50000000000000e-01,7.70677057806335e-01
7.01100000000000e-08,7.50000000000000e-01,6.75000000000014e-01,7.62158126091996e-01
7.01300000000000e-08,7.50000000000000e-01,5.25000000000043e-01,7.52150083051781e-01
7.01700000000000e-08,7.50000000000000e-01,2.25000000000100e-01,7.49601316502045e-01
7.02000000000000e-08,7.50000000000000e-01,4.29656310529936e-14,7.49955500329223e-01
7.02080000000000e-08,7.50000000000000e-01,0.00000000000000e+00,7.49948137334088e-01
7.02240000000000e-08,7.50000000000000e-01,0.00000000000000e+00,7.49931738700205e-01
7.02560000000000e-08,7.50000000000000e-01,0.00000000000000e+00,7.49920370516188e-01
7.03200000000000e-08,7.50000000000000e-01,0.00000000000000e+00,7.49928287026023e-01
7.04480000000000e-08,7.50000000000000e-01,0.00000000000000e+00,7.49984907882364e-01
7.06917978326249e-08,7.50000000000000e-01,0.00000000000000e+00,7.49980716325225e-01
7.10576725293542e-08,7.50000000000000e-01,0.00000000000000e+00,7.49963716874890e-01
7.15999773805888e-08,7.50000000000000e-01,0.00000000000000e+00,7.49986426246297e-01
7.26845870830578e-08,7.50000000000000e-01,0.00000000000000e+00,7.49969564326607e-01
7.48538064879960e-08,7.50000000000000e-01,0.00000000000000e+00,7.49991510898461e-01
7.51000000000000e-08,7.50000000000000e-01,0.00000000000000e+00,7.49973711267850e-01
7.51100000000000e-08,6.75000000000076e-01,0.00000000000000e+00,7.49876821113716e-01
7.51300000000000e-08,5.25000000000105e-01,0.00000000000000e+00,7.49759068204502e-01
7.51700000000000e-08,2.25000000000162e-01,0.00000000000000e+00,7.50965744758955e-01
7.52000000000000e-08,1.05027098129540e-13,0.00000000000000e+00,7.53653813163822e-01
7.52080000000000e-08,0.00000000000000e+00,0.00000000000000e+00,7.54257472252570e-01
7.52240000000000e-08,0.00000000000000e+00,0.00000000000000e+00,7.54631531312228e-01
7.52560000000000e-08,0.00000000000000e+00,0.00000000000000e+00,7.50390914154955e-01
7.53200000000000e-08,0.00000000000000e+00,0.00000000000000e+00,7.32407766181819e-01
7.54480000000000e-08,0.00000000000000e+00,0.00000000000000e+00,7.28570485137449e-01
7.56912298119296e-08,0.00000000000000e+00,0.00000000000000e+00,7.52609019017832e-01
7.60364843768217e-08,0.00000000000000e+00,0.00000000000000e+00,7.46884523189882e-01
7.66343073654756e-08,0.00000000000000e+00,0.00000000000000e+00,7.51782534282653e-01
7.74088020271408e-08,0.00000000000000e+00,0.00000000000000e+00,7.47970416841557e-01
7.81000000000000e-08,0.00000000000000e+00,0.00000000000000e+00,7.51374546933304e-01
7.82548989323331e-08,0.00000000000000e+00,0.00000000000000e+00,7.50078399296962e-01
7.85646967969991e-08,0.00000000000000e+00,0.00000000000000e+00,7.49698176820314e-01
7.91842925263313e-08,0.00000000000000e+00,0.00000000000000e+00,7.50010464973333e-01
8.04234839849957e-08,0.00000000000000e+00,0.00000000000000e+00,7.49781725803006e-01
8.29018669023243e-08,0.00000000000000e+00,0.00000000000000e+00,7.50045767336646e-01
8.50000000000000e-08,0.00000000000000e+00,0.00000000000000e+00,7.49829893934815e-01
8.50100000000000e-08,7.49999999999858e-02,0.00000000000000e+00,7.49957505353126e-01
8.50300000000000e-08,2.24999999999957e-01,0.00000000000000e+00,7.50101875097827e-01
8.50700000000000e-08,5.24999999999900e-01,0.00000000000000e+00,7.50075310229443e-01
8.51000000000000e-08,7.49999999999957e-01,0.00000000000000e+00,7.49892509657778e-01
8.51080000000000e-08,7.50000000000000e-01,0.00000000000000e+00,7.49798188539713e-01
8.51240000000000e-08,7.50000000000000e-01,0.00000000000000e+00,7.49644470295122e-01
8.51560000000000e-08,7.50000000000000e-01,0.00000000000000e+00,7.49588178685414e-01
8.52200000000000e-08,7.50000000000000e-01,0.00000000000000e+00,7.49723717584771e-01
8.53480000000000e-08,7.50000000000000e-01,0.00000000000000e+00,7.51415311895665e-01
8.56040000000000e-08,7.50000000000000e-01,0.00000000000000e+00,7.13757054148854e-01
8.61159999999999e-08,7.50000000000000e-01,0.00000000000000e+00,1.08939953857614e-01
8.65973618367962e-08,7.50000000000000e-01,0.00000000000000e+00,-5.03795662732630e-02
8.75600855103887e-08,7.50000000000000e-01,0.00000000000000e+00,4.07968969352379e-02
8.86930967927166e-08,7.50000000000000e-01,0.00000000000000e+00,-3.07686922053093e-02
9.00000000000000e-08,7.50000000000000e-01,0.00000000000000e+00,2.65371252903536e-02
9.00100000000000e-08,7.50000000000000e-01,7.49999999999858e-02,2.14770698859175e-02
9.00300000000000e-08,7.50000000000000e-01,2.24999999999957e-01,1.43987356780953e-02
9.00700000000000e-08,7.50000000000000e-01,5.24999999999900e-01,8.06233832828158e-03
9.01000000000000e-08,7.50000000000000e-01,7.49999999999957e-01,5.30997416105110e-03
9.01080000000000e-08,7.50000000000000e-01,7.50000000000000e-01,4.79489982590367e-03
9.01240000000000e-08,7.50000000000000e-01,7.50000000000000e-01,3.86273463113124e-03
9.01560000000000e-08,7.50000000000000e-01,7.50000000000000e-01,2.48444708555916e-03
9.02200000000000e-08,7.50000000000000e-01,7.50000000000000e-01,9.84030816790576e-04
9.03480000000000e-08,7.50000000000000e-01,7.50000000000000e-01,7.03248463158543e-05
9.06040000000000e-08,7.50000000000000e-01,7.50000000000000e-01,-2.04914756475605e-05
9.10807579257167e-08,7.50000000000000e-01,7.50000000000000e-01,9.86392673338332e-06
9.20342737771503e-08,7.50000000000000e-01,7.50000000000000e-01,-7.82859430013827e-06
9.39413054800175e-08,7.50000000000000e-01,7.50000000000000e-01,6.14647660772058e-06
9.51000000000000e-08,7.50000000000000e-01,7.50000000000000e-01,-5.20940079685138e-06
9.51100000000000e-08,6.75000000000076e-01,7.50000000000000e-01,-1.21570164755391e-04
9.51300000000000e-08,5.25000000000105e-01,7.50000000000000e-01,-3.03543177347085e-04
9.51700000000000e-08,2.25000000000162e-01,7.50000000000000e-01,-2.44725567573628e-04
9.52000000000000e-08,1.05027098129540e-13,7.50000000000000e-01,2.52906520220295e-04
9.52080000000000e-08,0.00000000000000e+00,7.50000000000000e-01,4.85804333805004e-04
9.52240000000000e-08,0.00000000000000e+00,7.50000000000000e-01,7.37602710828344e-04
9.52560000000000e-08,0.00000000000000e+00,7.50000000000000e-01,4.14630158213691e-04
9.53200000000000e-08,0.00000000000000e+00,7.50000000000000e-01,-1.56226761472256e-03
9.54480000000000e-08,0.00000000000000e+00,7.50000000000000e-01,-2.44328933633092e-03
9.56970686362066e-08,0.00000000000000e+00,7.50000000000000e-01,2.49835896424432e-04
9.60597938073873e-08,0.00000000000000e+00,7.50000000000000e-01,-1.73261553461156e-04
9.66113714899860e-08,0.00000000000000e+00,7.50000000000000e-01,2.53462702867364e-04
9.75919504977065e-08,0.00000000000000e+00,7.50000000000000e-01,-1.99712213191915e-04
9.85949747958406e-08,0.00000000000000e+00,7.50000000000000e-01,1.53249358542945e-04
1.00601023392109e-07,0.00000000000000e+00,7.50000000000000e-01,-1.27152363130279e-04
1.04401023392109e-07,0.00000000000000e+00,7.50000000000000e-01,1.21014599024682e-04
1.05000000000000e-07,0.00000000000000e+00,7.50000000000000e-01,-6.21251374288249e-05
1.05010000000000e-07,7.49999999999858e-02,7.50000000000000e-01,1.37938137381721e-04
1.05030000000000e-07,2.24999999999957e-01,7.50000000000000e-01,4.47481697576468e-04
1.05070000000000e-07,5.24999999999900e-01,7.50000000000000e-01,8.25015403751364e-04
1.05100000000000e-07,7.49999999999957e-01,7.50000000000000e-01,4.08139832841020e-04
1.05108000000000e-07,7.50000000000000e-01,7.50000000000000e-01,-6.36290320981392e-05
1.05124000000000e-07,7.50000000000000e-01,7.50000000000000e-01,-1.12151202119802e-03
1.05156000000000e-07,7.50000000000000e-01,7.50000000000000e-01,-3.33922036793421e-03
1.05220000000000e-07,7.50000000000000e-01,7.50000000000000e-01,-6.41065266294087e-03
1.05348000000000e-07,7.50000000000000e-01,7.50000000000000e-01,1.58144392577682e-02
1.05604000000000e-07,7.50000000000000e-01,7.50000000000000e-01,5.07371766324732e-01
1.06116000000000e-07,7.50000000000000e-01,7.50000000000000e-01,7.79179637714085e-01
1.06634512224701e-07,7.50000000000000e-01,7.50000000000000e-01,7.25506014551838e-01
1.07671536674104e-07,7.50000000000000e-01,7.50000000000000e-01,7.72880966812798e-01
