Time,v(clk),v(data),v(out)
1.00000000000000e-08,7.00000000000000e-01,0.00000000000000e+00,-1.51787786089716e-05
1.00100000000000e-08,7.00000000000000e-01,6.99999999999983e-02,-1.01038836936296e-05
1.00300000000000e-08,7.00000000000000e-01,2.09999999999995e-01,-4.75485322615210e-06
1.00700000000000e-08,7.00000000000000e-01,4.89999999999988e-01,-3.35452309910972e-06
1.01000000000000e-08,7.00000000000000e-01,6.99999999999995e-01,-1.28769666503381e-06
1.01080000000000e-08,7.00000000000000e-01,7.00000000000000e-01,2.58372934019979e-08
1.01240000000000e-08,7.00000000000000e-01,7.00000000000000e-01,2.38360979827601e-06
1.01560000000000e-08,7.00000000000000e-01,7.00000000000000e-01,3.48886361542511e-06
1.02200000000000e-08,7.00000000000000e-01,7.00000000000000e-01,1.64306877289966e-06
1.03480000000000e-08,7.00000000000000e-01,7.00000000000000e-01,9.04664874887273e-07
1.06040000000000e-08,7.00000000000000e-01,7.00000000000000e-01,1.99968841805252e-06
1.11160000000000e-08,7.00000000000000e-01,7.00000000000000e-01,1.25429881351995e-06
1.21400000000000e-08,7.00000000000000e-01,7.00000000000000e-01,1.61032864578027e-06
1.41880000000000e-08,7.00000000000000e-01,7.00000000000000e-01,1.04258630375981e-06
1.51000000000000e-08,7.00000000000000e-01,7.00000000000000e-01,1.29209905509178e-06
1.51100000000000e-08,6.29999999999990e-01,7.00000000000000e-01,-5.11912502024411e-05
1.51300000000000e-08,4.89999999999994e-01,7.00000000000000e-01,-1.11251891952678e-04
1.51700000000000e-08,2.10000000000000e-01,7.00000000000000e-01,-4.61174194568703e-06
1.52000000000000e-08,0.00000000000000e+00,7.00000000000000e-01,2.30754994972791e-04
1.52080000000000e-08,0.00000000000000e+00,7.00000000000000e-01,3.08795819045270e-04
1.52240000000000e-08,0.00000000000000e+00,7.00000000000000e-01,3.23327870304924e-04
1.52560000000000e-08,0.00000000000000e+00,7.00000000000000e-01,2.49920796600925e-05
1.53200000000000e-08,0.00000000000000e+00,7.00000000000000e-01,-2.67730079117047e-04
1.54480000000000e-08,0.00000000000000e+00,7.00000000000000e-01,-7.29657852175797e-05
1.57040000000000e-08,0.00000000000000e+00,7.00000000000000e-01,-1.59165812183421e-05
1.59991410980378e-08,0.00000000000000e+00,7.00000000000000e-01,1.52139303368810e-04
1.65894232941134e-08,0.00000000000000e+00,7.00000000000000e-01,-1.51030950774652e-04
1.72175899247270e-08,0.00000000000000e+00,7.00000000000000e-01,1.46182035801091e-04
1.84739231859544e-08,0.00000000000000e+00,7.00000000000000e-01,-1.40829805606524e-04
2.06971906063447e-08,0.00000000000000e+00,7.00000000000000e-01,1.38908107483824e-04
2.42218818661192e-08,0.00000000000000e+00,7.00000000000000e-01,-1.36110821049171e-04
2.50000000000000e-08,0.00000000000000e+00,7.00000000000000e-01,1.27704670316104e-04
2.50100000000000e-08,6.99999999999867e-02,7.00000000000000e-01,1.95149737472824e-04
2.50300000000000e-08,2.10000000000007e-01,7.00000000000000e-01,2.63773925607141e-04
2.50700000000000e-08,4.90000000000000e-01,7.00000000000000e-01,1.14729411544723e-05
2.51000000000000e-08,7.00000000000000e-01,7.00000000000000e-01,-2.20953326910945e-03
2.51080000000000e-08,7.00000000000000e-01,7.00000000000000e-01,-3.20187623602900e-03
2.51240000000000e-08,7.00000000000000e-01,7.00000000000000e-01,-4.88500309926322e-03
2.51560000000000e-08,7.00000000000000e-01,7.00000000000000e-01,-5.22261523484361e-03
2.52200000000000e-08,7.00000000000000e-01,7.00000000000000e-01,9.19530212969391e-02
2.53480000000000e-08,7.00000000000000e-01,7.00000000000000e-01,5.83444050900011e-01
2.56040000000000e-08,7.00000000000000e-01,7.00000000000000e-01,7.25856246977279e-01
2.58899211868130e-08,7.00000000000000e-01,7.00000000000000e-01,6.75871625946479e-01
2.64583682271847e-08,7.00000000000000e-01,7.00000000000000e-01,7.21123226118752e-01
2.72081313543836e-08,7.00000000000000e-01,7.00000000000000e-01,6.78792386311091e-01
2.87076576087813e-08,7.00000000000000e-01,7.00000000000000e-01,7.19547611073780e-01
3.01000000000000e-08,7.00000000000000e-01,7.00000000000000e-01,6.79977053453428e-01
3.01100000000000e-08,7.00000000000000e-01,6.30000000000037e-01,6.89915740401930e-01
3.01300000000000e-08,7.00000000000000e-01,4.90000000000017e-01,6.99894342827531e-01
3.01700000000000e-08,7.00000000000000e-01,2.10000000000023e-01,7.00025810914977e-01
3.02000000000000e-08,7.00000000000000e-01,1.68753899743024e-14,6.99991457482553e-01
3.02080000000000e-08,7.00000000000000e-01,0.00000000000000e+00,6.99989893672126e-01
3.02240000000000e-08,7.00000000000000e-01,0.00000000000000e+00,6.99975932099558e-01
3.02560000000000e-08,7.00000000000000e-01,0.00000000000000e+00,6.99967926218605e-01
3.03200000000000e-08,7.00000000000000e-01,0.00000000000000e+00,6.99982672587186e-01
3.04480000000000e-08,7.00000000000000e-01,0.00000000000000e+00,7.00000526218240e-01
3.06527075036690e-08,7.00000000000000e-01,0.00000000000000e+00,6.99967519840249e-01
3.09603146391583e-08,7.00000000000000e-01,0.00000000000000e+00,6.99998160040076e-01
3.15732787853511e-08,7.00000000000000e-01,0.00000000000000e+00,6.99973092616897e-01
3.27363835007228e-08,7.00000000000000e-01,0.00000000000000e+00,6.99998793478043e-01
3.50170002373698e-08,7.00000000000000e-01,0.00000000000000e+00,6.99977644399329e-01
3.51000000000000e-08,6.99999999999965e-01,0.00000000000000e+00,6.99995308605669e-01
3.51100000000000e-08,6.29999999999979e-01,0.00000000000000e+00,6.99939425454169e-01
3.51300000000000e-08,4.89999999999959e-01,0.00000000000000e+00,6.99894504230973e-01
3.51700000000000e-08,2.09999999999966e-01,0.00000000000000e+00,7.00777559005264e-01
3.52000000000000e-08,0.00000000000000e+00,0.00000000000000e+00,7.02552890589046e-01
3.52080000000000e-08,0.00000000000000e+00,0.00000000000000e+00,7.02638532886715e-01
3.52240000000000e-08,0.00000000000000e+00,0.00000000000000e+00,7.01068079692767e-01
3.52560000000000e-08,0.00000000000000e+00,0.00000000000000e+00,6.89369715189007e-01
3.53200000000000e-08,0.00000000000000e+00,0.00000000000000e+00,6.74056989266814e-01
3.54480000000000e-08,0.00000000000000e+00,0.00000000000000e+00,6.94622784238045e-01
3.56415919066357e-08,0.00000000000000e+00,0.00000000000000e+00,7.01880717204002e-01
3.59692103370301e-08,0.00000000000000e+00,0.00000000000000e+00,6.97696732524017e-01
3.63428940458343e-08,0.00000000000000e+00,0.00000000000000e+00,7.01292466095606e-01
3.70902614634427e-08,0.00000000000000e+00,0.00000000000000e+00,6.98472882254937e-01
3.85849962986596e-08,0.00000000000000e+00,0.00000000000000e+00,7.01202513316010e-01
3.91000000000000e-08,0.00000000000000e+00,0.00000000000000e+00,6.98811894469762e-01
3.93989469670434e-08,0.00000000000000e+00,0.00000000000000e+00,6.99852181548954e-01
3.99968409011301e-08,0.00000000000000e+00,0.00000000000000e+00,6.99991703257194e-01
4.11926287693037e-08,0.00000000000000e+00,0.00000000000000e+00,6.99880517604995e-01
4.35842045056507e-08,0.00000000000000e+00,0.00000000000000e+00,7.00004671154105e-01
4.50000000000000e-08,0.00000000000000e+00,0.00000000000000e+00,6.99898573918912e-01
4.50100000000000e-08,6.99999999999867e-02,0.00000000000000e+00,6.99963470782061e-01
4.50300000000000e-08,2.10000000000007e-01,0.00000000000000e+00,7.00015097420466e-01
4.50700000000000e-08,4.90000000000000e-01,0.00000000000000e+00,6.99932442693251e-01
4.51000000000000e-08,7.00000000000000e-01,0.00000000000000e+00,6.99758981645270e-01
4.51080000000000e-08,7.00000000000000e-01,0.00000000000000e+00,6.99713655950100e-01
4.51240000000000e-08,7.00000000000000e-01,0.00000000000000e+00,6.99692433542656e-01
4.51560000000000e-08,7.00000000000000e-01,0.00000000000000e+00,6.99925610150422e-01
4.52200000000000e-08,7.00000000000000e-01,0.00000000000000e+00,7.04229218164349e-01
4.53480000000000e-08,7.00000000000000e-01,0.00000000000000e+00,4.78603162335569e-01
4.56040000000000e-08,7.00000000000000e-01,0.00000000000000e+00,-2.01099270054126e-02
4.58743111179854e-08,7.00000000000000e-01,0.00000000000000e+00,1.38194902974907e-02
4.64149333539563e-08,7.00000000000000e-01,0.00000000000000e+00,-9.23412355441694e-03
4.69708170368653e-08,7.00000000000000e-01,0.00000000000000e+00,7.89128224876149e-03
4.80825844026834e-08,7.00000000000000e-01,0.00000000000000e+00,-5.97958405945049e-03
5.00000000000000e-08,7.00000000000000e-01,0.00000000000000e+00,6.22729203368701e-03
5.00100000000000e-08,7.00000000000000e-01,6.99999999999867e-02,6.16840977624961e-03
5.00300000000000e-08,7.00000000000000e-01,2.09999999999960e-01,3.93741423862139e-03
5.00700000000000e-08,7.00000000000000e-01,4.90000000000000e-01,3.79646124994783e-04
5.01000000000000e-08,7.00000000000000e-01,7.00000000000000e-01,2.36976308573403e-04
5.01080000000000e-08,7.00000000000000e-01,7.00000000000000e-01,1.32486544685083e-04
5.01240000000000e-08,7.00000000000000e-01,7.00000000000000e-01,4.49630721947036e-05
5.01560000000000e-08,7.00000000000000e-01,7.00000000000000e-01,3.69481359569906e-05
5.02200000000000e-08,7.00000000000000e-01,7.00000000000000e-01,-6.75895730017223e-06
5.03480000000000e-08,7.00000000000000e-01,7.00000000000000e-01,5.30232984955609e-06
5.06040000000000e-08,7.00000000000000e-01,7.00000000000000e-01,-7.01483207073660e-06
5.11160000000001e-08,7.00000000000000e-01,7.00000000000000e-01,6.72964848978663e-06
5.21400000000002e-08,7.00000000000000e-01,7.00000000000000e-01,-5.25444746745556e-06
5.41880000000003e-08,7.00000000000000e-01,7.00000000000000e-01,5.50336404960255e-06
5.51000000000000e-08,7.00000000000000e-01,7.00000000000000e-01,-5.07995552808836e-06
5.51100000000000e-08,6.30000000000025e-01,7.00000000000000e-01,-5.33284437213496e-05
5.51300000000000e-08,4.90000000000005e-01,7.00000000000000e-01,-1.09609744794695e-04
5.51700000000000e-08,2.10000000000012e-01,7.00000000000000e-01,-2.67916268997109e-06
5.52000000000000e-08,0.00000000000000e+00,7.00000000000000e-01,2.21583741449087e-04
5.52080000000000e-08,0.00000000000000e+00,7.00000000000000e-01,2.88889428493679e-04
5.52240000000000e-08,0.00000000000000e+00,7.00000000000000e-01,2.38649869004195e-04
5.52560000000000e-08,0.00000000000000e+00,7.00000000000000e-01,-5.60093481249364e-04
5.53200000000000e-08,0.00000000000000e+00,7.00000000000000e-01,-8.84429276572445e-04
5.54480000000000e-08,0.00000000000000e+00,7.00000000000000e-01,1.24449548412117e-04
5.57040000000000e-08,0.00000000000000e+00,7.00000000000000e-01,-1.25022035317212e-04
5.59993272343893e-08,0.00000000000000e+00,7.00000000000000e-01,2.13128210787238e-04
5.65899817031680e-08,0.00000000000000e+00,7.00000000000000e-01,-2.14181727819609e-04
5.72183966273596e-08,0.00000000000000e+00,7.00000000000000e-01,1.94545739921461e-04
5.84752264757428e-08,0.00000000000000e+00,7.00000000000000e-01,-1.83156073022525e-04
6.07023594210682e-08,0.00000000000000e+00,7.00000000000000e-01,1.77971221897038e-04
6.42321323656299e-08,0.00000000000000e+00,7.00000000000000e-01,-1.73347811143509e-04
6.50000000000000e-08,0.00000000000000e+00,7.00000000000000e-01,1.56470235626314e-04
6.50100000000000e-08,6.99999999999867e-02,7.00000000000000e-01,2.18270841376385e-04
6.50300000000000e-08,2.09999999999960e-01,7.00000000000000e-01,2.82951569599919e-04
6.50700000000000e-08,4.89999999999907e-01,7.00000000000000e-01,2.10045098118922e-05
6.51000000000000e-08,6.99999999999960e-01,7.00000000000000e-01,-2.20578458790194e-03
6.51080000000000e-08,7.00000000000000e-01,7.00000000000000e-01,-3.19801878845723e-03
6.51240000000000e-08,7.00000000000000e-01,7.00000000000000e-01,-4.88215984000384e-03
6.51560000000000e-08,7.00000000000000e-01,7.00000000000000e-01,-5.22694323335170e-03
6.52200000000000e-08,7.00000000000000e-01,7.00000000000000e-01,9.18596115231757e-02
6.53480000000000e-08,7.00000000000000e-01,7.00000000000000e-01,5.83353634627003e-01
6.56040000000000e-08,7.00000000000000e-01,7.00000000000000e-01,7.25868194808359e-01
6.58898888949340e-08,7.00000000000000e-01,7.00000000000000e-01,6.75861232756740e-01
6.64584194188444e-08,7.00000000000000e-01,7.00000000000000e-01,7.21132843961823e-01
6.72081852402569e-08,7.00000000000000e-01,7.00000000000000e-01,6.78782736715482e-01
6.87077168830820e-08,7.00000000000000e-01,7.00000000000000e-01,7.19556540234459e-01
7.01000000000000e-08,7.00000000000000e-01,7.00000000000000e-01,6.79967900760758e-01
7.01100000000000e-08,7.00000000000000e-01,6.30000000000013e-01,6.89911276453685e-01
7.01300000000000e-08,7.00000000000000e-01,4.90000000000040e-01,6.99894446475388e-01
7.01700000000000e-08,7.00000000000000e-01,2.10000000000093e-01,7.00025812719850e-01
7.02000000000000e-08,7.00000000000000e-01,4.00790511889682e-14,6.99991481053400e-01
7.02080000000000e-08,7.00000000000000e-01,0.00000000000000e+00,6.99989908035708e-01
7.02240000000000e-08,7.00000000000000e-01,0.00000000000000e+00,6.99975943314605e-01
7.02560000000000e-08,7.00000000000000e-01,0.00000000000000e+00,6.99967932461743e-01
7.03200000000000e-08,7.00000000000000e-01,0.00000000000000e+00,6.99982671453893e-01
7.04480000000000e-08,7.00000000000000e-01,0.00000000000000e+00,7.00000520486981e-01
7.06526972936510e-08,7.00000000000000e-01,0.00000000000000e+00,6.99967505925357e-01
7.09603020720617e-08,7.00000000000000e-01,0.00000000000000e+00,6.99998160208570e-01
7.15732100625982e-08,7.00000000000000e-01,0.00000000000000e+00,6.99973083351870e-01
7.27362304511697e-08,7.00000000000000e-01,0.00000000000000e+00,6.99998792407836e-01
7.50166151275883e-08,7.00000000000000e-01,0.00000000000000e+00,6.99977638640106e-01
7.51000000000000e-08,7.00000000000000e-01,0.00000000000000e+00,6.99995318931906e-01
7.51100000000000e-08,6.30000000000071e-01,0.00000000000000e+00,6.99939450273866e-01
7.51300000000000e-08,4.90000000000098e-01,0.00000000000000e+00,6.99894530811668e-01
7.51700000000000e-08,2.10000000000151e-01,0.00000000000000e+00,7.00777551602273e-01
7.52000000000000e-08,9.80326930744013e-14,0.00000000000000e+00,7.02552831030573e-01
7.52080000000000e-08,0.00000000000000e+00,0.00000000000000e+00,7.02638413766232e-01
7.52240000000000e-08,0.00000000000000e+00,0.00000000000000e+00,7.01067700130831e-01
7.52560000000000e-08,0.00000000000000e+00,0.00000000000000e+00,6.89368899846603e-01
7.53200000000000e-08,0.00000000000000e+00,0.00000000000000e+00,6.74056649847533e-01
7.54480000000000e-08,0.00000000000000e+00,0.00000000000000e+00,6.94623010947201e-01
7.56415919266178e-08,0.00000000000000e+00,0.00000000000000e+00,7.01880544559847e-01
7.59692102525324e-08,0.00000000000000e+00,0.00000000000000e+00,6.97696868856624e-01
7.63428939981398e-08,0.00000000000000e+00,0.00000000000000e+00,7.01292352183001e-01
7.70902614893547e-08,0.00000000000000e+00,0.00000000000000e+00,6.98472985909519e-01
7.81000000000000e-08,0.00000000000000e+00,0.00000000000000e+00,7.01156540881333e-01
7.82494734982430e-08,0.00000000000000e+00,0.00000000000000e+00,7.00047630317187e-01
7.85484204947289e-08,0.00000000000000e+00,0.00000000000000e+00,6.99794737711078e-01
7.91463144877008e-08,0.00000000000000e+00,0.00000000000000e+00,7.00017051415069e-01
8.03421024736445e-08,0.00000000000000e+00,0.00000000000000e+00,6.99839595350392e-01
8.27336784455320e-08,0.00000000000000e+00,0.00000000000000e+00,7.00034990787282e-01
8.50000000000000e-08,0.00000000000000e+00,0.00000000000000e+00,6.99865354908812e-01
8.50100000000000e-08,6.99999999999867e-02,0.00000000000000e+00,6.99944859859824e-01
8.50300000000000e-08,2.09999999999960e-01,0.00000000000000e+00,7.00013320963167e-01
8.50700000000000e-08,4.89999999999907e-01,0.00000000000000e+00,6.99932951541816e-01
8.51000000000000e-08,6.99999999999960e-01,0.00000000000000e+00,6.99758216875520e-01
8.51080000000000e-08,7.00000000000000e-01,0.00000000000000e+00,6.99711836225216e-01
8.51240000000000e-08,7.00000000000000e-01,0.00000000000000e+00,6.99688595275244e-01
8.51560000000000e-08,7.00000000000000e-01,0.00000000000000e+00,6.99923663734972e-01
8.52200000000000e-08,7.00000000000000e-01,0.00000000000000e+00,7.04229552802343e-01
8.53480000000000e-08,7.00000000000000e-01,0.00000000000000e+00,4.78540528157626e-01
8.56040000000000e-08,7.00000000000000e-01,0.00000000000000e+00,-2.01346492261491e-02
8.58742964131143e-08,7.00000000000000e-01,0.00000000000000e+00,1.38378254198164e-02
8.64148892393429e-08,7.00000000000000e-01,0.00000000000000e+00,-9.24795355949226e-03
8.69707486228009e-08,7.00000000000000e-01,0.00000000000000e+00,7.90344018313444e-03
8.80824673897171e-08,7.00000000000000e-01,0.00000000000000e+00,-5.99012562809384e-03
9.00000000000000e-08,7.00000000000000e-01,0.00000000000000e+00,6.23778378807949e-03
9.00100000000000e-08,7.00000000000000e-01,6.99999999999867e-02,6.17556106563455e-03
9.00300000000000e-08,7.00000000000000e-01,2.09999999999960e-01,3.94046760074396e-03
9.00700000000000e-08,7.00000000000000e-01,4.89999999999907e-01,3.80148085373518e-04
9.01000000000000e-08,7.00000000000000e-01,6.99999999999960e-01,2.37063855824428e-04
9.01080000000000e-08,7.00000000000000e-01,7.00000000000000e-01,1.32570612558260e-04
9.01240000000000e-08,7.00000000000000e-01,7.00000000000000e-01,4.50137874989931e-05
9.01560000000000e-08,7.00000000000000e-01,7.00000000000000e-01,3.69390866614208e-05
9.02200000000000e-08,7.00000000000000e-01,7.00000000000000e-01,-6.75472204137578e-06
9.03480000000000e-08,7.00000000000000e-01,7.00000000000000e-01,5.29918366446239e-06
9.06040000000000e-08,7.00000000000000e-01,7.00000000000000e-01,-7.01119657491034e-06
9.11159999999999e-08,7.00000000000000e-01,7.00000000000000e-01,6.72644257765972e-06
9.21399999999999e-08,7.00000000000000e-01,7.00000000000000e-01,-5.25125254669835e-06
9.41879999999998e-08,7.00000000000000e-01,7.00000000000000e-01,5.50044678458358e-06
9.51000000000000e-08,7.00000000000000e-01,7.00000000000000e-01,-5.07686100309143e-06
9.51100000000000e-08,6.30000000000071e-01,7.00000000000000e-01,-5.33275618755033e-05
9.51300000000000e-08,4.90000000000098e-01,7.00000000000000e-01,-1.09610470630975e-04
9.51700000000000e-08,2.10000000000151e-01,7.00000000000000e-01,-2.67896179636379e-06
9.52000000000000e-08,9.80326930744013e-14,7.00000000000000e-01,2.21586176164516e-04
9.52080000000000e-08,0.00000000000000e+00,7.00000000000000e-01,2.88895524821614e-04
9.52240000000000e-08,0.00000000000000e+00,7.00000000000000e-01,2.38672427114978e-04
9.52560000000000e-08,0.00000000000000e+00,7.00000000000000e-01,-5.59989194150061e-04
9.53200000000000e-08,0.00000000000000e+00,7.00000000000000e-01,-8.84229740222550e-04
9.54480000000000e-08,0.00000000000000e+00,7.00000000000000e-01,1.24422555423366e-04
9.57040000000000e-08,0.00000000000000e+00,7.00000000000000e-01,-1.25025469378655e-04
9.59993271865190e-08,0.00000000000000e+00,7.00000000000000e-01,2.13145442593578e-04
9.65899815595571e-08,0.00000000000000e+00,7.00000000000000e-01,-2.14202872367134e-04
9.72183964182616e-08,0.00000000000000e+00,7.00000000000000e-01,1.94569443476159e-04
9.84752261356705e-08,0.00000000000000e+00,7.00000000000000e-01,-1.83180718344379e-04
1.00702357998422e-07,0.00000000000000e+00,7.00000000000000e-01,1.77996276055838e-04
1.04232129506652e-07,0.00000000000000e+00,7.00000000000000e-01,-1.73373116423268e-04
1.05000000000000e-07,0.00000000000000e+00,7.00000000000000e-01,1.56496409065746e-04
1.05010000000000e-07,6.99999999999867e-02,7.00000000000000e-01,2.18280279963144e-04
1.05030000000000e-07,2.09999999999960e-01,7.00000000000000e-01,2.82945763826176e-04
1.05070000000000e-07,4.89999999999907e-01,7.00000000000000e-01,2.10019977519918e-05
1.05100000000000e-07,6.99999999999960e-01,7.00000000000000e-01,-2.20578566475821e-03
1.05108000000000e-07,7.00000000000000e-01,7.00000000000000e-01,-3.19801941148859e-03
1.05124000000000e-07,7.00000000000000e-01,7.00000000000000e-01,-4.88216008768416e-03
1.05156000000000e-07,7.00000000000000e-01,7.00000000000000e-01,-5.22694335365501e-03
1.05220000000000e-07,7.00000000000000e-01,7.00000000000000e-01,9.18596114306488e-02
1.05348000000000e-07,7.00000000000000e-01,7.00000000000000e-01,5.83353634891372e-01
1.05604000000000e-07,7.00000000000000e-01,7.00000000000000e-01,7.25868194796231e-01
1.05889888895234e-07,7.00000000000000e-01,7.00000000000000e-01,6.75861232758011e-01
1.06458419418488e-07,7.00000000000000e-01,7.00000000000000e-01,7.21132843949138e-01
1.07208185240824e-07,7.00000000000000e-01,7.00000000000000e-01,6.78782736729247e-01
