Time,v(clk),v(data),v(out),v(reset)
1.00000000000000e-08,7.00000000000000e-01,0.00000000000000e+00,2.63952287972331e-05,0.00000000000000e+00
1.00100000000000e-08,7.00000000000000e-01,6.99999999999983e-02,2.08787922493375e-05,0.00000000000000e+00
1.00300000000000e-08,7.00000000000000e-01,2.09999999999995e-01,1.29629515455837e-05,0.00000000000000e+00
1.00700000000000e-08,7.00000000000000e-01,4.89999999999988e-01,6.39972694067847e-06,0.00000000000000e+00
1.01000000000000e-08,7.00000000000000e-01,6.99999999999995e-01,5.20458468021567e-06,0.00000000000000e+00
1.01080000000000e-08,7.00000000000000e-01,7.00000000000000e-01,5.02379745944553e-06,0.00000000000000e+00
1.01240000000000e-08,7.00000000000000e-01,7.00000000000000e-01,5.12888557611946e-06,0.00000000000000e+00
1.01560000000000e-08,7.00000000000000e-01,7.00000000000000e-01,5.92457974824684e-06,0.00000000000000e+00
1.02200000000000e-08,7.00000000000000e-01,7.00000000000000e-01,5.57738927607632e-06,0.00000000000000e+00
1.03480000000000e-08,7.00000000000000e-01,7.00000000000000e-01,3.72718636747899e-06,0.00000000000000e+00
1.06040000000000e-08,7.00000000000000e-01,7.00000000000000e-01,4.54591383033248e-06,0.00000000000000e+00
1.11160000000000e-08,7.00000000000000e-01,7.00000000000000e-01,3.83820370899665e-06,0.00000000000000e+00
1.21400000000000e-08,7.00000000000000e-01,7.00000000000000e-01,3.91408121490702e-06,0.00000000000000e+00
1.41880000000000e-08,7.00000000000000e-01,7.00000000000000e-01,3.07661674410920e-06,0.00000000000000e+00
1.51000000000000e-08,7.00000000000000e-01,7.00000000000000e-01,3.33173491143431e-06,0.00000000000000e+00
1.51100000000000e-08,6.29999999999990e-01,7.00000000000000e-01,1.72770976016083e-04,7.00000000000099e-02
1.51300000000000e-08,4.89999999999994e-01,7.00000000000000e-01,3.14106692734309e-04,2.10000000000007e-01
1.51700000000000e-08,2.10000000000000e-01,7.00000000000000e-01,2.08421761052541e-04,4.90000000000000e-01
1.52000000000000e-08,0.00000000000000e+00,7.00000000000000e-01,1.69606476827851e-04,7.00000000000000e-01
1.52080000000000e-08,0.00000000000000e+00,7.00000000000000e-01,1.49659248537402e-04,7.00000000000000e-01
1.52240000000000e-08,0.00000000000000e+00,7.00000000000000e-01,1.17123743432604e-04,7.00000000000000e-01
1.52560000000000e-08,0.00000000000000e+00,7.00000000000000e-01,5.70602261826467e-05,7.00000000000000e-01
1.53200000000000e-08,0.00000000000000e+00,7.00000000000000e-01,-1.34178446801095e-04,7.00000000000000e-01
1.54480000000000e-08,0.00000000000000e+00,7.00000000000000e-01,-2.30726644637219e-04,7.00000000000000e-01
1.56759344252020e-08,0.00000000000000e+00,7.00000000000000e-01,-7.69065330557921e-05,7.00000000000000e-01
1.60796162045681e-08,0.00000000000000e+00,7.00000000000000e-01,2.80328102160339e-05,7.00000000000000e-01
1.65523733349780e-08,0.00000000000000e+00,7.00000000000000e-01,1.56920067368217e-04,7.00000000000000e-01
1.74978875957978e-08,0.00000000000000e+00,7.00000000000000e-01,-1.87776252119389e-04,7.00000000000000e-01
1.85462987022062e-08,0.00000000000000e+00,7.00000000000000e-01,2.03617631203606e-04,7.00000000000000e-01
2.06366234219748e-08,0.00000000000000e+00,7.00000000000000e-01,-2.02276089823242e-04,7.00000000000000e-01
2.37007948435264e-08,0.00000000000000e+00,7.00000000000000e-01,2.04654691152532e-04,7.00000000000000e-01
2.50000000000000e-08,0.00000000000000e+00,7.00000000000000e-01,-1.97759439079231e-04,7.00000000000000e-01
2.50100000000000e-08,6.99999999999867e-02,7.00000000000000e-01,-4.72789626100381e-05,7.00000000000000e-01
2.50300000000000e-08,2.10000000000007e-01,7.00000000000000e-01,1.84832404926852e-04,7.00000000000000e-01
2.50700000000000e-08,4.90000000000000e-01,7.00000000000000e-01,3.52641123911153e-04,7.00000000000000e-01
2.51000000000000e-08,7.00000000000000e-01,7.00000000000000e-01,-5.54934505744842e-04,7.00000000000000e-01
2.51080000000000e-08,7.00000000000000e-01,7.00000000000000e-01,-1.17731937728522e-03,7.00000000000000e-01
2.51240000000000e-08,7.00000000000000e-01,7.00000000000000e-01,-2.46911833547322e-03,7.00000000000000e-01
2.51560000000000e-08,7.00000000000000e-01,7.00000000000000e-01,-4.65418606843809e-03,7.00000000000000e-01
2.52200000000000e-08,7.00000000000000e-01,7.00000000000000e-01,-3.79029009911137e-03,7.00000000000000e-01
2.53480000000000e-08,7.00000000000000e-01,7.00000000000000e-01,1.71066911115631e-01,7.00000000000000e-01
2.56040000000000e-08,7.00000000000000e-01,7.00000000000000e-01,6.63397513560253e-01,7.00000000000000e-01
2.61160000000000e-08,7.00000000000000e-01,7.00000000000000e-01,7.12027870439236e-01,7.00000000000000e-01
2.66875859669570e-08,7.00000000000000e-01,7.00000000000000e-01,6.88119044034906e-01,7.00000000000000e-01
2.76585905147226e-08,7.00000000000000e-01,7.00000000000000e-01,7.10005655449651e-01,7.00000000000000e-01
2.89177604623638e-08,7.00000000000000e-01,7.00000000000000e-01,6.89819969082813e-01,7.00000000000000e-01
3.14361003576463e-08,7.00000000000000e-01,7.00000000000000e-01,7.09271246337123e-01,7.00000000000000e-01
3.51000000000000e-08,6.99999999999965e-01,7.00000000000000e-01,6.90332055130547e-01,7.00000000000000e-01
3.51100000000000e-08,6.29999999999979e-01,7.00000000000000e-01,6.93935628781068e-01,7.00000000000000e-01
3.51300000000000e-08,4.89999999999959e-01,7.00000000000000e-01,6.98387550531194e-01,7.00000000000000e-01
3.51700000000000e-08,2.09999999999966e-01,7.00000000000000e-01,7.00721335709604e-01,7.00000000000000e-01
3.52000000000000e-08,0.00000000000000e+00,7.00000000000000e-01,7.02432692737873e-01,7.00000000000000e-01
3.52080000000000e-08,0.00000000000000e+00,7.00000000000000e-01,7.02835477897829e-01,7.00000000000000e-01
3.52240000000000e-08,0.00000000000000e+00,7.00000000000000e-01,7.03074742655920e-01,7.00000000000000e-01
3.52560000000000e-08,0.00000000000000e+00,7.00000000000000e-01,6.99461856373577e-01,7.00000000000000e-01
3.53200000000000e-08,0.00000000000000e+00,7.00000000000000e-01,6.81005309264431e-01,7.00000000000000e-01
3.54480000000000e-08,0.00000000000000e+00,7.00000000000000e-01,6.77318916326111e-01,7.00000000000000e-01
3.57040000000000e-08,0.00000000000000e+00,7.00000000000000e-01,7.03401885621242e-01,7.00000000000000e-01
3.61235572096722e-08,0.00000000000000e+00,7.00000000000000e-01,6.96329824581220e-01,7.00000000000000e-01
3.67439498535000e-08,0.00000000000000e+00,7.00000000000000e-01,7.02413211148989e-01,7.00000000000000e-01
3.79847351411556e-08,0.00000000000000e+00,7.00000000000000e-01,6.97327461689471e-01,7.00000000000000e-01
4.04663057164668e-08,0.00000000000000e+00,7.00000000000000e-01,7.02275075213787e-01,7.00000000000000e-01
4.42663057164669e-08,0.00000000000000e+00,7.00000000000000e-01,6.97595537737425e-01,7.00000000000000e-01
4.50000000000000e-08,0.00000000000000e+00,7.00000000000000e-01,7.01926364427918e-01,7.00000000000000e-01
4.50100000000000e-08,6.99999999999867e-02,7.00000000000000e-01,7.01268355429909e-01,6.30000000000013e-01
4.50300000000000e-08,2.10000000000007e-01,7.00000000000000e-01,7.00335497219152e-01,4.89999999999994e-01
4.50700000000000e-08,4.90000000000000e-01,7.00000000000000e-01,7.01980256791925e-01,2.10000000000000e-01
4.51000000000000e-08,7.00000000000000e-01,7.00000000000000e-01,7.07749654352423e-01,0.00000000000000e+00
4.51080000000000e-08,7.00000000000000e-01,7.00000000000000e-01,7.09665522884128e-01,0.00000000000000e+00
4.51240000000000e-08,7.00000000000000e-01,7.00000000000000e-01,7.13037240164924e-01,0.00000000000000e+00
4.51560000000000e-08,7.00000000000000e-01,7.00000000000000e-01,7.19612111310574e-01,0.00000000000000e+00
4.52200000000000e-08,7.00000000000000e-01,7.00000000000000e-01,6.85738653149130e-01,0.00000000000000e+00
4.53480000000000e-08,7.00000000000000e-01,7.00000000000000e-01,2.79836844845799e-01,0.00000000000000e+00
4.55783883024698e-08,7.00000000000000e-01,7.00000000000000e-01,-4.84637622173071e-02,0.00000000000000e+00
4.58841046793431e-08,7.00000000000000e-01,7.00000000000000e-01,3.02071643204616e-02,0.00000000000000e+00
4.64955374330896e-08,7.00000000000000e-01,7.00000000000000e-01,-2.21508118168809e-02,0.00000000000000e+00
4.71413033273998e-08,7.00000000000000e-01,7.00000000000000e-01,1.82820730124847e-02,0.00000000000000e+00
4.84328351160203e-08,7.00000000000000e-01,7.00000000000000e-01,-1.58611473154950e-02,0.00000000000000e+00
5.01000000000000e-08,7.00000000000000e-01,6.99999999999960e-01,1.50227011460728e-02,0.00000000000000e+00
5.03583063577241e-08,7.00000000000000e-01,7.00000000000000e-01,1.69050386112323e-03,0.00000000000000e+00
5.08749190731723e-08,7.00000000000000e-01,7.00000000000000e-01,-1.20260676129644e-03,0.00000000000000e+00
5.19081445040687e-08,7.00000000000000e-01,7.00000000000000e-01,1.02660550910585e-03,0.00000000000000e+00
5.39745953658614e-08,7.00000000000000e-01,7.00000000000000e-01,-9.43057976728567e-04,0.00000000000000e+00
5.51000000000000e-08,7.00000000000000e-01,7.00000000000000e-01,8.14974893896716e-04,0.00000000000000e+00
5.51100000000000e-08,6.30000000000025e-01,7.00000000000000e-01,7.99152544470771e-04,6.99999999999752e-02
5.51300000000000e-08,4.90000000000005e-01,7.00000000000000e-01,6.87336246146496e-04,2.09999999999995e-01
5.51700000000000e-08,2.10000000000012e-01,7.00000000000000e-01,3.56687861083012e-04,4.89999999999988e-01
5.52000000000000e-08,0.00000000000000e+00,7.00000000000000e-01,2.34259862933434e-04,7.00000000000000e-01
5.52080000000000e-08,0.00000000000000e+00,7.00000000000000e-01,2.02649682177543e-04,7.00000000000000e-01
5.52240000000000e-08,0.00000000000000e+00,7.00000000000000e-01,1.41015498482520e-04,7.00000000000000e-01
5.52560000000000e-08,0.00000000000000e+00,7.00000000000000e-01,-9.51944689682044e-05,7.00000000000000e-01
5.53200000000000e-08,0.00000000000000e+00,7.00000000000000e-01,-1.07446407503441e-03,7.00000000000000e-01
5.54480000000000e-08,0.00000000000000e+00,7.00000000000000e-01,-7.31771404412773e-04,7.00000000000000e-01
5.56574478968542e-08,0.00000000000000e+00,7.00000000000000e-01,4.77745726020048e-04,7.00000000000000e-01
5.60721737346637e-08,0.00000000000000e+00,7.00000000000000e-01,-5.15220278250909e-04,7.00000000000000e-01
5.65220433788031e-08,0.00000000000000e+00,7.00000000000000e-01,4.55652318505174e-04,7.00000000000000e-01
5.74217826670819e-08,0.00000000000000e+00,7.00000000000000e-01,-3.72553842778873e-04,7.00000000000000e-01
5.84362995973447e-08,0.00000000000000e+00,7.00000000000000e-01,3.16190952404303e-04,7.00000000000000e-01
6.04288563059118e-08,0.00000000000000e+00,7.00000000000000e-01,-2.84007199864710e-04,7.00000000000000e-01
6.33996981736205e-08,0.00000000000000e+00,7.00000000000000e-01,2.70383022044103e-04,7.00000000000000e-01
6.50000000000000e-08,0.00000000000000e+00,7.00000000000000e-01,-2.35709518025679e-04,7.00000000000000e-01
6.50100000000000e-08,6.99999999999867e-02,7.00000000000000e-01,-8.22683057810220e-05,7.00000000000000e-01
6.50300000000000e-08,2.09999999999960e-01,7.00000000000000e-01,1.37285971043448e-04,7.00000000000000e-01
6.50700000000000e-08,4.89999999999907e-01,7.00000000000000e-01,3.10829496791544e-04,7.00000000000000e-01
6.51000000000000e-08,6.99999999999960e-01,7.00000000000000e-01,-5.68674430955214e-04,7.00000000000000e-01
6.51080000000000e-08,7.00000000000000e-01,7.00000000000000e-01,-1.18805630482874e-03,7.00000000000000e-01
6.51240000000000e-08,7.00000000000000e-01,7.00000000000000e-01,-2.47524900308300e-03,7.00000000000000e-01
6.51560000000000e-08,7.00000000000000e-01,7.00000000000000e-01,-4.65639197772773e-03,7.00000000000000e-01
6.52200000000000e-08,7.00000000000000e-01,7.00000000000000e-01,-3.92282916566649e-03,7.00000000000000e-01
6.53480000000000e-08,7.00000000000000e-01,7.00000000000000e-01,1.69307302575005e-01,7.00000000000000e-01
6.56040000000000e-08,7.00000000000000e-01,7.00000000000000e-01,6.62593468502012e-01,7.00000000000000e-01
6.61159999999999e-08,7.00000000000000e-01,7.00000000000000e-01,7.12282134048177e-01,7.00000000000000e-01
6.66875089808628e-08,7.00000000000000e-01,7.00000000000000e-01,6.87854150710910e-01,7.00000000000000e-01
6.76595417986615e-08,7.00000000000000e-01,7.00000000000000e-01,7.10232292869597e-01,7.00000000000000e-01
6.89194631664428e-08,7.00000000000000e-01,7.00000000000000e-01,6.89585127018957e-01,7.00000000000000e-01
7.14393059020055e-08,7.00000000000000e-01,7.00000000000000e-01,7.09484316488263e-01,7.00000000000000e-01
7.51000000000000e-08,7.00000000000000e-01,7.00000000000000e-01,6.90107169209948e-01,7.00000000000000e-01
7.51100000000000e-08,6.30000000000071e-01,7.00000000000000e-01,6.93799916379600e-01,7.00000000000000e-01
7.51300000000000e-08,4.90000000000098e-01,7.00000000000000e-01,6.98359337171407e-01,7.00000000000000e-01
7.51700000000000e-08,2.10000000000151e-01,7.00000000000000e-01,7.00725541189201e-01,7.00000000000000e-01
7.52000000000000e-08,9.80326930744013e-14,7.00000000000000e-01,7.02432638333453e-01,7.00000000000000e-01
7.52080000000000e-08,0.00000000000000e+00,7.00000000000000e-01,7.02835201328237e-01,7.00000000000000e-01
7.52240000000000e-08,0.00000000000000e+00,7.00000000000000e-01,7.03073401084293e-01,7.00000000000000e-01
7.52560000000000e-08,0.00000000000000e+00,7.00000000000000e-01,6.99454706401708e-01,7.00000000000000e-01
7.53200000000000e-08,0.00000000000000e+00,7.00000000000000e-01,6.80993298133525e-01,7.00000000000000e-01
7.54480000000000e-08,0.00000000000000e+00,7.00000000000000e-01,6.77319723869516e-01,7.00000000000000e-01
7.57040000000000e-08,0.00000000000000e+00,7.00000000000000e-01,7.03403144505108e-01,7.00000000000000e-01
7.61235461672671e-08,0.00000000000000e+00,7.00000000000000e-01,6.96328624740760e-01,7.00000000000000e-01
7.67439473325350e-08,0.00000000000000e+00,7.00000000000000e-01,7.02414091042416e-01,7.00000000000000e-01
7.79847496630708e-08,0.00000000000000e+00,7.00000000000000e-01,6.97326610550100e-01,7.00000000000000e-01
8.04663543241423e-08,0.00000000000000e+00,7.00000000000000e-01,7.02275871790421e-01,7.00000000000000e-01
8.42663543241423e-08,0.00000000000000e+00,7.00000000000000e-01,6.97594756419003e-01,7.00000000000000e-01
8.50000000000000e-08,0.00000000000000e+00,7.00000000000000e-01,7.01927008935245e-01,7.00000000000000e-01
8.50100000000000e-08,6.99999999999867e-02,7.00000000000000e-01,7.01268821936169e-01,6.30000000000013e-01
8.50300000000000e-08,2.09999999999960e-01,7.00000000000000e-01,7.00335705980418e-01,4.90000000000040e-01
8.50700000000000e-08,4.89999999999907e-01,7.00000000000000e-01,7.01980287374370e-01,2.10000000000093e-01
8.51000000000000e-08,6.99999999999960e-01,7.00000000000000e-01,7.07749698026964e-01,4.00790511889682e-14
8.51080000000000e-08,7.00000000000000e-01,7.00000000000000e-01,7.09665569922915e-01,0.00000000000000e+00
8.51240000000000e-08,7.00000000000000e-01,7.00000000000000e-01,7.13037285893790e-01,0.00000000000000e+00
8.51560000000000e-08,7.00000000000000e-01,7.00000000000000e-01,7.19612128856232e-01,0.00000000000000e+00
8.52200000000000e-08,7.00000000000000e-01,7.00000000000000e-01,6.85738051921750e-01,0.00000000000000e+00
8.53480000000000e-08,7.00000000000000e-01,7.00000000000000e-01,2.79836047566564e-01,0.00000000000000e+00
8.55783887501877e-08,7.00000000000000e-01,7.00000000000000e-01,-4.84637828391914e-02,0.00000000000000e+00
8.58841054392766e-08,7.00000000000000e-01,7.00000000000000e-01,3.02071985374788e-02,0.00000000000000e+00
8.64955388174544e-08,7.00000000000000e-01,7.00000000000000e-01,-2.21507867724382e-02,0.00000000000000e+00
8.71413060730463e-08,7.00000000000000e-01,7.00000000000000e-01,1.82820804062415e-02,0.00000000000000e+00
8.84328405842302e-08,7.00000000000000e-01,7.00000000000000e-01,-1.58611220848503e-02,0.00000000000000e+00
9.01000000000000e-08,7.00000000000000e-01,6.99999999999960e-01,1.50226909664327e-02,0.00000000000000e+00
9.03583069022368e-08,7.00000000000000e-01,7.00000000000000e-01,1.69050721111203e-03,0.00000000000000e+00
9.08749207067103e-08,7.00000000000000e-01,7.00000000000000e-01,-1.20260939251699e-03,0.00000000000000e+00
9.19081483156574e-08,7.00000000000000e-01,7.00000000000000e-01,1.02660786583568e-03,0.00000000000000e+00
9.39746035335516e-08,7.00000000000000e-01,7.00000000000000e-01,-9.43060176781741e-04,0.00000000000000e+00
9.51000000000000e-08,7.00000000000000e-01,7.00000000000000e-01,8.14975625609336e-04,0.00000000000000e+00
9.51100000000000e-08,6.30000000000071e-01,7.00000000000000e-01,7.99153906286626e-04,6.99999999999288e-02
9.51300000000000e-08,4.90000000000098e-01,7.00000000000000e-01,6.87337479015331e-04,2.09999999999902e-01
9.51700000000000e-08,2.10000000000151e-01,7.00000000000000e-01,3.56688353958287e-04,4.89999999999849e-01
9.52000000000000e-08,9.80326930744013e-14,7.00000000000000e-01,2.34260120168722e-04,6.99999999999902e-01
9.52080000000000e-08,0.00000000000000e+00,7.00000000000000e-01,2.02649881909205e-04,7.00000000000000e-01
9.52240000000000e-08,0.00000000000000e+00,7.00000000000000e-01,1.41015939795625e-04,7.00000000000000e-01
9.52560000000000e-08,0.00000000000000e+00,7.00000000000000e-01,-9.51928057431120e-05,7.00000000000000e-01
9.53200000000000e-08,0.00000000000000e+00,7.00000000000000e-01,-1.07445490310899e-03,7.00000000000000e-01
9.54480000000000e-08,0.00000000000000e+00,7.00000000000000e-01,-7.31765199618515e-04,7.00000000000000e-01
9.56574408331904e-08,0.00000000000000e+00,7.00000000000000e-01,4.77740237048385e-04,7.00000000000000e-01
9.60721721414220e-08,0.00000000000000e+00,7.00000000000000e-01,-5.15217909025707e-04,7.00000000000000e-01
9.65220335908487e-08,0.00000000000000e+00,7.00000000000000e-01,4.55648279092939e-04,7.00000000000000e-01
9.74217564897022e-08,0.00000000000000e+00,7.00000000000000e-01,-3.72547586708763e-04,7.00000000000000e-01
9.84362616264371e-08,0.00000000000000e+00,7.00000000000000e-01,3.16183931387014e-04,7.00000000000000e-01
1.00428781755416e-07,0.00000000000000e+00,7.00000000000000e-01,-2.83999722035004e-04,7.00000000000000e-01
1.03399589141420e-07,0.00000000000000e+00,7.00000000000000e-01,2.70375445293419e-04,7.00000000000000e-01
1.05000000000000e-07,0.00000000000000e+00,7.00000000000000e-01,-2.35704146288197e-04,7.00000000000000e-01
1.05010000000000e-07,6.99999999999867e-02,7.00000000000000e-01,-8.22648931629449e-05,7.00000000000000e-01
1.05030000000000e-07,2.09999999999960e-01,7.00000000000000e-01,1.37287126792597e-04,7.00000000000000e-01
1.05070000000000e-07,4.89999999999907e-01,7.00000000000000e-01,3.10829249128293e-04,7.00000000000000e-01
1.05100000000000e-07,6.99999999999960e-01,7.00000000000000e-01,-5.68676178612691e-04,7.00000000000000e-01
1.05108000000000e-07,7.00000000000000e-01,7.00000000000000e-01,-1.18805839150849e-03,7.00000000000000e-01
1.05124000000000e-07,7.00000000000000e-01,7.00000000000000e-01,-2.47525133050671e-03,7.00000000000000e-01
1.05156000000000e-07,7.00000000000000e-01,7.00000000000000e-01,-4.65639362326771e-03,7.00000000000000e-01
1.05220000000000e-07,7.00000000000000e-01,7.00000000000000e-01,-3.92282651950985e-03,7.00000000000000e-01
1.05348000000000e-07,7.00000000000000e-01,7.00000000000000e-01,1.69307359734210e-01,7.00000000000000e-01
1.05604000000000e-07,7.00000000000000e-01,7.00000000000000e-01,6.62593496278764e-01,7.00000000000000e-01
1.06116000000000e-07,7.00000000000000e-01,7.00000000000000e-01,7.12282125285212e-01,7.00000000000000e-01
1.06687508982622e-07,7.00000000000000e-01,7.00000000000000e-01,6.87854159843045e-01,7.00000000000000e-01
1.07659541762103e-07,7.00000000000000e-01,7.00000000000000e-01,7.10232285062532e-01,7.00000000000000e-01
1.08919463103536e-07,7.00000000000000e-01,7.00000000000000e-01,6.89585135123347e-01,7.00000000000000e-01
1.11439305786401e-07,7.00000000000000e-01,7.00000000000000e-01,7.09484309143498e-01,7.00000000000000e-01
1.15100000000000e-07,7.00000000000000e-01,7.00000000000000e-01,6.90107176967107e-01,7.00000000000000e-01
1.15110000000000e-07,6.30000000000071e-01,7.00000000000000e-01,6.93799921061646e-01,7.00000000000000e-01
1.15130000000000e-07,4.90000000000098e-01,7.00000000000000e-01,6.98359338147886e-01,7.00000000000000e-01
1.15170000000000e-07,2.10000000000151e-01,7.00000000000000e-01,7.00725541044439e-01,7.00000000000000e-01
