Time,v(clk),v(data),v(out)
1.00000000000000e-08,3.30000000000000e-01,0.00000000000000e+00,3.42292207795684e-05
1.00100000000000e-08,3.30000000000000e-01,3.29999999999992e-02,3.34177053993058e-05
1.00300000000000e-08,3.30000000000000e-01,9.89999999999976e-02,3.26643286265270e-05
1.00700000000000e-08,3.30000000000000e-01,2.30999999999994e-01,3.12048395840203e-05
1.01000000000000e-08,3.30000000000000e-01,3.29999999999998e-01,2.99752336067223e-05
1.01080000000000e-08,3.30000000000000e-01,3.30000000000000e-01,2.94109168634468e-05
1.01240000000000e-08,3.30000000000000e-01,3.30000000000000e-01,2.84832031659035e-05
1.01560000000000e-08,3.30000000000000e-01,3.30000000000000e-01,2.65110905763102e-05
1.02200000000000e-08,3.30000000000000e-01,3.30000000000000e-01,2.37110127458452e-05
1.03480000000000e-08,3.30000000000000e-01,3.30000000000000e-01,2.04571468101055e-05
1.06040000000000e-08,3.30000000000000e-01,3.30000000000000e-01,1.99568542512425e-05
1.11160000000000e-08,3.30000000000000e-01,3.30000000000000e-01,1.85289220273038e-05
1.21400000000000e-08,3.30000000000000e-01,3.30000000000000e-01,1.69273409627397e-05
1.41880000000000e-08,3.30000000000000e-01,3.30000000000000e-01,1.41806750252977e-05
1.51000000000000e-08,3.30000000000000e-01,3.30000000000000e-01,1.46524524749095e-05
1.51100000000000e-08,2.96999999999995e-01,3.30000000000000e-01,-1.23539594465774e-06
1.51300000000000e-08,2.30999999999997e-01,3.30000000000000e-01,-3.26139899560485e-05
1.51700000000000e-08,9.90000000000001e-02,3.30000000000000e-01,-9.95901244596684e-05
1.52000000000000e-08,0.00000000000000e+00,3.30000000000000e-01,-1.42922873130662e-04
1.52080000000000e-08,0.00000000000000e+00,3.30000000000000e-01,-1.33035325788438e-04
1.52240000000000e-08,0.00000000000000e+00,3.30000000000000e-01,-1.14695623911663e-04
1.52560000000000e-08,0.00000000000000e+00,3.30000000000000e-01,-7.71619364571922e-05
1.53200000000000e-08,0.00000000000000e+00,3.30000000000000e-01,-1.68151104694356e-05
1.54480000000000e-08,0.00000000000000e+00,3.30000000000000e-01,5.32728044050426e-05
1.57040000000000e-08,0.00000000000000e+00,3.30000000000000e-01,8.44167617677274e-05
1.62160000000000e-08,0.00000000000000e+00,3.30000000000000e-01,4.00680707473323e-05
1.72400000000000e-08,0.00000000000000e+00,3.30000000000000e-01,-3.40110746548852e-05
1.92880000000000e-08,0.00000000000000e+00,3.30000000000000e-01,-1.08357773266265e-05
2.30880000000000e-08,0.00000000000000e+00,3.30000000000000e-01,-2.71180762741277e-05
2.50000000000000e-08,0.00000000000000e+00,3.30000000000000e-01,-3.83012325937300e-06
2.50100000000000e-08,3.29999999999937e-02,3.30000000000000e-01,1.92700961432583e-05
2.50300000000000e-08,9.90000000000031e-02,3.30000000000000e-01,5.80664221496545e-05
2.50700000000000e-08,2.31000000000000e-01,3.30000000000000e-01,1.08945360817535e-04
2.51000000000000e-08,3.30000000000000e-01,3.30000000000000e-01,1.20834240643772e-04
2.51080000000000e-08,3.30000000000000e-01,3.30000000000000e-01,1.08518024450714e-04
2.51240000000000e-08,3.30000000000000e-01,3.30000000000000e-01,8.26481757081228e-05
2.51560000000000e-08,3.30000000000000e-01,3.30000000000000e-01,2.39588412428333e-05
2.52200000000000e-08,3.30000000000000e-01,3.30000000000000e-01,-1.17684408775590e-04
2.53480000000000e-08,3.30000000000000e-01,3.30000000000000e-01,-5.05598958939587e-04
2.56040000000000e-08,3.30000000000000e-01,3.30000000000000e-01,-1.29424392459735e-03
2.61160000000000e-08,3.30000000000000e-01,3.30000000000000e-01,-2.24904784537924e-03
2.71400000000000e-08,3.30000000000000e-01,3.30000000000000e-01,1.42947719252496e-02
2.91880000000000e-08,3.30000000000000e-01,3.30000000000000e-01,1.94744074258864e-01
3.01000000000000e-08,3.30000000000000e-01,3.30000000000000e-01,2.89755911740664e-01
3.01100000000000e-08,3.30000000000000e-01,2.97000000000017e-01,2.90412959814210e-01
3.01300000000000e-08,3.30000000000000e-01,2.31000000000008e-01,2.91714981140462e-01
3.01700000000000e-08,3.30000000000000e-01,9.90000000000111e-02,2.94221923893746e-01
3.02000000000000e-08,3.30000000000000e-01,7.93809462606987e-15,2.95993983467711e-01
3.02080000000000e-08,3.30000000000000e-01,0.00000000000000e+00,2.96450671771832e-01
3.02240000000000e-08,3.30000000000000e-01,0.00000000000000e+00,2.97374529285109e-01
3.02560000000000e-08,3.30000000000000e-01,0.00000000000000e+00,2.99103756976266e-01
3.03200000000000e-08,3.30000000000000e-01,0.00000000000000e+00,3.02289923682414e-01
3.04480000000000e-08,3.30000000000000e-01,0.00000000000000e+00,3.07732389683793e-01
3.07040000000000e-08,3.30000000000000e-01,0.00000000000000e+00,3.15639146372300e-01
3.12160000000000e-08,3.30000000000000e-01,0.00000000000000e+00,3.24128093209087e-01
3.22400000000000e-08,3.30000000000000e-01,0.00000000000000e+00,3.29047314771841e-01
3.42880000000000e-08,3.30000000000000e-01,0.00000000000000e+00,3.29714948320212e-01
3.51000000000000e-08,3.29999999999984e-01,0.00000000000000e+00,3.29701086567732e-01
3.51100000000000e-08,2.96999999999990e-01,0.00000000000000e+00,3.29683051593855e-01
3.51300000000000e-08,2.30999999999981e-01,0.00000000000000e+00,3.29649478248959e-01
3.51700000000000e-08,9.89999999999837e-02,0.00000000000000e+00,3.29599971539263e-01
3.52000000000000e-08,0.00000000000000e+00,0.00000000000000e+00,3.29634261215057e-01
3.52080000000000e-08,0.00000000000000e+00,0.00000000000000e+00,3.29667848835256e-01
3.52240000000000e-08,0.00000000000000e+00,0.00000000000000e+00,3.29729116546381e-01
3.52560000000000e-08,0.00000000000000e+00,0.00000000000000e+00,3.29833159309141e-01
3.53200000000000e-08,0.00000000000000e+00,0.00000000000000e+00,3.29984998884778e-01
3.54480000000000e-08,0.00000000000000e+00,0.00000000000000e+00,3.30145379599570e-01
3.57040000000000e-08,0.00000000000000e+00,0.00000000000000e+00,3.30120130700646e-01
3.62160000000000e-08,0.00000000000000e+00,0.00000000000000e+00,3.29113519825258e-01
3.72400000000000e-08,0.00000000000000e+00,0.00000000000000e+00,3.23827461634040e-01
3.91000000000000e-08,0.00000000000000e+00,0.00000000000000e+00,3.16554544148542e-01
3.93048000000000e-08,0.00000000000000e+00,0.00000000000000e+00,3.16779947838170e-01
3.97144000000000e-08,0.00000000000000e+00,0.00000000000000e+00,3.17654268119747e-01
4.05336000000000e-08,0.00000000000000e+00,0.00000000000000e+00,3.20660497083736e-01
4.21720000000000e-08,0.00000000000000e+00,0.00000000000000e+00,3.25650878918845e-01
4.50000000000000e-08,0.00000000000000e+00,0.00000000000000e+00,3.28189093574620e-01
4.50100000000000e-08,3.29999999999937e-02,0.00000000000000e+00,3.28203380962897e-01
4.50300000000000e-08,9.90000000000031e-02,0.00000000000000e+00,3.28228729217432e-01
4.50700000000000e-08,2.31000000000000e-01,0.00000000000000e+00,3.28260996802298e-01
4.51000000000000e-08,3.30000000000000e-01,0.00000000000000e+00,3.28265915927873e-01
4.51080000000000e-08,3.30000000000000e-01,0.00000000000000e+00,3.28256588978349e-01
4.51240000000000e-08,3.30000000000000e-01,0.00000000000000e+00,3.28239109251744e-01
4.51560000000000e-08,3.30000000000000e-01,0.00000000000000e+00,3.28208995246920e-01
4.52200000000000e-08,3.30000000000000e-01,0.00000000000000e+00,3.28167809793881e-01
4.53480000000000e-08,3.30000000000000e-01,0.00000000000000e+00,3.28121209548187e-01
4.56040000000000e-08,3.30000000000000e-01,0.00000000000000e+00,3.28114930196066e-01
4.61160000000000e-08,3.30000000000000e-01,0.00000000000000e+00,3.28233912303367e-01
4.71400000000000e-08,3.30000000000000e-01,0.00000000000000e+00,3.28769015619397e-01
4.91880000000000e-08,3.30000000000000e-01,0.00000000000000e+00,3.31226154086559e-01
5.00000000000000e-08,3.30000000000000e-01,0.00000000000000e+00,3.26560598174523e-01
5.00100000000000e-08,3.30000000000000e-01,3.29999999999937e-02,3.26428060427812e-01
5.00300000000000e-08,3.30000000000000e-01,9.89999999999812e-02,3.26157484200824e-01
5.00700000000000e-08,3.30000000000000e-01,2.31000000000000e-01,3.25567213134013e-01
5.01000000000000e-08,3.30000000000000e-01,3.30000000000000e-01,3.25065511684484e-01
5.01080000000000e-08,3.30000000000000e-01,3.30000000000000e-01,3.24939212926994e-01
5.01240000000000e-08,3.30000000000000e-01,3.30000000000000e-01,3.24647364428086e-01
5.01560000000000e-08,3.30000000000000e-01,3.30000000000000e-01,3.23947975666420e-01
5.02200000000000e-08,3.30000000000000e-01,3.30000000000000e-01,3.22373253922601e-01
5.03480000000000e-08,3.30000000000000e-01,3.30000000000000e-01,3.18266736136333e-01
5.06040000000000e-08,3.30000000000000e-01,3.30000000000000e-01,3.03165155283899e-01
5.11160000000001e-08,3.30000000000000e-01,3.30000000000000e-01,2.34468621366166e-01
5.21400000000002e-08,3.30000000000000e-01,3.30000000000000e-01,5.58333478711009e-02
5.41880000000003e-08,3.30000000000000e-01,3.30000000000000e-01,-1.75074786847948e-02
5.51000000000000e-08,3.30000000000000e-01,3.30000000000000e-01,5.96595075616619e-03
5.51100000000000e-08,2.97000000000012e-01,3.30000000000000e-01,5.66204629463792e-03
5.51300000000000e-08,2.31000000000002e-01,3.30000000000000e-01,5.11135222595364e-03
5.51700000000000e-08,9.90000000000056e-02,3.30000000000000e-01,4.24785705279603e-03
5.52000000000000e-08,0.00000000000000e+00,3.30000000000000e-01,3.74241208726494e-03
5.52080000000000e-08,0.00000000000000e+00,3.30000000000000e-01,3.64032685785382e-03
5.52240000000000e-08,0.00000000000000e+00,3.30000000000000e-01,3.43954530996201e-03
5.52560000000000e-08,0.00000000000000e+00,3.30000000000000e-01,3.08743084722462e-03
5.53200000000000e-08,0.00000000000000e+00,3.30000000000000e-01,2.49726291396562e-03
5.54480000000000e-08,0.00000000000000e+00,3.30000000000000e-01,1.61931520723384e-03
5.57040000000000e-08,0.00000000000000e+00,3.30000000000000e-01,6.56457213556685e-04
5.62160000000000e-08,0.00000000000000e+00,3.30000000000000e-01,3.99926336502685e-05
5.72400000000000e-08,0.00000000000000e+00,3.30000000000000e-01,-1.63340003065581e-04
5.92880000000000e-08,0.00000000000000e+00,3.30000000000000e-01,-1.69974717563784e-04
6.30880000000000e-08,0.00000000000000e+00,3.30000000000000e-01,7.44945625890474e-05
6.50000000000000e-08,0.00000000000000e+00,3.30000000000000e-01,-3.55631911866591e-05
6.50100000000000e-08,3.29999999999937e-02,3.30000000000000e-01,-1.36972425045651e-05
6.50300000000000e-08,9.89999999999812e-02,3.30000000000000e-01,2.31787182863388e-05
6.50700000000000e-08,2.30999999999956e-01,3.30000000000000e-01,7.27800089955107e-05
6.51000000000000e-08,3.29999999999981e-01,3.30000000000000e-01,8.46515550216587e-05
6.51080000000000e-08,3.30000000000000e-01,3.30000000000000e-01,7.24485281883257e-05
6.51240000000000e-08,3.30000000000000e-01,3.30000000000000e-01,4.68581935220182e-05
6.51560000000000e-08,3.30000000000000e-01,3.30000000000000e-01,-1.11732533266025e-05
6.52200000000000e-08,3.30000000000000e-01,3.30000000000000e-01,-1.52182746227650e-04
6.53480000000000e-08,3.30000000000000e-01,3.30000000000000e-01,-5.33427384631918e-04
6.56040000000000e-08,3.30000000000000e-01,3.30000000000000e-01,-1.25918030916853e-03
6.61159999999999e-08,3.30000000000000e-01,3.30000000000000e-01,-2.24602295663703e-03
6.71399999999999e-08,3.30000000000000e-01,3.30000000000000e-01,1.43109986156166e-02
6.91879999999998e-08,3.30000000000000e-01,3.30000000000000e-01,1.94773058373318e-01
7.01000000000000e-08,3.30000000000000e-01,3.30000000000000e-01,2.89772476808719e-01
7.01100000000000e-08,3.30000000000000e-01,2.97000000000006e-01,2.90429302837651e-01
7.01300000000000e-08,3.30000000000000e-01,2.31000000000019e-01,2.91730865244832e-01
7.01700000000000e-08,3.30000000000000e-01,9.90000000000438e-02,2.94236857163791e-01
7.02000000000000e-08,3.30000000000000e-01,1.88737914186277e-14,2.96008257473978e-01
7.02080000000000e-08,3.30000000000000e-01,0.00000000000000e+00,2.96464773447410e-01
7.02240000000000e-08,3.30000000000000e-01,0.00000000000000e+00,2.97388284127713e-01
7.02560000000000e-08,3.30000000000000e-01,0.00000000000000e+00,2.99116838488581e-01
7.03200000000000e-08,3.30000000000000e-01,0.00000000000000e+00,3.02301722051559e-01
7.04480000000000e-08,3.30000000000000e-01,0.00000000000000e+00,3.07741898045872e-01
7.07040000000000e-08,3.30000000000000e-01,0.00000000000000e+00,3.15645189153792e-01
7.12159999999999e-08,3.30000000000000e-01,0.00000000000000e+00,3.24130510518054e-01
7.22399999999999e-08,3.30000000000000e-01,0.00000000000000e+00,3.29047694582504e-01
7.42879999999998e-08,3.30000000000000e-01,0.00000000000000e+00,3.29714845855641e-01
7.51000000000000e-08,3.30000000000000e-01,0.00000000000000e+00,3.29701059374787e-01
7.51100000000000e-08,2.97000000000034e-01,0.00000000000000e+00,3.29683024566334e-01
7.51300000000000e-08,2.31000000000046e-01,0.00000000000000e+00,3.29649454265492e-01
7.51700000000000e-08,9.90000000000711e-02,0.00000000000000e+00,3.29599953270826e-01
7.52000000000000e-08,4.61852778244065e-14,0.00000000000000e+00,3.29634246699333e-01
7.52080000000000e-08,0.00000000000000e+00,0.00000000000000e+00,3.29667834532813e-01
7.52240000000000e-08,0.00000000000000e+00,0.00000000000000e+00,3.29729102350196e-01
7.52560000000000e-08,0.00000000000000e+00,0.00000000000000e+00,3.29833143842185e-01
7.53200000000000e-08,0.00000000000000e+00,0.00000000000000e+00,3.29984979380465e-01
7.54480000000000e-08,0.00000000000000e+00,0.00000000000000e+00,3.30145351781060e-01
7.57040000000000e-08,0.00000000000000e+00,0.00000000000000e+00,3.30120088574648e-01
7.62159999999999e-08,0.00000000000000e+00,0.00000000000000e+00,3.29113436886675e-01
7.72399999999999e-08,0.00000000000000e+00,0.00000000000000e+00,3.23827281112845e-01
7.81000000000000e-08,0.00000000000000e+00,0.00000000000000e+00,3.18390813174713e-01
7.83048000000000e-08,0.00000000000000e+00,0.00000000000000e+00,3.17595629795623e-01
7.87144000000000e-08,0.00000000000000e+00,0.00000000000000e+00,3.16599587006489e-01
7.95335999999999e-08,0.00000000000000e+00,0.00000000000000e+00,3.17614067452465e-01
8.11719999999998e-08,0.00000000000000e+00,0.00000000000000e+00,3.23359765074503e-01
8.44487999999996e-08,0.00000000000000e+00,0.00000000000000e+00,3.28445059696354e-01
8.50000000000000e-08,0.00000000000000e+00,0.00000000000000e+00,3.28311823618397e-01
8.50100000000000e-08,3.29999999999937e-02,0.00000000000000e+00,3.28330831784013e-01
8.50300000000000e-08,9.89999999999812e-02,0.00000000000000e+00,3.28363379953744e-01
8.50700000000000e-08,2.30999999999956e-01,0.00000000000000e+00,3.28400660810323e-01
8.51000000000000e-08,3.29999999999981e-01,0.00000000000000e+00,3.28406720895634e-01
8.51080000000000e-08,3.30000000000000e-01,0.00000000000000e+00,3.28398306140184e-01
8.51240000000000e-08,3.30000000000000e-01,0.00000000000000e+00,3.28382183160059e-01
8.51560000000000e-08,3.30000000000000e-01,0.00000000000000e+00,3.28352826602558e-01
8.52200000000000e-08,3.30000000000000e-01,0.00000000000000e+00,3.28308290404311e-01
8.53480000000000e-08,3.30000000000000e-01,0.00000000000000e+00,3.28254669695945e-01
8.56040000000000e-08,3.30000000000000e-01,0.00000000000000e+00,3.28234582091185e-01
8.61159999999999e-08,3.30000000000000e-01,0.00000000000000e+00,3.28328921523573e-01
8.71399999999999e-08,3.30000000000000e-01,0.00000000000000e+00,3.28838034989756e-01
8.91879999999998e-08,3.30000000000000e-01,0.00000000000000e+00,3.31432206109231e-01
9.00000000000000e-08,3.30000000000000e-01,0.00000000000000e+00,3.27033145206851e-01
9.00100000000000e-08,3.30000000000000e-01,3.29999999999937e-02,3.26906035727279e-01
9.00300000000000e-08,3.30000000000000e-01,9.89999999999812e-02,3.26646551428005e-01
9.00700000000000e-08,3.30000000000000e-01,2.30999999999956e-01,3.26079797270180e-01
9.01000000000000e-08,3.30000000000000e-01,3.29999999999981e-01,3.25597295372260e-01
9.01080000000000e-08,3.30000000000000e-01,3.30000000000000e-01,3.25475904606728e-01
9.01240000000000e-08,3.30000000000000e-01,3.30000000000000e-01,3.25194889159696e-01
9.01560000000000e-08,3.30000000000000e-01,3.30000000000000e-01,3.24520190531949e-01
9.02200000000000e-08,3.30000000000000e-01,3.30000000000000e-01,3.22998902428579e-01
9.03480000000000e-08,3.30000000000000e-01,3.30000000000000e-01,3.19019156764147e-01
9.06040000000000e-08,3.30000000000000e-01,3.30000000000000e-01,3.04267980764959e-01
9.11159999999999e-08,3.30000000000000e-01,3.30000000000000e-01,2.36285132079302e-01
9.21399999999999e-08,3.30000000000000e-01,3.30000000000000e-01,5.69699002194575e-02
9.41879999999998e-08,3.30000000000000e-01,3.30000000000000e-01,-1.76649776700255e-02
9.51000000000000e-08,3.30000000000000e-01,3.30000000000000e-01,6.03724018137042e-03
9.51100000000000e-08,2.97000000000034e-01,3.30000000000000e-01,5.72835507045073e-03
9.51300000000000e-08,2.31000000000046e-01,3.30000000000000e-01,5.16918266457964e-03
9.51700000000000e-08,9.90000000000711e-02,3.30000000000000e-01,4.29449977288416e-03
9.52000000000000e-08,4.61852778244065e-14,3.30000000000000e-01,3.78360680560343e-03
9.52080000000000e-08,0.00000000000000e+00,3.30000000000000e-01,3.68024563822607e-03
9.52240000000000e-08,0.00000000000000e+00,3.30000000000000e-01,3.47698140525618e-03
9.52560000000000e-08,0.00000000000000e+00,3.30000000000000e-01,3.12065719172818e-03
9.53200000000000e-08,0.00000000000000e+00,3.30000000000000e-01,2.52363689128699e-03
9.54480000000000e-08,0.00000000000000e+00,3.30000000000000e-01,1.63578415755126e-03
9.57040000000000e-08,0.00000000000000e+00,3.30000000000000e-01,6.62552525533166e-04
9.62159999999999e-08,0.00000000000000e+00,3.30000000000000e-01,4.02095062244541e-05
9.72399999999999e-08,0.00000000000000e+00,3.30000000000000e-01,-1.63575718887819e-04
9.92879999999998e-08,0.00000000000000e+00,3.30000000000000e-01,-1.70396402481619e-04
1.03088000000000e-07,0.00000000000000e+00,3.30000000000000e-01,7.47340265108481e-05
1.05000000000000e-07,0.00000000000000e+00,3.30000000000000e-01,-3.55941094324899e-05
1.05010000000000e-07,3.29999999999937e-02,3.30000000000000e-01,-1.37388050032126e-05
1.05030000000000e-07,9.89999999999812e-02,3.30000000000000e-01,2.31197425941028e-05
1.05070000000000e-07,2.30999999999956e-01,3.30000000000000e-01,7.27012789501352e-05
1.05100000000000e-07,3.29999999999981e-01,3.30000000000000e-01,8.45648970599355e-05
1.05108000000000e-07,3.30000000000000e-01,3.30000000000000e-01,7.23604947369359e-05
1.05124000000000e-07,3.30000000000000e-01,3.30000000000000e-01,4.67677827441781e-05
1.05156000000000e-07,3.30000000000000e-01,3.30000000000000e-01,-1.12669404695523e-05
1.05220000000000e-07,3.30000000000000e-01,3.30000000000000e-01,-1.52279329301109e-04
1.05348000000000e-07,3.30000000000000e-01,3.30000000000000e-01,-5.33512439887605e-04
1.05604000000000e-07,3.30000000000000e-01,3.30000000000000e-01,-1.25924241692394e-03
1.06116000000000e-07,3.30000000000000e-01,3.30000000000000e-01,-2.24604289726661e-03
1.07140000000000e-07,3.30000000000000e-01,3.30000000000000e-01,1.43110028454422e-02
1.09188000000000e-07,3.30000000000000e-01,3.30000000000000e-01,1.94773079268150e-01
1.10100000000000e-07,3.30000000000000e-01,3.30000000000000e-01,2.89772489608485e-01
1.10110000000000e-07,3.30000000000000e-01,2.97000000000050e-01,2.90429315465616e-01
1.10130000000000e-07,3.30000000000000e-01,2.31000000000062e-01,2.91730877522087e-01
1.10170000000000e-07,3.30000000000000e-01,9.90000000000875e-02,2.94236868771194e-01
1.10200000000000e-07,3.30000000000000e-01,6.25610674376276e-14,2.96008268584708e-01
1.10208000000000e-07,3.30000000000000e-01,0.00000000000000e+00,2.96464784431640e-01
1.10224000000000e-07,3.30000000000000e-01,0.00000000000000e+00,2.97388294855347e-01
1.10256000000000e-07,3.30000000000000e-01,0.00000000000000e+00,2.99116848730429e-01
1.10320000000000e-07,3.30000000000000e-01,0.00000000000000e+00,3.02301731357074e-01
1.10448000000000e-07,3.30000000000000e-01,0.00000000000000e+00,3.07741905654046e-01
1.10704000000000e-07,3.30000000000000e-01,0.00000000000000e+00,3.15645194163107e-01
1.11216000000000e-07,3.30000000000000e-01,0.00000000000000e+00,3.24130512657747e-01
1.12240000000000e-07,3.30000000000000e-01,0.00000000000000e+00,3.29047694991148e-01
1.14288000000000e-07,3.30000000000000e-01,0.00000000000000e+00,3.29714845781740e-01
1.15100000000000e-07,3.30000000000000e-01,0.00000000000000e+00,3.29701059378903e-01
