Time,v(clk),v(data),v(out)
1.00000000000000e-08,8.00000000000000e-01,0.00000000000000e+00,-3.21838389668791e-05
1.00100000000000e-08,8.00000000000000e-01,7.99999999999981e-02,-2.22520485823330e-05
1.00300000000000e-08,8.00000000000000e-01,2.39999999999994e-01,-1.11691170700118e-05
1.00700000000000e-08,8.00000000000000e-01,5.59999999999987e-01,-5.80611226700528e-06
1.01000000000000e-08,8.00000000000000e-01,7.99999999999994e-01,-1.78871335539815e-06
1.01080000000000e-08,8.00000000000000e-01,8.00000000000000e-01,-5.87494498660579e-07
1.01240000000000e-08,8.00000000000000e-01,8.00000000000000e-01,1.63762415952146e-06
1.01560000000000e-08,8.00000000000000e-01,8.00000000000000e-01,4.61650054739415e-06
1.02200000000000e-08,8.00000000000000e-01,8.00000000000000e-01,1.70963960748755e-06
1.03480000000000e-08,8.00000000000000e-01,8.00000000000000e-01,-1.05315507179654e-07
1.06040000000000e-08,8.00000000000000e-01,8.00000000000000e-01,1.99516923581750e-06
1.11160000000000e-08,8.00000000000000e-01,8.00000000000000e-01,7.30400932608295e-07
1.21400000000000e-08,8.00000000000000e-01,8.00000000000000e-01,1.44320192833024e-06
1.41880000000000e-08,8.00000000000000e-01,8.00000000000000e-01,5.62608663264063e-07
1.51000000000000e-08,8.00000000000000e-01,8.00000000000000e-01,1.06034510763799e-06
1.51100000000000e-08,7.19999999999989e-01,8.00000000000000e-01,-6.49531650262006e-05
1.51300000000000e-08,5.59999999999993e-01,8.00000000000000e-01,-1.47278681620920e-04
1.51700000000000e-08,2.40000000000000e-01,8.00000000000000e-01,-6.70882886374263e-05
1.52000000000000e-08,0.00000000000000e+00,8.00000000000000e-01,1.82727183222646e-04
1.52080000000000e-08,0.00000000000000e+00,8.00000000000000e-01,2.89259986513246e-04
1.52240000000000e-08,0.00000000000000e+00,8.00000000000000e-01,3.65892983008403e-04
1.52560000000000e-08,0.00000000000000e+00,8.00000000000000e-01,1.37956963583923e-04
1.53200000000000e-08,0.00000000000000e+00,8.00000000000000e-01,-1.48808258973475e-04
1.54480000000000e-08,0.00000000000000e+00,8.00000000000000e-01,-1.18507012138707e-04
1.57040000000000e-08,0.00000000000000e+00,8.00000000000000e-01,-1.88400258046253e-04
1.60487978529332e-08,0.00000000000000e+00,8.00000000000000e-01,2.63284631764435e-04
1.66695695022528e-08,0.00000000000000e+00,8.00000000000000e-01,-1.39496058300897e-04
1.73649838241298e-08,0.00000000000000e+00,8.00000000000000e-01,6.68503478074168e-05
1.87558124678838e-08,0.00000000000000e+00,8.00000000000000e-01,-3.81555427682906e-05
2.15374697553918e-08,0.00000000000000e+00,8.00000000000000e-01,2.66395659296237e-05
2.50000000000000e-08,0.00000000000000e+00,8.00000000000000e-01,-1.71673740805686e-05
2.50100000000000e-08,7.99999999999848e-02,8.00000000000000e-01,7.02935067220384e-05
2.50300000000000e-08,2.40000000000007e-01,8.00000000000000e-01,1.87068497724721e-04
2.50700000000000e-08,5.60000000000000e-01,8.00000000000000e-01,-2.08562090212083e-04
2.51000000000000e-08,8.00000000000000e-01,8.00000000000000e-01,-3.32893677960308e-03
2.51080000000000e-08,8.00000000000000e-01,8.00000000000000e-01,-4.55111361366622e-03
2.51240000000000e-08,8.00000000000000e-01,8.00000000000000e-01,-6.42028749383267e-03
2.51560000000000e-08,8.00000000000000e-01,8.00000000000000e-01,-1.91639781098255e-03
2.52200000000000e-08,8.00000000000000e-01,8.00000000000000e-01,1.35112590790285e-01
2.53480000000000e-08,8.00000000000000e-01,8.00000000000000e-01,6.39668967520402e-01
2.56040000000000e-08,8.00000000000000e-01,8.00000000000000e-01,8.30772496210083e-01
2.58996276922812e-08,8.00000000000000e-01,8.00000000000000e-01,7.73785964130520e-01
2.64556542686541e-08,8.00000000000000e-01,8.00000000000000e-01,8.21517535242137e-01
2.71211217659440e-08,8.00000000000000e-01,8.00000000000000e-01,7.79548442830033e-01
2.84520567605239e-08,8.00000000000000e-01,8.00000000000000e-01,8.18438131386120e-01
3.11139267496837e-08,8.00000000000000e-01,8.00000000000000e-01,7.81131921303428e-01
3.49139267496837e-08,8.00000000000000e-01,8.00000000000000e-01,8.17661546659068e-01
3.51000000000000e-08,7.99999999999960e-01,8.00000000000000e-01,7.87376772707587e-01
3.51100000000000e-08,7.19999999999976e-01,8.00000000000000e-01,7.91836364018572e-01
3.51300000000000e-08,5.59999999999953e-01,8.00000000000000e-01,7.97600941039349e-01
3.51700000000000e-08,2.39999999999961e-01,8.00000000000000e-01,8.00883000429335e-01
3.52000000000000e-08,0.00000000000000e+00,8.00000000000000e-01,8.02644772342588e-01
3.52080000000000e-08,0.00000000000000e+00,8.00000000000000e-01,8.03031995801449e-01
3.52240000000000e-08,0.00000000000000e+00,8.00000000000000e-01,8.02937611487275e-01
3.52560000000000e-08,0.00000000000000e+00,8.00000000000000e-01,7.96501970578545e-01
3.53200000000000e-08,0.00000000000000e+00,8.00000000000000e-01,7.73009355927028e-01
3.54480000000000e-08,0.00000000000000e+00,8.00000000000000e-01,7.70990016516941e-01
3.57040000000000e-08,0.00000000000000e+00,8.00000000000000e-01,8.03592602996927e-01
3.61517389334960e-08,0.00000000000000e+00,8.00000000000000e-01,7.96097385124793e-01
3.67131710465404e-08,0.00000000000000e+00,8.00000000000000e-01,8.02590392126734e-01
3.78360352726292e-08,0.00000000000000e+00,8.00000000000000e-01,7.97156997046562e-01
4.00817637248068e-08,0.00000000000000e+00,8.00000000000000e-01,8.02379213864051e-01
4.38817637248068e-08,0.00000000000000e+00,8.00000000000000e-01,7.97434296865705e-01
4.50000000000000e-08,0.00000000000000e+00,8.00000000000000e-01,8.02108634037962e-01
4.50100000000000e-08,7.99999999999848e-02,8.00000000000000e-01,8.01618259800196e-01
4.50300000000000e-08,2.40000000000007e-01,8.00000000000000e-01,8.00873699752183e-01
4.50700000000000e-08,5.60000000000000e-01,8.00000000000000e-01,7.99722468580111e-01
4.51000000000000e-08,8.00000000000000e-01,8.00000000000000e-01,7.97298492612821e-01
4.51080000000000e-08,8.00000000000000e-01,7.36000000000033e-01,7.96359832590453e-01
4.51240000000000e-08,8.00000000000000e-01,6.07999999999994e-01,7.94625792557605e-01
4.51560000000000e-08,8.00000000000000e-01,3.52000000000021e-01,7.92542447353040e-01
4.52000000000000e-08,8.00000000000000e-01,4.57411886145564e-14,7.93759478495002e-01
4.52064000000000e-08,8.00000000000000e-01,0.00000000000000e+00,7.94271607472162e-01
4.52192000000000e-08,8.00000000000000e-01,0.00000000000000e+00,7.95229485114697e-01
4.52448000000000e-08,8.00000000000000e-01,0.00000000000000e+00,7.96776791503566e-01
4.52960000000000e-08,8.00000000000000e-01,0.00000000000000e+00,7.98654960704004e-01
4.53984000000000e-08,8.00000000000000e-01,0.00000000000000e+00,7.99926993034504e-01
4.55631600039003e-08,8.00000000000000e-01,0.00000000000000e+00,8.00042173532843e-01
4.58806355159917e-08,8.00000000000000e-01,0.00000000000000e+00,7.99962282802022e-01
4.61835797920356e-08,8.00000000000000e-01,0.00000000000000e+00,8.00029763330989e-01
4.67894683441233e-08,8.00000000000000e-01,0.00000000000000e+00,7.99973408692902e-01
4.80012454482988e-08,8.00000000000000e-01,0.00000000000000e+00,8.00025190393957e-01
5.04247996566498e-08,8.00000000000000e-01,0.00000000000000e+00,7.99974038075895e-01
5.42247996566498e-08,8.00000000000000e-01,0.00000000000000e+00,8.00025511584923e-01
5.51000000000000e-08,8.00000000000000e-01,0.00000000000000e+00,7.99976334158131e-01
5.51100000000000e-08,7.20000000000028e-01,0.00000000000000e+00,7.99909139459338e-01
5.51300000000000e-08,5.60000000000006e-01,0.00000000000000e+00,7.99840032629676e-01
5.51700000000000e-08,2.40000000000014e-01,0.00000000000000e+00,8.00742939494478e-01
5.52000000000000e-08,0.00000000000000e+00,0.00000000000000e+00,8.02808680525642e-01
5.52080000000000e-08,0.00000000000000e+00,0.00000000000000e+00,8.03344840178107e-01
5.52240000000000e-08,0.00000000000000e+00,0.00000000000000e+00,8.04115765449990e-01
5.52560000000000e-08,0.00000000000000e+00,0.00000000000000e+00,8.04856618810739e-01
5.53200000000000e-08,0.00000000000000e+00,0.00000000000000e+00,8.05837452080800e-01
5.54480000000000e-08,0.00000000000000e+00,0.00000000000000e+00,8.01471814153587e-01
5.56596699728188e-08,0.00000000000000e+00,0.00000000000000e+00,7.98587670523451e-01
5.59455539373356e-08,0.00000000000000e+00,0.00000000000000e+00,7.99918458017690e-01
5.63485530730902e-08,0.00000000000000e+00,0.00000000000000e+00,7.99489155131333e-01
5.71544069450651e-08,0.00000000000000e+00,0.00000000000000e+00,7.99879188573330e-01
5.84343947553275e-08,0.00000000000000e+00,0.00000000000000e+00,7.99747397766326e-01
6.09243895508269e-08,0.00000000000000e+00,0.00000000000000e+00,7.99942137801463e-01
6.47243895508268e-08,0.00000000000000e+00,0.00000000000000e+00,7.99834471523462e-01
6.50000000000000e-08,0.00000000000000e+00,0.00000000000000e+00,7.99893327852350e-01
6.50100000000000e-08,7.99999999999848e-02,0.00000000000000e+00,7.99973246315995e-01
6.50300000000000e-08,2.39999999999954e-01,0.00000000000000e+00,8.00056625385704e-01
6.50700000000000e-08,5.59999999999894e-01,0.00000000000000e+00,7.99898283646777e-01
6.51000000000000e-08,7.99999999999954e-01,0.00000000000000e+00,7.99563390406679e-01
6.51080000000000e-08,8.00000000000000e-01,0.00000000000000e+00,7.99471019552724e-01
6.51240000000000e-08,8.00000000000000e-01,0.00000000000000e+00,7.99405275041747e-01
6.51560000000000e-08,8.00000000000000e-01,0.00000000000000e+00,8.00340475156764e-01
6.52200000000000e-08,8.00000000000000e-01,0.00000000000000e+00,8.07704626601863e-01
6.53480000000000e-08,8.00000000000000e-01,0.00000000000000e+00,5.20234429873983e-01
6.56040000000000e-08,8.00000000000000e-01,0.00000000000000e+00,-2.72043255146218e-02
6.58554338261533e-08,8.00000000000000e-01,0.00000000000000e+00,1.94130783106198e-02
6.63583014784601e-08,8.00000000000000e-01,0.00000000000000e+00,-1.45804877087644e-02
6.68683145565074e-08,8.00000000000000e-01,0.00000000000000e+00,1.24965871311038e-02
6.78883407126021e-08,8.00000000000000e-01,0.00000000000000e+00,-1.06386828529017e-02
6.99283930247915e-08,8.00000000000000e-01,0.00000000000000e+00,1.06037112634588e-02
7.37283930247915e-08,8.00000000000000e-01,0.00000000000000e+00,-9.79709488058024e-03
7.51000000000000e-08,8.00000000000000e-01,0.00000000000000e+00,9.47212717558522e-03
7.51100000000000e-08,7.20000000000081e-01,0.00000000000000e+00,7.41063517023711e-03
7.51300000000000e-08,5.60000000000112e-01,0.00000000000000e+00,3.32332033918140e-03
7.51700000000000e-08,2.40000000000172e-01,0.00000000000000e+00,1.08901830147008e-04
7.52000000000000e-08,1.11910480882216e-13,0.00000000000000e+00,3.45388289946826e-04
7.52080000000000e-08,0.00000000000000e+00,0.00000000000000e+00,3.61898391725367e-04
7.52240000000000e-08,0.00000000000000e+00,0.00000000000000e+00,3.59260858741620e-04
7.52560000000000e-08,0.00000000000000e+00,0.00000000000000e+00,-5.65381787945851e-05
7.53200000000000e-08,0.00000000000000e+00,0.00000000000000e+00,-8.51062176087110e-04
7.54480000000000e-08,0.00000000000000e+00,0.00000000000000e+00,-2.79013778023765e-06
7.56790456597710e-08,0.00000000000000e+00,0.00000000000000e+00,5.44586786974405e-05
7.60919242415284e-08,0.00000000000000e+00,0.00000000000000e+00,-7.52640191833773e-05
7.66586696319064e-08,0.00000000000000e+00,0.00000000000000e+00,8.79167273064880e-05
7.77921604126624e-08,0.00000000000000e+00,0.00000000000000e+00,-9.15089881657347e-05
8.00591419741744e-08,0.00000000000000e+00,0.00000000000000e+00,9.42021234733807e-05
8.38591419741744e-08,0.00000000000000e+00,0.00000000000000e+00,-9.48405130531580e-05
8.50000000000000e-08,0.00000000000000e+00,0.00000000000000e+00,9.89881045202652e-05
8.50100000000000e-08,7.99999999999848e-02,0.00000000000000e+00,1.21608730834354e-04
8.50300000000000e-08,2.39999999999954e-01,0.00000000000000e+00,1.46483257143323e-04
8.50700000000000e-08,5.59999999999894e-01,0.00000000000000e+00,2.31136831944923e-07
8.51000000000000e-08,7.99999999999954e-01,0.00000000000000e+00,-2.70423855914033e-04
8.51080000000000e-08,8.00000000000000e-01,0.00000000000000e+00,-3.29000127574600e-04
8.51240000000000e-08,8.00000000000000e-01,0.00000000000000e+00,-3.84053256690296e-04
8.51560000000000e-08,8.00000000000000e-01,0.00000000000000e+00,-2.85098937535200e-04
8.52200000000000e-08,8.00000000000000e-01,0.00000000000000e+00,6.47401904606860e-05
8.53480000000000e-08,8.00000000000000e-01,0.00000000000000e+00,1.44539130095541e-04
8.56040000000000e-08,8.00000000000000e-01,0.00000000000000e+00,-6.92449494353320e-05
8.60055360067105e-08,8.00000000000000e-01,0.00000000000000e+00,5.39283164304252e-05
8.66118179826153e-08,8.00000000000000e-01,0.00000000000000e+00,-3.69701060855690e-05
8.78243819344249e-08,8.00000000000000e-01,0.00000000000000e+00,3.75878055379787e-05
9.00000000000000e-08,8.00000000000000e-01,0.00000000000000e+00,-3.19957587925097e-05
9.00100000000000e-08,8.00000000000000e-01,7.99999999999848e-02,-2.20707701308123e-05
9.00300000000000e-08,8.00000000000000e-01,2.39999999999954e-01,-1.11001109245126e-05
9.00700000000000e-08,8.00000000000000e-01,5.59999999999894e-01,-3.00511885686222e-06
9.01000000000000e-08,8.00000000000000e-01,7.99999999999954e-01,-1.52074683142100e-06
9.01080000000000e-08,8.00000000000000e-01,8.00000000000000e-01,-8.49979113343169e-08
9.01240000000000e-08,8.00000000000000e-01,8.00000000000000e-01,2.24178670849007e-06
9.01560000000000e-08,8.00000000000000e-01,8.00000000000000e-01,3.98856224003569e-06
9.02200000000000e-08,8.00000000000000e-01,8.00000000000000e-01,2.51548766229751e-06
9.03480000000000e-08,8.00000000000000e-01,8.00000000000000e-01,2.21171851763624e-07
9.06040000000000e-08,8.00000000000000e-01,8.00000000000000e-01,1.90467915768718e-06
9.11159999999999e-08,8.00000000000000e-01,8.00000000000000e-01,7.47026752116742e-07
9.21399999999999e-08,8.00000000000000e-01,8.00000000000000e-01,1.45637508435761e-06
9.41879999999998e-08,8.00000000000000e-01,8.00000000000000e-01,5.37077961862767e-07
9.51000000000000e-08,8.00000000000000e-01,8.00000000000000e-01,1.11155952791774e-06
9.51100000000000e-08,7.20000000000081e-01,8.00000000000000e-01,-6.49611594842267e-05
9.51300000000000e-08,5.60000000000112e-01,8.00000000000000e-01,-1.47422500451494e-04
9.51700000000000e-08,2.40000000000172e-01,8.00000000000000e-01,-6.71271295785147e-05
9.52000000000000e-08,1.11910480882216e-13,8.00000000000000e-01,1.82726886808586e-04
9.52080000000000e-08,0.00000000000000e+00,8.00000000000000e-01,2.89262658673704e-04
9.52240000000000e-08,0.00000000000000e+00,8.00000000000000e-01,3.65897172793311e-04
9.52560000000000e-08,0.00000000000000e+00,8.00000000000000e-01,1.37964005986355e-04
9.53200000000000e-08,0.00000000000000e+00,8.00000000000000e-01,-1.48797953834906e-04
9.54480000000000e-08,0.00000000000000e+00,8.00000000000000e-01,-1.18510691818004e-04
9.57040000000000e-08,0.00000000000000e+00,8.00000000000000e-01,-1.88397287892801e-04
9.60487972366299e-08,0.00000000000000e+00,8.00000000000000e-01,2.63283581989796e-04
9.66695709900017e-08,0.00000000000000e+00,8.00000000000000e-01,-1.39496685642591e-04
9.73649829104740e-08,0.00000000000000e+00,8.00000000000000e-01,6.68513236025854e-05
9.87558067514187e-08,0.00000000000000e+00,8.00000000000000e-01,-3.81566612645090e-05
1.01537454433308e-07,0.00000000000000e+00,8.00000000000000e-01,2.66407528700743e-05
1.05000000000000e-07,0.00000000000000e+00,8.00000000000000e-01,-1.71686735699370e-05
1.05010000000000e-07,7.99999999999848e-02,8.00000000000000e-01,7.02932458475497e-05
1.05030000000000e-07,2.39999999999954e-01,8.00000000000000e-01,1.87069129706237e-04
1.05070000000000e-07,5.59999999999894e-01,8.00000000000000e-01,-2.08566487727782e-04
1.05100000000000e-07,7.99999999999954e-01,8.00000000000000e-01,-3.32894294181271e-03
1.05108000000000e-07,8.00000000000000e-01,8.00000000000000e-01,-4.55111863415958e-03
1.05124000000000e-07,8.00000000000000e-01,8.00000000000000e-01,-6.42028973011074e-03
1.05156000000000e-07,8.00000000000000e-01,8.00000000000000e-01,-1.91637119909072e-03
1.05220000000000e-07,8.00000000000000e-01,8.00000000000000e-01,1.35112775898030e-01
1.05348000000000e-07,8.00000000000000e-01,8.00000000000000e-01,6.39669145148375e-01
1.05604000000000e-07,8.00000000000000e-01,8.00000000000000e-01,8.30772477175646e-01
1.05899627647703e-07,8.00000000000000e-01,8.00000000000000e-01,7.73785981422942e-01
1.06455654242178e-07,8.00000000000000e-01,8.00000000000000e-01,8.21517520056374e-01
1.07121121520761e-07,8.00000000000000e-01,8.00000000000000e-01,7.79548458017982e-01
1.08452056077926e-07,8.00000000000000e-01,8.00000000000000e-01,8.18438117066683e-01
1.11113925192257e-07,8.00000000000000e-01,8.00000000000000e-01,7.81131935994499e-01
1.14913925192257e-07,8.00000000000000e-01,8.00000000000000e-01,8.17661532684071e-01
1.15100000000000e-07,8.00000000000000e-01,8.00000000000000e-01,7.87376742701624e-01
1.15110000000000e-07,7.20000000000081e-01,8.00000000000000e-01,7.91836344472103e-01
1.15130000000000e-07,5.60000000000112e-01,8.00000000000000e-01,7.97600935177803e-01
1.15170000000000e-07,2.40000000000172e-01,8.00000000000000e-01,8.00883000505669e-01
1.15200000000000e-07,1.11910480882216e-13,8.00000000000000e-01,8.02644772281391e-01
1.15208000000000e-07,0.00000000000000e+00,8.00000000000000e-01,8.03031995853659e-01
1.15224000000000e-07,0.00000000000000e+00,8.00000000000000e-01,8.02937611925954e-01
1.15256000000000e-07,0.00000000000000e+00,8.00000000000000e-01,7.96501972388581e-01
1.15320000000000e-07,0.00000000000000e+00,8.00000000000000e-01,7.73009358189004e-01
1.15448000000000e-07,0.00000000000000e+00,8.00000000000000e-01,7.70990016136190e-01
1.15704000000000e-07,0.00000000000000e+00,8.00000000000000e-01,8.03592602951016e-01
1.16151738939740e-07,0.00000000000000e+00,8.00000000000000e-01,7.96097385194747e-01
1.16713171049716e-07,0.00000000000000e+00,8.00000000000000e-01,8.02590392087136e-01
1.17836035269669e-07,0.00000000000000e+00,8.00000000000000e-01,7.97156997090740e-01
1.20081763709575e-07,0.00000000000000e+00,8.00000000000000e-01,8.02379213820349e-01
1.23881763709575e-07,0.00000000000000e+00,8.00000000000000e-01,7.97434296904872e-01
1.25000000000000e-07,0.00000000000000e+00,8.00000000000000e-01,8.02108634008844e-01
1.25010000000000e-07,7.99999999998790e-02,8.00000000000000e-01,8.01618259779554e-01
1.25030000000000e-07,2.39999999999849e-01,8.00000000000000e-01,8.00873699742121e-01
1.25070000000000e-07,5.59999999999788e-01,8.00000000000000e-01,7.99722468574355e-01
1.25100000000000e-07,7.99999999999848e-01,8.00000000000000e-01,7.97298492602811e-01
1.25108000000000e-07,8.00000000000000e-01,7.35999999999927e-01,7.96359832579996e-01
1.25124000000000e-07,8.00000000000000e-01,6.07999999999994e-01,7.94625792547354e-01
1.25156000000000e-07,8.00000000000000e-01,3.51999999999916e-01,7.92542447350446e-01
1.25200000000000e-07,8.00000000000000e-01,0.00000000000000e+00,7.93759478500955e-01
1.25206400000000e-07,8.00000000000000e-01,0.00000000000000e+00,7.94271607475762e-01
1.25219200000000e-07,8.00000000000000e-01,0.00000000000000e+00,7.95229485118715e-01
1.25244800000000e-07,8.00000000000000e-01,0.00000000000000e+00,7.96776791506986e-01
1.25296000000000e-07,8.00000000000000e-01,0.00000000000000e+00,7.98654960707196e-01
1.25398400000000e-07,8.00000000000000e-01,0.00000000000000e+00,7.99926993034771e-01
1.25563160003488e-07,8.00000000000000e-01,0.00000000000000e+00,8.00042173531764e-01
1.25880635541066e-07,8.00000000000000e-01,0.00000000000000e+00,7.99962282802191e-01
1.26183579818715e-07,8.00000000000000e-01,0.00000000000000e+00,8.00029763331451e-01
1.26789468374013e-07,8.00000000000000e-01,0.00000000000000e+00,7.99973408692414e-01
1.28001245484609e-07,8.00000000000000e-01,0.00000000000000e+00,8.00025190394642e-01
1.30424799705801e-07,8.00000000000000e-01,0.00000000000000e+00,7.99974038075244e-01
1.34224799705801e-07,8.00000000000000e-01,0.00000000000000e+00,8.00025511585422e-01
1.35100000000000e-07,7.99999999999854e-01,0.00000000000000e+00,7.99976334157524e-01
1.35110000000000e-07,7.19999999999764e-01,0.00000000000000e+00,7.99909139459965e-01
1.35130000000000e-07,5.59999999999794e-01,0.00000000000000e+00,7.99840032628955e-01
1.35170000000000e-07,2.39999999999855e-01,0.00000000000000e+00,8.00742939499803e-01
1.35200000000000e-07,0.00000000000000e+00,0.00000000000000e+00,8.02808680528841e-01
