Time,v(clk),v(data),v(out)
1.00000000000000e-08,8.00000000000000e-01,0.00000000000000e+00,1.63816764096143e-05
1.00100000000000e-08,8.00000000000000e-01,7.99999999999981e-02,1.16320324135971e-05
1.00300000000000e-08,8.00000000000000e-01,2.39999999999994e-01,6.14212079022569e-06
1.00700000000000e-08,8.00000000000000e-01,5.59999999999987e-01,3.58929849819667e-06
1.01000000000000e-08,8.00000000000000e-01,7.99999999999994e-01,1.61213292514117e-06
1.01080000000000e-08,8.00000000000000e-01,8.00000000000000e-01,2.16809253626715e-06
1.01240000000000e-08,8.00000000000000e-01,8.00000000000000e-01,4.08941507375193e-06
1.01560000000000e-08,8.00000000000000e-01,8.00000000000000e-01,6.04901275572112e-06
1.02200000000000e-08,8.00000000000000e-01,8.00000000000000e-01,4.54025332081998e-06
1.03480000000000e-08,8.00000000000000e-01,8.00000000000000e-01,3.61099332735204e-06
1.06040000000000e-08,8.00000000000000e-01,8.00000000000000e-01,2.59077762617202e-06
1.10740765049184e-08,8.00000000000000e-01,8.00000000000000e-01,3.78548268244704e-06
1.20142295147553e-08,8.00000000000000e-01,8.00000000000000e-01,2.45663938818266e-06
1.38945355344290e-08,8.00000000000000e-01,8.00000000000000e-01,3.42133669364430e-06
1.51000000000000e-08,8.00000000000000e-01,8.00000000000000e-01,2.19056448666748e-06
1.51100000000000e-08,7.19999999999989e-01,8.00000000000000e-01,-6.12218966241501e-05
1.51300000000000e-08,5.59999999999993e-01,8.00000000000000e-01,-1.47617737727063e-04
1.51700000000000e-08,2.40000000000000e-01,8.00000000000000e-01,1.30373259020350e-05
1.52000000000000e-08,0.00000000000000e+00,8.00000000000000e-01,3.64903098251365e-04
1.52080000000000e-08,0.00000000000000e+00,8.00000000000000e-01,4.72412677741535e-04
1.52240000000000e-08,0.00000000000000e+00,8.00000000000000e-01,5.35772299658621e-04
1.52560000000000e-08,0.00000000000000e+00,8.00000000000000e-01,1.89542313969795e-04
1.53200000000000e-08,0.00000000000000e+00,8.00000000000000e-01,-3.75705511507708e-04
1.54480000000000e-08,0.00000000000000e+00,8.00000000000000e-01,-3.08787050321765e-05
1.56625272027299e-08,0.00000000000000e+00,8.00000000000000e-01,-2.70635205626535e-04
1.59840286900102e-08,0.00000000000000e+00,8.00000000000000e-01,2.80805241403781e-04
1.65377305364022e-08,0.00000000000000e+00,8.00000000000000e-01,-9.77517477476972e-05
1.71717857539421e-08,0.00000000000000e+00,8.00000000000000e-01,4.99909989636754e-06
1.84398961890219e-08,0.00000000000000e+00,8.00000000000000e-01,3.08795996961627e-05
2.09761170591815e-08,0.00000000000000e+00,8.00000000000000e-01,-4.15577951117878e-05
2.47761170591815e-08,0.00000000000000e+00,8.00000000000000e-01,5.27661195202206e-05
2.50000000000000e-08,0.00000000000000e+00,8.00000000000000e-01,-1.19034017530113e-04
2.50100000000000e-08,7.99999999999848e-02,8.00000000000000e-01,4.77463625720848e-05
2.50300000000000e-08,2.40000000000007e-01,8.00000000000000e-01,2.74259454163844e-04
2.50700000000000e-08,5.60000000000000e-01,8.00000000000000e-01,4.80400529808224e-04
2.51000000000000e-08,8.00000000000000e-01,8.00000000000000e-01,-1.31517934295541e-04
2.51080000000000e-08,8.00000000000000e-01,8.00000000000000e-01,-6.80704932391696e-04
2.51240000000000e-08,8.00000000000000e-01,8.00000000000000e-01,-1.94287941553063e-03
2.51560000000000e-08,8.00000000000000e-01,8.00000000000000e-01,-4.46286572773386e-03
2.52200000000000e-08,8.00000000000000e-01,8.00000000000000e-01,-3.57572334294690e-03
2.53480000000000e-08,8.00000000000000e-01,8.00000000000000e-01,2.61570162116734e-01
2.56040000000000e-08,8.00000000000000e-01,8.00000000000000e-01,7.93851450806711e-01
2.59948910833111e-08,8.00000000000000e-01,8.00000000000000e-01,8.01036184179490e-01
2.65954873873452e-08,8.00000000000000e-01,8.00000000000000e-01,7.99062537740697e-01
2.73516938413775e-08,8.00000000000000e-01,8.00000000000000e-01,8.00800439459591e-01
2.85688936140631e-08,8.00000000000000e-01,8.00000000000000e-01,7.99204845392315e-01
3.10032931594343e-08,8.00000000000000e-01,8.00000000000000e-01,8.00745764058224e-01
3.48032931594343e-08,8.00000000000000e-01,8.00000000000000e-01,7.99242161514523e-01
3.51000000000000e-08,7.99999999999960e-01,8.00000000000000e-01,8.00604919615569e-01
3.51100000000000e-08,7.19999999999976e-01,8.00000000000000e-01,8.00280304838648e-01
3.51300000000000e-08,5.59999999999953e-01,8.00000000000000e-01,7.99958825288008e-01
3.51700000000000e-08,2.39999999999961e-01,8.00000000000000e-01,8.01228184434362e-01
3.52000000000000e-08,0.00000000000000e+00,8.00000000000000e-01,8.02925969703036e-01
3.52080000000000e-08,0.00000000000000e+00,8.00000000000000e-01,8.02192215306497e-01
3.52240000000000e-08,0.00000000000000e+00,8.00000000000000e-01,7.97896895831894e-01
3.52560000000000e-08,0.00000000000000e+00,8.00000000000000e-01,7.81754075640563e-01
3.53200000000000e-08,0.00000000000000e+00,8.00000000000000e-01,7.75453134639770e-01
3.54480000000000e-08,0.00000000000000e+00,8.00000000000000e-01,7.99706166260613e-01
3.56852709216281e-08,0.00000000000000e+00,8.00000000000000e-01,7.98906826173886e-01
3.59920574265013e-08,0.00000000000000e+00,8.00000000000000e-01,8.00246435708114e-01
3.66056304362477e-08,0.00000000000000e+00,8.00000000000000e-01,7.99320791757272e-01
3.78327764557406e-08,0.00000000000000e+00,8.00000000000000e-01,8.00408422027627e-01
4.02870684947263e-08,0.00000000000000e+00,8.00000000000000e-01,7.99462066715300e-01
4.40870684947263e-08,0.00000000000000e+00,8.00000000000000e-01,8.00454355998708e-01
4.50000000000000e-08,0.00000000000000e+00,8.00000000000000e-01,7.99511153104840e-01
4.50100000000000e-08,7.99999999999848e-02,8.00000000000000e-01,7.99763261397003e-01
4.50300000000000e-08,2.40000000000007e-01,8.00000000000000e-01,8.00039487203761e-01
4.50700000000000e-08,5.60000000000000e-01,8.00000000000000e-01,8.00087921923896e-01
4.51000000000000e-08,8.00000000000000e-01,8.00000000000000e-01,7.99648217692679e-01
4.51080000000000e-08,8.00000000000000e-01,7.36000000000033e-01,7.99387509545569e-01
4.51240000000000e-08,8.00000000000000e-01,6.07999999999994e-01,7.98933452583179e-01
4.51560000000000e-08,8.00000000000000e-01,3.52000000000021e-01,7.98446861498678e-01
4.52000000000000e-08,8.00000000000000e-01,4.57411886145564e-14,7.98165486174728e-01
4.52064000000000e-08,8.00000000000000e-01,0.00000000000000e+00,7.98133097099500e-01
4.52192000000000e-08,8.00000000000000e-01,0.00000000000000e+00,7.98070669588300e-01
4.52448000000000e-08,8.00000000000000e-01,0.00000000000000e+00,7.98127164077062e-01
4.52960000000000e-08,8.00000000000000e-01,0.00000000000000e+00,7.98646827188348e-01
4.53984000000000e-08,8.00000000000000e-01,0.00000000000000e+00,7.99118258077145e-01
4.55662728321392e-08,8.00000000000000e-01,0.00000000000000e+00,7.99684817787758e-01
4.58383131555583e-08,8.00000000000000e-01,0.00000000000000e+00,7.99984324157871e-01
4.61995458329623e-08,8.00000000000000e-01,0.00000000000000e+00,8.00004448222518e-01
4.69220111877703e-08,8.00000000000000e-01,0.00000000000000e+00,7.99997965346573e-01
4.83669418973863e-08,8.00000000000000e-01,0.00000000000000e+00,8.00000946344854e-01
5.12568033166184e-08,8.00000000000000e-01,0.00000000000000e+00,7.99999573378304e-01
5.50568033166184e-08,8.00000000000000e-01,0.00000000000000e+00,8.00000053132672e-01
5.51000000000000e-08,8.00000000000000e-01,0.00000000000000e+00,8.00013475699009e-01
5.51100000000000e-08,7.20000000000028e-01,0.00000000000000e+00,7.99943531796667e-01
5.51300000000000e-08,5.60000000000006e-01,0.00000000000000e+00,7.99911383112143e-01
5.51700000000000e-08,2.40000000000014e-01,0.00000000000000e+00,8.01258688842448e-01
5.52000000000000e-08,0.00000000000000e+00,0.00000000000000e+00,8.03810749365338e-01
5.52080000000000e-08,0.00000000000000e+00,0.00000000000000e+00,8.04344007665706e-01
5.52240000000000e-08,0.00000000000000e+00,0.00000000000000e+00,8.05197373370835e-01
5.52560000000000e-08,0.00000000000000e+00,0.00000000000000e+00,8.05147910505732e-01
5.53200000000000e-08,0.00000000000000e+00,0.00000000000000e+00,8.00833246558916e-01
5.54480000000000e-08,0.00000000000000e+00,0.00000000000000e+00,7.99561770520225e-01
5.56685392532205e-08,0.00000000000000e+00,0.00000000000000e+00,8.00232595559148e-01
5.59741631003638e-08,0.00000000000000e+00,0.00000000000000e+00,7.99729853982588e-01
5.65085896264422e-08,0.00000000000000e+00,0.00000000000000e+00,8.00151112933244e-01
5.73057934363666e-08,0.00000000000000e+00,0.00000000000000e+00,7.99783727205946e-01
5.89002010562155e-08,0.00000000000000e+00,0.00000000000000e+00,8.00135610980592e-01
6.20890162959132e-08,0.00000000000000e+00,0.00000000000000e+00,7.99809218392427e-01
6.50000000000000e-08,0.00000000000000e+00,0.00000000000000e+00,8.00137397422126e-01
6.50100000000000e-08,7.99999999999848e-02,0.00000000000000e+00,8.00131797189282e-01
6.50300000000000e-08,2.39999999999954e-01,0.00000000000000e+00,8.00078244039900e-01
6.50700000000000e-08,5.59999999999894e-01,0.00000000000000e+00,7.99976668068522e-01
6.51000000000000e-08,7.99999999999954e-01,0.00000000000000e+00,7.99879530139683e-01
6.51080000000000e-08,8.00000000000000e-01,0.00000000000000e+00,7.99846597110349e-01
6.51240000000000e-08,8.00000000000000e-01,0.00000000000000e+00,7.99830717509180e-01
6.51560000000000e-08,8.00000000000000e-01,0.00000000000000e+00,7.99841985092093e-01
6.52200000000000e-08,8.00000000000000e-01,0.00000000000000e+00,8.00240266961533e-01
6.53480000000000e-08,8.00000000000000e-01,0.00000000000000e+00,8.08481746213689e-01
6.56040000000000e-08,8.00000000000000e-01,0.00000000000000e+00,3.35410410473238e-01
6.59328304496192e-08,8.00000000000000e-01,0.00000000000000e+00,-7.52417366382185e-02
6.63823049157298e-08,8.00000000000000e-01,0.00000000000000e+00,5.11109415480484e-02
6.70383392775953e-08,8.00000000000000e-01,0.00000000000000e+00,-3.30962627197364e-02
6.78167055213516e-08,8.00000000000000e-01,0.00000000000000e+00,2.63090374354243e-02
6.93734380088642e-08,8.00000000000000e-01,0.00000000000000e+00,-2.16042630516084e-02
7.18201743132945e-08,8.00000000000000e-01,0.00000000000000e+00,2.06070989053946e-02
7.51000000000000e-08,8.00000000000000e-01,0.00000000000000e+00,-1.84061175995357e-02
7.51100000000000e-08,7.20000000000081e-01,0.00000000000000e+00,-1.62579557349994e-02
7.51300000000000e-08,5.60000000000112e-01,0.00000000000000e+00,-1.16846609554045e-02
7.51700000000000e-08,2.40000000000172e-01,0.00000000000000e+00,-4.95754820679333e-03
7.52000000000000e-08,1.11910480882216e-13,0.00000000000000e+00,-2.47856418776032e-03
7.52080000000000e-08,0.00000000000000e+00,0.00000000000000e+00,-2.05098897686040e-03
7.52240000000000e-08,0.00000000000000e+00,0.00000000000000e+00,-1.60097688815017e-03
7.52560000000000e-08,0.00000000000000e+00,0.00000000000000e+00,-2.14440192943094e-03
7.53200000000000e-08,0.00000000000000e+00,0.00000000000000e+00,-2.38445570766326e-03
7.54480000000000e-08,0.00000000000000e+00,0.00000000000000e+00,-2.39248860865238e-04
7.56592437878558e-08,0.00000000000000e+00,0.00000000000000e+00,1.87087857460997e-04
7.59823218589056e-08,0.00000000000000e+00,0.00000000000000e+00,-1.32306243051016e-04
7.66284780010051e-08,0.00000000000000e+00,0.00000000000000e+00,1.12945981228399e-04
7.79207902852042e-08,0.00000000000000e+00,0.00000000000000e+00,-9.94108745179852e-05
8.05054148536023e-08,0.00000000000000e+00,0.00000000000000e+00,9.77470081205190e-05
8.43054148536023e-08,0.00000000000000e+00,0.00000000000000e+00,-9.13970221806232e-05
8.50000000000000e-08,0.00000000000000e+00,0.00000000000000e+00,7.85340492959908e-05
8.50100000000000e-08,7.99999999999848e-02,0.00000000000000e+00,1.58919291229645e-04
8.50300000000000e-08,2.39999999999954e-01,0.00000000000000e+00,2.14541902372800e-04
8.50700000000000e-08,5.59999999999894e-01,0.00000000000000e+00,1.16745639832973e-04
8.51000000000000e-08,7.99999999999954e-01,0.00000000000000e+00,-9.74587252228765e-05
8.51080000000000e-08,8.00000000000000e-01,0.00000000000000e+00,-1.75560288279031e-04
8.51240000000000e-08,8.00000000000000e-01,0.00000000000000e+00,-2.56085288640406e-04
8.51560000000000e-08,8.00000000000000e-01,0.00000000000000e+00,-2.17363530955604e-04
8.52200000000000e-08,8.00000000000000e-01,0.00000000000000e+00,-9.25425039789499e-05
8.53480000000000e-08,8.00000000000000e-01,0.00000000000000e+00,2.43411418885120e-05
8.56040000000000e-08,8.00000000000000e-01,0.00000000000000e+00,3.70161176238906e-05
8.61159999999999e-08,8.00000000000000e-01,0.00000000000000e+00,-1.54038532775621e-05
8.70185074816121e-08,8.00000000000000e-01,0.00000000000000e+00,1.99861058454709e-05
8.81075432267653e-08,8.00000000000000e-01,0.00000000000000e+00,-9.95407828486856e-06
9.00000000000000e-08,8.00000000000000e-01,0.00000000000000e+00,1.59904267526640e-05
9.00100000000000e-08,8.00000000000000e-01,7.99999999999848e-02,1.13708763465892e-05
9.00300000000000e-08,8.00000000000000e-01,2.39999999999954e-01,6.05966339990716e-06
9.00700000000000e-08,8.00000000000000e-01,5.59999999999894e-01,3.59236583923062e-06
9.01000000000000e-08,8.00000000000000e-01,7.99999999999954e-01,1.74498976830001e-06
9.01080000000000e-08,8.00000000000000e-01,8.00000000000000e-01,2.27877444192170e-06
9.01240000000000e-08,8.00000000000000e-01,8.00000000000000e-01,4.10094908773195e-06
9.01560000000000e-08,8.00000000000000e-01,8.00000000000000e-01,5.66640226210696e-06
9.02200000000000e-08,8.00000000000000e-01,8.00000000000000e-01,4.46366456341440e-06
9.03480000000000e-08,8.00000000000000e-01,8.00000000000000e-01,3.56391857191107e-06
9.06040000000000e-08,8.00000000000000e-01,8.00000000000000e-01,2.62131176329700e-06
9.11032260565818e-08,8.00000000000000e-01,8.00000000000000e-01,3.76107907783425e-06
9.21016781697455e-08,8.00000000000000e-01,8.00000000000000e-01,2.46245093019591e-06
9.40985823960730e-08,8.00000000000000e-01,8.00000000000000e-01,3.38989773157085e-06
9.51000000000000e-08,8.00000000000000e-01,8.00000000000000e-01,2.20811242446391e-06
9.51100000000000e-08,7.20000000000081e-01,8.00000000000000e-01,-6.12709442026349e-05
9.51300000000000e-08,5.60000000000112e-01,8.00000000000000e-01,-1.47613327290241e-04
9.51700000000000e-08,2.40000000000172e-01,8.00000000000000e-01,1.30469658672430e-05
9.52000000000000e-08,1.11910480882216e-13,8.00000000000000e-01,3.64919177613512e-04
9.52080000000000e-08,0.00000000000000e+00,8.00000000000000e-01,4.72434056875498e-04
9.52240000000000e-08,0.00000000000000e+00,8.00000000000000e-01,5.35808200189683e-04
9.52560000000000e-08,0.00000000000000e+00,8.00000000000000e-01,1.89595346052937e-04
9.53200000000000e-08,0.00000000000000e+00,8.00000000000000e-01,-3.75661162774141e-04
9.54480000000000e-08,0.00000000000000e+00,8.00000000000000e-01,-3.08779014856139e-05
9.56625269891730e-08,0.00000000000000e+00,8.00000000000000e-01,-2.70635872664144e-04
9.59840309608950e-08,0.00000000000000e+00,8.00000000000000e-01,2.80808329687899e-04
9.65377373861939e-08,0.00000000000000e+00,8.00000000000000e-01,-9.77580527096369e-05
9.71717917470288e-08,0.00000000000000e+00,8.00000000000000e-01,5.00556308639412e-06
9.84399004686987e-08,0.00000000000000e+00,8.00000000000000e-01,3.08732551579328e-05
1.00976117912038e-07,0.00000000000000e+00,8.00000000000000e-01,-4.15515121928536e-05
1.04776117912038e-07,0.00000000000000e+00,8.00000000000000e-01,5.27599039473188e-05
1.05000000000000e-07,0.00000000000000e+00,8.00000000000000e-01,-1.19029341856820e-04
1.05010000000000e-07,7.99999999999848e-02,8.00000000000000e-01,4.77502460239365e-05
1.05030000000000e-07,2.39999999999954e-01,8.00000000000000e-01,2.74261507821810e-04
1.05070000000000e-07,5.59999999999894e-01,8.00000000000000e-01,4.80400699715597e-04
1.05100000000000e-07,7.99999999999954e-01,8.00000000000000e-01,-1.31515513978664e-04
1.05108000000000e-07,8.00000000000000e-01,8.00000000000000e-01,-6.80701673983958e-04
1.05124000000000e-07,8.00000000000000e-01,8.00000000000000e-01,-1.94287516625688e-03
1.05156000000000e-07,8.00000000000000e-01,8.00000000000000e-01,-4.46286216786355e-03
1.05220000000000e-07,8.00000000000000e-01,8.00000000000000e-01,-3.57573618201344e-03
1.05348000000000e-07,8.00000000000000e-01,8.00000000000000e-01,2.61569958084471e-01
1.05604000000000e-07,8.00000000000000e-01,8.00000000000000e-01,7.93851405993200e-01
1.05994891270765e-07,8.00000000000000e-01,8.00000000000000e-01,8.01036205186348e-01
1.06595487432311e-07,8.00000000000000e-01,8.00000000000000e-01,7.99062517194807e-01
1.07351694097167e-07,8.00000000000000e-01,8.00000000000000e-01,8.00800458513100e-01
1.08568893835174e-07,8.00000000000000e-01,8.00000000000000e-01,7.99204826452493e-01
1.11003293311188e-07,8.00000000000000e-01,8.00000000000000e-01,8.00745782499478e-01
1.14803293311188e-07,8.00000000000000e-01,8.00000000000000e-01,7.99242143026047e-01
1.15100000000000e-07,8.00000000000000e-01,8.00000000000000e-01,8.00604935855875e-01
1.15110000000000e-07,7.20000000000081e-01,8.00000000000000e-01,8.00280311802702e-01
1.15130000000000e-07,5.60000000000112e-01,8.00000000000000e-01,7.99958824383412e-01
1.15170000000000e-07,2.40000000000172e-01,8.00000000000000e-01,8.01228184847461e-01
1.15200000000000e-07,1.11910480882216e-13,8.00000000000000e-01,8.02925969294986e-01
1.15208000000000e-07,0.00000000000000e+00,8.00000000000000e-01,8.02192214728365e-01
1.15224000000000e-07,0.00000000000000e+00,8.00000000000000e-01,7.97896894892109e-01
1.15256000000000e-07,0.00000000000000e+00,8.00000000000000e-01,7.81754074483437e-01
1.15320000000000e-07,0.00000000000000e+00,8.00000000000000e-01,7.75453134496192e-01
1.15448000000000e-07,0.00000000000000e+00,8.00000000000000e-01,7.99706166383849e-01
1.15685270921078e-07,0.00000000000000e+00,8.00000000000000e-01,7.98906826075096e-01
1.15992057426168e-07,0.00000000000000e+00,8.00000000000000e-01,8.00246435783953e-01
1.16605630436347e-07,0.00000000000000e+00,8.00000000000000e-01,7.99320791687707e-01
1.17832776456706e-07,0.00000000000000e+00,8.00000000000000e-01,8.00408422093423e-01
1.20287068497423e-07,0.00000000000000e+00,8.00000000000000e-01,7.99462066651260e-01
1.24087068497423e-07,0.00000000000000e+00,8.00000000000000e-01,8.00454356061710e-01
1.25000000000000e-07,0.00000000000000e+00,8.00000000000000e-01,7.99511153046248e-01
1.25010000000000e-07,7.99999999998790e-02,8.00000000000000e-01,7.99763261361929e-01
1.25030000000000e-07,2.39999999999849e-01,8.00000000000000e-01,8.00039487196251e-01
1.25070000000000e-07,5.59999999999788e-01,8.00000000000000e-01,8.00087921924617e-01
1.25100000000000e-07,7.99999999999848e-01,8.00000000000000e-01,7.99648217695268e-01
1.25108000000000e-07,8.00000000000000e-01,7.35999999999927e-01,7.99387509548472e-01
1.25124000000000e-07,8.00000000000000e-01,6.07999999999994e-01,7.98933452585988e-01
1.25156000000000e-07,8.00000000000000e-01,3.51999999999916e-01,7.98446861500012e-01
1.25200000000000e-07,8.00000000000000e-01,0.00000000000000e+00,7.98165486175438e-01
1.25206400000000e-07,8.00000000000000e-01,0.00000000000000e+00,7.98133097100207e-01
1.25219200000000e-07,8.00000000000000e-01,0.00000000000000e+00,7.98070669588744e-01
1.25244800000000e-07,8.00000000000000e-01,0.00000000000000e+00,7.98127164076841e-01
1.25296000000000e-07,8.00000000000000e-01,0.00000000000000e+00,7.98646827187824e-01
1.25398400000000e-07,8.00000000000000e-01,0.00000000000000e+00,7.99118258075640e-01
1.25566272830233e-07,8.00000000000000e-01,0.00000000000000e+00,7.99684817783465e-01
1.25838313154652e-07,8.00000000000000e-01,0.00000000000000e+00,7.99984324158007e-01
1.26199545822509e-07,8.00000000000000e-01,0.00000000000000e+00,8.00004448222342e-01
1.26922011158222e-07,8.00000000000000e-01,0.00000000000000e+00,7.99997965346649e-01
1.28366941829648e-07,8.00000000000000e-01,0.00000000000000e+00,8.00000946344684e-01
1.31256803172502e-07,8.00000000000000e-01,0.00000000000000e+00,7.99999573378427e-01
1.35056803172502e-07,8.00000000000000e-01,0.00000000000000e+00,8.00000053132598e-01
1.35100000000000e-07,7.99999999999854e-01,0.00000000000000e+00,8.00013475680327e-01
1.35110000000000e-07,7.19999999999764e-01,0.00000000000000e+00,7.99943531775444e-01
1.35130000000000e-07,5.59999999999794e-01,0.00000000000000e+00,7.99911383103520e-01
1.35170000000000e-07,2.39999999999855e-01,0.00000000000000e+00,8.01258688835626e-01
