Time,v(clk),v(data),v(out)
1.00000000000000e-08,8.00000000000000e-01,0.00000000000000e+00,1.59392025856414e-05
1.00100000000000e-08,8.00000000000000e-01,7.99999999999981e-02,1.58101708320757e-05
1.00300000000000e-08,8.00000000000000e-01,2.39999999999994e-01,1.36728392225033e-05
1.00700000000000e-08,8.00000000000000e-01,5.59999999999987e-01,6.96127244707162e-06
1.01000000000000e-08,8.00000000000000e-01,7.99999999999994e-01,2.89984158743928e-06
1.01080000000000e-08,8.00000000000000e-01,8.00000000000000e-01,2.28506854704769e-06
1.01240000000000e-08,8.00000000000000e-01,8.00000000000000e-01,2.74783826569036e-06
1.01560000000000e-08,8.00000000000000e-01,8.00000000000000e-01,5.99033695397599e-06
1.02200000000000e-08,8.00000000000000e-01,8.00000000000000e-01,1.02015060116714e-05
1.03480000000000e-08,8.00000000000000e-01,8.00000000000000e-01,5.88473587307542e-06
1.06040000000000e-08,8.00000000000000e-01,8.00000000000000e-01,2.94745328780627e-06
1.10523454337812e-08,8.00000000000000e-01,8.00000000000000e-01,5.02392650833169e-06
1.19490363013435e-08,8.00000000000000e-01,8.00000000000000e-01,3.35955438499069e-06
1.37424180364682e-08,8.00000000000000e-01,8.00000000000000e-01,4.45785157290012e-06
1.51000000000000e-08,8.00000000000000e-01,8.00000000000000e-01,2.78304773279354e-06
1.51100000000000e-08,7.19999999999989e-01,8.00000000000000e-01,-7.66150029204021e-05
1.51300000000000e-08,5.59999999999993e-01,8.00000000000000e-01,-2.07447734812391e-04
1.51700000000000e-08,2.40000000000000e-01,8.00000000000000e-01,-1.96018180253374e-04
1.52000000000000e-08,0.00000000000000e+00,8.00000000000000e-01,1.21124254591889e-04
1.52080000000000e-08,0.00000000000000e+00,8.00000000000000e-01,2.84758104601629e-04
1.52240000000000e-08,0.00000000000000e+00,8.00000000000000e-01,4.95077383846021e-04
1.52560000000000e-08,0.00000000000000e+00,8.00000000000000e-01,5.13632437943501e-04
1.53200000000000e-08,0.00000000000000e+00,8.00000000000000e-01,1.37853105289722e-04
1.54480000000000e-08,0.00000000000000e+00,8.00000000000000e-01,-3.37205747986409e-04
1.57040000000000e-08,0.00000000000000e+00,8.00000000000000e-01,-1.85178504733218e-04
1.61485911363051e-08,0.00000000000000e+00,8.00000000000000e-01,6.74706171152235e-05
1.66734453861577e-08,0.00000000000000e+00,8.00000000000000e-01,1.80729245077896e-04
1.77231538858630e-08,0.00000000000000e+00,8.00000000000000e-01,-1.97813047854715e-04
1.87764996338261e-08,0.00000000000000e+00,8.00000000000000e-01,2.02339374523585e-04
2.08831911297525e-08,0.00000000000000e+00,8.00000000000000e-01,-1.93833170076123e-04
2.43293987091111e-08,0.00000000000000e+00,8.00000000000000e-01,1.92682587809133e-04
2.50000000000000e-08,0.00000000000000e+00,8.00000000000000e-01,-1.59947210722437e-04
2.50100000000000e-08,7.99999999999848e-02,8.00000000000000e-01,-3.24450835552381e-06
2.50300000000000e-08,2.40000000000007e-01,8.00000000000000e-01,2.47243821107940e-04
2.50700000000000e-08,5.60000000000000e-01,8.00000000000000e-01,4.85298792964273e-04
2.51000000000000e-08,8.00000000000000e-01,8.00000000000000e-01,-2.12654401485587e-04
2.51080000000000e-08,8.00000000000000e-01,8.00000000000000e-01,-7.51169064402965e-04
2.51240000000000e-08,8.00000000000000e-01,8.00000000000000e-01,-1.92261650322799e-03
2.51560000000000e-08,8.00000000000000e-01,8.00000000000000e-01,-4.18675403416572e-03
2.52200000000000e-08,8.00000000000000e-01,8.00000000000000e-01,-6.25897461543836e-03
2.53480000000000e-08,8.00000000000000e-01,8.00000000000000e-01,7.06313538495338e-02
2.56040000000000e-08,8.00000000000000e-01,8.00000000000000e-01,6.34814240133390e-01
2.61160000000000e-08,8.00000000000000e-01,8.00000000000000e-01,8.34693279875844e-01
2.66283370763108e-08,8.00000000000000e-01,8.00000000000000e-01,7.68592458991022e-01
2.76530112289323e-08,8.00000000000000e-01,8.00000000000000e-01,8.27747356637689e-01
2.90885928139697e-08,8.00000000000000e-01,8.00000000000000e-01,7.72310598298763e-01
3.01000000000000e-08,8.00000000000000e-01,8.00000000000000e-01,8.24468734958891e-01
3.01100000000000e-08,8.00000000000000e-01,7.20000000000042e-01,8.15696644737971e-01
3.01300000000000e-08,8.00000000000000e-01,5.60000000000019e-01,8.04424931266320e-01
3.01700000000000e-08,8.00000000000000e-01,2.40000000000027e-01,7.99699019373063e-01
3.02000000000000e-08,8.00000000000000e-01,1.94289029309402e-14,7.99916558294763e-01
3.02080000000000e-08,8.00000000000000e-01,0.00000000000000e+00,7.99921081591399e-01
3.02240000000000e-08,8.00000000000000e-01,0.00000000000000e+00,7.99922447917466e-01
3.02560000000000e-08,8.00000000000000e-01,0.00000000000000e+00,7.99922776751859e-01
3.03200000000000e-08,8.00000000000000e-01,0.00000000000000e+00,7.99927607270265e-01
3.04480000000000e-08,8.00000000000000e-01,0.00000000000000e+00,7.99969421893611e-01
3.07040000000000e-08,8.00000000000000e-01,0.00000000000000e+00,7.99964282406245e-01
3.11173455847593e-08,8.00000000000000e-01,0.00000000000000e+00,7.99951649112516e-01
3.16708230788823e-08,8.00000000000000e-01,0.00000000000000e+00,7.99969582828378e-01
3.27777780671282e-08,8.00000000000000e-01,0.00000000000000e+00,7.99962187664697e-01
3.49916880436200e-08,8.00000000000000e-01,0.00000000000000e+00,7.99977982023667e-01
3.51000000000000e-08,7.99999999999960e-01,0.00000000000000e+00,7.99974472007095e-01
3.51100000000000e-08,7.19999999999976e-01,0.00000000000000e+00,7.99899646455754e-01
3.51300000000000e-08,5.59999999999953e-01,0.00000000000000e+00,7.99807679163606e-01
3.51700000000000e-08,2.39999999999961e-01,0.00000000000000e+00,8.00759226491163e-01
3.52000000000000e-08,0.00000000000000e+00,0.00000000000000e+00,8.02786678101924e-01
3.52080000000000e-08,0.00000000000000e+00,0.00000000000000e+00,8.03222140415560e-01
3.52240000000000e-08,0.00000000000000e+00,0.00000000000000e+00,8.03468648859543e-01
3.52560000000000e-08,0.00000000000000e+00,0.00000000000000e+00,7.99892404549631e-01
3.53200000000000e-08,0.00000000000000e+00,0.00000000000000e+00,7.81305066060712e-01
3.54480000000000e-08,0.00000000000000e+00,0.00000000000000e+00,7.67174304041975e-01
3.57040000000000e-08,0.00000000000000e+00,0.00000000000000e+00,7.97850531704849e-01
3.60471069273817e-08,0.00000000000000e+00,0.00000000000000e+00,7.99798676080636e-01
3.66473386913824e-08,0.00000000000000e+00,0.00000000000000e+00,7.99284457450754e-01
3.73293661611117e-08,0.00000000000000e+00,0.00000000000000e+00,7.99909259627393e-01
3.86934211005701e-08,0.00000000000000e+00,0.00000000000000e+00,7.99654587731441e-01
3.91000000000000e-08,0.00000000000000e+00,0.00000000000000e+00,7.99902886176560e-01
3.93728109878917e-08,0.00000000000000e+00,0.00000000000000e+00,7.99857587980040e-01
3.99184329636751e-08,0.00000000000000e+00,0.00000000000000e+00,7.99840765730117e-01
4.10096769152418e-08,0.00000000000000e+00,0.00000000000000e+00,7.99885974311593e-01
4.31921648183753e-08,0.00000000000000e+00,0.00000000000000e+00,7.99892559116679e-01
4.50000000000000e-08,0.00000000000000e+00,0.00000000000000e+00,7.99921643645367e-01
4.50100000000000e-08,7.99999999999848e-02,0.00000000000000e+00,8.00002328403189e-01
4.50300000000000e-08,2.40000000000007e-01,0.00000000000000e+00,8.00091313231159e-01
4.50700000000000e-08,5.60000000000000e-01,0.00000000000000e+00,8.00042432342527e-01
4.51000000000000e-08,8.00000000000000e-01,0.00000000000000e+00,7.99847280970315e-01
4.51080000000000e-08,8.00000000000000e-01,0.00000000000000e+00,7.99768682464077e-01
4.51240000000000e-08,8.00000000000000e-01,0.00000000000000e+00,7.99665305164486e-01
4.51560000000000e-08,8.00000000000000e-01,0.00000000000000e+00,7.99585169257486e-01
4.52200000000000e-08,8.00000000000000e-01,0.00000000000000e+00,7.99729516329360e-01
4.53480000000000e-08,8.00000000000000e-01,0.00000000000000e+00,8.03237064889139e-01
4.56040000000000e-08,8.00000000000000e-01,0.00000000000000e+00,5.81457350390602e-01
4.61160000000000e-08,8.00000000000000e-01,0.00000000000000e+00,-7.18049904599297e-03
4.66194069338905e-08,8.00000000000000e-01,0.00000000000000e+00,3.04149228659889e-03
4.76262208016716e-08,8.00000000000000e-01,0.00000000000000e+00,-3.94256638540525e-04
4.86720936371390e-08,8.00000000000000e-01,0.00000000000000e+00,-9.05973056991886e-05
5.00000000000000e-08,8.00000000000000e-01,0.00000000000000e+00,1.43839496022293e-03
5.00100000000000e-08,8.00000000000000e-01,7.99999999999848e-02,-4.86402088980459e-04
5.00300000000000e-08,8.00000000000000e-01,2.39999999999954e-01,-2.09479708482034e-03
5.00700000000000e-08,8.00000000000000e-01,5.60000000000000e-01,-1.28796261237239e-03
5.01000000000000e-08,8.00000000000000e-01,8.00000000000000e-01,-8.80237697736735e-04
5.01080000000000e-08,8.00000000000000e-01,8.00000000000000e-01,-7.69140785656458e-04
5.01240000000000e-08,8.00000000000000e-01,8.00000000000000e-01,-5.84603942756542e-04
5.01560000000000e-08,8.00000000000000e-01,8.00000000000000e-01,-3.38846547879933e-04
5.02200000000000e-08,8.00000000000000e-01,8.00000000000000e-01,-9.93433754245404e-05
5.03480000000000e-08,8.00000000000000e-01,8.00000000000000e-01,7.64376797296462e-06
5.06040000000000e-08,8.00000000000000e-01,8.00000000000000e-01,-4.26524515273821e-06
5.10751670304278e-08,8.00000000000000e-01,8.00000000000000e-01,4.69122686335213e-06
5.20175010912833e-08,8.00000000000000e-01,8.00000000000000e-01,-2.37678193465256e-06
5.39021692129942e-08,8.00000000000000e-01,8.00000000000000e-01,4.96764687889489e-06
5.51000000000000e-08,8.00000000000000e-01,8.00000000000000e-01,-3.00937548948759e-06
5.51100000000000e-08,7.20000000000028e-01,8.00000000000000e-01,-8.19931994360534e-05
5.51300000000000e-08,5.60000000000006e-01,8.00000000000000e-01,-2.08636589426395e-04
5.51700000000000e-08,2.40000000000014e-01,8.00000000000000e-01,-1.88110502011243e-04
5.52000000000000e-08,0.00000000000000e+00,8.00000000000000e-01,1.16029460205863e-04
5.52080000000000e-08,0.00000000000000e+00,8.00000000000000e-01,2.75175904601299e-04
5.52240000000000e-08,0.00000000000000e+00,8.00000000000000e-01,4.65119788487206e-04
5.52560000000000e-08,0.00000000000000e+00,8.00000000000000e-01,3.52529803477372e-04
5.53200000000000e-08,0.00000000000000e+00,8.00000000000000e-01,-8.95660314230329e-04
5.54480000000000e-08,0.00000000000000e+00,8.00000000000000e-01,-1.49151195561174e-03
5.57040000000000e-08,0.00000000000000e+00,8.00000000000000e-01,6.55237977760584e-05
5.61458954268629e-08,0.00000000000000e+00,8.00000000000000e-01,-2.49623761409933e-05
5.66717259028582e-08,0.00000000000000e+00,8.00000000000000e-01,2.11001517449915e-04
5.77233868548486e-08,0.00000000000000e+00,8.00000000000000e-01,-2.11092788616824e-04
5.87747888157907e-08,0.00000000000000e+00,8.00000000000000e-01,2.04223962123813e-04
6.08775927376749e-08,0.00000000000000e+00,8.00000000000000e-01,-1.91938450381513e-04
6.43347006714359e-08,0.00000000000000e+00,8.00000000000000e-01,1.88922049719469e-04
6.50000000000000e-08,0.00000000000000e+00,8.00000000000000e-01,-1.50306675289745e-04
6.50100000000000e-08,7.99999999999848e-02,8.00000000000000e-01,1.19892037339503e-05
6.50300000000000e-08,2.39999999999954e-01,8.00000000000000e-01,2.57498378194207e-04
6.50700000000000e-08,5.59999999999894e-01,8.00000000000000e-01,4.78189008759164e-04
6.51000000000000e-08,7.99999999999954e-01,8.00000000000000e-01,-2.18730815168940e-04
6.51080000000000e-08,8.00000000000000e-01,8.00000000000000e-01,-7.57368914888423e-04
6.51240000000000e-08,8.00000000000000e-01,8.00000000000000e-01,-1.92855892417634e-03
6.51560000000000e-08,8.00000000000000e-01,8.00000000000000e-01,-4.19130527413599e-03
6.52200000000000e-08,8.00000000000000e-01,8.00000000000000e-01,-6.26147664507998e-03
6.53480000000000e-08,8.00000000000000e-01,8.00000000000000e-01,7.06249284992796e-02
6.56040000000000e-08,8.00000000000000e-01,8.00000000000000e-01,6.34807234590768e-01
6.61159999999999e-08,8.00000000000000e-01,8.00000000000000e-01,8.34693992561911e-01
6.66283362051175e-08,8.00000000000000e-01,8.00000000000000e-01,7.68591881334297e-01
6.76530086153527e-08,8.00000000000000e-01,8.00000000000000e-01,8.27747890773046e-01
6.90885754997634e-08,8.00000000000000e-01,8.00000000000000e-01,7.72310088481411e-01
7.01000000000000e-08,8.00000000000000e-01,8.00000000000000e-01,8.24469224875632e-01
7.01100000000000e-08,8.00000000000000e-01,7.20000000000015e-01,8.15696950798669e-01
7.01300000000000e-08,8.00000000000000e-01,5.60000000000046e-01,8.04425013168296e-01
7.01700000000000e-08,8.00000000000000e-01,2.40000000000106e-01,7.99699015296387e-01
7.02000000000000e-08,8.00000000000000e-01,4.57411886145564e-14,7.99916548749026e-01
7.02080000000000e-08,8.00000000000000e-01,0.00000000000000e+00,7.99921076554646e-01
7.02240000000000e-08,8.00000000000000e-01,0.00000000000000e+00,7.99922447885622e-01
7.02560000000000e-08,8.00000000000000e-01,0.00000000000000e+00,7.99922777797460e-01
7.03200000000000e-08,8.00000000000000e-01,0.00000000000000e+00,7.99927605569577e-01
7.04480000000000e-08,8.00000000000000e-01,0.00000000000000e+00,7.99969416994069e-01
7.07040000000000e-08,8.00000000000000e-01,0.00000000000000e+00,7.99964286219894e-01
7.11172811983580e-08,8.00000000000000e-01,0.00000000000000e+00,7.99951642561741e-01
7.16708133105256e-08,8.00000000000000e-01,0.00000000000000e+00,7.99969586144867e-01
7.27778775348610e-08,8.00000000000000e-01,0.00000000000000e+00,7.99962184133491e-01
7.49920059835317e-08,8.00000000000000e-01,0.00000000000000e+00,7.99977985510660e-01
7.51000000000000e-08,8.00000000000000e-01,0.00000000000000e+00,7.99974483261598e-01
7.51100000000000e-08,7.20000000000081e-01,0.00000000000000e+00,7.99899657288110e-01
7.51300000000000e-08,5.60000000000112e-01,0.00000000000000e+00,7.99807681654922e-01
7.51700000000000e-08,2.40000000000172e-01,0.00000000000000e+00,8.00759220193952e-01
7.52000000000000e-08,1.11910480882216e-13,0.00000000000000e+00,8.02786676360582e-01
7.52080000000000e-08,0.00000000000000e+00,0.00000000000000e+00,8.03222136985498e-01
7.52240000000000e-08,0.00000000000000e+00,0.00000000000000e+00,8.03468640453112e-01
7.52560000000000e-08,0.00000000000000e+00,0.00000000000000e+00,7.99892377941904e-01
7.53200000000000e-08,0.00000000000000e+00,0.00000000000000e+00,7.81305018090553e-01
7.54480000000000e-08,0.00000000000000e+00,0.00000000000000e+00,7.67174297849796e-01
7.57040000000000e-08,0.00000000000000e+00,0.00000000000000e+00,7.97850541040834e-01
7.60471069151794e-08,0.00000000000000e+00,0.00000000000000e+00,7.99798669416754e-01
7.66473386049538e-08,0.00000000000000e+00,0.00000000000000e+00,7.99284462121955e-01
7.73293660931923e-08,0.00000000000000e+00,0.00000000000000e+00,7.99909255752468e-01
7.81000000000000e-08,0.00000000000000e+00,0.00000000000000e+00,7.99641201584152e-01
7.82364054976477e-08,0.00000000000000e+00,0.00000000000000e+00,7.99736477512163e-01
7.85092164929431e-08,0.00000000000000e+00,0.00000000000000e+00,7.99823916843570e-01
7.90548384835339e-08,0.00000000000000e+00,0.00000000000000e+00,7.99811016742255e-01
8.01460824647156e-08,0.00000000000000e+00,0.00000000000000e+00,7.99868822338329e-01
8.23285704270788e-08,0.00000000000000e+00,0.00000000000000e+00,7.99884686075031e-01
8.50000000000000e-08,0.00000000000000e+00,0.00000000000000e+00,7.99921139643007e-01
8.50100000000000e-08,7.99999999999848e-02,0.00000000000000e+00,7.99988805952099e-01
8.50300000000000e-08,2.39999999999954e-01,0.00000000000000e+00,8.00063933087717e-01
8.50700000000000e-08,5.59999999999894e-01,0.00000000000000e+00,8.00026833191231e-01
8.51000000000000e-08,7.99999999999954e-01,0.00000000000000e+00,7.99841263495232e-01
8.51080000000000e-08,8.00000000000000e-01,0.00000000000000e+00,7.99760702802690e-01
8.51240000000000e-08,8.00000000000000e-01,0.00000000000000e+00,7.99654071144334e-01
8.51560000000000e-08,8.00000000000000e-01,0.00000000000000e+00,7.99593489268266e-01
8.52200000000000e-08,8.00000000000000e-01,0.00000000000000e+00,7.99755654623107e-01
8.53480000000000e-08,8.00000000000000e-01,0.00000000000000e+00,8.03229896883959e-01
8.56040000000000e-08,8.00000000000000e-01,0.00000000000000e+00,5.81485712829837e-01
8.61159999999999e-08,8.00000000000000e-01,0.00000000000000e+00,-7.17189475449543e-03
8.66195523069737e-08,8.00000000000000e-01,0.00000000000000e+00,3.03728673315395e-03
8.76266569209211e-08,8.00000000000000e-01,0.00000000000000e+00,-3.92051551850146e-04
8.86725883424133e-08,8.00000000000000e-01,0.00000000000000e+00,-9.23663188740374e-05
9.00000000000000e-08,8.00000000000000e-01,0.00000000000000e+00,1.43973215966622e-03
9.00100000000000e-08,8.00000000000000e-01,7.99999999999848e-02,-4.84926219115112e-04
9.00300000000000e-08,8.00000000000000e-01,2.39999999999954e-01,-2.09345718186785e-03
9.00700000000000e-08,8.00000000000000e-01,5.59999999999894e-01,-1.28709539261994e-03
9.01000000000000e-08,8.00000000000000e-01,7.99999999999954e-01,-8.79706485510265e-04
9.01080000000000e-08,8.00000000000000e-01,8.00000000000000e-01,-7.68670811501698e-04
9.01240000000000e-08,8.00000000000000e-01,8.00000000000000e-01,-5.84243271519472e-04
9.01560000000000e-08,8.00000000000000e-01,8.00000000000000e-01,-3.38642648246103e-04
9.02200000000000e-08,8.00000000000000e-01,8.00000000000000e-01,-9.92811429037926e-05
9.03480000000000e-08,8.00000000000000e-01,8.00000000000000e-01,7.64687500447170e-06
9.06040000000000e-08,8.00000000000000e-01,8.00000000000000e-01,-4.26786064794057e-06
9.10753348038163e-08,8.00000000000000e-01,8.00000000000000e-01,4.69103568768656e-06
9.20180044114491e-08,8.00000000000000e-01,8.00000000000000e-01,-2.37936454185010e-06
9.39033436267146e-08,8.00000000000000e-01,8.00000000000000e-01,4.96732287203015e-06
9.51000000000000e-08,8.00000000000000e-01,8.00000000000000e-01,-3.01105454754425e-06
9.51100000000000e-08,7.20000000000081e-01,8.00000000000000e-01,-8.19901395168743e-05
9.51300000000000e-08,5.60000000000112e-01,8.00000000000000e-01,-2.08636313176858e-04
9.51700000000000e-08,2.40000000000172e-01,8.00000000000000e-01,-1.88111941790262e-04
9.52000000000000e-08,1.11910480882216e-13,8.00000000000000e-01,1.16024533482320e-04
9.52080000000000e-08,0.00000000000000e+00,8.00000000000000e-01,2.75166638394636e-04
9.52240000000000e-08,0.00000000000000e+00,8.00000000000000e-01,4.65090611392216e-04
9.52560000000000e-08,0.00000000000000e+00,8.00000000000000e-01,3.52391423685539e-04
9.53200000000000e-08,0.00000000000000e+00,8.00000000000000e-01,-8.96239720899208e-04
9.54480000000000e-08,0.00000000000000e+00,8.00000000000000e-01,-1.49274017167574e-03
9.57040000000000e-08,0.00000000000000e+00,8.00000000000000e-01,6.55123579409479e-05
9.61458951960331e-08,0.00000000000000e+00,8.00000000000000e-01,-2.47876305178064e-05
9.66717258464734e-08,0.00000000000000e+00,8.00000000000000e-01,2.10791580634790e-04
9.77233871473539e-08,0.00000000000000e+00,8.00000000000000e-01,-2.10880265585868e-04
9.87747890623277e-08,0.00000000000000e+00,8.00000000000000e-01,2.04016648467219e-04
1.00877592892275e-07,0.00000000000000e+00,8.00000000000000e-01,-1.91734542722367e-04
1.04334703677406e-07,0.00000000000000e+00,8.00000000000000e-01,1.88721346405297e-04
1.05000000000000e-07,0.00000000000000e+00,8.00000000000000e-01,-1.50122672868933e-04
1.05010000000000e-07,7.99999999999848e-02,8.00000000000000e-01,1.21096888929112e-05
1.05030000000000e-07,2.39999999999954e-01,8.00000000000000e-01,2.57543616941830e-04
1.05070000000000e-07,5.59999999999894e-01,8.00000000000000e-01,4.78195326952910e-04
1.05100000000000e-07,7.99999999999954e-01,8.00000000000000e-01,-2.18735804781753e-04
1.05108000000000e-07,8.00000000000000e-01,8.00000000000000e-01,-7.57374047311202e-04
1.05124000000000e-07,8.00000000000000e-01,8.00000000000000e-01,-1.92856438525200e-03
1.05156000000000e-07,8.00000000000000e-01,8.00000000000000e-01,-4.19131051780894e-03
1.05220000000000e-07,8.00000000000000e-01,8.00000000000000e-01,-6.26147984778063e-03
1.05348000000000e-07,8.00000000000000e-01,8.00000000000000e-01,7.06249283325979e-02
1.05604000000000e-07,8.00000000000000e-01,8.00000000000000e-01,6.34807235243087e-01
1.06116000000000e-07,8.00000000000000e-01,8.00000000000000e-01,8.34693992556193e-01
1.06628336206909e-07,8.00000000000000e-01,8.00000000000000e-01,7.68591881390881e-01
