Time,v(clk),v(data),v(out)
1.00000000000000e-08,6.00000000000000e-01,0.00000000000000e+00,-1.41546316084588e-06
1.00100000000000e-08,6.00000000000000e-01,5.99999999999985e-02,4.82657538459358e-06
1.00300000000000e-08,6.00000000000000e-01,1.79999999999996e-01,9.88793402088156e-06
1.00700000000000e-08,6.00000000000000e-01,4.19999999999990e-01,7.31755423748898e-06
1.01000000000000e-08,6.00000000000000e-01,5.99999999999995e-01,2.98473169876162e-06
1.01080000000000e-08,6.00000000000000e-01,6.00000000000000e-01,2.21693127108735e-06
1.01240000000000e-08,6.00000000000000e-01,6.00000000000000e-01,2.51186396790087e-06
1.01560000000000e-08,6.00000000000000e-01,6.00000000000000e-01,5.75203886836462e-06
1.02200000000000e-08,6.00000000000000e-01,6.00000000000000e-01,9.04500417819171e-06
1.03480000000000e-08,6.00000000000000e-01,6.00000000000000e-01,4.73653614781189e-06
1.06040000000000e-08,6.00000000000000e-01,6.00000000000000e-01,2.77854662152077e-06
1.11035110268111e-08,6.00000000000000e-01,6.00000000000000e-01,4.48866291038845e-06
1.21025330804333e-08,6.00000000000000e-01,6.00000000000000e-01,2.82578445063523e-06
1.41005771876776e-08,6.00000000000000e-01,6.00000000000000e-01,3.84703064269191e-06
1.51000000000000e-08,6.00000000000000e-01,6.00000000000000e-01,2.54116995605444e-06
1.51100000000000e-08,5.39999999999991e-01,6.00000000000000e-01,-7.23124817637241e-05
1.51300000000000e-08,4.19999999999994e-01,6.00000000000000e-01,-1.84737841422949e-04
1.51700000000000e-08,1.80000000000000e-01,6.00000000000000e-01,-1.83768460431596e-04
1.52000000000000e-08,0.00000000000000e+00,6.00000000000000e-01,1.13399093166953e-04
1.52080000000000e-08,0.00000000000000e+00,6.00000000000000e-01,2.78125892125891e-04
1.52240000000000e-08,0.00000000000000e+00,6.00000000000000e-01,4.82052232337007e-04
1.52560000000000e-08,0.00000000000000e+00,6.00000000000000e-01,4.86161197980305e-04
1.53200000000000e-08,0.00000000000000e+00,6.00000000000000e-01,8.94221249930494e-05
1.54480000000000e-08,0.00000000000000e+00,6.00000000000000e-01,-3.40351221214105e-04
1.57040000000000e-08,0.00000000000000e+00,6.00000000000000e-01,4.54873458472053e-05
1.61831479670260e-08,0.00000000000000e+00,6.00000000000000e-01,-1.22836698968388e-04
1.68288465707113e-08,0.00000000000000e+00,6.00000000000000e-01,1.82080808675832e-04
1.81202437780821e-08,0.00000000000000e+00,6.00000000000000e-01,-1.47955741684150e-04
1.94754306665511e-08,0.00000000000000e+00,6.00000000000000e-01,1.25583006813965e-04
2.21858044434890e-08,0.00000000000000e+00,6.00000000000000e-01,-1.10038153163781e-04
2.50000000000000e-08,0.00000000000000e+00,6.00000000000000e-01,1.03019934442160e-04
2.50100000000000e-08,5.99999999999886e-02,6.00000000000000e-01,2.34350410628220e-04
2.50300000000000e-08,1.80000000000006e-01,6.00000000000000e-01,4.39750054691442e-04
2.50700000000000e-08,4.20000000000000e-01,6.00000000000000e-01,6.15849550337930e-04
2.51000000000000e-08,6.00000000000000e-01,6.00000000000000e-01,3.05965961964652e-04
2.51080000000000e-08,6.00000000000000e-01,6.00000000000000e-01,-2.34959980156962e-05
2.51240000000000e-08,6.00000000000000e-01,6.00000000000000e-01,-8.23363451874705e-04
2.51560000000000e-08,6.00000000000000e-01,6.00000000000000e-01,-2.61856844183609e-03
2.52200000000000e-08,6.00000000000000e-01,6.00000000000000e-01,-5.10305793527242e-03
2.53480000000000e-08,6.00000000000000e-01,6.00000000000000e-01,9.81563284435045e-03
2.56040000000000e-08,6.00000000000000e-01,6.00000000000000e-01,3.94428305407231e-01
2.61160000000000e-08,6.00000000000000e-01,6.00000000000000e-01,6.24280063855062e-01
2.67051178101344e-08,6.00000000000000e-01,6.00000000000000e-01,5.79641413856387e-01
2.78833534304031e-08,6.00000000000000e-01,6.00000000000000e-01,6.19400918725145e-01
2.94345480620704e-08,6.00000000000000e-01,6.00000000000000e-01,5.81028474414819e-01
3.01000000000000e-08,6.00000000000000e-01,6.00000000000000e-01,6.16818364013025e-01
3.01100000000000e-08,6.00000000000000e-01,5.40000000000031e-01,6.10155659720112e-01
3.01300000000000e-08,6.00000000000000e-01,4.20000000000014e-01,6.02105185996032e-01
3.01700000000000e-08,6.00000000000000e-01,1.80000000000020e-01,5.99651103881520e-01
3.02000000000000e-08,6.00000000000000e-01,1.44328993201270e-14,5.99921998242443e-01
3.02080000000000e-08,6.00000000000000e-01,0.00000000000000e+00,5.99920145880597e-01
3.02240000000000e-08,6.00000000000000e-01,0.00000000000000e+00,5.99914974286291e-01
3.02560000000000e-08,6.00000000000000e-01,0.00000000000000e+00,5.99937371575434e-01
3.03200000000000e-08,6.00000000000000e-01,0.00000000000000e+00,5.99946887554082e-01
3.04480000000000e-08,6.00000000000000e-01,0.00000000000000e+00,5.99956631386329e-01
3.07040000000000e-08,6.00000000000000e-01,0.00000000000000e+00,5.99994789509698e-01
3.11290697711660e-08,6.00000000000000e-01,0.00000000000000e+00,5.99952753464567e-01
3.17776648756645e-08,6.00000000000000e-01,0.00000000000000e+00,5.99994925087377e-01
3.30748550846614e-08,6.00000000000000e-01,0.00000000000000e+00,5.99960096869417e-01
3.51000000000000e-08,5.99999999999970e-01,0.00000000000000e+00,5.99998970797920e-01
3.51100000000000e-08,5.39999999999982e-01,0.00000000000000e+00,5.99923834073198e-01
3.51300000000000e-08,4.19999999999965e-01,0.00000000000000e+00,5.99826797426360e-01
3.51700000000000e-08,1.79999999999970e-01,0.00000000000000e+00,6.00396715260687e-01
3.52000000000000e-08,0.00000000000000e+00,0.00000000000000e+00,6.02204192199169e-01
3.52080000000000e-08,0.00000000000000e+00,0.00000000000000e+00,6.02704467543051e-01
3.52240000000000e-08,0.00000000000000e+00,0.00000000000000e+00,6.03304706285325e-01
3.52560000000000e-08,0.00000000000000e+00,0.00000000000000e+00,6.02581707286846e-01
3.53200000000000e-08,0.00000000000000e+00,0.00000000000000e+00,5.92228111505820e-01
3.54480000000000e-08,0.00000000000000e+00,0.00000000000000e+00,5.80235335205358e-01
3.57040000000000e-08,0.00000000000000e+00,0.00000000000000e+00,5.98172206956059e-01
3.61053813366769e-08,0.00000000000000e+00,0.00000000000000e+00,6.00184412893640e-01
3.67528751651102e-08,0.00000000000000e+00,0.00000000000000e+00,5.99189343919726e-01
3.75873409624044e-08,0.00000000000000e+00,0.00000000000000e+00,6.00215483665495e-01
3.91000000000000e-08,0.00000000000000e+00,0.00000000000000e+00,5.99490251184701e-01
3.92668931594589e-08,0.00000000000000e+00,0.00000000000000e+00,5.99797879461784e-01
3.96006794783766e-08,0.00000000000000e+00,0.00000000000000e+00,5.99924139134886e-01
4.02682521162119e-08,0.00000000000000e+00,0.00000000000000e+00,5.99853783232716e-01
4.16033973918827e-08,0.00000000000000e+00,0.00000000000000e+00,5.99941041377208e-01
4.42736879432243e-08,0.00000000000000e+00,0.00000000000000e+00,5.99896254571414e-01
4.50000000000000e-08,0.00000000000000e+00,0.00000000000000e+00,5.99955910288768e-01
4.50100000000000e-08,5.99999999999886e-02,0.00000000000000e+00,6.00027907268781e-01
4.50300000000000e-08,1.80000000000006e-01,0.00000000000000e+00,6.00100578671525e-01
4.50700000000000e-08,4.20000000000000e-01,0.00000000000000e+00,6.00035046829192e-01
4.51000000000000e-08,6.00000000000000e-01,0.00000000000000e+00,5.99881239354056e-01
4.51080000000000e-08,6.00000000000000e-01,0.00000000000000e+00,5.99808402525204e-01
4.51240000000000e-08,6.00000000000000e-01,0.00000000000000e+00,5.99715167502248e-01
4.51560000000000e-08,6.00000000000000e-01,0.00000000000000e+00,5.99667765100419e-01
4.52200000000000e-08,6.00000000000000e-01,0.00000000000000e+00,5.99752544583508e-01
4.53480000000000e-08,6.00000000000000e-01,0.00000000000000e+00,6.00899050932495e-01
4.56040000000000e-08,6.00000000000000e-01,0.00000000000000e+00,6.03064065374972e-01
4.61160000000000e-08,6.00000000000000e-01,0.00000000000000e+00,1.00573442735121e-01
4.66605792992168e-08,6.00000000000000e-01,0.00000000000000e+00,-5.15147698367723e-02
4.77296650476976e-08,6.00000000000000e-01,0.00000000000000e+00,4.63896583129894e-02
4.89996965601819e-08,6.00000000000000e-01,0.00000000000000e+00,-3.53835124876318e-02
5.00000000000000e-08,6.00000000000000e-01,0.00000000000000e+00,3.04641811670276e-02
5.00100000000000e-08,6.00000000000000e-01,5.99999999999886e-02,2.48304807088649e-02
5.00300000000000e-08,6.00000000000000e-01,1.79999999999966e-01,1.65285685034689e-02
5.00700000000000e-08,6.00000000000000e-01,4.20000000000000e-01,8.22055174094911e-03
5.01000000000000e-08,6.00000000000000e-01,6.00000000000000e-01,4.89094021047116e-03
5.01080000000000e-08,6.00000000000000e-01,6.00000000000000e-01,4.32380088209842e-03
5.01240000000000e-08,6.00000000000000e-01,6.00000000000000e-01,3.18093525252211e-03
5.01560000000000e-08,6.00000000000000e-01,6.00000000000000e-01,1.85768111896956e-03
5.02200000000000e-08,6.00000000000000e-01,6.00000000000000e-01,5.65863543469408e-04
5.03480000000000e-08,6.00000000000000e-01,6.00000000000000e-01,-1.59204382873604e-05
5.06040000000000e-08,6.00000000000000e-01,6.00000000000000e-01,3.19734419503004e-06
5.11160000000001e-08,6.00000000000000e-01,6.00000000000000e-01,-2.85522473534444e-06
5.21400000000002e-08,6.00000000000000e-01,6.00000000000000e-01,8.15501890629247e-07
5.41880000000003e-08,6.00000000000000e-01,6.00000000000000e-01,-1.71235336503001e-06
5.51000000000000e-08,6.00000000000000e-01,6.00000000000000e-01,4.77495300105213e-08
5.51100000000000e-08,5.40000000000021e-01,6.00000000000000e-01,-7.38880714268378e-05
5.51300000000000e-08,4.20000000000004e-01,6.00000000000000e-01,-1.84702581117920e-04
5.51700000000000e-08,1.80000000000010e-01,6.00000000000000e-01,-1.87364974596475e-04
5.52000000000000e-08,0.00000000000000e+00,6.00000000000000e-01,1.05862166551132e-04
5.52080000000000e-08,0.00000000000000e+00,6.00000000000000e-01,2.68014639072070e-04
5.52240000000000e-08,0.00000000000000e+00,6.00000000000000e-01,4.60372156689315e-04
5.52560000000000e-08,0.00000000000000e+00,6.00000000000000e-01,3.73048929244252e-04
5.53200000000000e-08,0.00000000000000e+00,6.00000000000000e-01,-7.19150406511361e-04
5.54480000000000e-08,0.00000000000000e+00,6.00000000000000e-01,-1.82156267498915e-03
5.57040000000000e-08,0.00000000000000e+00,6.00000000000000e-01,2.01870187148449e-04
5.61002606911412e-08,0.00000000000000e+00,6.00000000000000e-01,-8.11244476828510e-05
5.67227621387827e-08,0.00000000000000e+00,6.00000000000000e-01,7.47072888290339e-05
5.78194834402832e-08,0.00000000000000e+00,6.00000000000000e-01,-2.54100661857461e-06
5.90725426595475e-08,0.00000000000000e+00,6.00000000000000e-01,-3.77170260264350e-05
6.15786610980763e-08,0.00000000000000e+00,6.00000000000000e-01,5.85804948070520e-05
6.50000000000000e-08,0.00000000000000e+00,6.00000000000000e-01,-6.61207841684288e-05
6.50100000000000e-08,5.99999999999886e-02,6.00000000000000e-01,1.28621888187005e-04
6.50300000000000e-08,1.79999999999966e-01,6.00000000000000e-01,4.14021801339357e-04
6.50700000000000e-08,4.19999999999920e-01,6.00000000000000e-01,6.35577745235615e-04
6.51000000000000e-08,5.99999999999966e-01,6.00000000000000e-01,3.60904975469208e-04
6.51080000000000e-08,6.00000000000000e-01,6.00000000000000e-01,4.82610301096725e-05
6.51240000000000e-08,6.00000000000000e-01,6.00000000000000e-01,-7.27980616239979e-04
6.51560000000000e-08,6.00000000000000e-01,6.00000000000000e-01,-2.52450106888541e-03
6.52200000000000e-08,6.00000000000000e-01,6.00000000000000e-01,-5.06201593894386e-03
6.53480000000000e-08,6.00000000000000e-01,6.00000000000000e-01,9.21948567161354e-03
6.56040000000000e-08,6.00000000000000e-01,6.00000000000000e-01,3.92274726282057e-01
6.61159999999999e-08,6.00000000000000e-01,6.00000000000000e-01,6.24178310364485e-01
6.67064070170392e-08,6.00000000000000e-01,6.00000000000000e-01,5.79776245899209e-01
6.78872210511176e-08,6.00000000000000e-01,6.00000000000000e-01,6.19306242375346e-01
6.94365041624430e-08,6.00000000000000e-01,6.00000000000000e-01,5.81141197612218e-01
7.01000000000000e-08,6.00000000000000e-01,6.00000000000000e-01,6.16729191303341e-01
7.01100000000000e-08,6.00000000000000e-01,5.40000000000011e-01,6.10101558312169e-01
7.01300000000000e-08,6.00000000000000e-01,4.20000000000034e-01,6.02092506880338e-01
7.01700000000000e-08,6.00000000000000e-01,1.80000000000080e-01,5.99651871733063e-01
7.02000000000000e-08,6.00000000000000e-01,3.44169137633799e-14,5.99921597835809e-01
7.02080000000000e-08,6.00000000000000e-01,0.00000000000000e+00,5.99919722211781e-01
7.02240000000000e-08,6.00000000000000e-01,0.00000000000000e+00,5.99914525077993e-01
7.02560000000000e-08,6.00000000000000e-01,0.00000000000000e+00,5.99937088905252e-01
7.03200000000000e-08,6.00000000000000e-01,0.00000000000000e+00,5.99946747862685e-01
7.04480000000000e-08,6.00000000000000e-01,0.00000000000000e+00,5.99957235815297e-01
7.07040000000000e-08,6.00000000000000e-01,0.00000000000000e+00,5.99993819049275e-01
7.11285858208134e-08,6.00000000000000e-01,0.00000000000000e+00,5.99953602339028e-01
7.17771632692550e-08,6.00000000000000e-01,0.00000000000000e+00,5.99994145188238e-01
7.30743181661381e-08,6.00000000000000e-01,0.00000000000000e+00,5.99960849870149e-01
7.51000000000000e-08,6.00000000000000e-01,0.00000000000000e+00,5.99998238896579e-01
7.51100000000000e-08,5.40000000000061e-01,0.00000000000000e+00,5.99923495021013e-01
7.51300000000000e-08,4.20000000000084e-01,0.00000000000000e+00,5.99826743780227e-01
7.51700000000000e-08,1.80000000000129e-01,0.00000000000000e+00,6.00396621794386e-01
7.52000000000000e-08,8.40438829641244e-14,0.00000000000000e+00,6.02204215265474e-01
7.52080000000000e-08,0.00000000000000e+00,0.00000000000000e+00,6.02704486998962e-01
7.52240000000000e-08,0.00000000000000e+00,0.00000000000000e+00,6.03304735290585e-01
7.52560000000000e-08,0.00000000000000e+00,0.00000000000000e+00,6.02581871831210e-01
7.53200000000000e-08,0.00000000000000e+00,0.00000000000000e+00,5.92228615601785e-01
7.54480000000000e-08,0.00000000000000e+00,0.00000000000000e+00,5.80235433441577e-01
7.57040000000000e-08,0.00000000000000e+00,0.00000000000000e+00,5.98171976473766e-01
7.61053796719104e-08,0.00000000000000e+00,0.00000000000000e+00,6.00184595728499e-01
7.67528719809705e-08,0.00000000000000e+00,0.00000000000000e+00,5.99189198294570e-01
7.75873362558629e-08,0.00000000000000e+00,0.00000000000000e+00,6.00215610565281e-01
7.81000000000000e-08,0.00000000000000e+00,0.00000000000000e+00,5.99519270723711e-01
7.82668928549785e-08,0.00000000000000e+00,0.00000000000000e+00,5.99775285135939e-01
7.86006785649354e-08,0.00000000000000e+00,0.00000000000000e+00,5.99886974116176e-01
7.92682499848493e-08,0.00000000000000e+00,0.00000000000000e+00,5.99837153604245e-01
8.06033928246771e-08,0.00000000000000e+00,0.00000000000000e+00,5.99924289874266e-01
8.32736785043327e-08,0.00000000000000e+00,0.00000000000000e+00,5.99894464873428e-01
8.50000000000000e-08,0.00000000000000e+00,0.00000000000000e+00,5.99955649018899e-01
8.50100000000000e-08,5.99999999999886e-02,0.00000000000000e+00,6.00026898486277e-01
8.50300000000000e-08,1.79999999999966e-01,0.00000000000000e+00,6.00098831655950e-01
8.50700000000000e-08,4.19999999999920e-01,0.00000000000000e+00,6.00033936075753e-01
8.51000000000000e-08,5.99999999999966e-01,0.00000000000000e+00,5.99880574104463e-01
8.51080000000000e-08,6.00000000000000e-01,0.00000000000000e+00,5.99807615337173e-01
8.51240000000000e-08,6.00000000000000e-01,0.00000000000000e+00,5.99714276014703e-01
8.51560000000000e-08,6.00000000000000e-01,0.00000000000000e+00,5.99667755857250e-01
8.52200000000000e-08,6.00000000000000e-01,0.00000000000000e+00,5.99753320436136e-01
8.53480000000000e-08,6.00000000000000e-01,0.00000000000000e+00,6.00899960590537e-01
8.56040000000000e-08,6.00000000000000e-01,0.00000000000000e+00,6.03027927415084e-01
8.61159999999999e-08,6.00000000000000e-01,0.00000000000000e+00,1.00544835125563e-01
8.66606255907238e-08,6.00000000000000e-01,0.00000000000000e+00,-5.15072684946425e-02
8.77297406115958e-08,6.00000000000000e-01,0.00000000000000e+00,4.63821870465277e-02
8.89999248898389e-08,6.00000000000000e-01,0.00000000000000e+00,-3.53795423131069e-02
9.00000000000000e-08,6.00000000000000e-01,0.00000000000000e+00,3.04589368649083e-02
9.00100000000000e-08,6.00000000000000e-01,5.99999999999886e-02,2.48258842297415e-02
9.00300000000000e-08,6.00000000000000e-01,1.79999999999966e-01,1.65250997440205e-02
9.00700000000000e-08,6.00000000000000e-01,4.19999999999920e-01,8.21872406348952e-03
9.01000000000000e-08,6.00000000000000e-01,5.99999999999966e-01,4.88982734180018e-03
9.01080000000000e-08,6.00000000000000e-01,6.00000000000000e-01,4.32281815609072e-03
9.01240000000000e-08,6.00000000000000e-01,6.00000000000000e-01,3.18020771371082e-03
9.01560000000000e-08,6.00000000000000e-01,6.00000000000000e-01,1.85725670091952e-03
9.02200000000000e-08,6.00000000000000e-01,6.00000000000000e-01,5.65736095362465e-04
9.03480000000000e-08,6.00000000000000e-01,6.00000000000000e-01,-1.59160151577548e-05
9.06040000000000e-08,6.00000000000000e-01,6.00000000000000e-01,3.19712509871256e-06
9.11159999999999e-08,6.00000000000000e-01,6.00000000000000e-01,-2.85378641313311e-06
9.21399999999999e-08,6.00000000000000e-01,6.00000000000000e-01,8.15963369030746e-07
9.41879999999998e-08,6.00000000000000e-01,6.00000000000000e-01,-1.71131685991434e-06
9.51000000000000e-08,6.00000000000000e-01,6.00000000000000e-01,4.84167479077730e-08
9.51100000000000e-08,5.40000000000061e-01,6.00000000000000e-01,-7.38876211602985e-05
9.51300000000000e-08,4.20000000000084e-01,6.00000000000000e-01,-1.84702232430146e-04
9.51700000000000e-08,1.80000000000129e-01,6.00000000000000e-01,-1.87364387497099e-04
9.52000000000000e-08,8.40438829641244e-14,6.00000000000000e-01,1.05863580832699e-04
9.52080000000000e-08,0.00000000000000e+00,6.00000000000000e-01,2.68016792485018e-04
9.52240000000000e-08,0.00000000000000e+00,6.00000000000000e-01,4.60377286238184e-04
9.52560000000000e-08,0.00000000000000e+00,6.00000000000000e-01,3.73074611852695e-04
9.53200000000000e-08,0.00000000000000e+00,6.00000000000000e-01,-7.19057422938756e-04
9.54480000000000e-08,0.00000000000000e+00,6.00000000000000e-01,-1.82131763399711e-03
9.57040000000000e-08,0.00000000000000e+00,6.00000000000000e-01,2.01875367768629e-04
9.61002895423112e-08,0.00000000000000e+00,6.00000000000000e-01,-8.11623716362141e-05
9.67228062708996e-08,0.00000000000000e+00,6.00000000000000e-01,7.47495579114851e-05
9.78196810691123e-08,0.00000000000000e+00,6.00000000000000e-01,-2.59682714079303e-06
9.90727623967375e-08,0.00000000000000e+00,6.00000000000000e-01,-3.76603990303670e-05
1.01578925051988e-07,0.00000000000000e+00,6.00000000000000e-01,5.85242668743706e-05
1.05000000000000e-07,0.00000000000000e+00,6.00000000000000e-01,-6.60658849312274e-05
1.05010000000000e-07,5.99999999999886e-02,6.00000000000000e-01,1.28658614650827e-04
1.05030000000000e-07,1.79999999999966e-01,6.00000000000000e-01,4.14037058788369e-04
1.05070000000000e-07,4.19999999999920e-01,6.00000000000000e-01,6.35581188759983e-04
1.05100000000000e-07,5.99999999999966e-01,6.00000000000000e-01,3.60893150529430e-04
1.05108000000000e-07,6.00000000000000e-01,6.00000000000000e-01,4.82422897387091e-05
1.05124000000000e-07,6.00000000000000e-01,6.00000000000000e-01,-7.28009701067421e-04
1.05156000000000e-07,6.00000000000000e-01,6.00000000000000e-01,-2.52453241992981e-03
1.05220000000000e-07,6.00000000000000e-01,6.00000000000000e-01,-5.06203006860507e-03
1.05348000000000e-07,6.00000000000000e-01,6.00000000000000e-01,9.21970013364522e-03
1.05604000000000e-07,6.00000000000000e-01,6.00000000000000e-01,3.92275522576413e-01
1.06116000000000e-07,6.00000000000000e-01,6.00000000000000e-01,6.24178350061547e-01
1.06706406525963e-07,6.00000000000000e-01,6.00000000000000e-01,5.79776194316431e-01
1.07887219577888e-07,6.00000000000000e-01,6.00000000000000e-01,6.19306279607993e-01
1.09436503363965e-07,6.00000000000000e-01,6.00000000000000e-01,5.81141153496073e-01
1.10100000000000e-07,6.00000000000000e-01,6.00000000000000e-01,6.16729226323752e-01
1.10110000000000e-07,6.00000000000000e-01,5.40000000000091e-01,6.10101579516683e-01
1.10130000000000e-07,6.00000000000000e-01,4.20000000000114e-01,6.02092511890267e-01
1.10170000000000e-07,6.00000000000000e-01,1.80000000000159e-01,5.99651871485800e-01
