Time,v(clk),v(data),v(out)
1.60974819105732e-09,0.00000000000000e+00,0.00000000000000e+00,1.03007842980798e-04
3.04232033476350e-09,0.00000000000000e+00,0.00000000000000e+00,-8.65817897363931e-05
5.00000000000000e-09,0.00000000000000e+00,0.00000000000000e+00,1.02073089979589e-04
5.01000000000000e-09,5.99999999999986e-02,0.00000000000000e+00,7.72956606519770e-04
5.03000000000000e-09,1.80000000000001e-01,0.00000000000000e+00,1.87983339620153e-03
5.07000000000000e-09,4.20000000000000e-01,0.00000000000000e+00,2.81305269282903e-03
5.10000000000000e-09,6.00000000000000e-01,0.00000000000000e+00,1.07057646512396e-03
5.10800000000000e-09,6.00000000000000e-01,0.00000000000000e+00,1.22519025038612e-04
5.12400000000000e-09,6.00000000000000e-01,0.00000000000000e+00,-1.32598548164239e-03
5.15600000000000e-09,6.00000000000000e-01,0.00000000000000e+00,-2.38032099153067e-03
5.22000000000000e-09,6.00000000000000e-01,0.00000000000000e+00,-1.94056539661278e-03
5.34800000000000e-09,6.00000000000000e-01,0.00000000000000e+00,-7.30675719433180e-04
5.60400000000000e-09,6.00000000000000e-01,0.00000000000000e+00,-1.92867061635640e-04
6.11600000000000e-09,6.00000000000000e-01,0.00000000000000e+00,5.42109825097285e-04
7.14000000000000e-09,6.00000000000000e-01,0.00000000000000e+00,-1.57920887857353e-04
8.25395360110793e-09,6.00000000000000e-01,0.00000000000000e+00,6.65473554075473e-05
1.00000000000000e-08,6.00000000000000e-01,0.00000000000000e+00,8.39172263079196e-06
1.00100000000000e-08,6.00000000000000e-01,5.99999999999986e-02,3.59162249293776e-05
1.00300000000000e-08,6.00000000000000e-01,1.79999999999996e-01,6.75498897002025e-05
1.00700000000000e-08,6.00000000000000e-01,4.19999999999990e-01,4.42534795919297e-05
1.01000000000000e-08,6.00000000000000e-01,5.99999999999995e-01,-6.89226672606486e-05
1.01080000000000e-08,6.00000000000000e-01,6.00000000000000e-01,-1.06433307956635e-04
1.01240000000000e-08,6.00000000000000e-01,6.00000000000000e-01,-1.47604328287379e-04
1.01560000000000e-08,6.00000000000000e-01,6.00000000000000e-01,-1.46622673719024e-04
1.02200000000000e-08,6.00000000000000e-01,6.00000000000000e-01,-4.81926665782950e-05
1.03480000000000e-08,6.00000000000000e-01,6.00000000000000e-01,5.31965224249281e-05
1.06040000000000e-08,6.00000000000000e-01,6.00000000000000e-01,2.42787966687266e-05
1.10253493654112e-08,6.00000000000000e-01,6.00000000000000e-01,-1.57277597667704e-07
1.18680480962337e-08,6.00000000000000e-01,6.00000000000000e-01,2.41776375433551e-05
1.35534455578786e-08,6.00000000000000e-01,6.00000000000000e-01,5.14682858210325e-06
1.51000000000000e-08,6.00000000000000e-01,6.00000000000000e-01,1.90039210645858e-05
1.51100000000000e-08,5.39999999999992e-01,6.00000000000000e-01,-3.67927806349394e-04
1.51300000000000e-08,4.19999999999994e-01,6.00000000000000e-01,-1.21120621606421e-03
1.51700000000000e-08,1.80000000000000e-01,6.00000000000000e-01,-2.49071696710161e-03
1.52000000000000e-08,0.00000000000000e+00,6.00000000000000e-01,-2.02516698600419e-03
1.52080000000000e-08,0.00000000000000e+00,6.00000000000000e-01,-1.17935228998309e-03
1.52240000000000e-08,0.00000000000000e+00,6.00000000000000e-01,2.54730962200508e-04
1.52560000000000e-08,0.00000000000000e+00,6.00000000000000e-01,1.85639246076823e-03
1.53200000000000e-08,0.00000000000000e+00,6.00000000000000e-01,2.54129308698080e-03
1.54480000000000e-08,0.00000000000000e+00,6.00000000000000e-01,1.29861228701950e-03
1.57040000000000e-08,0.00000000000000e+00,6.00000000000000e-01,-7.90918408980552e-04
1.62160000000000e-08,0.00000000000000e+00,6.00000000000000e-01,-2.07093311166594e-04
1.71231416800224e-08,0.00000000000000e+00,6.00000000000000e-01,-2.47308419672188e-06
1.81804477520609e-08,0.00000000000000e+00,6.00000000000000e-01,7.20477097065075e-05
1.99217338646158e-08,0.00000000000000e+00,6.00000000000000e-01,5.79600052688055e-05
2.18079456294217e-08,0.00000000000000e+00,6.00000000000000e-01,-1.06544512126369e-04
2.50000000000000e-08,0.00000000000000e+00,6.00000000000000e-01,1.46045994627335e-04
2.50100000000000e-08,5.99999999999886e-02,6.00000000000000e-01,8.97748067510903e-04
2.50300000000000e-08,1.80000000000006e-01,6.00000000000000e-01,2.21791820224281e-03
2.50700000000000e-08,4.20000000000000e-01,6.00000000000000e-01,3.90776036461808e-03
2.51000000000000e-08,6.00000000000000e-01,6.00000000000000e-01,3.33157888874872e-03
2.51080000000000e-08,6.00000000000000e-01,6.00000000000000e-01,2.51279482842194e-03
2.51240000000000e-08,6.00000000000000e-01,6.00000000000000e-01,7.60957360808265e-04
2.51560000000000e-08,6.00000000000000e-01,6.00000000000000e-01,-3.07640689691015e-03
2.52200000000000e-08,6.00000000000000e-01,6.00000000000000e-01,-9.89850982040084e-03
2.53480000000000e-08,6.00000000000000e-01,6.00000000000000e-01,-1.59338415810729e-02
2.56040000000000e-08,6.00000000000000e-01,6.00000000000000e-01,3.15532635825317e-02
2.61160000000000e-08,6.00000000000000e-01,6.00000000000000e-01,4.72743530495515e-01
2.69256428121400e-08,6.00000000000000e-01,6.00000000000000e-01,6.19889733850011e-01
2.77607589252516e-08,6.00000000000000e-01,6.00000000000000e-01,5.83625632851696e-01
2.94272961524799e-08,6.00000000000000e-01,6.00000000000000e-01,6.14153670311393e-01
3.12183963374414e-08,6.00000000000000e-01,6.00000000000000e-01,5.86981705460117e-01
3.48005967073644e-08,6.00000000000000e-01,6.00000000000000e-01,6.12035822531155e-01
3.51000000000000e-08,5.99999999999970e-01,6.00000000000000e-01,5.93680846470075e-01
3.51100000000000e-08,5.39999999999982e-01,6.00000000000000e-01,5.94397133900779e-01
3.51300000000000e-08,4.19999999999965e-01,6.00000000000000e-01,5.95476227060592e-01
3.51700000000000e-08,1.79999999999970e-01,6.00000000000000e-01,5.97165784305465e-01
3.52000000000000e-08,0.00000000000000e+00,6.00000000000000e-01,5.99454188942888e-01
3.52080000000000e-08,0.00000000000000e+00,6.00000000000000e-01,6.00421371265750e-01
3.52240000000000e-08,0.00000000000000e+00,6.00000000000000e-01,6.02191941279392e-01
3.52560000000000e-08,0.00000000000000e+00,6.00000000000000e-01,6.04308325343424e-01
3.53200000000000e-08,0.00000000000000e+00,6.00000000000000e-01,6.05885662980414e-01
3.54480000000000e-08,0.00000000000000e+00,6.00000000000000e-01,6.05471107445971e-01
3.57040000000000e-08,0.00000000000000e+00,6.00000000000000e-01,5.97674967904033e-01
3.62160000000000e-08,0.00000000000000e+00,6.00000000000000e-01,5.89933894743956e-01
3.71397109785890e-08,0.00000000000000e+00,6.00000000000000e-01,6.02203291646020e-01
3.83760464536431e-08,0.00000000000000e+00,6.00000000000000e-01,5.97942354661051e-01
4.00083750942284e-08,0.00000000000000e+00,6.00000000000000e-01,6.01356454899196e-01
4.32730323753992e-08,0.00000000000000e+00,6.00000000000000e-01,5.98565739893274e-01
4.50000000000000e-08,0.00000000000000e+00,6.00000000000000e-01,6.01031359896763e-01
4.50100000000000e-08,5.99999999999886e-02,6.00000000000000e-01,6.01271316628774e-01
4.50300000000000e-08,1.80000000000006e-01,6.00000000000000e-01,6.01635715003502e-01
4.50700000000000e-08,4.20000000000000e-01,6.00000000000000e-01,6.01997525878226e-01
4.51000000000000e-08,6.00000000000000e-01,6.00000000000000e-01,6.01552711137690e-01
4.51080000000000e-08,6.00000000000000e-01,5.52000000000025e-01,6.01121380350706e-01
4.51240000000000e-08,6.00000000000000e-01,4.55999999999996e-01,6.00306803445697e-01
4.51560000000000e-08,6.00000000000000e-01,2.64000000000016e-01,5.98916248434843e-01
4.52000000000000e-08,6.00000000000000e-01,3.44169137633799e-14,5.97523384530376e-01
4.52064000000000e-08,6.00000000000000e-01,0.00000000000000e+00,5.97373609469602e-01
4.52192000000000e-08,6.00000000000000e-01,0.00000000000000e+00,5.97050069972028e-01
4.52448000000000e-08,6.00000000000000e-01,0.00000000000000e+00,5.96356943148401e-01
4.52960000000000e-08,6.00000000000000e-01,0.00000000000000e+00,5.94981505192480e-01
4.53984000000000e-08,6.00000000000000e-01,0.00000000000000e+00,5.92661760431014e-01
4.56032000000000e-08,6.00000000000000e-01,0.00000000000000e+00,5.93255646447993e-01
4.60128000000000e-08,6.00000000000000e-01,0.00000000000000e+00,5.98762073621397e-01
4.65129952731235e-08,6.00000000000000e-01,0.00000000000000e+00,6.00076800037898e-01
4.75133858193706e-08,6.00000000000000e-01,0.00000000000000e+00,5.99855902056081e-01
4.85112814447073e-08,6.00000000000000e-01,0.00000000000000e+00,6.00158779179875e-01
5.05070726953807e-08,6.00000000000000e-01,0.00000000000000e+00,5.99842310976503e-01
5.44870726953807e-08,6.00000000000000e-01,0.00000000000000e+00,6.00156092303809e-01
5.51000000000000e-08,6.00000000000000e-01,0.00000000000000e+00,5.99861878338068e-01
5.51100000000000e-08,5.40000000000021e-01,0.00000000000000e+00,5.99546861184344e-01
5.51300000000000e-08,4.20000000000004e-01,0.00000000000000e+00,5.98925637115435e-01
5.51700000000000e-08,1.80000000000010e-01,0.00000000000000e+00,5.98622195217968e-01
5.52000000000000e-08,0.00000000000000e+00,0.00000000000000e+00,6.00142180917112e-01
5.52080000000000e-08,0.00000000000000e+00,0.00000000000000e+00,6.01110073367862e-01
5.52240000000000e-08,0.00000000000000e+00,0.00000000000000e+00,6.02709290469150e-01
5.52560000000000e-08,0.00000000000000e+00,0.00000000000000e+00,6.04673139670817e-01
5.53200000000000e-08,0.00000000000000e+00,0.00000000000000e+00,6.06179014070169e-01
5.54480000000000e-08,0.00000000000000e+00,0.00000000000000e+00,6.07066662055826e-01
5.57040000000000e-08,0.00000000000000e+00,0.00000000000000e+00,6.07214109133048e-01
5.62160000000000e-08,0.00000000000000e+00,0.00000000000000e+00,5.99177702986686e-01
5.69081027121713e-08,0.00000000000000e+00,0.00000000000000e+00,6.00397270121038e-01
5.77737231180619e-08,0.00000000000000e+00,0.00000000000000e+00,5.99562892041633e-01
5.92108673534117e-08,0.00000000000000e+00,0.00000000000000e+00,6.00216377715780e-01
6.18577204972965e-08,0.00000000000000e+00,0.00000000000000e+00,5.99685787067718e-01
6.50000000000000e-08,0.00000000000000e+00,0.00000000000000e+00,6.00179918126643e-01
6.50100000000000e-08,5.99999999999886e-02,0.00000000000000e+00,6.00528842995356e-01
6.50300000000000e-08,1.79999999999966e-01,0.00000000000000e+00,6.01079376444734e-01
6.50700000000000e-08,4.19999999999920e-01,0.00000000000000e+00,6.01590374451615e-01
6.51000000000000e-08,5.99999999999966e-01,0.00000000000000e+00,6.00896936026941e-01
6.51080000000000e-08,6.00000000000000e-01,0.00000000000000e+00,6.00406754832520e-01
6.51240000000000e-08,6.00000000000000e-01,0.00000000000000e+00,5.99588681066616e-01
6.51560000000000e-08,6.00000000000000e-01,0.00000000000000e+00,5.98408965956724e-01
6.52200000000000e-08,6.00000000000000e-01,0.00000000000000e+00,5.97245764021758e-01
6.53480000000000e-08,6.00000000000000e-01,0.00000000000000e+00,5.98140656499981e-01
6.56040000000000e-08,6.00000000000000e-01,0.00000000000000e+00,6.13381638981166e-01
6.61159999999999e-08,6.00000000000000e-01,0.00000000000000e+00,2.68646372067293e-01
6.69434781077684e-08,6.00000000000000e-01,0.00000000000000e+00,-5.13746137217690e-02
6.77930635353510e-08,6.00000000000000e-01,0.00000000000000e+00,3.94379340876070e-02
6.94922343905163e-08,6.00000000000000e-01,0.00000000000000e+00,-2.75592190584744e-02
7.10216075863153e-08,6.00000000000000e-01,0.00000000000000e+00,2.39188996107705e-02
7.40803539779133e-08,6.00000000000000e-01,0.00000000000000e+00,-1.93983429107075e-02
7.51000000000000e-08,6.00000000000000e-01,0.00000000000000e+00,1.44254862289328e-02
7.51100000000000e-08,5.40000000000061e-01,0.00000000000000e+00,1.27534398841608e-02
7.51300000000000e-08,4.20000000000084e-01,0.00000000000000e+00,9.59175125276482e-03
7.51700000000000e-08,1.80000000000129e-01,0.00000000000000e+00,4.68340687251498e-03
7.52000000000000e-08,8.40438829641244e-14,0.00000000000000e+00,3.16724669555005e-03
7.52080000000000e-08,0.00000000000000e+00,0.00000000000000e+00,3.55223850809595e-03
7.52240000000000e-08,0.00000000000000e+00,0.00000000000000e+00,4.15062083354802e-03
7.52560000000000e-08,0.00000000000000e+00,0.00000000000000e+00,4.56810558354129e-03
7.53200000000000e-08,0.00000000000000e+00,0.00000000000000e+00,3.77099428029715e-03
7.54480000000000e-08,0.00000000000000e+00,0.00000000000000e+00,9.93044022809891e-04
7.57040000000000e-08,0.00000000000000e+00,0.00000000000000e+00,-1.31024757895475e-03
7.62159999999999e-08,0.00000000000000e+00,0.00000000000000e+00,-1.38592258128165e-04
7.69516835447308e-08,0.00000000000000e+00,0.00000000000000e+00,2.88482318384558e-04
7.81828764233590e-08,0.00000000000000e+00,0.00000000000000e+00,-2.75064897996497e-04
7.97509912267266e-08,0.00000000000000e+00,0.00000000000000e+00,2.77834645383430e-04
8.28872208334617e-08,0.00000000000000e+00,0.00000000000000e+00,-2.51933333335524e-04
8.50000000000000e-08,0.00000000000000e+00,0.00000000000000e+00,2.52041802066021e-04
8.50100000000000e-08,5.99999999999886e-02,0.00000000000000e+00,9.12521718859277e-04
8.50300000000000e-08,1.79999999999966e-01,0.00000000000000e+00,2.00091236015193e-03
8.50700000000000e-08,4.19999999999920e-01,0.00000000000000e+00,2.79861593553909e-03
8.51000000000000e-08,5.99999999999966e-01,0.00000000000000e+00,9.54166439385243e-04
8.51080000000000e-08,6.00000000000000e-01,0.00000000000000e+00,5.26191939706072e-05
8.51240000000000e-08,6.00000000000000e-01,0.00000000000000e+00,-1.29944229207156e-03
8.51560000000000e-08,6.00000000000000e-01,0.00000000000000e+00,-2.27842911495674e-03
8.52200000000000e-08,6.00000000000000e-01,0.00000000000000e+00,-1.89156980476420e-03
8.53480000000000e-08,6.00000000000000e-01,0.00000000000000e+00,-7.66146022566153e-04
8.56040000000000e-08,6.00000000000000e-01,0.00000000000000e+00,-1.85758209448751e-04
8.61159999999999e-08,6.00000000000000e-01,0.00000000000000e+00,5.40892358410552e-04
8.71399999999999e-08,6.00000000000000e-01,0.00000000000000e+00,-1.63437681211440e-04
8.82646502658965e-08,6.00000000000000e-01,0.00000000000000e+00,7.47859849984864e-05
9.00000000000000e-08,6.00000000000000e-01,0.00000000000000e+00,1.09372679478470e-06
9.00100000000000e-08,6.00000000000000e-01,5.99999999999886e-02,2.93743601168933e-05
9.00300000000000e-08,6.00000000000000e-01,1.79999999999966e-01,6.34637447810005e-05
9.00700000000000e-08,6.00000000000000e-01,4.19999999999920e-01,4.31034755524334e-05
9.01000000000000e-08,6.00000000000000e-01,5.99999999999966e-01,-6.46079895066237e-05
9.01080000000000e-08,6.00000000000000e-01,6.00000000000000e-01,-1.00979360567091e-04
9.01240000000000e-08,6.00000000000000e-01,6.00000000000000e-01,-1.42192941941691e-04
9.01560000000000e-08,6.00000000000000e-01,6.00000000000000e-01,-1.44052087769214e-04
9.02200000000000e-08,6.00000000000000e-01,6.00000000000000e-01,-4.98864256809201e-05
9.03480000000000e-08,6.00000000000000e-01,6.00000000000000e-01,5.12094260844420e-05
9.06040000000000e-08,6.00000000000000e-01,6.00000000000000e-01,2.47776695779037e-05
9.10408099524184e-08,6.00000000000000e-01,6.00000000000000e-01,2.70272080278577e-07
9.19144298572554e-08,6.00000000000000e-01,6.00000000000000e-01,2.43532524199612e-05
9.36616696669293e-08,6.00000000000000e-01,6.00000000000000e-01,4.96725997825749e-06
9.51000000000000e-08,6.00000000000000e-01,6.00000000000000e-01,1.91381441348934e-05
9.51100000000000e-08,5.40000000000061e-01,6.00000000000000e-01,-3.67888190972429e-04
9.51300000000000e-08,4.20000000000084e-01,6.00000000000000e-01,-1.21121136078811e-03
9.51700000000000e-08,1.80000000000129e-01,6.00000000000000e-01,-2.49072492519359e-03
9.52000000000000e-08,8.40438829641244e-14,6.00000000000000e-01,-2.02506884019740e-03
9.52080000000000e-08,0.00000000000000e+00,6.00000000000000e-01,-1.17920292900961e-03
9.52240000000000e-08,0.00000000000000e+00,6.00000000000000e-01,2.55004938283732e-04
9.52560000000000e-08,0.00000000000000e+00,6.00000000000000e-01,1.85696313742353e-03
9.53200000000000e-08,0.00000000000000e+00,6.00000000000000e-01,2.54273950693977e-03
9.54480000000000e-08,0.00000000000000e+00,6.00000000000000e-01,1.29970581853062e-03
9.57040000000000e-08,0.00000000000000e+00,6.00000000000000e-01,-7.90223730128756e-04
9.62159999999999e-08,0.00000000000000e+00,6.00000000000000e-01,-2.07440503082353e-04
9.71231316666905e-08,0.00000000000000e+00,6.00000000000000e-01,-2.24327438280714e-06
9.81804388145128e-08,0.00000000000000e+00,6.00000000000000e-01,7.18858186078176e-05
9.99217072516105e-08,0.00000000000000e+00,6.00000000000000e-01,5.80914469185383e-05
1.01807915770769e-07,0.00000000000000e+00,6.00000000000000e-01,-1.06651397786246e-04
1.05000000000000e-07,0.00000000000000e+00,6.00000000000000e-01,1.46139754646498e-04
1.05010000000000e-07,5.99999999999886e-02,6.00000000000000e-01,8.97839138112616e-04
1.05030000000000e-07,1.79999999999966e-01,6.00000000000000e-01,2.21800021341277e-03
1.05070000000000e-07,4.19999999999920e-01,6.00000000000000e-01,3.90781788157901e-03
1.05100000000000e-07,5.99999999999966e-01,6.00000000000000e-01,3.33162313873513e-03
1.05108000000000e-07,6.00000000000000e-01,6.00000000000000e-01,2.51283727663831e-03
1.05124000000000e-07,6.00000000000000e-01,6.00000000000000e-01,7.60996529486815e-04
1.05156000000000e-07,6.00000000000000e-01,6.00000000000000e-01,-3.07637124456853e-03
1.05220000000000e-07,6.00000000000000e-01,6.00000000000000e-01,-9.89848676851693e-03
1.05348000000000e-07,6.00000000000000e-01,6.00000000000000e-01,-1.59338409404048e-02
1.05604000000000e-07,6.00000000000000e-01,6.00000000000000e-01,3.15531607810132e-02
1.06116000000000e-07,6.00000000000000e-01,6.00000000000000e-01,4.72743409252564e-01
1.06925642652558e-07,6.00000000000000e-01,6.00000000000000e-01,6.19889739482381e-01
1.07760758638503e-07,6.00000000000000e-01,6.00000000000000e-01,5.83625626604854e-01
1.09427296003183e-07,6.00000000000000e-01,6.00000000000000e-01,6.14153677784521e-01
1.11218396446269e-07,6.00000000000000e-01,6.00000000000000e-01,5.86981698095725e-01
1.14800597332439e-07,6.00000000000000e-01,6.00000000000000e-01,6.12035829999706e-01
1.15100000000000e-07,6.00000000000000e-01,6.00000000000000e-01,5.93680850613102e-01
1.15110000000000e-07,5.40000000000061e-01,6.00000000000000e-01,5.94397137345187e-01
1.15130000000000e-07,4.20000000000084e-01,6.00000000000000e-01,5.95476229273525e-01
1.15170000000000e-07,1.80000000000129e-01,6.00000000000000e-01,5.97165785048936e-01
1.15200000000000e-07,8.40438829641244e-14,6.00000000000000e-01,5.99454189122974e-01
1.15208000000000e-07,0.00000000000000e+00,6.00000000000000e-01,6.00421371432901e-01
1.15224000000000e-07,0.00000000000000e+00,6.00000000000000e-01,6.02191941513482e-01
1.15256000000000e-07,0.00000000000000e+00,6.00000000000000e-01,6.04308325756839e-01
1.15320000000000e-07,0.00000000000000e+00,6.00000000000000e-01,6.05885663007329e-01
1.15448000000000e-07,0.00000000000000e+00,6.00000000000000e-01,6.05471104015991e-01
1.15704000000000e-07,0.00000000000000e+00,6.00000000000000e-01,5.97674961858103e-01
1.16216000000000e-07,0.00000000000000e+00,6.00000000000000e-01,5.89933894534100e-01
1.17139710954165e-07,0.00000000000000e+00,6.00000000000000e-01,6.02203292872230e-01
1.18376046425591e-07,0.00000000000000e+00,6.00000000000000e-01,5.97942353601597e-01
1.20008375027791e-07,0.00000000000000e+00,6.00000000000000e-01,6.01356455641225e-01
1.23273032232192e-07,0.00000000000000e+00,6.00000000000000e-01,5.98565739186948e-01
1.25000000000000e-07,0.00000000000000e+00,6.00000000000000e-01,6.01031360465291e-01
1.25010000000000e-07,5.99999999999092e-02,6.00000000000000e-01,6.01271317141840e-01
1.25030000000000e-07,1.79999999999886e-01,6.00000000000000e-01,6.01635715397279e-01
1.25070000000000e-07,4.19999999999841e-01,6.00000000000000e-01,6.01997526104156e-01
1.25100000000000e-07,5.99999999999886e-01,6.00000000000000e-01,6.01552711275502e-01
1.25108000000000e-07,6.00000000000000e-01,5.51999999999946e-01,6.01121380468854e-01
1.25124000000000e-07,6.00000000000000e-01,4.55999999999996e-01,6.00306803529595e-01
1.25156000000000e-07,6.00000000000000e-01,2.63999999999937e-01,5.98916248473075e-01
1.25200000000000e-07,6.00000000000000e-01,0.00000000000000e+00,5.97523384545751e-01
1.25206400000000e-07,6.00000000000000e-01,0.00000000000000e+00,5.97373609483460e-01
1.25219200000000e-07,6.00000000000000e-01,0.00000000000000e+00,5.97050069984060e-01
