Time,v(clk),v(data),v(out)
1.00000000000000e-08,3.30000000000000e-01,0.00000000000000e+00,1.69456912284278e-05
1.00100000000000e-08,3.30000000000000e-01,3.29999999999992e-02,1.72006491260257e-05
1.00300000000000e-08,3.30000000000000e-01,9.89999999999976e-02,1.72778800827667e-05
1.00700000000000e-08,3.30000000000000e-01,2.30999999999994e-01,1.75930721522978e-05
1.01000000000000e-08,3.30000000000000e-01,3.29999999999998e-01,1.76881842011943e-05
1.01080000000000e-08,3.30000000000000e-01,3.30000000000000e-01,1.76276635231246e-05
1.01240000000000e-08,3.30000000000000e-01,3.30000000000000e-01,1.74669322828107e-05
1.01560000000000e-08,3.30000000000000e-01,3.30000000000000e-01,1.69571690765910e-05
1.02200000000000e-08,3.30000000000000e-01,3.30000000000000e-01,1.61521179050314e-05
1.03480000000000e-08,3.30000000000000e-01,3.30000000000000e-01,1.58193447669062e-05
1.06040000000000e-08,3.30000000000000e-01,3.30000000000000e-01,1.55084617008364e-05
1.11160000000000e-08,3.30000000000000e-01,3.30000000000000e-01,1.51909331391181e-05
1.21400000000000e-08,3.30000000000000e-01,3.30000000000000e-01,1.18752211549604e-05
1.41880000000000e-08,3.30000000000000e-01,3.30000000000000e-01,7.97888438304473e-06
1.51000000000000e-08,3.30000000000000e-01,3.30000000000000e-01,8.30583564660411e-06
1.51100000000000e-08,2.96999999999995e-01,3.30000000000000e-01,-7.45674605465846e-06
1.51300000000000e-08,2.30999999999997e-01,3.30000000000000e-01,-3.93626372362059e-05
1.51700000000000e-08,9.90000000000001e-02,3.30000000000000e-01,-1.06294480401989e-04
1.52000000000000e-08,0.00000000000000e+00,3.30000000000000e-01,-1.53720018348586e-04
1.52080000000000e-08,0.00000000000000e+00,3.30000000000000e-01,-1.43160423987022e-04
1.52240000000000e-08,0.00000000000000e+00,3.30000000000000e-01,-1.22865689361221e-04
1.52560000000000e-08,0.00000000000000e+00,3.30000000000000e-01,-8.47523078901964e-05
1.53200000000000e-08,0.00000000000000e+00,3.30000000000000e-01,-2.17650069376206e-05
1.54480000000000e-08,0.00000000000000e+00,3.30000000000000e-01,5.20618873646565e-05
1.57040000000000e-08,0.00000000000000e+00,3.30000000000000e-01,8.92161926720220e-05
1.62160000000000e-08,0.00000000000000e+00,3.30000000000000e-01,4.93723178722830e-05
1.72400000000000e-08,0.00000000000000e+00,3.30000000000000e-01,-1.67487316934892e-05
1.92880000000000e-08,0.00000000000000e+00,3.30000000000000e-01,-1.66300576363472e-05
2.30880000000000e-08,0.00000000000000e+00,3.30000000000000e-01,-1.99332891485330e-05
2.50000000000000e-08,0.00000000000000e+00,3.30000000000000e-01,-2.67660309960435e-05
2.50100000000000e-08,3.29999999999937e-02,3.30000000000000e-01,-9.10038878396829e-07
2.50300000000000e-08,9.90000000000031e-02,3.30000000000000e-01,3.95878120816283e-05
2.50700000000000e-08,2.31000000000000e-01,3.30000000000000e-01,9.10335105026444e-05
2.51000000000000e-08,3.30000000000000e-01,3.30000000000000e-01,1.10946548033831e-04
2.51080000000000e-08,3.30000000000000e-01,3.30000000000000e-01,1.01307129721350e-04
2.51240000000000e-08,3.30000000000000e-01,3.30000000000000e-01,8.11614628942296e-05
2.51560000000000e-08,3.30000000000000e-01,3.30000000000000e-01,3.78673091182974e-05
2.52200000000000e-08,3.30000000000000e-01,3.30000000000000e-01,-6.19329276717977e-05
2.53480000000000e-08,3.30000000000000e-01,3.30000000000000e-01,-3.16183598888343e-04
2.56040000000000e-08,3.30000000000000e-01,3.30000000000000e-01,-8.58461148589321e-04
2.61160000000000e-08,3.30000000000000e-01,3.30000000000000e-01,-1.72534978642049e-03
2.71400000000000e-08,3.30000000000000e-01,3.30000000000000e-01,-1.32668900770450e-03
2.91880000000000e-08,3.30000000000000e-01,3.30000000000000e-01,9.66827322585156e-02
3.01000000000000e-08,3.30000000000000e-01,3.30000000000000e-01,1.93210525070394e-01
3.01100000000000e-08,3.30000000000000e-01,2.97000000000017e-01,1.94392200888037e-01
3.01300000000000e-08,3.30000000000000e-01,2.31000000000008e-01,1.96754259772949e-01
3.01700000000000e-08,3.30000000000000e-01,9.90000000000111e-02,2.01486372587136e-01
3.02000000000000e-08,3.30000000000000e-01,7.93809462606987e-15,2.05040672297596e-01
3.02080000000000e-08,3.30000000000000e-01,0.00000000000000e+00,2.05986608021943e-01
3.02240000000000e-08,3.30000000000000e-01,0.00000000000000e+00,2.07879708537378e-01
3.02560000000000e-08,3.30000000000000e-01,0.00000000000000e+00,2.11657116723523e-01
3.03200000000000e-08,3.30000000000000e-01,0.00000000000000e+00,2.19174218162223e-01
3.04480000000000e-08,3.30000000000000e-01,0.00000000000000e+00,2.33997858500259e-01
3.07040000000000e-08,3.30000000000000e-01,0.00000000000000e+00,2.61950431084068e-01
3.12160000000000e-08,3.30000000000000e-01,0.00000000000000e+00,3.03229486647780e-01
3.22400000000000e-08,3.30000000000000e-01,0.00000000000000e+00,3.29769511447340e-01
3.42880000000000e-08,3.30000000000000e-01,0.00000000000000e+00,3.28678853940578e-01
3.51000000000000e-08,3.29999999999984e-01,0.00000000000000e+00,3.29915935757996e-01
3.51100000000000e-08,2.96999999999990e-01,0.00000000000000e+00,3.29892799437886e-01
3.51300000000000e-08,2.30999999999981e-01,0.00000000000000e+00,3.29845903354240e-01
3.51700000000000e-08,9.89999999999837e-02,0.00000000000000e+00,3.29772376561822e-01
3.52000000000000e-08,0.00000000000000e+00,0.00000000000000e+00,3.29805697050976e-01
3.52080000000000e-08,0.00000000000000e+00,0.00000000000000e+00,3.29842344845992e-01
3.52240000000000e-08,0.00000000000000e+00,0.00000000000000e+00,3.29909436128867e-01
3.52560000000000e-08,0.00000000000000e+00,0.00000000000000e+00,3.30022723986482e-01
3.53200000000000e-08,0.00000000000000e+00,0.00000000000000e+00,3.30214474333036e-01
3.54480000000000e-08,0.00000000000000e+00,0.00000000000000e+00,3.30420494640685e-01
3.57040000000000e-08,0.00000000000000e+00,0.00000000000000e+00,3.30486787338389e-01
3.62160000000000e-08,0.00000000000000e+00,0.00000000000000e+00,3.29689325502759e-01
3.72400000000000e-08,0.00000000000000e+00,0.00000000000000e+00,3.23993984085636e-01
3.91000000000000e-08,0.00000000000000e+00,0.00000000000000e+00,3.19645974512226e-01
3.93048000000000e-08,0.00000000000000e+00,0.00000000000000e+00,3.20618651087834e-01
3.97144000000000e-08,0.00000000000000e+00,0.00000000000000e+00,3.22546967150758e-01
4.05336000000000e-08,0.00000000000000e+00,0.00000000000000e+00,3.25460113861846e-01
4.21720000000000e-08,0.00000000000000e+00,0.00000000000000e+00,3.27875727068645e-01
4.50000000000000e-08,0.00000000000000e+00,0.00000000000000e+00,3.28878435297709e-01
4.50100000000000e-08,3.29999999999937e-02,0.00000000000000e+00,3.28893592694221e-01
4.50300000000000e-08,9.90000000000031e-02,0.00000000000000e+00,3.28921167547767e-01
4.50700000000000e-08,2.31000000000000e-01,0.00000000000000e+00,3.28960505379318e-01
4.51000000000000e-08,3.30000000000000e-01,0.00000000000000e+00,3.28972885491590e-01
4.51080000000000e-08,3.30000000000000e-01,0.00000000000000e+00,3.28965114007427e-01
4.51240000000000e-08,3.30000000000000e-01,0.00000000000000e+00,3.28950960151974e-01
4.51560000000000e-08,3.30000000000000e-01,0.00000000000000e+00,3.28928295439974e-01
4.52200000000000e-08,3.30000000000000e-01,0.00000000000000e+00,3.28897546173703e-01
4.53480000000000e-08,3.30000000000000e-01,0.00000000000000e+00,3.28881434096292e-01
4.56040000000000e-08,3.30000000000000e-01,0.00000000000000e+00,3.28907905102310e-01
4.61160000000000e-08,3.30000000000000e-01,0.00000000000000e+00,3.29017140201747e-01
4.71400000000000e-08,3.30000000000000e-01,0.00000000000000e+00,3.29191826755213e-01
4.91880000000000e-08,3.30000000000000e-01,0.00000000000000e+00,3.30837896314973e-01
5.00000000000000e-08,3.30000000000000e-01,0.00000000000000e+00,3.32613800679325e-01
5.00100000000000e-08,3.30000000000000e-01,3.29999999999937e-02,3.32640554567661e-01
5.00300000000000e-08,3.30000000000000e-01,9.89999999999812e-02,3.32696818550341e-01
5.00700000000000e-08,3.30000000000000e-01,2.31000000000000e-01,3.32818802335444e-01
5.01000000000000e-08,3.30000000000000e-01,3.30000000000000e-01,3.32909785442326e-01
5.01080000000000e-08,3.30000000000000e-01,3.30000000000000e-01,3.32934906883885e-01
5.01240000000000e-08,3.30000000000000e-01,3.30000000000000e-01,3.32984206988594e-01
5.01560000000000e-08,3.30000000000000e-01,3.30000000000000e-01,3.33082530082640e-01
5.02200000000000e-08,3.30000000000000e-01,3.30000000000000e-01,3.33280493975231e-01
5.03480000000000e-08,3.30000000000000e-01,3.30000000000000e-01,3.33676913049157e-01
5.06040000000000e-08,3.30000000000000e-01,3.30000000000000e-01,3.34418050049448e-01
5.11160000000001e-08,3.30000000000000e-01,3.30000000000000e-01,3.34847556058230e-01
5.21400000000002e-08,3.30000000000000e-01,3.30000000000000e-01,2.85925319578319e-01
5.41880000000003e-08,3.30000000000000e-01,3.30000000000000e-01,4.76317577930030e-02
5.51000000000000e-08,3.30000000000000e-01,3.30000000000000e-01,-2.79834971771903e-04
5.51100000000000e-08,2.97000000000012e-01,3.30000000000000e-01,-6.90359012638052e-05
5.51300000000000e-08,2.31000000000002e-01,3.30000000000000e-01,2.67515327971098e-04
5.51700000000000e-08,9.90000000000056e-02,3.30000000000000e-01,5.89141723513757e-04
5.52000000000000e-08,0.00000000000000e+00,3.30000000000000e-01,6.51851021166716e-04
5.52080000000000e-08,0.00000000000000e+00,3.30000000000000e-01,6.74174997620399e-04
5.52240000000000e-08,0.00000000000000e+00,3.30000000000000e-01,7.06019136611610e-04
5.52560000000000e-08,0.00000000000000e+00,3.30000000000000e-01,7.38937043994470e-04
5.53200000000000e-08,0.00000000000000e+00,3.30000000000000e-01,7.29582577299482e-04
5.54480000000000e-08,0.00000000000000e+00,3.30000000000000e-01,6.17407275780430e-04
5.57040000000000e-08,0.00000000000000e+00,3.30000000000000e-01,3.83864055826898e-04
5.62160000000000e-08,0.00000000000000e+00,3.30000000000000e-01,9.54766501743576e-05
5.72400000000000e-08,0.00000000000000e+00,3.30000000000000e-01,-2.16892668629140e-04
5.92880000000000e-08,0.00000000000000e+00,3.30000000000000e-01,-2.50281328226309e-04
6.30880000000000e-08,0.00000000000000e+00,3.30000000000000e-01,1.07751468756337e-04
6.50000000000000e-08,0.00000000000000e+00,3.30000000000000e-01,-4.78835485862384e-05
6.50100000000000e-08,3.29999999999937e-02,3.30000000000000e-01,-2.32440802149514e-05
6.50300000000000e-08,9.89999999999812e-02,3.30000000000000e-01,1.53404235068919e-05
6.50700000000000e-08,2.30999999999956e-01,3.30000000000000e-01,6.41609988820922e-05
6.51000000000000e-08,3.29999999999981e-01,3.30000000000000e-01,8.29635345290548e-05
6.51080000000000e-08,3.30000000000000e-01,3.30000000000000e-01,7.31179861746256e-05
6.51240000000000e-08,3.30000000000000e-01,3.30000000000000e-01,5.26127974387891e-05
6.51560000000000e-08,3.30000000000000e-01,3.30000000000000e-01,8.71991036367412e-06
6.52200000000000e-08,3.30000000000000e-01,3.30000000000000e-01,-9.06957159852138e-05
6.53480000000000e-08,3.30000000000000e-01,3.30000000000000e-01,-3.25574299804184e-04
6.56040000000000e-08,3.30000000000000e-01,3.30000000000000e-01,-8.71433929919422e-04
6.61159999999999e-08,3.30000000000000e-01,3.30000000000000e-01,-1.73221085069431e-03
6.71399999999999e-08,3.30000000000000e-01,3.30000000000000e-01,-1.32713686551892e-03
6.91879999999998e-08,3.30000000000000e-01,3.30000000000000e-01,9.67151818656136e-02
7.01000000000000e-08,3.30000000000000e-01,3.30000000000000e-01,1.93254220161063e-01
7.01100000000000e-08,3.30000000000000e-01,2.97000000000006e-01,1.94435890404549e-01
7.01300000000000e-08,3.30000000000000e-01,2.31000000000019e-01,1.96797989994392e-01
7.01700000000000e-08,3.30000000000000e-01,9.90000000000438e-02,2.01530083874013e-01
7.02000000000000e-08,3.30000000000000e-01,1.88737914186277e-14,2.05084353724332e-01
7.02080000000000e-08,3.30000000000000e-01,0.00000000000000e+00,2.06030276224424e-01
7.02240000000000e-08,3.30000000000000e-01,0.00000000000000e+00,2.07923354881393e-01
7.02560000000000e-08,3.30000000000000e-01,0.00000000000000e+00,2.11700697970934e-01
7.03200000000000e-08,3.30000000000000e-01,0.00000000000000e+00,2.19217606649487e-01
7.04480000000000e-08,3.30000000000000e-01,0.00000000000000e+00,2.34040531725630e-01
7.07040000000000e-08,3.30000000000000e-01,0.00000000000000e+00,2.61989504819727e-01
7.12159999999999e-08,3.30000000000000e-01,0.00000000000000e+00,3.03252572353361e-01
7.22399999999999e-08,3.30000000000000e-01,0.00000000000000e+00,3.29770489592979e-01
7.42879999999998e-08,3.30000000000000e-01,0.00000000000000e+00,3.28678792109826e-01
7.51000000000000e-08,3.30000000000000e-01,0.00000000000000e+00,3.29916224226298e-01
7.51100000000000e-08,2.97000000000034e-01,0.00000000000000e+00,3.29893077189240e-01
7.51300000000000e-08,2.31000000000046e-01,0.00000000000000e+00,3.29846163591073e-01
7.51700000000000e-08,9.90000000000711e-02,0.00000000000000e+00,3.29772607812142e-01
7.52000000000000e-08,4.61852778244065e-14,0.00000000000000e+00,3.29805911973689e-01
7.52080000000000e-08,0.00000000000000e+00,0.00000000000000e+00,3.29842558421551e-01
7.52240000000000e-08,0.00000000000000e+00,0.00000000000000e+00,3.29909646431813e-01
7.52560000000000e-08,0.00000000000000e+00,0.00000000000000e+00,3.30022929676931e-01
7.53200000000000e-08,0.00000000000000e+00,0.00000000000000e+00,3.30214641864023e-01
7.54480000000000e-08,0.00000000000000e+00,0.00000000000000e+00,3.30420608326238e-01
7.57040000000000e-08,0.00000000000000e+00,0.00000000000000e+00,3.30486862576863e-01
7.62159999999999e-08,0.00000000000000e+00,0.00000000000000e+00,3.29689387321002e-01
7.72399999999999e-08,0.00000000000000e+00,0.00000000000000e+00,3.23994042819173e-01
7.81000000000000e-08,0.00000000000000e+00,0.00000000000000e+00,3.19160151408136e-01
7.83048000000000e-08,0.00000000000000e+00,0.00000000000000e+00,3.19061781165877e-01
7.87144000000000e-08,0.00000000000000e+00,0.00000000000000e+00,3.19594239380505e-01
7.95335999999999e-08,0.00000000000000e+00,0.00000000000000e+00,3.22745778179579e-01
8.11719999999998e-08,0.00000000000000e+00,0.00000000000000e+00,3.27230215477509e-01
8.44487999999996e-08,0.00000000000000e+00,0.00000000000000e+00,3.28885793667334e-01
8.50000000000000e-08,0.00000000000000e+00,0.00000000000000e+00,3.28967413410286e-01
8.50100000000000e-08,3.29999999999937e-02,0.00000000000000e+00,3.28989410572666e-01
8.50300000000000e-08,9.89999999999812e-02,0.00000000000000e+00,3.29025943291657e-01
8.50700000000000e-08,2.30999999999956e-01,0.00000000000000e+00,3.29069738188269e-01
8.51000000000000e-08,3.29999999999981e-01,0.00000000000000e+00,3.29080149287402e-01
8.51080000000000e-08,3.30000000000000e-01,0.00000000000000e+00,3.29072738378120e-01
8.51240000000000e-08,3.30000000000000e-01,0.00000000000000e+00,3.29058712237828e-01
8.51560000000000e-08,3.30000000000000e-01,0.00000000000000e+00,3.29033895522079e-01
8.52200000000000e-08,3.30000000000000e-01,0.00000000000000e+00,3.28996623823819e-01
8.53480000000000e-08,3.30000000000000e-01,0.00000000000000e+00,3.28964475158900e-01
8.56040000000000e-08,3.30000000000000e-01,0.00000000000000e+00,3.28970287127583e-01
8.61159999999999e-08,3.30000000000000e-01,0.00000000000000e+00,3.29057016401029e-01
8.71399999999999e-08,3.30000000000000e-01,0.00000000000000e+00,3.29229889383679e-01
8.91879999999998e-08,3.30000000000000e-01,0.00000000000000e+00,3.30872193196654e-01
9.00000000000000e-08,3.30000000000000e-01,0.00000000000000e+00,3.32669941842845e-01
9.00100000000000e-08,3.30000000000000e-01,3.29999999999937e-02,3.32697066726038e-01
9.00300000000000e-08,3.30000000000000e-01,9.89999999999812e-02,3.32754328426892e-01
9.00700000000000e-08,3.30000000000000e-01,2.30999999999956e-01,3.32878215744246e-01
9.01000000000000e-08,3.30000000000000e-01,3.29999999999981e-01,3.32970721097055e-01
9.01080000000000e-08,3.30000000000000e-01,3.30000000000000e-01,3.32996246266270e-01
9.01240000000000e-08,3.30000000000000e-01,3.30000000000000e-01,3.33046362047025e-01
9.01560000000000e-08,3.30000000000000e-01,3.30000000000000e-01,3.33146353578190e-01
9.02200000000000e-08,3.30000000000000e-01,3.30000000000000e-01,3.33347789232794e-01
9.03480000000000e-08,3.30000000000000e-01,3.30000000000000e-01,3.33752464370413e-01
9.06040000000000e-08,3.30000000000000e-01,3.30000000000000e-01,3.34515099052124e-01
9.11159999999999e-08,3.30000000000000e-01,3.30000000000000e-01,3.35032765363515e-01
9.21399999999999e-08,3.30000000000000e-01,3.30000000000000e-01,2.87065860622293e-01
9.41879999999998e-08,3.30000000000000e-01,3.30000000000000e-01,4.85089529433096e-02
9.51000000000000e-08,3.30000000000000e-01,3.30000000000000e-01,-1.90394312024420e-04
9.51100000000000e-08,2.97000000000034e-01,3.30000000000000e-01,2.04220101591331e-05
9.51300000000000e-08,2.31000000000046e-01,3.30000000000000e-01,3.56978142770754e-04
9.51700000000000e-08,9.90000000000711e-02,3.30000000000000e-01,6.75525497156416e-04
9.52000000000000e-08,4.61852778244065e-14,3.30000000000000e-01,7.33772774681899e-04
9.52080000000000e-08,0.00000000000000e+00,3.30000000000000e-01,7.54656412506247e-04
9.52240000000000e-08,0.00000000000000e+00,3.30000000000000e-01,7.83994979525904e-04
9.52560000000000e-08,0.00000000000000e+00,3.30000000000000e-01,8.11620155385238e-04
9.53200000000000e-08,0.00000000000000e+00,3.30000000000000e-01,7.92210385484684e-04
9.54480000000000e-08,0.00000000000000e+00,3.30000000000000e-01,6.62956633065568e-04
9.57040000000000e-08,0.00000000000000e+00,3.30000000000000e-01,4.07229088253866e-04
9.62159999999999e-08,0.00000000000000e+00,3.30000000000000e-01,1.00452799137757e-04
9.72399999999999e-08,0.00000000000000e+00,3.30000000000000e-01,-2.17614469306009e-04
9.92879999999998e-08,0.00000000000000e+00,3.30000000000000e-01,-2.50524295180956e-04
1.03088000000000e-07,0.00000000000000e+00,3.30000000000000e-01,1.07812567083954e-04
1.05000000000000e-07,0.00000000000000e+00,3.30000000000000e-01,-4.77979735688293e-05
1.05010000000000e-07,3.29999999999937e-02,3.30000000000000e-01,-2.31692424609679e-05
1.05030000000000e-07,9.89999999999812e-02,3.30000000000000e-01,1.53966209831269e-05
1.05070000000000e-07,2.30999999999956e-01,3.30000000000000e-01,6.41906319972345e-05
1.05100000000000e-07,3.29999999999981e-01,3.30000000000000e-01,8.29788919369245e-05
1.05108000000000e-07,3.30000000000000e-01,3.30000000000000e-01,7.31302221886852e-05
1.05124000000000e-07,3.30000000000000e-01,3.30000000000000e-01,5.26191273972562e-05
1.05156000000000e-07,3.30000000000000e-01,3.30000000000000e-01,8.71583885219546e-06
1.05220000000000e-07,3.30000000000000e-01,3.30000000000000e-01,-9.07174036926493e-05
1.05348000000000e-07,3.30000000000000e-01,3.30000000000000e-01,-3.25619433890808e-04
1.05604000000000e-07,3.30000000000000e-01,3.30000000000000e-01,-8.71481732135511e-04
1.06116000000000e-07,3.30000000000000e-01,3.30000000000000e-01,-1.73224119976148e-03
1.07140000000000e-07,3.30000000000000e-01,3.30000000000000e-01,-1.32712256141792e-03
1.09188000000000e-07,3.30000000000000e-01,3.30000000000000e-01,9.67155276241787e-02
1.10100000000000e-07,3.30000000000000e-01,3.30000000000000e-01,1.93254695556736e-01
1.10110000000000e-07,3.30000000000000e-01,2.97000000000050e-01,1.94436365901448e-01
1.10130000000000e-07,3.30000000000000e-01,2.31000000000062e-01,1.96798465661902e-01
1.10170000000000e-07,3.30000000000000e-01,9.90000000000875e-02,2.01530559617114e-01
1.10200000000000e-07,3.30000000000000e-01,6.25610674376276e-14,2.05084829090043e-01
1.10208000000000e-07,3.30000000000000e-01,0.00000000000000e+00,2.06030751480001e-01
1.10224000000000e-07,3.30000000000000e-01,0.00000000000000e+00,2.07923829893893e-01
1.10256000000000e-07,3.30000000000000e-01,0.00000000000000e+00,2.11701172307346e-01
1.10320000000000e-07,3.30000000000000e-01,0.00000000000000e+00,2.19218078538200e-01
1.10448000000000e-07,3.30000000000000e-01,0.00000000000000e+00,2.34040994822188e-01
1.10704000000000e-07,3.30000000000000e-01,0.00000000000000e+00,2.61989927061365e-01
1.11216000000000e-07,3.30000000000000e-01,0.00000000000000e+00,3.03252820661945e-01
1.12240000000000e-07,3.30000000000000e-01,0.00000000000000e+00,3.29770499824526e-01
1.14288000000000e-07,3.30000000000000e-01,0.00000000000000e+00,3.28678791495894e-01
1.15100000000000e-07,3.30000000000000e-01,0.00000000000000e+00,3.29916227241054e-01
