Time,v(clk),v(data),v(out),v(reset)
1.00000000000000e-08,5.00000000000000e-01,0.00000000000000e+00,-1.80404928573882e-02,0.00000000000000e+00
1.00100000000000e-08,5.00000000000000e-01,4.99999999999988e-02,-1.58454225293875e-02,0.00000000000000e+00
1.00300000000000e-08,5.00000000000000e-01,1.49999999999996e-01,-1.24804676126672e-02,0.00000000000000e+00
1.00700000000000e-08,5.00000000000000e-01,3.49999999999992e-01,-9.03049035465413e-03,0.00000000000000e+00
1.01000000000000e-08,5.00000000000000e-01,4.99999999999996e-01,-7.51534952950653e-03,0.00000000000000e+00
1.01080000000000e-08,5.00000000000000e-01,5.00000000000000e-01,-7.16760972534197e-03,0.00000000000000e+00
1.01240000000000e-08,5.00000000000000e-01,5.00000000000000e-01,-6.50305031757078e-03,0.00000000000000e+00
1.01560000000000e-08,5.00000000000000e-01,5.00000000000000e-01,-5.34492952814605e-03,0.00000000000000e+00
1.02200000000000e-08,5.00000000000000e-01,5.00000000000000e-01,-3.62200751292098e-03,0.00000000000000e+00
1.03480000000000e-08,5.00000000000000e-01,5.00000000000000e-01,-1.61400393808594e-03,0.00000000000000e+00
1.06040000000000e-08,5.00000000000000e-01,5.00000000000000e-01,-2.14399820231252e-04,0.00000000000000e+00
1.11160000000000e-08,5.00000000000000e-01,5.00000000000000e-01,4.97379243022088e-05,0.00000000000000e+00
1.21400000000000e-08,5.00000000000000e-01,5.00000000000000e-01,-1.74600315034617e-05,0.00000000000000e+00
1.41880000000000e-08,5.00000000000000e-01,5.00000000000000e-01,2.41985086416891e-05,0.00000000000000e+00
1.51000000000000e-08,5.00000000000000e-01,5.00000000000000e-01,-6.55927806540377e-07,0.00000000000000e+00
1.51100000000000e-08,4.49999999999993e-01,5.00000000000000e-01,1.76665303551822e-04,5.00000000000071e-02
1.51300000000000e-08,3.49999999999995e-01,5.00000000000000e-01,4.30123311211089e-04,1.50000000000005e-01
1.51700000000000e-08,1.50000000000000e-01,5.00000000000000e-01,5.60922298290925e-04,3.50000000000000e-01
1.52000000000000e-08,0.00000000000000e+00,5.00000000000000e-01,4.72461041421776e-04,5.00000000000000e-01
1.52080000000000e-08,0.00000000000000e+00,5.00000000000000e-01,4.10887291482878e-04,5.00000000000000e-01
1.52240000000000e-08,0.00000000000000e+00,5.00000000000000e-01,3.05763015879069e-04,5.00000000000000e-01
1.52560000000000e-08,0.00000000000000e+00,5.00000000000000e-01,1.71072735904290e-04,5.00000000000000e-01
1.53200000000000e-08,0.00000000000000e+00,5.00000000000000e-01,6.05293456168582e-05,5.00000000000000e-01
1.54480000000000e-08,0.00000000000000e+00,5.00000000000000e-01,-3.95096660068678e-05,5.00000000000000e-01
1.57040000000000e-08,0.00000000000000e+00,5.00000000000000e-01,-7.14476344000101e-04,5.00000000000000e-01
1.62160000000000e-08,0.00000000000000e+00,5.00000000000000e-01,-6.16176041497919e-04,5.00000000000000e-01
1.71688166551764e-08,0.00000000000000e+00,5.00000000000000e-01,2.70738527886578e-04,5.00000000000000e-01
1.88309351432711e-08,0.00000000000000e+00,5.00000000000000e-01,-2.11447011638713e-04,5.00000000000000e-01
2.10128128128365e-08,0.00000000000000e+00,5.00000000000000e-01,2.48256655645266e-04,5.00000000000000e-01
2.48128128128365e-08,0.00000000000000e+00,5.00000000000000e-01,-2.28440195111642e-04,5.00000000000000e-01
2.50000000000000e-08,0.00000000000000e+00,5.00000000000000e-01,3.82941290797897e-06,5.00000000000000e-01
2.50100000000000e-08,4.99999999999905e-02,5.00000000000000e-01,9.60408239145394e-05,5.00000000000000e-01
2.50300000000000e-08,1.50000000000005e-01,5.00000000000000e-01,2.69634447896488e-04,5.00000000000000e-01
2.50700000000000e-08,3.50000000000000e-01,5.00000000000000e-01,5.17074989475584e-04,5.00000000000000e-01
2.51000000000000e-08,5.00000000000000e-01,5.00000000000000e-01,5.86171946727047e-04,5.00000000000000e-01
2.51080000000000e-08,5.00000000000000e-01,5.00000000000000e-01,5.41247791785854e-04,5.00000000000000e-01
2.51240000000000e-08,5.00000000000000e-01,5.00000000000000e-01,4.48953003111117e-04,5.00000000000000e-01
2.51560000000000e-08,5.00000000000000e-01,5.00000000000000e-01,2.36586640508130e-04,5.00000000000000e-01
2.52200000000000e-08,5.00000000000000e-01,5.00000000000000e-01,-4.15389123058406e-04,5.00000000000000e-01
2.53480000000000e-08,5.00000000000000e-01,5.00000000000000e-01,-2.09339563327918e-03,5.00000000000000e-01
2.56040000000000e-08,5.00000000000000e-01,5.00000000000000e-01,-4.20197311113359e-03,5.00000000000000e-01
2.61160000000000e-08,5.00000000000000e-01,5.00000000000000e-01,5.54510960775088e-02,5.00000000000000e-01
2.71400000000000e-08,5.00000000000000e-01,5.00000000000000e-01,4.40068772727605e-01,5.00000000000000e-01
2.73960000000000e-08,5.00000000000000e-01,5.00000000000000e-01,4.82208622793981e-01,5.00000000000000e-01
2.79080000000000e-08,5.00000000000000e-01,5.00000000000000e-01,5.02896288229150e-01,5.00000000000000e-01
2.89320000000000e-08,5.00000000000000e-01,5.00000000000000e-01,4.97194668808599e-01,5.00000000000000e-01
3.09800000000000e-08,5.00000000000000e-01,5.00000000000000e-01,5.02461323272588e-01,5.00000000000000e-01
3.47688462773643e-08,5.00000000000000e-01,5.00000000000000e-01,4.97521778091778e-01,5.00000000000000e-01
3.51000000000000e-08,4.99999999999975e-01,5.00000000000000e-01,5.01230534920966e-01,5.00000000000000e-01
3.51100000000000e-08,4.49999999999985e-01,5.00000000000000e-01,5.00960591222869e-01,5.00000000000000e-01
3.51300000000000e-08,3.49999999999971e-01,5.00000000000000e-01,5.00507569004484e-01,5.00000000000000e-01
3.51700000000000e-08,1.49999999999975e-01,5.00000000000000e-01,5.00173578744415e-01,5.00000000000000e-01
3.52000000000000e-08,0.00000000000000e+00,5.00000000000000e-01,5.00721970147673e-01,5.00000000000000e-01
3.52080000000000e-08,0.00000000000000e+00,5.00000000000000e-01,5.00997142482011e-01,5.00000000000000e-01
3.52240000000000e-08,0.00000000000000e+00,5.00000000000000e-01,5.01447384374773e-01,5.00000000000000e-01
3.52560000000000e-08,0.00000000000000e+00,5.00000000000000e-01,5.01975046943532e-01,5.00000000000000e-01
3.53200000000000e-08,0.00000000000000e+00,5.00000000000000e-01,5.02309105874923e-01,5.00000000000000e-01
3.54480000000000e-08,0.00000000000000e+00,5.00000000000000e-01,5.01046841469752e-01,5.00000000000000e-01
3.57040000000000e-08,0.00000000000000e+00,5.00000000000000e-01,4.88984753765505e-01,5.00000000000000e-01
3.62160000000000e-08,0.00000000000000e+00,5.00000000000000e-01,4.84798404965688e-01,5.00000000000000e-01
3.72400000000000e-08,0.00000000000000e+00,5.00000000000000e-01,5.02075686817550e-01,5.00000000000000e-01
3.89692013350210e-08,0.00000000000000e+00,5.00000000000000e-01,4.97160249528357e-01,5.00000000000000e-01
4.17448002376679e-08,0.00000000000000e+00,5.00000000000000e-01,5.01648433177537e-01,5.00000000000000e-01
4.50000000000000e-08,0.00000000000000e+00,5.00000000000000e-01,4.98003008397295e-01,5.00000000000000e-01
4.50100000000000e-08,4.99999999999905e-02,5.00000000000000e-01,4.98083913049762e-01,4.50000000000010e-01
4.50300000000000e-08,1.50000000000005e-01,5.00000000000000e-01,4.98224804967407e-01,3.49999999999995e-01
4.50700000000000e-08,3.50000000000000e-01,5.00000000000000e-01,4.98799956898261e-01,1.50000000000000e-01
4.51000000000000e-08,5.00000000000000e-01,5.00000000000000e-01,5.00537402388136e-01,0.00000000000000e+00
4.51080000000000e-08,5.00000000000000e-01,5.00000000000000e-01,5.01318900555972e-01,0.00000000000000e+00
4.51240000000000e-08,5.00000000000000e-01,5.00000000000000e-01,5.02730077065786e-01,0.00000000000000e+00
4.51560000000000e-08,5.00000000000000e-01,5.00000000000000e-01,5.04925993824712e-01,0.00000000000000e+00
4.52200000000000e-08,5.00000000000000e-01,5.00000000000000e-01,5.08131175378650e-01,0.00000000000000e+00
4.53480000000000e-08,5.00000000000000e-01,5.00000000000000e-01,5.14207916806093e-01,0.00000000000000e+00
4.56040000000000e-08,5.00000000000000e-01,5.00000000000000e-01,5.11483844414037e-01,0.00000000000000e+00
4.61160000000000e-08,5.00000000000000e-01,5.00000000000000e-01,2.31929317310346e-01,0.00000000000000e+00
4.71062484569028e-08,5.00000000000000e-01,5.00000000000000e-01,-3.87089980784144e-02,0.00000000000000e+00
4.84462219588644e-08,5.00000000000000e-01,5.00000000000000e-01,2.84212754507671e-02,0.00000000000000e+00
5.01000000000000e-08,5.00000000000000e-01,4.99999999999971e-01,-1.81013005056576e-02,0.00000000000000e+00
5.03679947003923e-08,5.00000000000000e-01,5.00000000000000e-01,-5.67604023512852e-03,0.00000000000000e+00
5.09039841011769e-08,5.00000000000000e-01,5.00000000000000e-01,1.52462328139218e-03,0.00000000000000e+00
5.19759629027462e-08,5.00000000000000e-01,5.00000000000000e-01,-8.78785892403224e-04,0.00000000000000e+00
5.41199205058847e-08,5.00000000000000e-01,5.00000000000000e-01,7.07726740081227e-04,0.00000000000000e+00
5.51000000000000e-08,5.00000000000000e-01,5.00000000000000e-01,-4.28826833155968e-04,0.00000000000000e+00
5.51100000000000e-08,4.50000000000018e-01,5.00000000000000e-01,-1.75313584916556e-04,4.99999999999822e-02
5.51300000000000e-08,3.50000000000004e-01,5.00000000000000e-01,2.04160971671564e-04,1.49999999999996e-01
5.51700000000000e-08,1.50000000000008e-01,5.00000000000000e-01,4.28495246458674e-04,3.49999999999992e-01
5.52000000000000e-08,0.00000000000000e+00,5.00000000000000e-01,3.63277988902039e-04,5.00000000000000e-01
5.52080000000000e-08,0.00000000000000e+00,5.00000000000000e-01,3.06551928221946e-04,5.00000000000000e-01
5.52240000000000e-08,0.00000000000000e+00,5.00000000000000e-01,2.11495157713473e-04,5.00000000000000e-01
5.52560000000000e-08,0.00000000000000e+00,5.00000000000000e-01,9.55086487759785e-05,5.00000000000000e-01
5.53200000000000e-08,0.00000000000000e+00,5.00000000000000e-01,9.61054394500727e-06,5.00000000000000e-01
5.54480000000000e-08,0.00000000000000e+00,5.00000000000000e-01,-5.30304859325745e-05,5.00000000000000e-01
5.57040000000000e-08,0.00000000000000e+00,5.00000000000000e-01,-6.40070226088953e-04,5.00000000000000e-01
5.62160000000000e-08,0.00000000000000e+00,5.00000000000000e-01,-5.21952864350576e-04,5.00000000000000e-01
5.71216642282165e-08,0.00000000000000e+00,5.00000000000000e-01,3.39103730767322e-04,5.00000000000000e-01
5.88122199670016e-08,0.00000000000000e+00,5.00000000000000e-01,-3.25558290161302e-04,5.00000000000000e-01
6.09424851799625e-08,0.00000000000000e+00,5.00000000000000e-01,3.01851767555328e-04,5.00000000000000e-01
6.14174851799625e-08,0.00000000000000e+00,5.00000000000000e-01,7.79281252454352e-05,5.00000000000000e-01
6.23674851799625e-08,0.00000000000000e+00,5.00000000000000e-01,-3.81960843352722e-05,5.00000000000000e-01
6.42674851799625e-08,0.00000000000000e+00,5.00000000000000e-01,4.17797804134288e-05,5.00000000000000e-01
6.50000000000000e-08,0.00000000000000e+00,5.00000000000000e-01,-5.73681819605876e-06,5.00000000000000e-01
6.50100000000000e-08,4.99999999999905e-02,5.00000000000000e-01,8.98706420133996e-05,5.00000000000000e-01
6.50300000000000e-08,1.49999999999972e-01,5.00000000000000e-01,2.62368608779200e-04,5.00000000000000e-01
6.50700000000000e-08,3.49999999999934e-01,5.00000000000000e-01,5.08466194450455e-04,5.00000000000000e-01
6.51000000000000e-08,4.99999999999971e-01,5.00000000000000e-01,5.78088622509111e-04,5.00000000000000e-01
6.51080000000000e-08,5.00000000000000e-01,5.00000000000000e-01,5.33546988843878e-04,5.00000000000000e-01
6.51240000000000e-08,5.00000000000000e-01,5.00000000000000e-01,4.42806959177977e-04,5.00000000000000e-01
6.51560000000000e-08,5.00000000000000e-01,5.00000000000000e-01,2.37005962160697e-04,5.00000000000000e-01
6.52200000000000e-08,5.00000000000000e-01,5.00000000000000e-01,-3.98364153754653e-04,5.00000000000000e-01
6.53480000000000e-08,5.00000000000000e-01,5.00000000000000e-01,-2.06215976446270e-03,5.00000000000000e-01
6.56040000000000e-08,5.00000000000000e-01,5.00000000000000e-01,-4.20439701609530e-03,5.00000000000000e-01
6.61159999999999e-08,5.00000000000000e-01,5.00000000000000e-01,5.36526921415526e-02,5.00000000000000e-01
6.71399999999999e-08,5.00000000000000e-01,5.00000000000000e-01,4.38860379611615e-01,5.00000000000000e-01
6.73959999999999e-08,5.00000000000000e-01,5.00000000000000e-01,4.81840457208765e-01,5.00000000000000e-01
6.79079999999998e-08,5.00000000000000e-01,5.00000000000000e-01,5.02960828578562e-01,5.00000000000000e-01
6.89319999999998e-08,5.00000000000000e-01,5.00000000000000e-01,4.97148385778424e-01,5.00000000000000e-01
7.09799999999997e-08,5.00000000000000e-01,5.00000000000000e-01,5.02503534899397e-01,5.00000000000000e-01
7.47665193545923e-08,5.00000000000000e-01,5.00000000000000e-01,4.97481312502193e-01,5.00000000000000e-01
7.51000000000000e-08,5.00000000000000e-01,5.00000000000000e-01,5.01258054347978e-01,5.00000000000000e-01
7.51100000000000e-08,4.50000000000051e-01,5.00000000000000e-01,5.00983461854481e-01,5.00000000000000e-01
7.51300000000000e-08,3.50000000000070e-01,5.00000000000000e-01,5.00522676822229e-01,5.00000000000000e-01
7.51700000000000e-08,1.50000000000108e-01,5.00000000000000e-01,5.00179984490856e-01,5.00000000000000e-01
7.52000000000000e-08,6.99995617026161e-14,5.00000000000000e-01,5.00725348630960e-01,5.00000000000000e-01
7.52080000000000e-08,0.00000000000000e+00,5.00000000000000e-01,5.01000178062901e-01,5.00000000000000e-01
7.52240000000000e-08,0.00000000000000e+00,5.00000000000000e-01,5.01449799608860e-01,5.00000000000000e-01
7.52560000000000e-08,0.00000000000000e+00,5.00000000000000e-01,5.01976539357993e-01,5.00000000000000e-01
7.53200000000000e-08,0.00000000000000e+00,5.00000000000000e-01,5.02309676075528e-01,5.00000000000000e-01
7.54480000000000e-08,0.00000000000000e+00,5.00000000000000e-01,5.01047156740784e-01,5.00000000000000e-01
7.57040000000000e-08,0.00000000000000e+00,5.00000000000000e-01,4.88984901687426e-01,5.00000000000000e-01
7.62159999999999e-08,0.00000000000000e+00,5.00000000000000e-01,4.84797644663488e-01,5.00000000000000e-01
7.72399999999999e-08,0.00000000000000e+00,5.00000000000000e-01,5.02075295062815e-01,5.00000000000000e-01
7.89691661705651e-08,0.00000000000000e+00,5.00000000000000e-01,4.97160550833459e-01,5.00000000000000e-01
8.17448018724857e-08,0.00000000000000e+00,5.00000000000000e-01,5.01648128421748e-01,5.00000000000000e-01
8.50000000000000e-08,0.00000000000000e+00,5.00000000000000e-01,4.98003280237929e-01,5.00000000000000e-01
8.50100000000000e-08,4.99999999999905e-02,5.00000000000000e-01,4.98084109113835e-01,4.50000000000010e-01
8.50300000000000e-08,1.49999999999972e-01,5.00000000000000e-01,4.98224967542362e-01,3.50000000000028e-01
8.50700000000000e-08,3.49999999999934e-01,5.00000000000000e-01,4.98800131455110e-01,1.50000000000066e-01
8.51000000000000e-08,4.99999999999971e-01,5.00000000000000e-01,5.00537526416092e-01,2.86437540353290e-14
8.51080000000000e-08,5.00000000000000e-01,5.00000000000000e-01,5.01319016125869e-01,0.00000000000000e+00
8.51240000000000e-08,5.00000000000000e-01,5.00000000000000e-01,5.02730178657822e-01,0.00000000000000e+00
8.51560000000000e-08,5.00000000000000e-01,5.00000000000000e-01,5.04926071077228e-01,0.00000000000000e+00
8.52200000000000e-08,5.00000000000000e-01,5.00000000000000e-01,5.08131223561351e-01,0.00000000000000e+00
8.53480000000000e-08,5.00000000000000e-01,5.00000000000000e-01,5.14207935910458e-01,0.00000000000000e+00
8.56040000000000e-08,5.00000000000000e-01,5.00000000000000e-01,5.11483507912508e-01,0.00000000000000e+00
8.61159999999999e-08,5.00000000000000e-01,5.00000000000000e-01,2.31928239117462e-01,0.00000000000000e+00
8.71062495074697e-08,5.00000000000000e-01,5.00000000000000e-01,-3.87093031991532e-02,0.00000000000000e+00
8.84462219865513e-08,5.00000000000000e-01,5.00000000000000e-01,2.84216179907801e-02,0.00000000000000e+00
9.01000000000000e-08,5.00000000000000e-01,4.99999999999971e-01,-1.81013792218969e-02,0.00000000000000e+00
9.03679944958163e-08,5.00000000000000e-01,5.00000000000000e-01,-5.67608541527664e-03,0.00000000000000e+00
9.09039834874489e-08,5.00000000000000e-01,5.00000000000000e-01,1.52462857294206e-03,0.00000000000000e+00
9.19759614707142e-08,5.00000000000000e-01,5.00000000000000e-01,-8.78785768751073e-04,0.00000000000000e+00
9.41199174372447e-08,5.00000000000000e-01,5.00000000000000e-01,7.07725862967691e-04,0.00000000000000e+00
9.51000000000000e-08,5.00000000000000e-01,5.00000000000000e-01,-4.28825334297778e-04,0.00000000000000e+00
9.51100000000000e-08,4.50000000000051e-01,5.00000000000000e-01,-1.75313166364426e-04,4.99999999999492e-02
9.51300000000000e-08,3.50000000000070e-01,5.00000000000000e-01,2.04160893255055e-04,1.49999999999930e-01
9.51700000000000e-08,1.50000000000108e-01,5.00000000000000e-01,4.28494739677446e-04,3.49999999999892e-01
9.52000000000000e-08,6.99995617026161e-14,5.00000000000000e-01,3.63277395162002e-04,4.99999999999930e-01
9.52080000000000e-08,0.00000000000000e+00,5.00000000000000e-01,3.06551345237306e-04,5.00000000000000e-01
9.52240000000000e-08,0.00000000000000e+00,5.00000000000000e-01,2.11494608221299e-04,5.00000000000000e-01
9.52560000000000e-08,0.00000000000000e+00,5.00000000000000e-01,9.55080250692741e-05,5.00000000000000e-01
9.53200000000000e-08,0.00000000000000e+00,5.00000000000000e-01,9.60994912994895e-06,5.00000000000000e-01
9.54480000000000e-08,0.00000000000000e+00,5.00000000000000e-01,-5.30300371872003e-05,5.00000000000000e-01
9.57040000000000e-08,0.00000000000000e+00,5.00000000000000e-01,-6.40063510341630e-04,5.00000000000000e-01
9.62159999999999e-08,0.00000000000000e+00,5.00000000000000e-01,-5.21946268549071e-04,5.00000000000000e-01
9.71216354272308e-08,0.00000000000000e+00,5.00000000000000e-01,3.39096169503493e-04,5.00000000000000e-01
9.88122108080831e-08,0.00000000000000e+00,5.00000000000000e-01,-3.25554839238113e-04,5.00000000000000e-01
1.00942447707995e-07,0.00000000000000e+00,5.00000000000000e-01,3.01849443780808e-04,5.00000000000000e-01
1.01417447707995e-07,0.00000000000000e+00,5.00000000000000e-01,7.79287157841972e-05,5.00000000000000e-01
1.02367447707995e-07,0.00000000000000e+00,5.00000000000000e-01,-3.81956486740671e-05,5.00000000000000e-01
1.04267447707995e-07,0.00000000000000e+00,5.00000000000000e-01,4.17792207337035e-05,5.00000000000000e-01
1.05000000000000e-07,0.00000000000000e+00,5.00000000000000e-01,-5.73721709615400e-06,5.00000000000000e-01
1.05010000000000e-07,4.99999999999905e-02,5.00000000000000e-01,8.98702742419683e-05,5.00000000000000e-01
1.05030000000000e-07,1.49999999999972e-01,5.00000000000000e-01,2.62368285015947e-04,5.00000000000000e-01
1.05070000000000e-07,3.49999999999934e-01,5.00000000000000e-01,5.08465990015861e-04,5.00000000000000e-01
1.05100000000000e-07,4.99999999999971e-01,5.00000000000000e-01,5.78088580032568e-04,5.00000000000000e-01
1.05108000000000e-07,5.00000000000000e-01,5.00000000000000e-01,5.33547029247558e-04,5.00000000000000e-01
1.05124000000000e-07,5.00000000000000e-01,5.00000000000000e-01,4.42807265921968e-04,5.00000000000000e-01
1.05156000000000e-07,5.00000000000000e-01,5.00000000000000e-01,2.37007380739618e-04,5.00000000000000e-01
1.05220000000000e-07,5.00000000000000e-01,5.00000000000000e-01,-3.98359917065015e-04,5.00000000000000e-01
1.05348000000000e-07,5.00000000000000e-01,5.00000000000000e-01,-2.06215413906233e-03,5.00000000000000e-01
1.05604000000000e-07,5.00000000000000e-01,5.00000000000000e-01,-4.20439629406045e-03,5.00000000000000e-01
1.06116000000000e-07,5.00000000000000e-01,5.00000000000000e-01,5.36525558822282e-02,5.00000000000000e-01
1.07140000000000e-07,5.00000000000000e-01,5.00000000000000e-01,4.38860287126242e-01,5.00000000000000e-01
1.07396000000000e-07,5.00000000000000e-01,5.00000000000000e-01,4.81840429043802e-01,5.00000000000000e-01
1.07908000000000e-07,5.00000000000000e-01,5.00000000000000e-01,5.02960833452210e-01,5.00000000000000e-01
1.08932000000000e-07,5.00000000000000e-01,5.00000000000000e-01,4.97148382285380e-01,5.00000000000000e-01
1.10980000000000e-07,5.00000000000000e-01,5.00000000000000e-01,5.02503538085751e-01,5.00000000000000e-01
1.14766519182966e-07,5.00000000000000e-01,5.00000000000000e-01,4.97481309437717e-01,5.00000000000000e-01
1.15100000000000e-07,5.00000000000000e-01,5.00000000000000e-01,5.01258056421298e-01,5.00000000000000e-01
