Time,v(clk),v(data),v(out)
1.00000000000000e-08,6.50000000000000e-01,0.00000000000000e+00,4.33264848456712e-05
1.00100000000000e-08,6.50000000000000e-01,6.49999999999984e-02,3.22805191411146e-05
1.00300000000000e-08,6.50000000000000e-01,1.94999999999995e-01,1.72908515401193e-05
1.00700000000000e-08,6.50000000000000e-01,4.54999999999989e-01,4.80754274239520e-06
1.01000000000000e-08,6.50000000000000e-01,6.49999999999995e-01,-1.83272001929441e-06
1.01080000000000e-08,6.50000000000000e-01,6.50000000000000e-01,-1.70967474539402e-06
1.01240000000000e-08,6.50000000000000e-01,6.50000000000000e-01,-4.30677986336392e-07
1.01560000000000e-08,6.50000000000000e-01,6.50000000000000e-01,2.86037452127547e-06
1.02200000000000e-08,6.50000000000000e-01,6.50000000000000e-01,5.78918603703557e-06
1.03480000000000e-08,6.50000000000000e-01,6.50000000000000e-01,1.88730001752721e-06
1.06040000000000e-08,6.50000000000000e-01,6.50000000000000e-01,1.38659207428275e-06
1.11160000000000e-08,6.50000000000000e-01,6.50000000000000e-01,2.72780465271176e-06
1.21400000000000e-08,6.50000000000000e-01,6.50000000000000e-01,1.09791859269305e-06
1.41880000000000e-08,6.50000000000000e-01,6.50000000000000e-01,2.22439857162134e-06
1.51000000000000e-08,6.50000000000000e-01,6.50000000000000e-01,7.96763562159637e-07
1.51100000000000e-08,5.84999999999991e-01,6.50000000000000e-01,-6.13289276178500e-05
1.51300000000000e-08,4.54999999999994e-01,6.50000000000000e-01,-1.53475944079315e-04
1.51700000000000e-08,1.95000000000000e-01,6.50000000000000e-01,-1.67098005599033e-04
1.52000000000000e-08,0.00000000000000e+00,6.50000000000000e-01,2.65510196436752e-05
1.52080000000000e-08,0.00000000000000e+00,6.50000000000000e-01,1.52051555401704e-04
1.52240000000000e-08,0.00000000000000e+00,6.50000000000000e-01,3.10104688348231e-04
1.52560000000000e-08,0.00000000000000e+00,6.50000000000000e-01,3.14135271489227e-04
1.53200000000000e-08,0.00000000000000e+00,6.50000000000000e-01,4.51889444354411e-05
1.54480000000000e-08,0.00000000000000e+00,6.50000000000000e-01,-1.65300517993659e-04
1.57040000000000e-08,0.00000000000000e+00,6.50000000000000e-01,-9.17503523770805e-05
1.62108093713404e-08,0.00000000000000e+00,6.50000000000000e-01,-2.68994007588189e-06
1.68395302857888e-08,0.00000000000000e+00,6.50000000000000e-01,1.12299890770552e-04
1.80425282240021e-08,0.00000000000000e+00,6.50000000000000e-01,-1.10444075884040e-04
1.93455514521135e-08,0.00000000000000e+00,6.50000000000000e-01,1.04505879895436e-04
2.19515979083365e-08,0.00000000000000e+00,6.50000000000000e-01,-9.89875828306982e-05
2.50000000000000e-08,0.00000000000000e+00,6.50000000000000e-01,9.61933919911030e-05
2.50100000000000e-08,6.49999999999877e-02,6.50000000000000e-01,1.90064505040097e-04
2.50300000000000e-08,1.95000000000006e-01,6.50000000000000e-01,3.22909097854221e-04
2.50700000000000e-08,4.55000000000000e-01,6.50000000000000e-01,2.99675360233835e-04
2.51000000000000e-08,6.50000000000000e-01,6.50000000000000e-01,-1.07834789176795e-03
2.51080000000000e-08,6.50000000000000e-01,6.50000000000000e-01,-1.85170234718671e-03
2.51240000000000e-08,6.50000000000000e-01,6.50000000000000e-01,-3.32109635037862e-03
2.51560000000000e-08,6.50000000000000e-01,6.50000000000000e-01,-5.40206193107651e-03
2.52200000000000e-08,6.50000000000000e-01,6.50000000000000e-01,-1.27301397409069e-03
2.53480000000000e-08,6.50000000000000e-01,6.50000000000000e-01,1.65485302503962e-01
2.56040000000000e-08,6.50000000000000e-01,6.50000000000000e-01,5.99923137609143e-01
2.61160000000000e-08,6.50000000000000e-01,6.50000000000000e-01,6.65663761351202e-01
2.66669990080517e-08,6.50000000000000e-01,6.50000000000000e-01,6.35441466926334e-01
2.77557027652359e-08,6.50000000000000e-01,6.50000000000000e-01,6.61045900739137e-01
2.89395642752510e-08,6.50000000000000e-01,6.50000000000000e-01,6.38896625797061e-01
3.01000000000000e-08,6.50000000000000e-01,6.50000000000000e-01,6.58949328885736e-01
3.01100000000000e-08,6.50000000000000e-01,5.85000000000034e-01,6.56664774964897e-01
3.01300000000000e-08,6.50000000000000e-01,4.55000000000016e-01,6.53180052886438e-01
3.01700000000000e-08,6.50000000000000e-01,1.95000000000022e-01,6.50590069062990e-01
3.02000000000000e-08,6.50000000000000e-01,1.57651669496772e-14,6.50301604530588e-01
3.02080000000000e-08,6.50000000000000e-01,0.00000000000000e+00,6.50263975374218e-01
3.02240000000000e-08,6.50000000000000e-01,0.00000000000000e+00,6.50186398319711e-01
3.02560000000000e-08,6.50000000000000e-01,0.00000000000000e+00,6.50064430302691e-01
3.03200000000000e-08,6.50000000000000e-01,0.00000000000000e+00,6.49994903115106e-01
3.04480000000000e-08,6.50000000000000e-01,0.00000000000000e+00,6.49938216323806e-01
3.07040000000000e-08,6.50000000000000e-01,0.00000000000000e+00,6.49986107267912e-01
3.10244711874886e-08,6.50000000000000e-01,0.00000000000000e+00,6.49943504168227e-01
3.16654135624659e-08,6.50000000000000e-01,0.00000000000000e+00,6.49971203820972e-01
3.25384469926260e-08,6.50000000000000e-01,0.00000000000000e+00,6.49959003376030e-01
3.42845138529463e-08,6.50000000000000e-01,0.00000000000000e+00,6.49971339182275e-01
3.51000000000000e-08,6.49999999999968e-01,0.00000000000000e+00,6.49968667734845e-01
3.51100000000000e-08,5.84999999999980e-01,0.00000000000000e+00,6.49892084790283e-01
3.51300000000000e-08,4.54999999999962e-01,0.00000000000000e+00,6.49788938216833e-01
3.51700000000000e-08,1.94999999999968e-01,0.00000000000000e+00,6.50217250111768e-01
3.52000000000000e-08,0.00000000000000e+00,0.00000000000000e+00,6.51584469717461e-01
3.52080000000000e-08,0.00000000000000e+00,0.00000000000000e+00,6.52010852582439e-01
3.52240000000000e-08,0.00000000000000e+00,0.00000000000000e+00,6.52611035507459e-01
3.52560000000000e-08,0.00000000000000e+00,0.00000000000000e+00,6.52744959230539e-01
3.53200000000000e-08,0.00000000000000e+00,0.00000000000000e+00,6.47671456460709e-01
3.54480000000000e-08,0.00000000000000e+00,0.00000000000000e+00,6.26233486910879e-01
3.57040000000000e-08,0.00000000000000e+00,0.00000000000000e+00,6.32084099868637e-01
3.60330441161458e-08,0.00000000000000e+00,0.00000000000000e+00,6.54156498330273e-01
3.66911323484373e-08,0.00000000000000e+00,0.00000000000000e+00,6.45087646761812e-01
3.73382784462833e-08,0.00000000000000e+00,0.00000000000000e+00,6.52580169027214e-01
3.86325706419753e-08,0.00000000000000e+00,0.00000000000000e+00,6.47053058161869e-01
3.91000000000000e-08,0.00000000000000e+00,0.00000000000000e+00,6.51433420724196e-01
3.93588584391384e-08,0.00000000000000e+00,0.00000000000000e+00,6.50001216078298e-01
3.98765753174152e-08,0.00000000000000e+00,0.00000000000000e+00,6.49572873347123e-01
4.09120090739688e-08,0.00000000000000e+00,0.00000000000000e+00,6.49933130454109e-01
4.29828765870761e-08,0.00000000000000e+00,0.00000000000000e+00,6.49680673388265e-01
4.50000000000000e-08,0.00000000000000e+00,0.00000000000000e+00,6.49953878631085e-01
4.50100000000000e-08,6.49999999999877e-02,0.00000000000000e+00,6.50003732979592e-01
4.50300000000000e-08,1.95000000000006e-01,0.00000000000000e+00,6.50059665497438e-01
4.50700000000000e-08,4.55000000000000e-01,0.00000000000000e+00,6.49978888945623e-01
4.51000000000000e-08,6.50000000000000e-01,0.00000000000000e+00,6.49715227283788e-01
4.51080000000000e-08,6.50000000000000e-01,0.00000000000000e+00,6.49614683938699e-01
4.51240000000000e-08,6.50000000000000e-01,0.00000000000000e+00,6.49474751053040e-01
4.51560000000000e-08,6.50000000000000e-01,0.00000000000000e+00,6.49369148064754e-01
4.52200000000000e-08,6.50000000000000e-01,0.00000000000000e+00,6.50114094859688e-01
4.53480000000000e-08,6.50000000000000e-01,0.00000000000000e+00,6.58057036850632e-01
4.56040000000000e-08,6.50000000000000e-01,0.00000000000000e+00,2.46738661146518e-01
4.60232636343098e-08,6.50000000000000e-01,0.00000000000000e+00,-6.61303643252075e-02
4.64539516909857e-08,6.50000000000000e-01,0.00000000000000e+00,5.66383336653828e-02
4.73153278043375e-08,6.50000000000000e-01,0.00000000000000e+00,-4.01420706304727e-02
4.82127315828128e-08,6.50000000000000e-01,0.00000000000000e+00,3.86146933871566e-02
5.00000000000000e-08,6.50000000000000e-01,0.00000000000000e+00,-3.16132261125363e-02
5.00100000000000e-08,6.50000000000000e-01,6.49999999999877e-02,-2.47836549172312e-02
5.00300000000000e-08,6.50000000000000e-01,1.94999999999963e-01,-1.37251110707098e-02
5.00700000000000e-08,6.50000000000000e-01,4.55000000000000e-01,-3.50373953251098e-03
5.01000000000000e-08,6.50000000000000e-01,6.50000000000000e-01,-1.46229929515818e-03
5.01080000000000e-08,6.50000000000000e-01,6.50000000000000e-01,-1.17270315915989e-03
5.01240000000000e-08,6.50000000000000e-01,6.50000000000000e-01,-7.13704276269822e-04
5.01560000000000e-08,6.50000000000000e-01,6.50000000000000e-01,-2.68390789962901e-04
5.02200000000000e-08,6.50000000000000e-01,6.50000000000000e-01,-1.06035414024694e-05
5.03480000000000e-08,6.50000000000000e-01,6.50000000000000e-01,5.13034640374499e-07
5.06040000000000e-08,6.50000000000000e-01,6.50000000000000e-01,-4.70672067525574e-07
5.11160000000001e-08,6.50000000000000e-01,6.50000000000000e-01,-6.67278255220283e-09
5.21400000000002e-08,6.50000000000000e-01,6.50000000000000e-01,3.26028097954664e-07
5.41880000000003e-08,6.50000000000000e-01,6.50000000000000e-01,-7.03053485207484e-07
5.51000000000000e-08,6.50000000000000e-01,6.50000000000000e-01,-4.41920722151629e-08
5.51100000000000e-08,5.85000000000023e-01,6.50000000000000e-01,-6.68563001250747e-05
5.51300000000000e-08,4.55000000000005e-01,6.50000000000000e-01,-1.62816220473323e-04
5.51700000000000e-08,1.95000000000011e-01,6.50000000000000e-01,-1.74979826882582e-04
5.52000000000000e-08,0.00000000000000e+00,6.50000000000000e-01,1.44797140304506e-05
5.52080000000000e-08,0.00000000000000e+00,6.50000000000000e-01,1.40191042354264e-04
5.52240000000000e-08,0.00000000000000e+00,6.50000000000000e-01,2.95091531258271e-04
5.52560000000000e-08,0.00000000000000e+00,6.50000000000000e-01,2.89159780286867e-04
5.53200000000000e-08,0.00000000000000e+00,6.50000000000000e-01,-1.10164449240321e-04
5.54480000000000e-08,0.00000000000000e+00,6.50000000000000e-01,-6.57801787008465e-04
5.57040000000000e-08,0.00000000000000e+00,6.50000000000000e-01,6.64446843827750e-05
5.61807096761238e-08,0.00000000000000e+00,6.50000000000000e-01,-8.42838800089105e-05
5.68192797093727e-08,0.00000000000000e+00,6.50000000000000e-01,1.43367852105131e-04
5.79856310599307e-08,0.00000000000000e+00,6.50000000000000e-01,-1.13941756074865e-04
5.92728120386158e-08,0.00000000000000e+00,6.50000000000000e-01,9.08930237827738e-05
6.18471739959862e-08,0.00000000000000e+00,6.50000000000000e-01,-7.82250907795132e-05
6.50000000000000e-08,0.00000000000000e+00,6.50000000000000e-01,7.01860983638163e-05
6.50100000000000e-08,6.49999999999877e-02,6.50000000000000e-01,2.09661601963548e-04
6.50300000000000e-08,1.94999999999963e-01,6.50000000000000e-01,3.75496828004258e-04
6.50700000000000e-08,4.54999999999914e-01,6.50000000000000e-01,3.30463509511124e-04
6.51000000000000e-08,6.49999999999963e-01,6.50000000000000e-01,-1.05715719554803e-03
6.51080000000000e-08,6.50000000000000e-01,6.50000000000000e-01,-1.83287499666435e-03
6.51240000000000e-08,6.50000000000000e-01,6.50000000000000e-01,-3.30686687472219e-03
6.51560000000000e-08,6.50000000000000e-01,6.50000000000000e-01,-5.39538226976628e-03
6.52200000000000e-08,6.50000000000000e-01,6.50000000000000e-01,-1.28098321224403e-03
6.53480000000000e-08,6.50000000000000e-01,6.50000000000000e-01,1.65435186633150e-01
6.56040000000000e-08,6.50000000000000e-01,6.50000000000000e-01,5.99896839230130e-01
6.61159999999999e-08,6.50000000000000e-01,6.50000000000000e-01,6.65671259490501e-01
6.66669922257108e-08,6.50000000000000e-01,6.50000000000000e-01,6.35434096298032e-01
6.77557432156599e-08,6.50000000000000e-01,6.50000000000000e-01,6.61051679359701e-01
6.89396113044617e-08,6.50000000000000e-01,6.50000000000000e-01,6.38890551872715e-01
7.01000000000000e-08,6.50000000000000e-01,6.50000000000000e-01,6.58954250273921e-01
7.01100000000000e-08,6.50000000000000e-01,5.85000000000012e-01,6.56668160729431e-01
7.01300000000000e-08,6.50000000000000e-01,4.55000000000037e-01,6.53181484222776e-01
7.01700000000000e-08,6.50000000000000e-01,1.95000000000086e-01,6.50590273709353e-01
7.02000000000000e-08,6.50000000000000e-01,3.71924713249427e-14,6.50301550704502e-01
7.02080000000000e-08,6.50000000000000e-01,0.00000000000000e+00,6.50263953962124e-01
7.02240000000000e-08,6.50000000000000e-01,0.00000000000000e+00,6.50186390179342e-01
7.02560000000000e-08,6.50000000000000e-01,0.00000000000000e+00,6.50064390247550e-01
7.03200000000000e-08,6.50000000000000e-01,0.00000000000000e+00,6.49994914218067e-01
7.04480000000000e-08,6.50000000000000e-01,0.00000000000000e+00,6.49938214644426e-01
7.07040000000000e-08,6.50000000000000e-01,0.00000000000000e+00,6.49986108520797e-01
7.10244889270857e-08,6.50000000000000e-01,0.00000000000000e+00,6.49943499999235e-01
7.16654667812571e-08,6.50000000000000e-01,0.00000000000000e+00,6.49971210847127e-01
7.25386806593657e-08,6.50000000000000e-01,0.00000000000000e+00,6.49958995037131e-01
7.42851084155830e-08,6.50000000000000e-01,0.00000000000000e+00,6.49971349432418e-01
7.51000000000000e-08,6.50000000000000e-01,0.00000000000000e+00,6.49968659398481e-01
7.51100000000000e-08,5.85000000000066e-01,0.00000000000000e+00,6.49892073306758e-01
7.51300000000000e-08,4.55000000000091e-01,0.00000000000000e+00,6.49788925918622e-01
7.51700000000000e-08,1.95000000000140e-01,0.00000000000000e+00,6.50217247693344e-01
7.52000000000000e-08,9.09272657168003e-14,0.00000000000000e+00,6.51584469343512e-01
7.52080000000000e-08,0.00000000000000e+00,0.00000000000000e+00,6.52010848357304e-01
7.52240000000000e-08,0.00000000000000e+00,0.00000000000000e+00,6.52611026774773e-01
7.52560000000000e-08,0.00000000000000e+00,0.00000000000000e+00,6.52744952761936e-01
7.53200000000000e-08,0.00000000000000e+00,0.00000000000000e+00,6.47671448965417e-01
7.54480000000000e-08,0.00000000000000e+00,0.00000000000000e+00,6.26233483305356e-01
7.57040000000000e-08,0.00000000000000e+00,0.00000000000000e+00,6.32084116012394e-01
7.60330440174908e-08,0.00000000000000e+00,0.00000000000000e+00,6.54156497579932e-01
7.66911320524723e-08,0.00000000000000e+00,0.00000000000000e+00,6.45087647036718e-01
7.73382780841514e-08,0.00000000000000e+00,0.00000000000000e+00,6.52580169630019e-01
7.81000000000000e-08,0.00000000000000e+00,0.00000000000000e+00,6.47267389596343e-01
7.82294292063358e-08,0.00000000000000e+00,0.00000000000000e+00,6.48995741507806e-01
7.84882876190075e-08,0.00000000000000e+00,0.00000000000000e+00,6.49967872934000e-01
7.90060044443507e-08,0.00000000000000e+00,0.00000000000000e+00,6.49516250180126e-01
8.00414380950373e-08,0.00000000000000e+00,0.00000000000000e+00,6.49920063894294e-01
8.21123053964104e-08,0.00000000000000e+00,0.00000000000000e+00,6.49659269284062e-01
8.50000000000000e-08,0.00000000000000e+00,0.00000000000000e+00,6.49968217627252e-01
8.50100000000000e-08,6.49999999999877e-02,0.00000000000000e+00,6.50011708964381e-01
8.50300000000000e-08,1.94999999999963e-01,0.00000000000000e+00,6.50059428987019e-01
8.50700000000000e-08,4.54999999999914e-01,0.00000000000000e+00,6.49977401265034e-01
8.51000000000000e-08,6.49999999999963e-01,0.00000000000000e+00,6.49715058457888e-01
8.51080000000000e-08,6.50000000000000e-01,0.00000000000000e+00,6.49625948653635e-01
8.51240000000000e-08,6.50000000000000e-01,0.00000000000000e+00,6.49469993560617e-01
8.51560000000000e-08,6.50000000000000e-01,0.00000000000000e+00,6.49371434457709e-01
8.52200000000000e-08,6.50000000000000e-01,0.00000000000000e+00,6.50105700209555e-01
8.53480000000000e-08,6.50000000000000e-01,0.00000000000000e+00,6.58061166547466e-01
8.56040000000000e-08,6.50000000000000e-01,0.00000000000000e+00,2.46876384096392e-01
8.60233180666891e-08,6.50000000000000e-01,0.00000000000000e+00,-6.60896260381530e-02
8.64540469982748e-08,6.50000000000000e-01,0.00000000000000e+00,5.66033107149721e-02
8.73155048614462e-08,6.50000000000000e-01,0.00000000000000e+00,-4.01182842245350e-02
8.82130369798347e-08,6.50000000000000e-01,0.00000000000000e+00,3.85923505875519e-02
9.00000000000000e-08,6.50000000000000e-01,0.00000000000000e+00,-3.15944252027021e-02
9.00100000000000e-08,6.50000000000000e-01,6.49999999999877e-02,-2.47696737882083e-02
9.00300000000000e-08,6.50000000000000e-01,1.94999999999963e-01,-1.37181104362620e-02
9.00700000000000e-08,6.50000000000000e-01,4.54999999999914e-01,-3.50218609408513e-03
9.01000000000000e-08,6.50000000000000e-01,6.49999999999963e-01,-1.46177701487070e-03
9.01080000000000e-08,6.50000000000000e-01,6.50000000000000e-01,-1.17227559527872e-03
9.01240000000000e-08,6.50000000000000e-01,6.50000000000000e-01,-7.13450035110023e-04
9.01560000000000e-08,6.50000000000000e-01,6.50000000000000e-01,-2.68306102086495e-04
9.02200000000000e-08,6.50000000000000e-01,6.50000000000000e-01,-1.05946055896089e-05
9.03480000000000e-08,6.50000000000000e-01,6.50000000000000e-01,5.08125104534130e-07
9.06040000000000e-08,6.50000000000000e-01,6.50000000000000e-01,-4.69840552680748e-07
9.11159999999999e-08,6.50000000000000e-01,6.50000000000000e-01,-1.05602086346301e-08
9.21399999999999e-08,6.50000000000000e-01,6.50000000000000e-01,3.26253190191181e-07
9.41879999999998e-08,6.50000000000000e-01,6.50000000000000e-01,-7.06250914743033e-07
9.51000000000000e-08,6.50000000000000e-01,6.50000000000000e-01,-4.35593219090188e-08
9.51100000000000e-08,5.85000000000066e-01,6.50000000000000e-01,-6.68511773673636e-05
9.51300000000000e-08,4.55000000000091e-01,6.50000000000000e-01,-1.62803732528305e-04
9.51700000000000e-08,1.95000000000140e-01,6.50000000000000e-01,-1.74967051164154e-04
9.52000000000000e-08,9.09272657168003e-14,6.50000000000000e-01,1.44891281149140e-05
9.52080000000000e-08,0.00000000000000e+00,6.50000000000000e-01,1.40196704844248e-04
9.52240000000000e-08,0.00000000000000e+00,6.50000000000000e-01,2.95085784874978e-04
9.52560000000000e-08,0.00000000000000e+00,6.50000000000000e-01,2.89112056343029e-04
9.53200000000000e-08,0.00000000000000e+00,6.50000000000000e-01,-1.10429920381593e-04
9.54480000000000e-08,0.00000000000000e+00,6.50000000000000e-01,-6.58976465860831e-04
9.57040000000000e-08,0.00000000000000e+00,6.50000000000000e-01,6.67548059399489e-05
9.61801998981520e-08,0.00000000000000e+00,6.50000000000000e-01,-8.44860953255339e-05
9.68189421086959e-08,0.00000000000000e+00,6.50000000000000e-01,1.43438116552110e-04
9.79846542683759e-08,0.00000000000000e+00,6.50000000000000e-01,-1.13876128162916e-04
9.92715618060437e-08,0.00000000000000e+00,6.50000000000000e-01,9.07566946997088e-05
1.01845376881379e-07,0.00000000000000e+00,6.50000000000000e-01,-7.80575672295941e-05
1.05000000000000e-07,0.00000000000000e+00,6.50000000000000e-01,7.00084299783464e-05
1.05010000000000e-07,6.49999999999877e-02,6.50000000000000e-01,2.09633532088818e-04
1.05030000000000e-07,1.94999999999963e-01,6.50000000000000e-01,3.75608036232614e-04
1.05070000000000e-07,4.54999999999914e-01,6.50000000000000e-01,3.30588565300709e-04
1.05100000000000e-07,6.49999999999963e-01,6.50000000000000e-01,-1.05690682417379e-03
1.05108000000000e-07,6.50000000000000e-01,6.50000000000000e-01,-1.83261185476675e-03
1.05124000000000e-07,6.50000000000000e-01,6.50000000000000e-01,-3.30662292657502e-03
1.05156000000000e-07,6.50000000000000e-01,6.50000000000000e-01,-5.39525573699334e-03
1.05220000000000e-07,6.50000000000000e-01,6.50000000000000e-01,-1.28150538668868e-03
1.05348000000000e-07,6.50000000000000e-01,6.50000000000000e-01,1.65431942610642e-01
1.05604000000000e-07,6.50000000000000e-01,6.50000000000000e-01,5.99895114423967e-01
1.06116000000000e-07,6.50000000000000e-01,6.50000000000000e-01,6.65671740974297e-01
1.06666992085146e-07,6.50000000000000e-01,6.50000000000000e-01,6.35433618220651e-01
1.07755745996686e-07,6.50000000000000e-01,6.50000000000000e-01,6.61052054456846e-01
1.08939614418652e-07,6.50000000000000e-01,6.50000000000000e-01,6.38890155973888e-01
1.10100000000000e-07,6.50000000000000e-01,6.50000000000000e-01,6.58954566963924e-01
