Time,v(clk),v(data),v(out),v(reset)
1.00000000000000e-08,6.50000000000000e-01,0.00000000000000e+00,-3.10597135158314e-06,0.00000000000000e+00
1.00100000000000e-08,6.50000000000000e-01,6.49999999999984e-02,2.44274156603608e-07,0.00000000000000e+00
1.00300000000000e-08,6.50000000000000e-01,1.94999999999995e-01,2.84565105655027e-06,0.00000000000000e+00
1.00700000000000e-08,6.50000000000000e-01,4.54999999999989e-01,2.13659928060411e-06,0.00000000000000e+00
1.01000000000000e-08,6.50000000000000e-01,6.49999999999995e-01,2.30294160624006e-06,0.00000000000000e+00
1.01080000000000e-08,6.50000000000000e-01,6.50000000000000e-01,2.54620046052922e-06,0.00000000000000e+00
1.01240000000000e-08,6.50000000000000e-01,6.50000000000000e-01,3.39495538816820e-06,0.00000000000000e+00
1.01560000000000e-08,6.50000000000000e-01,6.50000000000000e-01,4.33515421512098e-06,0.00000000000000e+00
1.02200000000000e-08,6.50000000000000e-01,6.50000000000000e-01,3.65408254357491e-06,0.00000000000000e+00
1.03480000000000e-08,6.50000000000000e-01,6.50000000000000e-01,3.66921144604598e-06,0.00000000000000e+00
1.06040000000000e-08,6.50000000000000e-01,6.50000000000000e-01,3.44121134426140e-06,0.00000000000000e+00
1.11160000000000e-08,6.50000000000000e-01,6.50000000000000e-01,3.59315441135315e-06,0.00000000000000e+00
1.21400000000000e-08,6.50000000000000e-01,6.50000000000000e-01,3.04153542424017e-06,0.00000000000000e+00
1.41880000000000e-08,6.50000000000000e-01,6.50000000000000e-01,3.03975675588434e-06,0.00000000000000e+00
1.51000000000000e-08,6.50000000000000e-01,6.50000000000000e-01,2.60958105111585e-06,0.00000000000000e+00
1.51100000000000e-08,5.84999999999991e-01,6.50000000000000e-01,1.64095697615378e-04,6.50000000000092e-02
1.51300000000000e-08,4.54999999999994e-01,6.50000000000000e-01,2.99652732886110e-04,1.95000000000006e-01
1.51700000000000e-08,1.95000000000000e-01,6.50000000000000e-01,2.03312960041675e-04,4.55000000000000e-01
1.52000000000000e-08,0.00000000000000e+00,6.50000000000000e-01,2.34296066242451e-04,6.50000000000000e-01
1.52080000000000e-08,0.00000000000000e+00,6.50000000000000e-01,2.39909588928576e-04,6.50000000000000e-01
1.52240000000000e-08,0.00000000000000e+00,6.50000000000000e-01,2.45615759662247e-04,6.50000000000000e-01
1.52560000000000e-08,0.00000000000000e+00,6.50000000000000e-01,2.09516150355409e-04,6.50000000000000e-01
1.53200000000000e-08,0.00000000000000e+00,6.50000000000000e-01,-9.91621935833159e-05,6.50000000000000e-01
1.54480000000000e-08,0.00000000000000e+00,6.50000000000000e-01,-2.29047334835371e-04,6.50000000000000e-01
1.56972863920792e-08,0.00000000000000e+00,6.50000000000000e-01,6.67785097760130e-05,6.50000000000000e-01
1.60541257249666e-08,0.00000000000000e+00,6.50000000000000e-01,-1.63637944147699e-04,6.50000000000000e-01
1.66437357792000e-08,0.00000000000000e+00,6.50000000000000e-01,2.24914535393651e-04,6.50000000000000e-01
1.78229558876667e-08,0.00000000000000e+00,6.50000000000000e-01,-1.97222849807774e-04,6.50000000000000e-01
1.89923692947348e-08,0.00000000000000e+00,6.50000000000000e-01,1.76173325373072e-04,6.50000000000000e-01
2.13311961088709e-08,0.00000000000000e+00,6.50000000000000e-01,-1.62300237608958e-04,6.50000000000000e-01
2.50000000000000e-08,0.00000000000000e+00,6.50000000000000e-01,1.57402851034743e-04,6.50000000000000e-01
2.50100000000000e-08,6.49999999999877e-02,6.50000000000000e-01,2.56461541373293e-04,6.50000000000000e-01
2.50300000000000e-08,1.95000000000006e-01,6.50000000000000e-01,3.99134553592133e-04,6.50000000000000e-01
2.50700000000000e-08,4.55000000000000e-01,6.50000000000000e-01,5.44432021431646e-04,6.50000000000000e-01
2.51000000000000e-08,6.50000000000000e-01,6.50000000000000e-01,3.35490175443397e-04,6.50000000000000e-01
2.51080000000000e-08,6.50000000000000e-01,6.50000000000000e-01,8.28191682030882e-05,6.50000000000000e-01
2.51240000000000e-08,6.50000000000000e-01,6.50000000000000e-01,-5.55664032416837e-04,6.50000000000000e-01
2.51560000000000e-08,6.50000000000000e-01,6.50000000000000e-01,-2.14091740873407e-03,6.50000000000000e-01
2.52200000000000e-08,6.50000000000000e-01,6.50000000000000e-01,-4.67823065928124e-03,6.50000000000000e-01
2.53480000000000e-08,6.50000000000000e-01,6.50000000000000e-01,7.52615838366422e-03,6.50000000000000e-01
2.56040000000000e-08,6.50000000000000e-01,6.50000000000000e-01,4.61121912315237e-01,6.50000000000000e-01
2.61160000000000e-08,6.50000000000000e-01,6.50000000000000e-01,6.73045913283097e-01,6.50000000000000e-01
2.66584146556107e-08,6.50000000000000e-01,6.50000000000000e-01,6.30353659680265e-01,6.50000000000000e-01
2.77432439668321e-08,6.50000000000000e-01,6.50000000000000e-01,6.68725697728428e-01,6.50000000000000e-01
2.93409153360856e-08,6.50000000000000e-01,6.50000000000000e-01,6.31292917542135e-01,6.50000000000000e-01
3.18705021797490e-08,6.50000000000000e-01,6.50000000000000e-01,6.67846055242911e-01,6.50000000000000e-01
3.51000000000000e-08,6.49999999999968e-01,6.50000000000000e-01,6.31795756969618e-01,6.50000000000000e-01
3.51100000000000e-08,5.84999999999980e-01,6.50000000000000e-01,6.40368255462449e-01,6.50000000000000e-01
3.51300000000000e-08,4.54999999999962e-01,6.50000000000000e-01,6.49366210453830e-01,6.50000000000000e-01
3.51700000000000e-08,1.94999999999968e-01,6.50000000000000e-01,6.50842091236688e-01,6.50000000000000e-01
3.52000000000000e-08,0.00000000000000e+00,6.50000000000000e-01,6.52536585310278e-01,6.50000000000000e-01
3.52080000000000e-08,0.00000000000000e+00,6.50000000000000e-01,6.52921849937464e-01,6.50000000000000e-01
3.52240000000000e-08,0.00000000000000e+00,6.50000000000000e-01,6.52925983537667e-01,6.50000000000000e-01
3.52560000000000e-08,0.00000000000000e+00,6.50000000000000e-01,6.47437143909676e-01,6.50000000000000e-01
3.53200000000000e-08,0.00000000000000e+00,6.50000000000000e-01,6.30663428678172e-01,6.50000000000000e-01
3.54480000000000e-08,0.00000000000000e+00,6.50000000000000e-01,6.38111729436060e-01,6.50000000000000e-01
3.57040000000000e-08,0.00000000000000e+00,6.50000000000000e-01,6.53758083242221e-01,6.50000000000000e-01
3.60683574164291e-08,0.00000000000000e+00,6.50000000000000e-01,6.46201003475091e-01,6.50000000000000e-01
3.67848092458085e-08,0.00000000000000e+00,6.50000000000000e-01,6.52775213606086e-01,6.50000000000000e-01
3.82177129045674e-08,0.00000000000000e+00,6.50000000000000e-01,6.47090671422768e-01,6.50000000000000e-01
4.10835202220853e-08,0.00000000000000e+00,6.50000000000000e-01,6.52641292502429e-01,6.50000000000000e-01
4.48835202220853e-08,0.00000000000000e+00,6.50000000000000e-01,6.47315482184942e-01,6.50000000000000e-01
4.50000000000000e-08,0.00000000000000e+00,6.50000000000000e-01,6.51179722867890e-01,6.50000000000000e-01
4.50100000000000e-08,6.49999999999877e-02,6.50000000000000e-01,6.50682311771028e-01,5.85000000000012e-01
4.50300000000000e-08,1.95000000000006e-01,6.50000000000000e-01,6.50028594982039e-01,4.54999999999994e-01
4.50700000000000e-08,4.55000000000000e-01,6.50000000000000e-01,6.51962354893484e-01,1.95000000000000e-01
4.51000000000000e-08,6.50000000000000e-01,6.50000000000000e-01,6.58643130740765e-01,0.00000000000000e+00
4.51080000000000e-08,6.50000000000000e-01,6.50000000000000e-01,6.61082259998753e-01,0.00000000000000e+00
4.51240000000000e-08,6.50000000000000e-01,6.50000000000000e-01,6.65822669351018e-01,0.00000000000000e+00
4.51560000000000e-08,6.50000000000000e-01,6.50000000000000e-01,6.76901204813996e-01,0.00000000000000e+00
4.52200000000000e-08,6.50000000000000e-01,6.50000000000000e-01,6.50258886883292e-01,0.00000000000000e+00
4.53480000000000e-08,6.50000000000000e-01,6.50000000000000e-01,3.37200049263058e-01,0.00000000000000e+00
4.55880690499623e-08,6.50000000000000e-01,6.50000000000000e-01,-2.47298854931552e-03,0.00000000000000e+00
4.59453552789202e-08,6.50000000000000e-01,6.50000000000000e-01,4.26460816219653e-03,0.00000000000000e+00
4.65127697724752e-08,6.50000000000000e-01,6.50000000000000e-01,-4.26698152743389e-03,0.00000000000000e+00
4.73949337960579e-08,6.50000000000000e-01,6.50000000000000e-01,4.50297820192800e-03,0.00000000000000e+00
4.90174697415745e-08,6.50000000000000e-01,6.50000000000000e-01,-4.30358862956832e-03,0.00000000000000e+00
5.01000000000000e-08,6.50000000000000e-01,6.49999999999963e-01,4.44997218052570e-03,0.00000000000000e+00
5.04245071891033e-08,6.50000000000000e-01,6.50000000000000e-01,1.03818437891316e-04,0.00000000000000e+00
5.10735215673100e-08,6.50000000000000e-01,6.50000000000000e-01,-1.00408299117517e-04,0.00000000000000e+00
5.23715503237233e-08,6.50000000000000e-01,6.50000000000000e-01,1.02471581323032e-04,0.00000000000000e+00
5.49676078365499e-08,6.50000000000000e-01,6.50000000000000e-01,-9.92460357215640e-05,0.00000000000000e+00
5.51000000000000e-08,6.50000000000000e-01,6.50000000000000e-01,8.38474738637865e-05,0.00000000000000e+00
5.51100000000000e-08,5.85000000000023e-01,6.50000000000000e-01,2.00084380109398e-04,6.49999999999769e-02
5.51300000000000e-08,4.55000000000005e-01,6.50000000000000e-01,2.97117149319411e-04,1.94999999999995e-01
5.51700000000000e-08,1.95000000000011e-01,6.50000000000000e-01,2.02227576923127e-04,4.54999999999989e-01
5.52000000000000e-08,0.00000000000000e+00,6.50000000000000e-01,2.24047752632260e-04,6.50000000000000e-01
5.52080000000000e-08,0.00000000000000e+00,6.50000000000000e-01,2.25898849347997e-04,6.50000000000000e-01
5.52240000000000e-08,0.00000000000000e+00,6.50000000000000e-01,2.16102795373360e-04,6.50000000000000e-01
5.52560000000000e-08,0.00000000000000e+00,6.50000000000000e-01,-4.39515717816433e-05,6.50000000000000e-01
5.53200000000000e-08,0.00000000000000e+00,6.50000000000000e-01,-1.12271311792077e-03,6.50000000000000e-01
5.54480000000000e-08,0.00000000000000e+00,6.50000000000000e-01,-9.37341632283123e-04,6.50000000000000e-01
5.56921993838005e-08,0.00000000000000e+00,6.50000000000000e-01,4.18335004509846e-04,6.50000000000000e-01
5.60506403358360e-08,0.00000000000000e+00,6.50000000000000e-01,-3.87478636104888e-04,6.50000000000000e-01
5.66469028779206e-08,0.00000000000000e+00,6.50000000000000e-01,3.21971592837655e-04,6.50000000000000e-01
5.78394279620898e-08,0.00000000000000e+00,6.50000000000000e-01,-2.61943202647006e-04,6.50000000000000e-01
5.90082565978702e-08,0.00000000000000e+00,6.50000000000000e-01,2.16545121769282e-04,6.50000000000000e-01
6.13459138694312e-08,0.00000000000000e+00,6.50000000000000e-01,-1.93390428288775e-04,6.50000000000000e-01
6.50000000000000e-08,0.00000000000000e+00,6.50000000000000e-01,1.83409266875987e-04,6.50000000000000e-01
6.50100000000000e-08,6.49999999999877e-02,6.50000000000000e-01,2.71489180679409e-04,6.50000000000000e-01
6.50300000000000e-08,1.94999999999963e-01,6.50000000000000e-01,4.12044636309859e-04,6.50000000000000e-01
6.50700000000000e-08,4.54999999999914e-01,6.50000000000000e-01,5.60539079501723e-04,6.50000000000000e-01
6.51000000000000e-08,6.49999999999963e-01,6.50000000000000e-01,3.23039007628707e-04,6.50000000000000e-01
6.51080000000000e-08,6.50000000000000e-01,6.50000000000000e-01,5.98475789640243e-05,6.50000000000000e-01
6.51240000000000e-08,6.50000000000000e-01,6.50000000000000e-01,-5.95939538514181e-04,6.50000000000000e-01
6.51560000000000e-08,6.50000000000000e-01,6.50000000000000e-01,-2.19214569561861e-03,6.50000000000000e-01
6.52200000000000e-08,6.50000000000000e-01,6.50000000000000e-01,-4.70757621460324e-03,6.50000000000000e-01
6.53480000000000e-08,6.50000000000000e-01,6.50000000000000e-01,8.19091837331451e-03,6.50000000000000e-01
6.56040000000000e-08,6.50000000000000e-01,6.50000000000000e-01,4.63829379752287e-01,6.50000000000000e-01
6.61159999999999e-08,6.50000000000000e-01,6.50000000000000e-01,6.73142654887485e-01,6.50000000000000e-01
6.66570933778507e-08,6.50000000000000e-01,6.50000000000000e-01,6.30216983597795e-01,6.50000000000000e-01
6.77392801335522e-08,6.50000000000000e-01,6.50000000000000e-01,6.68830133762089e-01,6.50000000000000e-01
6.93399734445393e-08,6.50000000000000e-01,6.50000000000000e-01,6.31170706579879e-01,6.50000000000000e-01
7.18768549111406e-08,6.50000000000000e-01,6.50000000000000e-01,6.67948523987456e-01,6.50000000000000e-01
7.51000000000000e-08,6.50000000000000e-01,6.50000000000000e-01,6.31678504767521e-01,6.50000000000000e-01
7.51100000000000e-08,5.85000000000066e-01,6.50000000000000e-01,6.40302782438101e-01,6.50000000000000e-01
7.51300000000000e-08,4.55000000000091e-01,6.50000000000000e-01,6.49359832049379e-01,6.50000000000000e-01
7.51700000000000e-08,1.95000000000140e-01,6.50000000000000e-01,6.50843240931507e-01,6.50000000000000e-01
7.52000000000000e-08,9.09272657168003e-14,6.50000000000000e-01,6.52535770470026e-01,6.50000000000000e-01
7.52080000000000e-08,0.00000000000000e+00,6.50000000000000e-01,6.52920793572650e-01,6.50000000000000e-01
7.52240000000000e-08,0.00000000000000e+00,6.50000000000000e-01,6.52923997960611e-01,6.50000000000000e-01
7.52560000000000e-08,0.00000000000000e+00,6.50000000000000e-01,6.47432349353059e-01,6.50000000000000e-01
7.53200000000000e-08,0.00000000000000e+00,6.50000000000000e-01,6.30657975956392e-01,6.50000000000000e-01
7.54480000000000e-08,0.00000000000000e+00,6.50000000000000e-01,6.38110704077154e-01,6.50000000000000e-01
7.57040000000000e-08,0.00000000000000e+00,6.50000000000000e-01,6.53757834454461e-01,6.50000000000000e-01
7.60683564173514e-08,0.00000000000000e+00,6.50000000000000e-01,6.46201298053401e-01,6.50000000000000e-01
7.67847357716142e-08,0.00000000000000e+00,6.50000000000000e-01,6.52774936129939e-01,6.50000000000000e-01
7.82174944801398e-08,0.00000000000000e+00,6.50000000000000e-01,6.47090946696307e-01,6.50000000000000e-01
8.10830118971910e-08,0.00000000000000e+00,6.50000000000000e-01,6.52641008340495e-01,6.50000000000000e-01
8.48830118971910e-08,0.00000000000000e+00,6.50000000000000e-01,6.47315759567455e-01,6.50000000000000e-01
8.50000000000000e-08,0.00000000000000e+00,6.50000000000000e-01,6.51184107072527e-01,6.50000000000000e-01
8.50100000000000e-08,6.49999999999877e-02,6.50000000000000e-01,6.50685263785162e-01,5.85000000000012e-01
8.50300000000000e-08,1.94999999999963e-01,6.50000000000000e-01,6.50029600611537e-01,4.55000000000037e-01
8.50700000000000e-08,4.54999999999914e-01,6.50000000000000e-01,6.51962350445213e-01,1.95000000000086e-01
8.51000000000000e-08,6.49999999999963e-01,6.50000000000000e-01,6.58643126304279e-01,3.71924713249427e-14
8.51080000000000e-08,6.50000000000000e-01,6.50000000000000e-01,6.61082259931378e-01,0.00000000000000e+00
8.51240000000000e-08,6.50000000000000e-01,6.50000000000000e-01,6.65822678708644e-01,0.00000000000000e+00
8.51560000000000e-08,6.50000000000000e-01,6.50000000000000e-01,6.76901236663818e-01,0.00000000000000e+00
8.52200000000000e-08,6.50000000000000e-01,6.50000000000000e-01,6.50259362691320e-01,0.00000000000000e+00
8.53480000000000e-08,6.50000000000000e-01,6.50000000000000e-01,3.37200513357620e-01,0.00000000000000e+00
8.55880685435688e-08,6.50000000000000e-01,6.50000000000000e-01,-2.47294336967122e-03,0.00000000000000e+00
8.59453542039429e-08,6.50000000000000e-01,6.50000000000000e-01,4.26458319772229e-03,0.00000000000000e+00
8.65130224455999e-08,6.50000000000000e-01,6.50000000000000e-01,-4.26695079978417e-03,0.00000000000000e+00
8.73950874652746e-08,6.50000000000000e-01,6.50000000000000e-01,4.50301089684753e-03,0.00000000000000e+00
8.90178404529745e-08,6.50000000000000e-01,6.50000000000000e-01,-4.30364567133748e-03,0.00000000000000e+00
9.01000000000000e-08,6.50000000000000e-01,6.49999999999963e-01,4.45004315606319e-03,0.00000000000000e+00
9.04245505975400e-08,6.50000000000000e-01,6.50000000000000e-01,1.03796957363700e-04,0.00000000000000e+00
9.10736517926200e-08,6.50000000000000e-01,6.50000000000000e-01,-1.00391069412901e-04,0.00000000000000e+00
9.23718541827799e-08,6.50000000000000e-01,6.50000000000000e-01,1.02455936829705e-04,0.00000000000000e+00
9.49682589630998e-08,6.50000000000000e-01,6.50000000000000e-01,-9.92311936820231e-05,0.00000000000000e+00
9.51000000000000e-08,6.50000000000000e-01,6.50000000000000e-01,8.37526514409284e-05,0.00000000000000e+00
9.51100000000000e-08,5.85000000000066e-01,6.50000000000000e-01,2.00057750148933e-04,6.49999999999339e-02
9.51300000000000e-08,4.55000000000091e-01,6.50000000000000e-01,2.97129526273157e-04,1.94999999999909e-01
9.51700000000000e-08,1.95000000000140e-01,6.50000000000000e-01,2.02230119429603e-04,4.54999999999860e-01
9.52000000000000e-08,9.09272657168003e-14,6.50000000000000e-01,2.24051804284711e-04,6.49999999999909e-01
9.52080000000000e-08,0.00000000000000e+00,6.50000000000000e-01,2.25903221584008e-04,6.50000000000000e-01
9.52240000000000e-08,0.00000000000000e+00,6.50000000000000e-01,2.16105141936575e-04,6.50000000000000e-01
9.52560000000000e-08,0.00000000000000e+00,6.50000000000000e-01,-4.39597136875428e-05,6.50000000000000e-01
9.53200000000000e-08,0.00000000000000e+00,6.50000000000000e-01,-1.12271146265295e-03,6.50000000000000e-01
9.54480000000000e-08,0.00000000000000e+00,6.50000000000000e-01,-9.37352467650601e-04,6.50000000000000e-01
9.56922254420408e-08,0.00000000000000e+00,6.50000000000000e-01,4.18406875527261e-04,6.50000000000000e-01
9.60506510811714e-08,0.00000000000000e+00,6.50000000000000e-01,-3.87583605161397e-04,6.50000000000000e-01
9.66468227434275e-08,0.00000000000000e+00,6.50000000000000e-01,3.22074356972580e-04,6.50000000000000e-01
9.78391660679397e-08,0.00000000000000e+00,6.50000000000000e-01,-2.62031416874345e-04,6.50000000000000e-01
9.90079810929125e-08,0.00000000000000e+00,6.50000000000000e-01,2.16625969237788e-04,6.50000000000000e-01
1.01345611142858e-07,0.00000000000000e+00,6.50000000000000e-01,-1.93467331277103e-04,6.50000000000000e-01
1.05000000000000e-07,0.00000000000000e+00,6.50000000000000e-01,1.83483429543432e-04,6.50000000000000e-01
1.05010000000000e-07,6.49999999999877e-02,6.50000000000000e-01,2.71559806808173e-04,6.50000000000000e-01
1.05030000000000e-07,1.94999999999963e-01,6.50000000000000e-01,4.12101513542616e-04,6.50000000000000e-01
1.05070000000000e-07,4.54999999999914e-01,6.50000000000000e-01,5.60568730884947e-04,6.50000000000000e-01
1.05100000000000e-07,6.49999999999963e-01,6.50000000000000e-01,3.23052139456520e-04,6.50000000000000e-01
1.05108000000000e-07,6.50000000000000e-01,6.50000000000000e-01,5.98552731515684e-05,6.50000000000000e-01
1.05124000000000e-07,6.50000000000000e-01,6.50000000000000e-01,-5.95940867432629e-04,6.50000000000000e-01
1.05156000000000e-07,6.50000000000000e-01,6.50000000000000e-01,-2.19215406901206e-03,6.50000000000000e-01
1.05220000000000e-07,6.50000000000000e-01,6.50000000000000e-01,-4.70758254274291e-03,6.50000000000000e-01
1.05348000000000e-07,6.50000000000000e-01,6.50000000000000e-01,8.19082186147373e-03,6.50000000000000e-01
1.05604000000000e-07,6.50000000000000e-01,6.50000000000000e-01,4.63829008906533e-01,6.50000000000000e-01
1.06116000000000e-07,6.50000000000000e-01,6.50000000000000e-01,6.73142642495733e-01,6.50000000000000e-01
1.06657093559689e-07,6.50000000000000e-01,6.50000000000000e-01,6.30217001696273e-01,6.50000000000000e-01
1.07739280679066e-07,6.50000000000000e-01,6.50000000000000e-01,6.68830120341046e-01,6.50000000000000e-01
1.09339973569727e-07,6.50000000000000e-01,6.50000000000000e-01,6.31170722602907e-01,6.50000000000000e-01
1.11876853965480e-07,6.50000000000000e-01,6.50000000000000e-01,6.67948510763099e-01,6.50000000000000e-01
1.15100000000000e-07,6.50000000000000e-01,6.50000000000000e-01,6.31678520099426e-01,6.50000000000000e-01
1.15110000000000e-07,5.85000000000066e-01,6.50000000000000e-01,6.40302790956570e-01,6.50000000000000e-01
1.15130000000000e-07,4.55000000000091e-01,6.50000000000000e-01,6.49359832980154e-01,6.50000000000000e-01
1.15170000000000e-07,1.95000000000140e-01,6.50000000000000e-01,6.50843240793548e-01,6.50000000000000e-01
1.15200000000000e-07,9.09272657168003e-14,6.50000000000000e-01,6.52535770592165e-01,6.50000000000000e-01
1.15208000000000e-07,0.00000000000000e+00,6.50000000000000e-01,6.52920793735629e-01,6.50000000000000e-01
1.15224000000000e-07,0.00000000000000e+00,6.50000000000000e-01,6.52923998296319e-01,6.50000000000000e-01
