Time,v(clk),v(data),v(out)
1.00000000000000e-08,6.50000000000000e-01,0.00000000000000e+00,5.70559517225344e-06
1.00100000000000e-08,6.50000000000000e-01,6.49999999999984e-02,9.73361556785846e-06
1.00300000000000e-08,6.50000000000000e-01,1.94999999999995e-01,1.33946465751683e-05
1.00700000000000e-08,6.50000000000000e-01,4.54999999999989e-01,1.26421984561198e-05
1.01000000000000e-08,6.50000000000000e-01,6.49999999999995e-01,9.97603368418226e-06
1.01080000000000e-08,6.50000000000000e-01,6.50000000000000e-01,9.44566063319080e-06
1.01240000000000e-08,6.50000000000000e-01,6.50000000000000e-01,9.63441041074153e-06
1.01560000000000e-08,6.50000000000000e-01,6.50000000000000e-01,1.18181287245347e-05
1.02200000000000e-08,6.50000000000000e-01,6.50000000000000e-01,1.47967983664052e-05
1.03480000000000e-08,6.50000000000000e-01,6.50000000000000e-01,1.30818868658705e-05
1.06040000000000e-08,6.50000000000000e-01,6.50000000000000e-01,1.02931530236126e-05
1.10979228306795e-08,6.50000000000000e-01,6.50000000000000e-01,1.18072475138609e-05
1.20857684920384e-08,6.50000000000000e-01,6.50000000000000e-01,1.01669004271181e-05
1.40614598147564e-08,6.50000000000000e-01,6.50000000000000e-01,1.06289269999164e-05
1.51000000000000e-08,6.50000000000000e-01,6.50000000000000e-01,9.46994182960889e-06
1.51100000000000e-08,5.84999999999991e-01,6.50000000000000e-01,-5.39583842271915e-05
1.51300000000000e-08,4.54999999999994e-01,6.50000000000000e-01,-1.56437996639745e-04
1.51700000000000e-08,1.95000000000000e-01,6.50000000000000e-01,-1.66748514897792e-04
1.52000000000000e-08,0.00000000000000e+00,6.50000000000000e-01,7.04271479006618e-05
1.52080000000000e-08,0.00000000000000e+00,6.50000000000000e-01,2.06517411983083e-04
1.52240000000000e-08,0.00000000000000e+00,6.50000000000000e-01,3.86757437346431e-04
1.52560000000000e-08,0.00000000000000e+00,6.50000000000000e-01,4.19678738233113e-04
1.53200000000000e-08,0.00000000000000e+00,6.50000000000000e-01,8.71796194586716e-05
1.54480000000000e-08,0.00000000000000e+00,6.50000000000000e-01,-3.23798981719289e-04
1.57040000000000e-08,0.00000000000000e+00,6.50000000000000e-01,-4.25373202452145e-05
1.62160000000000e-08,0.00000000000000e+00,6.50000000000000e-01,-6.35726417879852e-05
1.68396869536822e-08,0.00000000000000e+00,6.50000000000000e-01,1.67740865911020e-04
1.80870608610465e-08,0.00000000000000e+00,6.50000000000000e-01,-1.18842925819186e-04
1.94409297156202e-08,0.00000000000000e+00,6.50000000000000e-01,1.02072986597378e-04
2.21486674247676e-08,0.00000000000000e+00,6.50000000000000e-01,-7.19709669100514e-05
2.50000000000000e-08,0.00000000000000e+00,6.50000000000000e-01,7.61713940423481e-05
2.50100000000000e-08,6.49999999999877e-02,6.50000000000000e-01,1.87276470550467e-04
2.50300000000000e-08,1.95000000000006e-01,6.50000000000000e-01,3.63179041432654e-04
2.50700000000000e-08,4.55000000000000e-01,6.50000000000000e-01,5.22581386804208e-04
2.51000000000000e-08,6.50000000000000e-01,6.50000000000000e-01,2.03290172226478e-04
2.51080000000000e-08,6.50000000000000e-01,6.50000000000000e-01,-1.10681528003607e-04
2.51240000000000e-08,6.50000000000000e-01,6.50000000000000e-01,-8.61147414061736e-04
2.51560000000000e-08,6.50000000000000e-01,6.50000000000000e-01,-2.57536881113636e-03
2.52200000000000e-08,6.50000000000000e-01,6.50000000000000e-01,-4.92310503678805e-03
2.53480000000000e-08,6.50000000000000e-01,6.50000000000000e-01,1.77637591159622e-02
2.56040000000000e-08,6.50000000000000e-01,6.50000000000000e-01,4.22222624626691e-01
2.61160000000000e-08,6.50000000000000e-01,6.50000000000000e-01,6.77828420056831e-01
2.67019649660843e-08,6.50000000000000e-01,6.50000000000000e-01,6.26846673540672e-01
2.78738948982528e-08,6.50000000000000e-01,6.50000000000000e-01,6.71581425024970e-01
2.93700162697941e-08,6.50000000000000e-01,6.50000000000000e-01,6.28924930888192e-01
3.19664503695218e-08,6.50000000000000e-01,6.50000000000000e-01,6.69892414849190e-01
3.51000000000000e-08,6.49999999999968e-01,6.50000000000000e-01,6.29952245598003e-01
3.51100000000000e-08,5.84999999999980e-01,6.50000000000000e-01,6.36669827711434e-01
3.51300000000000e-08,4.54999999999962e-01,6.50000000000000e-01,6.45567310127289e-01
3.51700000000000e-08,1.94999999999968e-01,6.50000000000000e-01,6.50523800847978e-01
3.52000000000000e-08,0.00000000000000e+00,6.50000000000000e-01,6.52157861028373e-01
3.52080000000000e-08,0.00000000000000e+00,6.50000000000000e-01,6.52586098581032e-01
3.52240000000000e-08,0.00000000000000e+00,6.50000000000000e-01,6.53089727009529e-01
3.52560000000000e-08,0.00000000000000e+00,6.50000000000000e-01,6.52288311946926e-01
3.53200000000000e-08,0.00000000000000e+00,6.50000000000000e-01,6.42169853652409e-01
3.54480000000000e-08,0.00000000000000e+00,6.50000000000000e-01,6.25585311967947e-01
3.57040000000000e-08,0.00000000000000e+00,6.50000000000000e-01,6.43789676551713e-01
3.62160000000000e-08,0.00000000000000e+00,6.50000000000000e-01,6.52450604481457e-01
3.68401260969554e-08,0.00000000000000e+00,6.50000000000000e-01,6.47194162093222e-01
3.80883782908663e-08,0.00000000000000e+00,6.50000000000000e-01,6.51757035933886e-01
4.05848826786880e-08,0.00000000000000e+00,6.50000000000000e-01,6.47920881274174e-01
4.43848826786880e-08,0.00000000000000e+00,6.50000000000000e-01,6.51671586620596e-01
4.50000000000000e-08,0.00000000000000e+00,6.50000000000000e-01,6.48469409448868e-01
4.50100000000000e-08,6.49999999999877e-02,6.50000000000000e-01,6.48829809278276e-01
4.50300000000000e-08,1.95000000000006e-01,6.50000000000000e-01,6.49384902544468e-01
4.50700000000000e-08,4.55000000000000e-01,6.50000000000000e-01,6.49881278608466e-01
4.51000000000000e-08,6.50000000000000e-01,6.50000000000000e-01,6.49781787481488e-01
4.51080000000000e-08,6.50000000000000e-01,5.98000000000027e-01,6.49604722135801e-01
4.51240000000000e-08,6.50000000000000e-01,4.93999999999995e-01,6.49206546266253e-01
4.51560000000000e-08,6.50000000000000e-01,2.86000000000017e-01,6.48423285175766e-01
4.52000000000000e-08,6.50000000000000e-01,3.71924713249427e-14,6.47776609069309e-01
4.52064000000000e-08,6.50000000000000e-01,0.00000000000000e+00,6.47728368365293e-01
4.52192000000000e-08,6.50000000000000e-01,0.00000000000000e+00,6.47629999193456e-01
4.52448000000000e-08,6.50000000000000e-01,0.00000000000000e+00,6.47464280545909e-01
4.52960000000000e-08,6.50000000000000e-01,0.00000000000000e+00,6.47366791436874e-01
4.53984000000000e-08,6.50000000000000e-01,0.00000000000000e+00,6.47970133116477e-01
4.56032000000000e-08,6.50000000000000e-01,0.00000000000000e+00,6.49153161742500e-01
4.58891136002756e-08,6.50000000000000e-01,0.00000000000000e+00,6.49857641440712e-01
4.64609408008267e-08,6.50000000000000e-01,0.00000000000000e+00,6.50022337654854e-01
4.70656377229955e-08,6.50000000000000e-01,0.00000000000000e+00,6.50003384138438e-01
4.82750315673332e-08,6.50000000000000e-01,0.00000000000000e+00,6.49993063286861e-01
5.06938192560087e-08,6.50000000000000e-01,0.00000000000000e+00,6.50007701748464e-01
5.44938192560087e-08,6.50000000000000e-01,0.00000000000000e+00,6.49992015870975e-01
5.51000000000000e-08,6.50000000000000e-01,0.00000000000000e+00,6.50007682936029e-01
5.51100000000000e-08,5.85000000000023e-01,0.00000000000000e+00,6.49947883461865e-01
5.51300000000000e-08,4.55000000000005e-01,0.00000000000000e+00,6.49874740049132e-01
5.51700000000000e-08,1.95000000000011e-01,0.00000000000000e+00,6.50500833305324e-01
5.52000000000000e-08,0.00000000000000e+00,0.00000000000000e+00,6.52174892578789e-01
5.52080000000000e-08,0.00000000000000e+00,0.00000000000000e+00,6.52643351901499e-01
5.52240000000000e-08,0.00000000000000e+00,0.00000000000000e+00,6.53325481212094e-01
5.52560000000000e-08,0.00000000000000e+00,0.00000000000000e+00,6.53949156628100e-01
5.53200000000000e-08,0.00000000000000e+00,0.00000000000000e+00,6.54539178043225e-01
5.54480000000000e-08,0.00000000000000e+00,0.00000000000000e+00,6.52085194113960e-01
5.57040000000000e-08,0.00000000000000e+00,0.00000000000000e+00,6.48727120402177e-01
5.60984562342814e-08,0.00000000000000e+00,0.00000000000000e+00,6.49922346622581e-01
5.67262166226501e-08,0.00000000000000e+00,0.00000000000000e+00,6.49412780615845e-01
5.75405852731043e-08,0.00000000000000e+00,0.00000000000000e+00,6.49902075811939e-01
5.91693225740126e-08,0.00000000000000e+00,0.00000000000000e+00,6.49665803980804e-01
6.24267971758291e-08,0.00000000000000e+00,0.00000000000000e+00,6.49975490227100e-01
6.50000000000000e-08,0.00000000000000e+00,0.00000000000000e+00,6.49762248697763e-01
6.50100000000000e-08,6.49999999999877e-02,0.00000000000000e+00,6.49824204362110e-01
6.50300000000000e-08,1.94999999999963e-01,0.00000000000000e+00,6.49907104020999e-01
6.50700000000000e-08,4.54999999999914e-01,0.00000000000000e+00,6.49919346378548e-01
6.51000000000000e-08,6.49999999999963e-01,0.00000000000000e+00,6.49809777574445e-01
6.51080000000000e-08,6.50000000000000e-01,0.00000000000000e+00,6.49751181235789e-01
6.51240000000000e-08,6.50000000000000e-01,0.00000000000000e+00,6.49671406139762e-01
6.51560000000000e-08,6.50000000000000e-01,0.00000000000000e+00,6.49639805853297e-01
6.52200000000000e-08,6.50000000000000e-01,0.00000000000000e+00,6.49678625936466e-01
6.53480000000000e-08,6.50000000000000e-01,0.00000000000000e+00,6.51036867426870e-01
6.56040000000000e-08,6.50000000000000e-01,0.00000000000000e+00,6.50062473998809e-01
6.61159999999999e-08,6.50000000000000e-01,0.00000000000000e+00,1.22659219082070e-01
6.66578357355089e-08,6.50000000000000e-01,0.00000000000000e+00,-5.84457934055201e-02
6.76940146510134e-08,6.50000000000000e-01,0.00000000000000e+00,5.07288201258599e-02
6.89140306507314e-08,6.50000000000000e-01,0.00000000000000e+00,-3.78012657697281e-02
7.09785388881123e-08,6.50000000000000e-01,0.00000000000000e+00,3.59424415073758e-02
7.45428093687279e-08,6.50000000000000e-01,0.00000000000000e+00,-3.15173827935145e-02
7.51000000000000e-08,6.50000000000000e-01,0.00000000000000e+00,2.15138777074883e-02
7.51100000000000e-08,5.85000000000066e-01,0.00000000000000e+00,1.75290410443645e-02
7.51300000000000e-08,4.55000000000091e-01,0.00000000000000e+00,1.17088702506428e-02
7.51700000000000e-08,1.95000000000140e-01,0.00000000000000e+00,6.13460193787827e-03
7.52000000000000e-08,9.09272657168003e-14,0.00000000000000e+00,3.99992359605236e-03
7.52080000000000e-08,0.00000000000000e+00,0.00000000000000e+00,3.71129755955731e-03
7.52240000000000e-08,0.00000000000000e+00,0.00000000000000e+00,3.12282438550984e-03
7.52560000000000e-08,0.00000000000000e+00,0.00000000000000e+00,1.99414857571762e-03
7.53200000000000e-08,0.00000000000000e+00,0.00000000000000e+00,-3.64228443522907e-05
7.54480000000000e-08,0.00000000000000e+00,0.00000000000000e+00,-1.85558101290255e-03
7.57040000000000e-08,0.00000000000000e+00,0.00000000000000e+00,-6.03471210902165e-05
7.61055792551299e-08,0.00000000000000e+00,0.00000000000000e+00,2.74262716554037e-04
7.67670803796572e-08,0.00000000000000e+00,0.00000000000000e+00,-2.66117081758336e-04
7.77924630960825e-08,0.00000000000000e+00,0.00000000000000e+00,2.78183929103688e-04
7.98432285289330e-08,0.00000000000000e+00,0.00000000000000e+00,-2.54484275727868e-04
8.36432285289330e-08,0.00000000000000e+00,0.00000000000000e+00,2.66780038327259e-04
8.50000000000000e-08,0.00000000000000e+00,0.00000000000000e+00,-2.38362247817908e-04
8.50100000000000e-08,6.49999999999877e-02,0.00000000000000e+00,-6.95622477168908e-05
8.50300000000000e-08,1.94999999999963e-01,0.00000000000000e+00,1.54167501585117e-04
8.50700000000000e-08,4.54999999999914e-01,0.00000000000000e+00,2.36920356900538e-04
8.51000000000000e-08,6.49999999999963e-01,0.00000000000000e+00,7.11438814568754e-05
8.51080000000000e-08,6.50000000000000e-01,0.00000000000000e+00,-2.56853291757259e-05
8.51240000000000e-08,6.50000000000000e-01,0.00000000000000e+00,-1.70076309277151e-04
8.51560000000000e-08,6.50000000000000e-01,0.00000000000000e+00,-2.66642317539201e-04
8.52200000000000e-08,6.50000000000000e-01,0.00000000000000e+00,-2.09082992039249e-04
8.53480000000000e-08,6.50000000000000e-01,0.00000000000000e+00,-3.71030412187230e-05
8.56040000000000e-08,6.50000000000000e-01,0.00000000000000e+00,8.80143612769849e-05
8.61159999999999e-08,6.50000000000000e-01,0.00000000000000e+00,1.00444846915966e-05
8.71399999999999e-08,6.50000000000000e-01,0.00000000000000e+00,1.33618098873472e-05
8.84080310658416e-08,6.50000000000000e-01,0.00000000000000e+00,1.76088453971183e-05
9.00000000000000e-08,6.50000000000000e-01,0.00000000000000e+00,5.60595469424174e-06
9.00100000000000e-08,6.50000000000000e-01,6.49999999999877e-02,9.65344771207410e-06
9.00300000000000e-08,6.50000000000000e-01,1.94999999999963e-01,1.33538702914576e-05
9.00700000000000e-08,6.50000000000000e-01,4.54999999999914e-01,1.26503527716412e-05
9.01000000000000e-08,6.50000000000000e-01,6.49999999999963e-01,1.00623031458399e-05
9.01080000000000e-08,6.50000000000000e-01,6.50000000000000e-01,9.55222088441093e-06
9.01240000000000e-08,6.50000000000000e-01,6.50000000000000e-01,9.74066999503975e-06
9.01560000000000e-08,6.50000000000000e-01,6.50000000000000e-01,1.18387663488387e-05
9.02200000000000e-08,6.50000000000000e-01,6.50000000000000e-01,1.47236218041233e-05
9.03480000000000e-08,6.50000000000000e-01,6.50000000000000e-01,1.30159258928848e-05
9.06040000000000e-08,6.50000000000000e-01,6.50000000000000e-01,1.03545700831792e-05
9.11139671169650e-08,6.50000000000000e-01,6.50000000000000e-01,1.17796066547837e-05
9.21339013508950e-08,6.50000000000000e-01,6.50000000000000e-01,1.01599230802702e-05
9.41737698187552e-08,6.50000000000000e-01,6.50000000000000e-01,1.05945979085626e-05
9.51000000000000e-08,6.50000000000000e-01,6.50000000000000e-01,9.47963413358392e-06
9.51100000000000e-08,5.85000000000066e-01,6.50000000000000e-01,-5.39812202324935e-05
9.51300000000000e-08,4.55000000000091e-01,6.50000000000000e-01,-1.56333808574612e-04
9.51700000000000e-08,1.95000000000140e-01,6.50000000000000e-01,-1.66698163496980e-04
9.52000000000000e-08,9.09272657168003e-14,6.50000000000000e-01,7.04529466766385e-05
9.52080000000000e-08,0.00000000000000e+00,6.50000000000000e-01,2.06538822417786e-04
9.52240000000000e-08,0.00000000000000e+00,6.50000000000000e-01,3.86772281516623e-04
9.52560000000000e-08,0.00000000000000e+00,6.50000000000000e-01,4.19693608311136e-04
9.53200000000000e-08,0.00000000000000e+00,6.50000000000000e-01,8.72038145690243e-05
9.54480000000000e-08,0.00000000000000e+00,6.50000000000000e-01,-3.23799964886136e-04
9.57040000000000e-08,0.00000000000000e+00,6.50000000000000e-01,-4.25456665707757e-05
9.62159999999999e-08,0.00000000000000e+00,6.50000000000000e-01,-6.35717140199544e-05
9.68396656324349e-08,0.00000000000000e+00,6.50000000000000e-01,1.67734664350971e-04
9.80869968973049e-08,0.00000000000000e+00,6.50000000000000e-01,-1.18826036301089e-04
9.94408631722853e-08,0.00000000000000e+00,6.50000000000000e-01,1.02052719184291e-04
1.02148595722246e-07,0.00000000000000e+00,6.50000000000000e-01,-7.19496791980359e-05
1.05000000000000e-07,0.00000000000000e+00,6.50000000000000e-01,7.61499327371915e-05
1.05010000000000e-07,6.49999999999877e-02,6.50000000000000e-01,1.87258493679177e-04
1.05030000000000e-07,1.94999999999963e-01,6.50000000000000e-01,3.63168227136640e-04
1.05070000000000e-07,4.54999999999914e-01,6.50000000000000e-01,5.22576636150782e-04
1.05100000000000e-07,6.49999999999963e-01,6.50000000000000e-01,2.03288550555222e-04
1.05108000000000e-07,6.50000000000000e-01,6.50000000000000e-01,-1.10681898418355e-04
1.05124000000000e-07,6.50000000000000e-01,6.50000000000000e-01,-8.61145814235693e-04
1.05156000000000e-07,6.50000000000000e-01,6.50000000000000e-01,-2.57536591257793e-03
1.05220000000000e-07,6.50000000000000e-01,6.50000000000000e-01,-4.92310202852383e-03
1.05348000000000e-07,6.50000000000000e-01,6.50000000000000e-01,1.77638362320531e-02
1.05604000000000e-07,6.50000000000000e-01,6.50000000000000e-01,4.22222861635258e-01
1.06116000000000e-07,6.50000000000000e-01,6.50000000000000e-01,6.77828431491714e-01
1.06701964844936e-07,6.50000000000000e-01,6.50000000000000e-01,6.26846659309232e-01
1.07873894534809e-07,6.50000000000000e-01,6.50000000000000e-01,6.71581435106546e-01
1.09370016096159e-07,6.50000000000000e-01,6.50000000000000e-01,6.28924919141943e-01
1.11966450815820e-07,6.50000000000000e-01,6.50000000000000e-01,6.69892424439434e-01
1.15100000000000e-07,6.50000000000000e-01,6.50000000000000e-01,6.29952234685527e-01
1.15110000000000e-07,5.85000000000066e-01,6.50000000000000e-01,6.36669820117090e-01
1.15130000000000e-07,4.55000000000091e-01,6.50000000000000e-01,6.45567307287423e-01
1.15170000000000e-07,1.95000000000140e-01,6.50000000000000e-01,6.50523800664539e-01
1.15200000000000e-07,9.09272657168003e-14,6.50000000000000e-01,6.52157860942543e-01
1.15208000000000e-07,0.00000000000000e+00,6.50000000000000e-01,6.52586098487033e-01
1.15224000000000e-07,0.00000000000000e+00,6.50000000000000e-01,6.53089726895864e-01
1.15256000000000e-07,0.00000000000000e+00,6.50000000000000e-01,6.52288311853763e-01
1.15320000000000e-07,0.00000000000000e+00,6.50000000000000e-01,6.42169853508549e-01
1.15448000000000e-07,0.00000000000000e+00,6.50000000000000e-01,6.25585311829229e-01
1.15704000000000e-07,0.00000000000000e+00,6.50000000000000e-01,6.43789676536157e-01
1.16216000000000e-07,0.00000000000000e+00,6.50000000000000e-01,6.52450604466369e-01
1.16840126097178e-07,0.00000000000000e+00,6.50000000000000e-01,6.47194162095802e-01
1.18088378291534e-07,0.00000000000000e+00,6.50000000000000e-01,6.51757035940059e-01
1.20584882680246e-07,0.00000000000000e+00,6.50000000000000e-01,6.47920881265753e-01
1.24384882680246e-07,0.00000000000000e+00,6.50000000000000e-01,6.51671586631103e-01
1.25000000000000e-07,0.00000000000000e+00,6.50000000000000e-01,6.48469409436787e-01
1.25010000000000e-07,6.49999999999017e-02,6.50000000000000e-01,6.48829809354829e-01
1.25030000000000e-07,1.94999999999877e-01,6.50000000000000e-01,6.49384902714492e-01
1.25070000000000e-07,4.54999999999828e-01,6.50000000000000e-01,6.49881278715637e-01
1.25100000000000e-07,6.49999999999877e-01,6.50000000000000e-01,6.49781787526001e-01
1.25108000000000e-07,6.50000000000000e-01,5.97999999999941e-01,6.49604722194978e-01
1.25124000000000e-07,6.50000000000000e-01,4.93999999999995e-01,6.49206546337130e-01
1.25156000000000e-07,6.50000000000000e-01,2.85999999999931e-01,6.48423285202582e-01
1.25200000000000e-07,6.50000000000000e-01,0.00000000000000e+00,6.47776609031875e-01
1.25206400000000e-07,6.50000000000000e-01,0.00000000000000e+00,6.47728368356735e-01
1.25219200000000e-07,6.50000000000000e-01,0.00000000000000e+00,6.47629999234562e-01
1.25244800000000e-07,6.50000000000000e-01,0.00000000000000e+00,6.47464280589172e-01
1.25296000000000e-07,6.50000000000000e-01,0.00000000000000e+00,6.47366791376958e-01
1.25398400000000e-07,6.50000000000000e-01,0.00000000000000e+00,6.47970133066093e-01
1.25603200000000e-07,6.50000000000000e-01,0.00000000000000e+00,6.49153161734926e-01
1.25889113605736e-07,6.50000000000000e-01,0.00000000000000e+00,6.49857641442619e-01
1.26460940817209e-07,6.50000000000000e-01,0.00000000000000e+00,6.50022337655804e-01
1.27065637763441e-07,6.50000000000000e-01,0.00000000000000e+00,6.50003384136481e-01
1.28275031655903e-07,6.50000000000000e-01,0.00000000000000e+00,6.49993063287961e-01
1.30693819440829e-07,6.50000000000000e-01,0.00000000000000e+00,6.50007701746813e-01
1.34493819440829e-07,6.50000000000000e-01,0.00000000000000e+00,6.49992015871895e-01
1.35100000000000e-07,6.49999999999882e-01,0.00000000000000e+00,6.50007682936500e-01
1.35110000000000e-07,5.84999999999808e-01,0.00000000000000e+00,6.49947883458831e-01
1.35130000000000e-07,4.54999999999833e-01,0.00000000000000e+00,6.49874740042993e-01
1.35170000000000e-07,1.94999999999882e-01,0.00000000000000e+00,6.50500833302826e-01
1.35200000000000e-07,0.00000000000000e+00,0.00000000000000e+00,6.52174892578057e-01
1.35208000000000e-07,0.00000000000000e+00,0.00000000000000e+00,6.52643351900643e-01
1.35224000000000e-07,0.00000000000000e+00,0.00000000000000e+00,6.53325481210478e-01
1.35256000000000e-07,0.00000000000000e+00,0.00000000000000e+00,6.53949156628620e-01
