Time,v(clk),v(data),v(out),v(reset)
1.00000000000000e-08,6.50000000000000e-01,0.00000000000000e+00,6.48395710452655e-06,0.00000000000000e+00
1.00100000000000e-08,6.50000000000000e-01,6.49999999999984e-02,9.67624697199160e-06,0.00000000000000e+00
1.00300000000000e-08,6.50000000000000e-01,1.94999999999995e-01,1.26617194031800e-05,0.00000000000000e+00
1.00700000000000e-08,6.50000000000000e-01,4.54999999999989e-01,1.21982398644804e-05,0.00000000000000e+00
1.01000000000000e-08,6.50000000000000e-01,6.49999999999995e-01,1.12607898332395e-05,0.00000000000000e+00
1.01080000000000e-08,6.50000000000000e-01,6.50000000000000e-01,1.13618866717582e-05,0.00000000000000e+00
1.01240000000000e-08,6.50000000000000e-01,6.50000000000000e-01,1.21027275629196e-05,0.00000000000000e+00
1.01560000000000e-08,6.50000000000000e-01,6.50000000000000e-01,1.38507658815068e-05,0.00000000000000e+00
1.02200000000000e-08,6.50000000000000e-01,6.50000000000000e-01,1.39850807812092e-05,0.00000000000000e+00
1.03480000000000e-08,6.50000000000000e-01,6.50000000000000e-01,1.30502385864567e-05,0.00000000000000e+00
1.06040000000000e-08,6.50000000000000e-01,6.50000000000000e-01,1.17189526501228e-05,0.00000000000000e+00
1.11160000000000e-08,6.50000000000000e-01,6.50000000000000e-01,1.22794784004881e-05,0.00000000000000e+00
1.21400000000000e-08,6.50000000000000e-01,6.50000000000000e-01,1.09249154668411e-05,0.00000000000000e+00
1.41880000000000e-08,6.50000000000000e-01,6.50000000000000e-01,1.09578015360179e-05,0.00000000000000e+00
1.51000000000000e-08,6.50000000000000e-01,6.50000000000000e-01,9.98625795656065e-06,0.00000000000000e+00
1.51100000000000e-08,5.84999999999991e-01,6.50000000000000e-01,1.82364224745837e-04,6.50000000000092e-02
1.51300000000000e-08,4.54999999999994e-01,6.50000000000000e-01,3.59678335812803e-04,1.95000000000006e-01
1.51700000000000e-08,1.95000000000000e-01,6.50000000000000e-01,3.06485453757832e-04,4.55000000000000e-01
1.52000000000000e-08,0.00000000000000e+00,6.50000000000000e-01,2.42697681775476e-04,6.50000000000000e-01
1.52080000000000e-08,0.00000000000000e+00,6.50000000000000e-01,2.06175028652320e-04,6.50000000000000e-01
1.52240000000000e-08,0.00000000000000e+00,6.50000000000000e-01,1.51465117989483e-04,6.50000000000000e-01
1.52560000000000e-08,0.00000000000000e+00,6.50000000000000e-01,9.02349571566610e-05,6.50000000000000e-01
1.53200000000000e-08,0.00000000000000e+00,6.50000000000000e-01,-6.74104725276320e-05,6.50000000000000e-01
1.54480000000000e-08,0.00000000000000e+00,6.50000000000000e-01,-2.97355419648614e-04,6.50000000000000e-01
1.57040000000000e-08,0.00000000000000e+00,6.50000000000000e-01,-1.83850747870196e-06,6.50000000000000e-01
1.61132506229737e-08,0.00000000000000e+00,6.50000000000000e-01,-1.67449390411845e-04,6.50000000000000e-01
1.67744397459909e-08,0.00000000000000e+00,6.50000000000000e-01,2.15847889187562e-04,6.50000000000000e-01
1.80968179920254e-08,0.00000000000000e+00,6.50000000000000e-01,-1.12303656228059e-04,6.50000000000000e-01
1.93354000602048e-08,0.00000000000000e+00,6.50000000000000e-01,6.49595699385320e-05,6.50000000000000e-01
2.18125641965637e-08,0.00000000000000e+00,6.50000000000000e-01,-2.43395400480071e-05,6.50000000000000e-01
2.50000000000000e-08,0.00000000000000e+00,6.50000000000000e-01,2.41586094231155e-05,6.50000000000000e-01
2.50100000000000e-08,6.49999999999877e-02,6.50000000000000e-01,1.49466740539471e-04,6.50000000000000e-01
2.50300000000000e-08,1.95000000000006e-01,6.50000000000000e-01,3.50083970433866e-04,6.50000000000000e-01
2.50700000000000e-08,4.55000000000000e-01,6.50000000000000e-01,5.29174452208292e-04,6.50000000000000e-01
2.51000000000000e-08,6.50000000000000e-01,6.50000000000000e-01,2.90640664160950e-04,6.50000000000000e-01
2.51080000000000e-08,6.50000000000000e-01,6.50000000000000e-01,2.00555854825354e-05,6.50000000000000e-01
2.51240000000000e-08,6.50000000000000e-01,6.50000000000000e-01,-6.64628375432415e-04,6.50000000000000e-01
2.51560000000000e-08,6.50000000000000e-01,6.50000000000000e-01,-2.35690137686220e-03,6.50000000000000e-01
2.52200000000000e-08,6.50000000000000e-01,6.50000000000000e-01,-4.83436258076696e-03,6.50000000000000e-01
2.53480000000000e-08,6.50000000000000e-01,6.50000000000000e-01,1.57574823737907e-02,6.50000000000000e-01
2.56040000000000e-08,6.50000000000000e-01,6.50000000000000e-01,4.15495772999658e-01,6.50000000000000e-01
2.61160000000000e-08,6.50000000000000e-01,6.50000000000000e-01,6.77497552826684e-01,6.50000000000000e-01
2.67050065540206e-08,6.50000000000000e-01,6.50000000000000e-01,6.27261493283968e-01,6.50000000000000e-01
2.78830196620619e-08,6.50000000000000e-01,6.50000000000000e-01,6.71279061964577e-01,6.50000000000000e-01
2.93734432647898e-08,6.50000000000000e-01,6.50000000000000e-01,6.29272758444021e-01,6.50000000000000e-01
3.19493973647745e-08,6.50000000000000e-01,6.50000000000000e-01,6.69604280844389e-01,6.50000000000000e-01
3.51000000000000e-08,6.49999999999968e-01,6.50000000000000e-01,6.30276256856681e-01,6.50000000000000e-01
3.51100000000000e-08,5.84999999999980e-01,6.50000000000000e-01,6.36888404806292e-01,6.50000000000000e-01
3.51300000000000e-08,4.54999999999962e-01,6.50000000000000e-01,6.45651563200597e-01,6.50000000000000e-01
3.51700000000000e-08,1.94999999999968e-01,6.50000000000000e-01,6.50535028377660e-01,6.50000000000000e-01
3.52000000000000e-08,0.00000000000000e+00,6.50000000000000e-01,6.52160321458153e-01,6.50000000000000e-01
3.52080000000000e-08,0.00000000000000e+00,6.50000000000000e-01,6.52588899994330e-01,6.50000000000000e-01
3.52240000000000e-08,0.00000000000000e+00,6.50000000000000e-01,6.53092957806766e-01,6.50000000000000e-01
3.52560000000000e-08,0.00000000000000e+00,6.50000000000000e-01,6.52290266701588e-01,6.50000000000000e-01
3.53200000000000e-08,0.00000000000000e+00,6.50000000000000e-01,6.42171381743508e-01,6.50000000000000e-01
3.54480000000000e-08,0.00000000000000e+00,6.50000000000000e-01,6.25590287687069e-01,6.50000000000000e-01
3.57040000000000e-08,0.00000000000000e+00,6.50000000000000e-01,6.43792726752701e-01,6.50000000000000e-01
3.62160000000000e-08,0.00000000000000e+00,6.50000000000000e-01,6.52448731133493e-01,6.50000000000000e-01
3.68401466414698e-08,0.00000000000000e+00,6.50000000000000e-01,6.47195962383328e-01,6.50000000000000e-01
3.80884399244095e-08,0.00000000000000e+00,6.50000000000000e-01,6.51755199001036e-01,6.50000000000000e-01
4.05850264902889e-08,0.00000000000000e+00,6.50000000000000e-01,6.47922582922067e-01,6.50000000000000e-01
4.43850264902889e-08,0.00000000000000e+00,6.50000000000000e-01,6.51669695849219e-01,6.50000000000000e-01
4.50000000000000e-08,0.00000000000000e+00,6.50000000000000e-01,6.48471323472482e-01,6.50000000000000e-01
4.50100000000000e-08,6.49999999999877e-02,6.50000000000000e-01,6.48669911005313e-01,5.85000000000012e-01
4.50300000000000e-08,1.95000000000006e-01,6.50000000000000e-01,6.48980519488395e-01,4.54999999999994e-01
4.50700000000000e-08,4.55000000000000e-01,6.50000000000000e-01,6.51070191213464e-01,1.95000000000000e-01
4.51000000000000e-08,6.50000000000000e-01,6.50000000000000e-01,6.55951859369263e-01,0.00000000000000e+00
4.51080000000000e-08,6.50000000000000e-01,6.50000000000000e-01,6.57594721808091e-01,0.00000000000000e+00
4.51240000000000e-08,6.50000000000000e-01,6.50000000000000e-01,6.60438191204974e-01,0.00000000000000e+00
4.51560000000000e-08,6.50000000000000e-01,6.50000000000000e-01,6.65159794466629e-01,0.00000000000000e+00
4.52200000000000e-08,6.50000000000000e-01,6.50000000000000e-01,6.73305590345247e-01,0.00000000000000e+00
4.53480000000000e-08,6.50000000000000e-01,6.50000000000000e-01,4.82832986205043e-01,0.00000000000000e+00
4.56040000000000e-08,6.50000000000000e-01,6.50000000000000e-01,3.09847382791786e-02,0.00000000000000e+00
4.59802640322970e-08,6.50000000000000e-01,6.50000000000000e-01,-1.38752744220378e-02,0.00000000000000e+00
4.66194527107862e-08,6.50000000000000e-01,6.50000000000000e-01,9.32602427539801e-03,0.00000000000000e+00
4.74281713389160e-08,6.50000000000000e-01,6.50000000000000e-01,-6.62140350705276e-03,0.00000000000000e+00
4.90456085951757e-08,6.50000000000000e-01,6.50000000000000e-01,5.67380659480062e-03,0.00000000000000e+00
5.01000000000000e-08,6.50000000000000e-01,6.49999999999963e-01,-4.38504785212609e-03,0.00000000000000e+00
5.04072635063541e-08,6.50000000000000e-01,6.50000000000000e-01,-7.65102749387639e-04,0.00000000000000e+00
5.10217905190624e-08,6.50000000000000e-01,6.50000000000000e-01,5.12719070616913e-04,0.00000000000000e+00
5.22508445444789e-08,6.50000000000000e-01,6.50000000000000e-01,-4.00216987531580e-04,0.00000000000000e+00
5.47089525953119e-08,6.50000000000000e-01,6.50000000000000e-01,3.74933484305532e-04,0.00000000000000e+00
5.51000000000000e-08,6.50000000000000e-01,6.50000000000000e-01,-1.76181586984632e-04,0.00000000000000e+00
5.51100000000000e-08,5.85000000000023e-01,6.50000000000000e-01,2.20168919374056e-05,6.49999999999769e-02
5.51300000000000e-08,4.55000000000005e-01,6.50000000000000e-01,2.45220157721389e-04,1.94999999999995e-01
5.51700000000000e-08,1.95000000000011e-01,6.50000000000000e-01,2.43847892810255e-04,4.54999999999989e-01
5.52000000000000e-08,0.00000000000000e+00,6.50000000000000e-01,1.97276996995087e-04,6.50000000000000e-01
5.52080000000000e-08,0.00000000000000e+00,6.50000000000000e-01,1.63375081097449e-04,6.50000000000000e-01
5.52240000000000e-08,0.00000000000000e+00,6.50000000000000e-01,1.12502944523016e-04,6.50000000000000e-01
5.52560000000000e-08,0.00000000000000e+00,6.50000000000000e-01,3.37546856949145e-05,6.50000000000000e-01
5.53200000000000e-08,0.00000000000000e+00,6.50000000000000e-01,-5.07491606783254e-04,6.50000000000000e-01
5.54480000000000e-08,0.00000000000000e+00,6.50000000000000e-01,-1.02599649041216e-03,6.50000000000000e-01
5.57040000000000e-08,0.00000000000000e+00,6.50000000000000e-01,1.33291300450714e-04,6.50000000000000e-01
5.60717172301320e-08,0.00000000000000e+00,6.50000000000000e-01,-8.35411111360790e-05,6.50000000000000e-01
5.61569500759612e-08,0.00000000000000e+00,6.50000000000000e-01,-7.11117094111743e-05,6.50000000000000e-01
5.63274157676197e-08,0.00000000000000e+00,6.50000000000000e-01,2.27733448863003e-05,6.50000000000000e-01
5.66683471509367e-08,0.00000000000000e+00,6.50000000000000e-01,4.29478324125085e-05,6.50000000000000e-01
5.73502099175707e-08,0.00000000000000e+00,6.50000000000000e-01,-1.64194448994265e-05,6.50000000000000e-01
5.87139354508386e-08,0.00000000000000e+00,6.50000000000000e-01,3.24267429105745e-05,6.50000000000000e-01
6.14413865173745e-08,0.00000000000000e+00,6.50000000000000e-01,-1.50696475793416e-05,6.50000000000000e-01
6.50000000000000e-08,0.00000000000000e+00,6.50000000000000e-01,3.43605228633119e-05,6.50000000000000e-01
6.50100000000000e-08,6.49999999999877e-02,6.50000000000000e-01,1.40805866438096e-04,6.50000000000000e-01
6.50300000000000e-08,1.94999999999963e-01,6.50000000000000e-01,3.11033712512752e-04,6.50000000000000e-01
6.50700000000000e-08,4.54999999999914e-01,6.50000000000000e-01,4.71301401366878e-04,6.50000000000000e-01
6.51000000000000e-08,6.49999999999963e-01,6.50000000000000e-01,1.40949743375827e-04,6.50000000000000e-01
6.51080000000000e-08,6.50000000000000e-01,6.50000000000000e-01,-1.85511467941143e-04,6.50000000000000e-01
6.51240000000000e-08,6.50000000000000e-01,6.50000000000000e-01,-9.51368249754656e-04,6.50000000000000e-01
6.51560000000000e-08,6.50000000000000e-01,6.50000000000000e-01,-2.66088459867286e-03,6.50000000000000e-01
6.52200000000000e-08,6.50000000000000e-01,6.50000000000000e-01,-4.95206208932900e-03,6.50000000000000e-01
6.53480000000000e-08,6.50000000000000e-01,6.50000000000000e-01,1.86593829968369e-02,6.50000000000000e-01
6.56040000000000e-08,6.50000000000000e-01,6.50000000000000e-01,4.24975476482331e-01,6.50000000000000e-01
6.61159999999999e-08,6.50000000000000e-01,6.50000000000000e-01,6.77954596744385e-01,6.50000000000000e-01
6.67006373728038e-08,6.50000000000000e-01,6.50000000000000e-01,6.26683827915772e-01,6.50000000000000e-01
6.78699121184114e-08,6.50000000000000e-01,6.50000000000000e-01,6.71694213165470e-01,6.50000000000000e-01
6.93683790423087e-08,6.50000000000000e-01,6.50000000000000e-01,6.28791026560238e-01,6.50000000000000e-01
7.19755272505647e-08,6.50000000000000e-01,6.50000000000000e-01,6.70001001902871e-01,6.50000000000000e-01
7.51000000000000e-08,6.50000000000000e-01,6.50000000000000e-01,6.29828210452265e-01,6.50000000000000e-01
7.51100000000000e-08,5.85000000000066e-01,6.50000000000000e-01,6.36585145798214e-01,6.50000000000000e-01
7.51300000000000e-08,4.55000000000091e-01,6.50000000000000e-01,6.45534103522813e-01,6.50000000000000e-01
7.51700000000000e-08,1.95000000000140e-01,6.50000000000000e-01,6.50515512150843e-01,6.50000000000000e-01
7.52000000000000e-08,9.09272657168003e-14,6.50000000000000e-01,6.52156932323560e-01,6.50000000000000e-01
7.52080000000000e-08,0.00000000000000e+00,6.50000000000000e-01,6.52584889603721e-01,6.50000000000000e-01
7.52240000000000e-08,0.00000000000000e+00,6.50000000000000e-01,6.53088500551290e-01,6.50000000000000e-01
7.52560000000000e-08,0.00000000000000e+00,6.50000000000000e-01,6.52290010641523e-01,6.50000000000000e-01
7.53200000000000e-08,0.00000000000000e+00,6.50000000000000e-01,6.42178507686358e-01,6.50000000000000e-01
7.54480000000000e-08,0.00000000000000e+00,6.50000000000000e-01,6.25584085927481e-01,6.50000000000000e-01
7.57040000000000e-08,0.00000000000000e+00,6.50000000000000e-01,6.43781190164764e-01,6.50000000000000e-01
7.62159999999999e-08,0.00000000000000e+00,6.50000000000000e-01,6.52456456357805e-01,6.50000000000000e-01
7.68400456440053e-08,0.00000000000000e+00,6.50000000000000e-01,6.47189561441447e-01,6.50000000000000e-01
7.80881369320161e-08,0.00000000000000e+00,6.50000000000000e-01,6.51761137235607e-01,6.50000000000000e-01
8.05843195080376e-08,0.00000000000000e+00,6.50000000000000e-01,6.47917007269819e-01,6.50000000000000e-01
8.43843195080376e-08,0.00000000000000e+00,6.50000000000000e-01,6.51675348750554e-01,6.50000000000000e-01
8.50000000000000e-08,0.00000000000000e+00,6.50000000000000e-01,6.48466065650659e-01,6.50000000000000e-01
8.50100000000000e-08,6.49999999999877e-02,6.50000000000000e-01,6.48666425304365e-01,5.85000000000012e-01
8.50300000000000e-08,1.94999999999963e-01,6.50000000000000e-01,6.48978548873535e-01,4.55000000000037e-01
8.50700000000000e-08,4.54999999999914e-01,6.50000000000000e-01,6.51069576962847e-01,1.95000000000086e-01
8.51000000000000e-08,6.49999999999963e-01,6.50000000000000e-01,6.55951466770813e-01,3.71924713249427e-14
8.51080000000000e-08,6.50000000000000e-01,6.50000000000000e-01,6.57594336719792e-01,0.00000000000000e+00
8.51240000000000e-08,6.50000000000000e-01,6.50000000000000e-01,6.60437831562518e-01,0.00000000000000e+00
8.51560000000000e-08,6.50000000000000e-01,6.50000000000000e-01,6.65159509600633e-01,0.00000000000000e+00
8.52200000000000e-08,6.50000000000000e-01,6.50000000000000e-01,6.73305656157851e-01,0.00000000000000e+00
8.53480000000000e-08,6.50000000000000e-01,6.50000000000000e-01,4.82834541957396e-01,0.00000000000000e+00
8.56040000000000e-08,6.50000000000000e-01,6.50000000000000e-01,3.09650640222155e-02,0.00000000000000e+00
8.59809389940114e-08,6.50000000000000e-01,6.50000000000000e-01,-1.38827117464601e-02,0.00000000000000e+00
8.66198465105198e-08,6.50000000000000e-01,6.50000000000000e-01,9.33040252383879e-03,0.00000000000000e+00
8.74291668601702e-08,6.50000000000000e-01,6.50000000000000e-01,-6.62592211439000e-03,0.00000000000000e+00
8.90478075594708e-08,6.50000000000000e-01,6.50000000000000e-01,5.67830713421332e-03,0.00000000000000e+00
9.01000000000000e-08,6.50000000000000e-01,6.49999999999963e-01,-4.38605050516441e-03,0.00000000000000e+00
9.04081565291648e-08,6.50000000000000e-01,6.50000000000000e-01,-7.63525632352052e-04,0.00000000000000e+00
9.10244695874945e-08,6.50000000000000e-01,6.50000000000000e-01,5.12333220644399e-04,0.00000000000000e+00
9.22570957041538e-08,6.50000000000000e-01,6.50000000000000e-01,-4.00157183731755e-04,0.00000000000000e+00
9.47223479374725e-08,6.50000000000000e-01,6.50000000000000e-01,3.74993230411153e-04,0.00000000000000e+00
9.51000000000000e-08,6.50000000000000e-01,6.50000000000000e-01,-1.71380774775704e-04,0.00000000000000e+00
9.51100000000000e-08,5.85000000000066e-01,6.50000000000000e-01,2.61544567879898e-05,6.49999999999339e-02
9.51300000000000e-08,4.55000000000091e-01,6.50000000000000e-01,2.48228560243056e-04,1.94999999999909e-01
9.51700000000000e-08,1.95000000000140e-01,6.50000000000000e-01,2.45436846608806e-04,4.54999999999860e-01
9.52000000000000e-08,9.09272657168003e-14,6.50000000000000e-01,1.98278727848923e-04,6.49999999999909e-01
9.52080000000000e-08,0.00000000000000e+00,6.50000000000000e-01,1.64267825588697e-04,6.50000000000000e-01
9.52240000000000e-08,0.00000000000000e+00,6.50000000000000e-01,1.13200685153685e-04,6.50000000000000e-01
9.52560000000000e-08,0.00000000000000e+00,6.50000000000000e-01,3.41731614187102e-05,6.50000000000000e-01
9.53200000000000e-08,0.00000000000000e+00,6.50000000000000e-01,-5.07379473436771e-04,6.50000000000000e-01
9.54480000000000e-08,0.00000000000000e+00,6.50000000000000e-01,-1.02608881817627e-03,6.50000000000000e-01
9.57040000000000e-08,0.00000000000000e+00,6.50000000000000e-01,1.33285749734417e-04,6.50000000000000e-01
9.60717970701822e-08,0.00000000000000e+00,6.50000000000000e-01,-8.35469799783072e-05,6.50000000000000e-01
9.61570245394229e-08,0.00000000000000e+00,6.50000000000000e-01,-7.11047311035481e-05,6.50000000000000e-01
9.63274794779043e-08,0.00000000000000e+00,6.50000000000000e-01,2.27819678785546e-05,6.50000000000000e-01
9.66683893548671e-08,0.00000000000000e+00,6.50000000000000e-01,4.29408329124421e-05,6.50000000000000e-01
9.73502091087927e-08,0.00000000000000e+00,6.50000000000000e-01,-1.64143015713922e-05,6.50000000000000e-01
9.87138486166439e-08,0.00000000000000e+00,6.50000000000000e-01,3.24227556206267e-05,6.50000000000000e-01
1.01441127632346e-07,0.00000000000000e+00,6.50000000000000e-01,-1.50660730174586e-05,6.50000000000000e-01
1.05000000000000e-07,0.00000000000000e+00,6.50000000000000e-01,3.43567932066936e-05,6.50000000000000e-01
1.05010000000000e-07,6.49999999999877e-02,6.50000000000000e-01,1.40801963366965e-04,6.50000000000000e-01
1.05030000000000e-07,1.94999999999963e-01,6.50000000000000e-01,3.11029934605106e-04,6.50000000000000e-01
1.05070000000000e-07,4.54999999999914e-01,6.50000000000000e-01,4.71298788320890e-04,6.50000000000000e-01
1.05100000000000e-07,6.49999999999963e-01,6.50000000000000e-01,1.40947815983943e-04,6.50000000000000e-01
1.05108000000000e-07,6.50000000000000e-01,6.50000000000000e-01,-1.85513306666753e-04,6.50000000000000e-01
1.05124000000000e-07,6.50000000000000e-01,6.50000000000000e-01,-9.51369873381028e-04,6.50000000000000e-01
1.05156000000000e-07,6.50000000000000e-01,6.50000000000000e-01,-2.66088578405729e-03,6.50000000000000e-01
1.05220000000000e-07,6.50000000000000e-01,6.50000000000000e-01,-4.95206244418733e-03,6.50000000000000e-01
1.05348000000000e-07,6.50000000000000e-01,6.50000000000000e-01,1.86593943953124e-02,6.50000000000000e-01
1.05604000000000e-07,6.50000000000000e-01,6.50000000000000e-01,4.24975510357449e-01,6.50000000000000e-01
1.06116000000000e-07,6.50000000000000e-01,6.50000000000000e-01,6.77954598191688e-01,6.50000000000000e-01
1.06700637357304e-07,6.50000000000000e-01,6.50000000000000e-01,6.26683826081482e-01,6.50000000000000e-01
1.07869912071913e-07,6.50000000000000e-01,6.50000000000000e-01,6.71694214486791e-01,6.50000000000000e-01
1.09368379025717e-07,6.50000000000000e-01,6.50000000000000e-01,6.28791025042232e-01,6.50000000000000e-01
1.11975527345436e-07,6.50000000000000e-01,6.50000000000000e-01,6.70001003130836e-01,6.50000000000000e-01
1.15100000000000e-07,6.50000000000000e-01,6.50000000000000e-01,6.29828209040778e-01,6.50000000000000e-01
1.15110000000000e-07,5.85000000000066e-01,6.50000000000000e-01,6.36585144796762e-01,6.50000000000000e-01
1.15130000000000e-07,4.55000000000091e-01,6.50000000000000e-01,6.45534103127664e-01,6.50000000000000e-01
