Time,v(clk),v(data),v(out)
1.00000000000000e-08,5.25000000000000e-01,0.00000000000000e+00,1.53494414460958e-05
1.00100000000000e-08,5.25000000000000e-01,5.24999999999987e-02,1.83351991837610e-05
1.00300000000000e-08,5.25000000000000e-01,1.57499999999996e-01,1.68049456898550e-05
1.00700000000000e-08,5.25000000000000e-01,3.67499999999991e-01,6.27194729901220e-06
1.01000000000000e-08,5.25000000000000e-01,5.24999999999996e-01,3.20612517600016e-06
1.01080000000000e-08,5.25000000000000e-01,5.25000000000000e-01,2.10820119076610e-06
1.01240000000000e-08,5.25000000000000e-01,5.25000000000000e-01,2.45480346328791e-06
1.01560000000000e-08,5.25000000000000e-01,5.25000000000000e-01,5.35042323664831e-06
1.02200000000000e-08,5.25000000000000e-01,5.25000000000000e-01,6.21932829792532e-06
1.03480000000000e-08,5.25000000000000e-01,5.25000000000000e-01,-2.86055759808612e-08
1.06040000000000e-08,5.25000000000000e-01,5.25000000000000e-01,2.35205476610545e-06
1.11160000000000e-08,5.25000000000000e-01,5.25000000000000e-01,1.20062239150794e-06
1.21400000000000e-08,5.25000000000000e-01,5.25000000000000e-01,1.93443736782196e-06
1.41880000000000e-08,5.25000000000000e-01,5.25000000000000e-01,1.02433828397990e-06
1.51000000000000e-08,5.25000000000000e-01,5.25000000000000e-01,1.63580763866931e-06
1.51100000000000e-08,4.72499999999993e-01,5.25000000000000e-01,-7.27174410696044e-05
1.51300000000000e-08,3.67499999999995e-01,5.25000000000000e-01,-1.67660728867050e-04
1.51700000000000e-08,1.57500000000000e-01,5.25000000000000e-01,-1.40397839277787e-04
1.52000000000000e-08,0.00000000000000e+00,5.25000000000000e-01,1.83738941068462e-04
1.52080000000000e-08,0.00000000000000e+00,5.25000000000000e-01,3.49819385173984e-04
1.52240000000000e-08,0.00000000000000e+00,5.25000000000000e-01,5.21182145048885e-04
1.52560000000000e-08,0.00000000000000e+00,5.25000000000000e-01,4.02790552630240e-04
1.53200000000000e-08,0.00000000000000e+00,5.25000000000000e-01,-8.83390854886645e-05
1.54480000000000e-08,0.00000000000000e+00,5.25000000000000e-01,-2.72176655588260e-04
1.57040000000000e-08,0.00000000000000e+00,5.25000000000000e-01,1.07892230092953e-04
1.61346372274423e-08,0.00000000000000e+00,5.25000000000000e-01,-1.31746086692348e-04
1.67074784046875e-08,0.00000000000000e+00,5.25000000000000e-01,1.97033086585434e-04
1.78531607591779e-08,0.00000000000000e+00,5.25000000000000e-01,-2.06133277501451e-04
1.91554286842074e-08,0.00000000000000e+00,5.25000000000000e-01,2.07230684872438e-04
2.17599645342664e-08,0.00000000000000e+00,5.25000000000000e-01,-2.05870165284955e-04
2.50000000000000e-08,0.00000000000000e+00,5.25000000000000e-01,2.03763843058017e-04
2.50100000000000e-08,5.24999999999900e-02,5.25000000000000e-01,3.11699957507183e-04
2.50300000000000e-08,1.57500000000005e-01,5.25000000000000e-01,4.72569767559036e-04
2.50700000000000e-08,3.67500000000000e-01,5.25000000000000e-01,5.55975507329380e-04
2.51000000000000e-08,5.25000000000000e-01,5.25000000000000e-01,3.78061678407843e-05
2.51080000000000e-08,5.25000000000000e-01,5.25000000000000e-01,-4.16003577504605e-04
2.51240000000000e-08,5.25000000000000e-01,5.25000000000000e-01,-1.43091945086399e-03
2.51560000000000e-08,5.25000000000000e-01,5.25000000000000e-01,-3.32341088149475e-03
2.52200000000000e-08,5.25000000000000e-01,5.25000000000000e-01,-5.52804333878950e-03
2.53480000000000e-08,5.25000000000000e-01,5.25000000000000e-01,3.44977074057808e-02
2.56040000000000e-08,5.25000000000000e-01,5.25000000000000e-01,4.39742592902472e-01
2.61160000000000e-08,5.25000000000000e-01,5.25000000000000e-01,5.43847362124994e-01
2.66734877089594e-08,5.25000000000000e-01,5.25000000000000e-01,5.05615688668622e-01
2.77884631268780e-08,5.25000000000000e-01,5.25000000000000e-01,5.41648130805149e-01
2.94462350605815e-08,5.25000000000000e-01,5.25000000000000e-01,5.07251013978099e-01
3.01000000000000e-08,5.25000000000000e-01,5.25000000000000e-01,5.39991398972913e-01
3.01100000000000e-08,5.25000000000000e-01,4.72500000000027e-01,5.33146824545120e-01
3.01300000000000e-08,5.25000000000000e-01,3.67500000000012e-01,5.25706988631324e-01
3.01700000000000e-08,5.25000000000000e-01,1.57500000000018e-01,5.24828712208086e-01
3.02000000000000e-08,5.25000000000000e-01,1.26565424807268e-14,5.25020054427438e-01
3.02080000000000e-08,5.25000000000000e-01,0.00000000000000e+00,5.25014786431080e-01
3.02240000000000e-08,5.25000000000000e-01,0.00000000000000e+00,5.25001232543544e-01
3.02560000000000e-08,5.25000000000000e-01,0.00000000000000e+00,5.24981626085556e-01
3.03200000000000e-08,5.25000000000000e-01,0.00000000000000e+00,5.24966744527999e-01
3.04480000000000e-08,5.25000000000000e-01,0.00000000000000e+00,5.24992770360416e-01
3.07040000000000e-08,5.25000000000000e-01,0.00000000000000e+00,5.24993006762296e-01
3.11335149384286e-08,5.25000000000000e-01,0.00000000000000e+00,5.24977479872808e-01
3.17158135375089e-08,5.25000000000000e-01,0.00000000000000e+00,5.24999718235715e-01
3.28804107356697e-08,5.25000000000000e-01,0.00000000000000e+00,5.24976937492038e-01
3.51000000000000e-08,5.24999999999974e-01,0.00000000000000e+00,5.25002723669230e-01
3.51100000000000e-08,4.72499999999984e-01,0.00000000000000e+00,5.24921607853246e-01
3.51300000000000e-08,3.67499999999969e-01,0.00000000000000e+00,5.24836453148626e-01
3.51700000000000e-08,1.57499999999974e-01,0.00000000000000e+00,5.25259710522038e-01
3.52000000000000e-08,0.00000000000000e+00,0.00000000000000e+00,5.27094869383804e-01
3.52080000000000e-08,0.00000000000000e+00,0.00000000000000e+00,5.27634895738902e-01
3.52240000000000e-08,0.00000000000000e+00,0.00000000000000e+00,5.28300472969600e-01
3.52560000000000e-08,0.00000000000000e+00,0.00000000000000e+00,5.27614380372179e-01
3.53200000000000e-08,0.00000000000000e+00,0.00000000000000e+00,5.17415438792557e-01
3.54480000000000e-08,0.00000000000000e+00,0.00000000000000e+00,5.12152455819456e-01
3.57040000000000e-08,0.00000000000000e+00,0.00000000000000e+00,5.26670936363757e-01
3.60452151588899e-08,0.00000000000000e+00,0.00000000000000e+00,5.23002966022753e-01
3.67276454766697e-08,0.00000000000000e+00,0.00000000000000e+00,5.26262565803909e-01
3.75037914174885e-08,0.00000000000000e+00,0.00000000000000e+00,5.23573433513834e-01
3.90560832991261e-08,0.00000000000000e+00,0.00000000000000e+00,5.26177936342766e-01
3.91000000000000e-08,0.00000000000000e+00,0.00000000000000e+00,5.25490377080461e-01
3.91878334017479e-08,0.00000000000000e+00,0.00000000000000e+00,5.24833677146351e-01
3.93635002052436e-08,0.00000000000000e+00,0.00000000000000e+00,5.24786080148881e-01
3.96636521763395e-08,0.00000000000000e+00,0.00000000000000e+00,5.25025950590704e-01
4.02639561185312e-08,0.00000000000000e+00,0.00000000000000e+00,5.24842969389758e-01
4.14645640029146e-08,0.00000000000000e+00,0.00000000000000e+00,5.25025790507410e-01
4.38657797716815e-08,0.00000000000000e+00,0.00000000000000e+00,5.24873615500160e-01
4.50000000000000e-08,0.00000000000000e+00,0.00000000000000e+00,5.25032825879229e-01
4.50100000000000e-08,5.24999999999900e-02,0.00000000000000e+00,5.25086182302292e-01
4.50300000000000e-08,1.57500000000005e-01,0.00000000000000e+00,5.25120273893503e-01
4.50700000000000e-08,3.67500000000000e-01,0.00000000000000e+00,5.25012080945604e-01
4.51000000000000e-08,5.25000000000000e-01,0.00000000000000e+00,5.24861688873383e-01
4.51080000000000e-08,5.25000000000000e-01,0.00000000000000e+00,5.24793419106691e-01
4.51240000000000e-08,5.25000000000000e-01,0.00000000000000e+00,5.24719039863961e-01
4.51560000000000e-08,5.25000000000000e-01,0.00000000000000e+00,5.24703440278297e-01
4.52200000000000e-08,5.25000000000000e-01,0.00000000000000e+00,5.24820881358909e-01
4.53480000000000e-08,5.25000000000000e-01,0.00000000000000e+00,5.27213008268252e-01
4.56040000000000e-08,5.25000000000000e-01,0.00000000000000e+00,3.26720696472571e-01
4.61160000000000e-08,5.25000000000000e-01,0.00000000000000e+00,-2.72518963172861e-02
4.66785857885123e-08,5.25000000000000e-01,0.00000000000000e+00,2.31985862754810e-02
4.78037573655368e-08,5.25000000000000e-01,0.00000000000000e+00,-1.58543834263752e-02
4.90780467661540e-08,5.25000000000000e-01,0.00000000000000e+00,1.58257058018096e-02
5.00000000000000e-08,5.25000000000000e-01,0.00000000000000e+00,-1.05459941126849e-02
5.00100000000000e-08,5.25000000000000e-01,5.24999999999900e-02,-9.80131643257330e-03
5.00300000000000e-08,5.25000000000000e-01,1.57499999999970e-01,-7.19859653263896e-03
5.00700000000000e-08,5.25000000000000e-01,3.67500000000000e-01,-2.59261039328025e-03
5.01000000000000e-08,5.25000000000000e-01,5.25000000000000e-01,-1.32051013593990e-03
5.01080000000000e-08,5.25000000000000e-01,5.25000000000000e-01,-1.09024257501292e-03
5.01240000000000e-08,5.25000000000000e-01,5.25000000000000e-01,-7.23618135329909e-04
5.01560000000000e-08,5.25000000000000e-01,5.25000000000000e-01,-3.32795946819467e-04
5.02200000000000e-08,5.25000000000000e-01,5.25000000000000e-01,-3.89177481056602e-05
5.03480000000000e-08,5.25000000000000e-01,5.25000000000000e-01,6.64327215552096e-06
5.06040000000000e-08,5.25000000000000e-01,5.25000000000000e-01,-3.13329977958896e-06
5.11160000000001e-08,5.25000000000000e-01,5.25000000000000e-01,3.29221755033214e-06
5.21400000000002e-08,5.25000000000000e-01,5.25000000000000e-01,-2.30410653074154e-06
5.41880000000003e-08,5.25000000000000e-01,5.25000000000000e-01,2.52640962726276e-06
5.51000000000000e-08,5.25000000000000e-01,5.25000000000000e-01,-1.59717135707598e-06
5.51100000000000e-08,4.72500000000019e-01,5.25000000000000e-01,-7.56981819570873e-05
5.51300000000000e-08,3.67500000000004e-01,5.25000000000000e-01,-1.68336011336576e-04
5.51700000000000e-08,1.57500000000009e-01,5.25000000000000e-01,-1.35118909070871e-04
5.52000000000000e-08,0.00000000000000e+00,5.25000000000000e-01,1.82192702250616e-04
5.52080000000000e-08,0.00000000000000e+00,5.25000000000000e-01,3.47354457437540e-04
5.52240000000000e-08,0.00000000000000e+00,5.25000000000000e-01,5.10842118626738e-04
5.52560000000000e-08,0.00000000000000e+00,5.25000000000000e-01,3.58711997979058e-04
5.53200000000000e-08,0.00000000000000e+00,5.25000000000000e-01,-5.12541427598164e-04
5.54480000000000e-08,0.00000000000000e+00,5.25000000000000e-01,-4.97623858190341e-04
5.57040000000000e-08,0.00000000000000e+00,5.25000000000000e-01,2.57885581689956e-04
5.61337513500447e-08,0.00000000000000e+00,5.25000000000000e-01,-2.51857782551466e-04
5.67070547880503e-08,0.00000000000000e+00,5.25000000000000e-01,2.96891934941593e-04
5.78536616640616e-08,0.00000000000000e+00,5.25000000000000e-01,-2.99136858044204e-04
5.91550616670835e-08,0.00000000000000e+00,5.25000000000000e-01,2.93567801099526e-04
6.17578616731273e-08,0.00000000000000e+00,5.25000000000000e-01,-2.89781069472232e-04
6.50000000000000e-08,0.00000000000000e+00,5.25000000000000e-01,2.85098925828470e-04
6.50100000000000e-08,5.24999999999900e-02,5.25000000000000e-01,3.61859318212601e-04
6.50300000000000e-08,1.57499999999970e-01,5.25000000000000e-01,4.90165852748241e-04
6.50700000000000e-08,3.67499999999930e-01,5.25000000000000e-01,5.60699537959217e-04
6.51000000000000e-08,5.24999999999970e-01,5.25000000000000e-01,3.77253072882666e-05
6.51080000000000e-08,5.25000000000000e-01,5.25000000000000e-01,-4.15589239840933e-04
6.51240000000000e-08,5.25000000000000e-01,5.25000000000000e-01,-1.43039204692522e-03
6.51560000000000e-08,5.25000000000000e-01,5.25000000000000e-01,-3.32341327015859e-03
6.52200000000000e-08,5.25000000000000e-01,5.25000000000000e-01,-5.52799116633870e-03
6.53480000000000e-08,5.25000000000000e-01,5.25000000000000e-01,3.45039638422813e-02
6.56040000000000e-08,5.25000000000000e-01,5.25000000000000e-01,4.39749195951447e-01
6.61159999999999e-08,5.25000000000000e-01,5.25000000000000e-01,5.43846657490755e-01
6.66734919485748e-08,5.25000000000000e-01,5.25000000000000e-01,5.05616321212256e-01
6.77884758457245e-08,5.25000000000000e-01,5.25000000000000e-01,5.41647527559069e-01
6.94462357093464e-08,5.25000000000000e-01,5.25000000000000e-01,5.07251621823690e-01
7.01000000000000e-08,5.25000000000000e-01,5.25000000000000e-01,5.39990846844699e-01
7.01100000000000e-08,5.25000000000000e-01,4.72500000000010e-01,5.33146547083729e-01
7.01300000000000e-08,5.25000000000000e-01,3.67500000000030e-01,5.25706986035253e-01
7.01700000000000e-08,5.25000000000000e-01,1.57500000000070e-01,5.24828704677382e-01
7.02000000000000e-08,5.25000000000000e-01,2.99760216648792e-14,5.25020055296110e-01
7.02080000000000e-08,5.25000000000000e-01,0.00000000000000e+00,5.25014780611897e-01
7.02240000000000e-08,5.25000000000000e-01,0.00000000000000e+00,5.25001221610509e-01
7.02560000000000e-08,5.25000000000000e-01,0.00000000000000e+00,5.24981625542883e-01
7.03200000000000e-08,5.25000000000000e-01,0.00000000000000e+00,5.24966751309195e-01
7.04480000000000e-08,5.25000000000000e-01,0.00000000000000e+00,5.24992778671988e-01
7.07040000000000e-08,5.25000000000000e-01,0.00000000000000e+00,5.24993002571907e-01
7.11335149313174e-08,5.25000000000000e-01,0.00000000000000e+00,5.24977484667424e-01
7.17158153661002e-08,5.25000000000000e-01,0.00000000000000e+00,5.24999715153745e-01
7.28804162356656e-08,5.25000000000000e-01,0.00000000000000e+00,5.24976941409783e-01
7.51000000000000e-08,5.25000000000000e-01,0.00000000000000e+00,5.25002720715261e-01
7.51100000000000e-08,4.72500000000053e-01,0.00000000000000e+00,5.24921605784923e-01
7.51300000000000e-08,3.67500000000073e-01,0.00000000000000e+00,5.24836452089091e-01
7.51700000000000e-08,1.57500000000113e-01,0.00000000000000e+00,5.25259710692658e-01
7.52000000000000e-08,7.34967642301854e-14,0.00000000000000e+00,5.27094870518645e-01
7.52080000000000e-08,0.00000000000000e+00,0.00000000000000e+00,5.27634897449165e-01
7.52240000000000e-08,0.00000000000000e+00,0.00000000000000e+00,5.28300478318792e-01
7.52560000000000e-08,0.00000000000000e+00,0.00000000000000e+00,5.27614419372800e-01
7.53200000000000e-08,0.00000000000000e+00,0.00000000000000e+00,5.17415542243832e-01
7.54480000000000e-08,0.00000000000000e+00,0.00000000000000e+00,5.12152471529501e-01
7.57040000000000e-08,0.00000000000000e+00,0.00000000000000e+00,5.26670906169157e-01
7.60452151602990e-08,0.00000000000000e+00,0.00000000000000e+00,5.23002992515478e-01
7.67276454808971e-08,0.00000000000000e+00,0.00000000000000e+00,5.26262544251748e-01
7.75037914261012e-08,0.00000000000000e+00,0.00000000000000e+00,5.23573453343876e-01
7.81000000000000e-08,0.00000000000000e+00,0.00000000000000e+00,5.25992124851108e-01
7.82552291890408e-08,0.00000000000000e+00,0.00000000000000e+00,5.25037418294981e-01
7.85656875671225e-08,0.00000000000000e+00,0.00000000000000e+00,5.24800544055298e-01
7.91866043232858e-08,0.00000000000000e+00,0.00000000000000e+00,5.25005219232011e-01
8.04284378356124e-08,0.00000000000000e+00,0.00000000000000e+00,5.24852243407112e-01
8.29121048602656e-08,0.00000000000000e+00,0.00000000000000e+00,5.25028770730885e-01
8.50000000000000e-08,0.00000000000000e+00,0.00000000000000e+00,5.24883167057505e-01
8.50100000000000e-08,5.24999999999900e-02,0.00000000000000e+00,5.24975305053994e-01
8.50300000000000e-08,1.57499999999970e-01,0.00000000000000e+00,5.25072130588596e-01
8.50700000000000e-08,3.67499999999930e-01,0.00000000000000e+00,5.25008276590635e-01
8.51000000000000e-08,5.24999999999970e-01,0.00000000000000e+00,5.24873369910177e-01
8.51080000000000e-08,5.25000000000000e-01,0.00000000000000e+00,5.24802024125096e-01
8.51240000000000e-08,5.25000000000000e-01,0.00000000000000e+00,5.24721399884431e-01
8.51560000000000e-08,5.25000000000000e-01,0.00000000000000e+00,5.24704523877218e-01
8.52200000000000e-08,5.25000000000000e-01,0.00000000000000e+00,5.24822275901646e-01
8.53480000000000e-08,5.25000000000000e-01,0.00000000000000e+00,5.27213181210809e-01
8.56040000000000e-08,5.25000000000000e-01,0.00000000000000e+00,3.26672109216707e-01
8.61159999999999e-08,5.25000000000000e-01,0.00000000000000e+00,-2.72704552867429e-02
8.66785292763299e-08,5.25000000000000e-01,0.00000000000000e+00,2.32150123327970e-02
8.78035878289900e-08,5.25000000000000e-01,0.00000000000000e+00,-1.58653681713058e-02
8.90777873686589e-08,5.25000000000000e-01,0.00000000000000e+00,1.58365344830670e-02
9.00000000000000e-08,5.25000000000000e-01,0.00000000000000e+00,-1.05545078999452e-02
9.00100000000000e-08,5.25000000000000e-01,5.24999999999900e-02,-9.80802235889304e-03
9.00300000000000e-08,5.25000000000000e-01,1.57499999999970e-01,-7.20254451711938e-03
9.00700000000000e-08,5.25000000000000e-01,3.67499999999930e-01,-2.59399144145394e-03
9.01000000000000e-08,5.25000000000000e-01,5.24999999999970e-01,-1.32116866518719e-03
9.01080000000000e-08,5.25000000000000e-01,5.25000000000000e-01,-1.09079893943451e-03
9.01240000000000e-08,5.25000000000000e-01,5.25000000000000e-01,-7.23994436534176e-04
9.01560000000000e-08,5.25000000000000e-01,5.25000000000000e-01,-3.32970650649148e-04
9.02200000000000e-08,5.25000000000000e-01,5.25000000000000e-01,-3.89458564102746e-05
9.03480000000000e-08,5.25000000000000e-01,5.25000000000000e-01,6.64886791285763e-06
9.06040000000000e-08,5.25000000000000e-01,5.25000000000000e-01,-3.13573831459829e-06
9.11159999999999e-08,5.25000000000000e-01,5.25000000000000e-01,3.29475438029178e-06
9.21399999999999e-08,5.25000000000000e-01,5.25000000000000e-01,-2.30597841022542e-06
9.41879999999998e-08,5.25000000000000e-01,5.25000000000000e-01,2.52826891337802e-06
9.51000000000000e-08,5.25000000000000e-01,5.25000000000000e-01,-1.59849643886593e-06
9.51100000000000e-08,4.72500000000053e-01,5.25000000000000e-01,-7.57014756232119e-05
9.51300000000000e-08,3.67500000000073e-01,5.25000000000000e-01,-1.68337093706679e-04
9.51700000000000e-08,1.57500000000113e-01,5.25000000000000e-01,-1.35120103434985e-04
9.52000000000000e-08,7.34967642301854e-14,5.25000000000000e-01,1.82192104858890e-04
9.52080000000000e-08,0.00000000000000e+00,5.25000000000000e-01,3.47354162599491e-04
9.52240000000000e-08,0.00000000000000e+00,5.25000000000000e-01,5.10842971509481e-04
9.52560000000000e-08,0.00000000000000e+00,5.25000000000000e-01,3.58723419474898e-04
9.53200000000000e-08,0.00000000000000e+00,5.25000000000000e-01,-5.12402219961051e-04
9.54480000000000e-08,0.00000000000000e+00,5.25000000000000e-01,-4.97522495550930e-04
9.57040000000000e-08,0.00000000000000e+00,5.25000000000000e-01,2.57831432168610e-04
9.61337516378347e-08,0.00000000000000e+00,5.25000000000000e-01,-2.51819316289243e-04
9.67070549779408e-08,0.00000000000000e+00,5.25000000000000e-01,2.96862263449868e-04
9.78536616581529e-08,0.00000000000000e+00,5.25000000000000e-01,-2.99110256369630e-04
9.91550619642884e-08,0.00000000000000e+00,5.25000000000000e-01,2.93543913683455e-04
1.01757862576559e-07,0.00000000000000e+00,5.25000000000000e-01,-2.89758208083564e-04
1.05000000000000e-07,0.00000000000000e+00,5.25000000000000e-01,2.85077047927467e-04
1.05010000000000e-07,5.24999999999900e-02,5.25000000000000e-01,3.61844702919646e-04
1.05030000000000e-07,1.57499999999970e-01,5.25000000000000e-01,4.90158761349946e-04
1.05070000000000e-07,3.67499999999930e-01,5.25000000000000e-01,5.60696344641391e-04
1.05100000000000e-07,5.24999999999970e-01,5.25000000000000e-01,3.77243027372201e-05
1.05108000000000e-07,5.25000000000000e-01,5.25000000000000e-01,-4.15590246072906e-04
1.05124000000000e-07,5.25000000000000e-01,5.25000000000000e-01,-1.43039283638122e-03
1.05156000000000e-07,5.25000000000000e-01,5.25000000000000e-01,-3.32341359848724e-03
1.05220000000000e-07,5.25000000000000e-01,5.25000000000000e-01,-5.52799126495001e-03
1.05348000000000e-07,5.25000000000000e-01,5.25000000000000e-01,3.45039630873034e-02
1.05604000000000e-07,5.25000000000000e-01,5.25000000000000e-01,4.39749195112391e-01
1.06116000000000e-07,5.25000000000000e-01,5.25000000000000e-01,5.43846657582207e-01
1.06673491948114e-07,5.25000000000000e-01,5.25000000000000e-01,5.05616321153416e-01
1.07788475844341e-07,5.25000000000000e-01,5.25000000000000e-01,5.41647527641096e-01
1.09446235710615e-07,5.25000000000000e-01,5.25000000000000e-01,5.07251621739648e-01
1.10100000000000e-07,5.25000000000000e-01,5.25000000000000e-01,5.39990846901408e-01
1.10110000000000e-07,5.25000000000000e-01,4.72500000000079e-01,5.33146547111816e-01
