Time,v(clk),v(data),v(out)
1.00000000000000e-08,6.00000000000000e-01,0.00000000000000e+00,3.17561523620778e-05
1.00100000000000e-08,6.00000000000000e-01,5.99999999999985e-02,2.19300449947196e-05
1.00300000000000e-08,6.00000000000000e-01,1.79999999999996e-01,8.73202752692259e-06
1.00700000000000e-08,6.00000000000000e-01,4.19999999999990e-01,-8.67902485018890e-08
1.01000000000000e-08,6.00000000000000e-01,5.99999999999995e-01,-1.42590999471781e-06
1.01080000000000e-08,6.00000000000000e-01,6.00000000000000e-01,-1.75817053937877e-06
1.01240000000000e-08,6.00000000000000e-01,6.00000000000000e-01,2.30432071872400e-06
1.01560000000000e-08,6.00000000000000e-01,6.00000000000000e-01,7.67275253743538e-06
1.02200000000000e-08,6.00000000000000e-01,6.00000000000000e-01,4.73193295101593e-06
1.03480000000000e-08,6.00000000000000e-01,6.00000000000000e-01,-2.52107489273623e-07
1.06040000000000e-08,6.00000000000000e-01,6.00000000000000e-01,3.58951362880097e-06
1.11160000000000e-08,6.00000000000000e-01,6.00000000000000e-01,7.78160685990445e-07
1.21400000000000e-08,6.00000000000000e-01,6.00000000000000e-01,3.06745835103057e-06
1.41880000000000e-08,6.00000000000000e-01,6.00000000000000e-01,6.53341584732486e-07
1.51000000000000e-08,6.00000000000000e-01,6.00000000000000e-01,2.71071559343646e-06
1.51100000000000e-08,5.39999999999991e-01,6.00000000000000e-01,-1.22069591258558e-04
1.51300000000000e-08,4.19999999999994e-01,6.00000000000000e-01,-2.46866649573865e-04
1.51700000000000e-08,1.80000000000000e-01,6.00000000000000e-01,1.12940733179856e-05
1.52000000000000e-08,0.00000000000000e+00,6.00000000000000e-01,7.69877224264151e-04
1.52080000000000e-08,0.00000000000000e+00,6.00000000000000e-01,1.01540803912439e-03
1.52240000000000e-08,0.00000000000000e+00,6.00000000000000e-01,1.06692853715983e-03
1.52560000000000e-08,0.00000000000000e+00,6.00000000000000e-01,-2.26182426396326e-05
1.53200000000000e-08,0.00000000000000e+00,6.00000000000000e-01,-7.63493416939209e-04
1.54480000000000e-08,0.00000000000000e+00,6.00000000000000e-01,2.94242806451989e-04
1.56512829669101e-08,0.00000000000000e+00,6.00000000000000e-01,-3.14140710373088e-04
1.59649990384792e-08,0.00000000000000e+00,6.00000000000000e-01,1.93983497028795e-04
1.64257443163420e-08,0.00000000000000e+00,6.00000000000000e-01,-3.34526580998452e-05
1.70936217473255e-08,0.00000000000000e+00,6.00000000000000e-01,-3.54288917136479e-05
1.83202638828934e-08,0.00000000000000e+00,6.00000000000000e-01,6.50708205561486e-05
2.07215012461731e-08,0.00000000000000e+00,6.00000000000000e-01,-7.51314948258816e-05
2.45215012461731e-08,0.00000000000000e+00,6.00000000000000e-01,8.36932859510737e-05
2.50000000000000e-08,0.00000000000000e+00,6.00000000000000e-01,-1.19476916768928e-04
2.50100000000000e-08,5.99999999999886e-02,6.00000000000000e-01,1.67506952711852e-04
2.50300000000000e-08,1.80000000000006e-01,6.00000000000000e-01,5.61927865691134e-04
2.50700000000000e-08,4.20000000000000e-01,6.00000000000000e-01,8.88781474136624e-04
2.51000000000000e-08,6.00000000000000e-01,6.00000000000000e-01,-6.77048054356644e-06
2.51080000000000e-08,6.00000000000000e-01,6.00000000000000e-01,-8.15074519505618e-04
2.51240000000000e-08,6.00000000000000e-01,6.00000000000000e-01,-2.45173625790782e-03
2.51560000000000e-08,6.00000000000000e-01,6.00000000000000e-01,-5.07375961889955e-03
2.52200000000000e-08,6.00000000000000e-01,6.00000000000000e-01,-6.84289765369514e-03
2.53480000000000e-08,6.00000000000000e-01,6.00000000000000e-01,1.50760299080829e-01
2.56040000000000e-08,6.00000000000000e-01,6.00000000000000e-01,5.84630197412485e-01
2.61122462234334e-08,6.00000000000000e-01,6.00000000000000e-01,6.04342714674297e-01
2.66423783011255e-08,6.00000000000000e-01,6.00000000000000e-01,5.95546961974304e-01
2.75337194649450e-08,6.00000000000000e-01,6.00000000000000e-01,6.03734169145572e-01
2.88283702862100e-08,6.00000000000000e-01,6.00000000000000e-01,5.96106440459236e-01
3.01000000000000e-08,6.00000000000000e-01,6.00000000000000e-01,6.03503110901532e-01
3.01100000000000e-08,6.00000000000000e-01,5.40000000000031e-01,6.01531368346914e-01
3.01300000000000e-08,6.00000000000000e-01,4.20000000000014e-01,5.99882920976915e-01
3.01700000000000e-08,6.00000000000000e-01,1.80000000000020e-01,6.00181400868232e-01
3.02000000000000e-08,6.00000000000000e-01,1.44328993201270e-14,6.00042994283657e-01
3.02080000000000e-08,6.00000000000000e-01,0.00000000000000e+00,6.00045368586447e-01
3.02240000000000e-08,6.00000000000000e-01,0.00000000000000e+00,6.00019367197096e-01
3.02560000000000e-08,6.00000000000000e-01,0.00000000000000e+00,5.99977681301932e-01
3.03200000000000e-08,6.00000000000000e-01,0.00000000000000e+00,6.00005466750873e-01
3.04480000000000e-08,6.00000000000000e-01,0.00000000000000e+00,6.00014912934528e-01
3.06494950225108e-08,6.00000000000000e-01,0.00000000000000e+00,5.99973419778355e-01
3.09510046234333e-08,6.00000000000000e-01,0.00000000000000e+00,6.00015035110512e-01
3.15540238252784e-08,6.00000000000000e-01,0.00000000000000e+00,5.99974621617381e-01
3.27600622289686e-08,6.00000000000000e-01,0.00000000000000e+00,6.00015309408173e-01
3.51000000000000e-08,5.99999999999970e-01,0.00000000000000e+00,5.99975824545389e-01
3.51100000000000e-08,5.39999999999982e-01,0.00000000000000e+00,5.99887146099522e-01
3.51300000000000e-08,4.19999999999965e-01,0.00000000000000e+00,5.99831861568936e-01
3.51700000000000e-08,1.79999999999970e-01,0.00000000000000e+00,6.00971051333548e-01
3.52000000000000e-08,0.00000000000000e+00,0.00000000000000e+00,6.04475325387329e-01
3.52080000000000e-08,0.00000000000000e+00,0.00000000000000e+00,6.05180296310221e-01
3.52240000000000e-08,0.00000000000000e+00,0.00000000000000e+00,6.04237014302377e-01
3.52560000000000e-08,0.00000000000000e+00,0.00000000000000e+00,5.93790363780179e-01
3.53200000000000e-08,0.00000000000000e+00,0.00000000000000e+00,5.89190721012059e-01
3.54480000000000e-08,0.00000000000000e+00,0.00000000000000e+00,6.01674225164752e-01
3.56483148354354e-08,0.00000000000000e+00,0.00000000000000e+00,5.98019949393833e-01
3.59406173453493e-08,0.00000000000000e+00,0.00000000000000e+00,6.01219074061184e-01
3.64367938023873e-08,0.00000000000000e+00,0.00000000000000e+00,5.98628497668729e-01
3.73706993547410e-08,0.00000000000000e+00,0.00000000000000e+00,6.01129275071416e-01
3.91000000000000e-08,0.00000000000000e+00,0.00000000000000e+00,5.98804091841712e-01
3.92867811104707e-08,0.00000000000000e+00,0.00000000000000e+00,5.99888519282117e-01
3.96603433314122e-08,0.00000000000000e+00,0.00000000000000e+00,6.00032478225812e-01
4.04074677732951e-08,0.00000000000000e+00,0.00000000000000e+00,5.99908963561103e-01
4.19017166570609e-08,0.00000000000000e+00,0.00000000000000e+00,6.00034554416121e-01
4.48902144245924e-08,0.00000000000000e+00,0.00000000000000e+00,5.99921694515250e-01
4.50000000000000e-08,0.00000000000000e+00,0.00000000000000e+00,6.00017677001447e-01
4.50100000000000e-08,5.99999999999886e-02,0.00000000000000e+00,6.00108933448932e-01
4.50300000000000e-08,1.80000000000006e-01,0.00000000000000e+00,6.00125526745850e-01
4.50700000000000e-08,4.20000000000000e-01,0.00000000000000e+00,5.99976048005960e-01
4.51000000000000e-08,6.00000000000000e-01,0.00000000000000e+00,5.99822838752290e-01
4.51080000000000e-08,6.00000000000000e-01,0.00000000000000e+00,5.99730752435503e-01
4.51240000000000e-08,6.00000000000000e-01,0.00000000000000e+00,5.99680160626752e-01
4.51560000000000e-08,6.00000000000000e-01,0.00000000000000e+00,5.99752653775388e-01
4.52200000000000e-08,6.00000000000000e-01,0.00000000000000e+00,6.00042080048053e-01
4.53480000000000e-08,6.00000000000000e-01,0.00000000000000e+00,6.11779287985006e-01
4.56040000000000e-08,6.00000000000000e-01,0.00000000000000e+00,2.17569568553078e-01
4.59669185840890e-08,6.00000000000000e-01,0.00000000000000e+00,-6.46941114757059e-02
4.64259455912187e-08,6.00000000000000e-01,0.00000000000000e+00,5.17535944514368e-02
4.71826290219024e-08,6.00000000000000e-01,0.00000000000000e+00,-3.56777548081388e-02
4.81148638527886e-08,6.00000000000000e-01,0.00000000000000e+00,3.26801350269204e-02
4.99663262094615e-08,6.00000000000000e-01,0.00000000000000e+00,-2.71596778298465e-02
5.00000000000000e-08,6.00000000000000e-01,0.00000000000000e+00,-1.19409762702193e-02
5.00100000000000e-08,6.00000000000000e-01,5.99999999999886e-02,-9.29837961200711e-03
5.00300000000000e-08,6.00000000000000e-01,1.79999999999966e-01,-5.43808168627710e-03
5.00700000000000e-08,6.00000000000000e-01,4.20000000000000e-01,-1.90179319220092e-03
5.01000000000000e-08,6.00000000000000e-01,6.00000000000000e-01,-8.33779772913379e-04
5.01080000000000e-08,6.00000000000000e-01,6.00000000000000e-01,-7.08543186327890e-04
5.01240000000000e-08,6.00000000000000e-01,6.00000000000000e-01,-4.16059867767160e-04
5.01560000000000e-08,6.00000000000000e-01,6.00000000000000e-01,-1.77319435392703e-04
5.02200000000000e-08,6.00000000000000e-01,6.00000000000000e-01,-1.65685626273004e-05
5.03480000000000e-08,6.00000000000000e-01,6.00000000000000e-01,1.71465448849800e-06
5.06040000000000e-08,6.00000000000000e-01,6.00000000000000e-01,3.34353226735806e-06
5.11160000000001e-08,6.00000000000000e-01,6.00000000000000e-01,-2.40323024791773e-06
5.21400000000002e-08,6.00000000000000e-01,6.00000000000000e-01,2.73468684487341e-06
5.41880000000003e-08,6.00000000000000e-01,6.00000000000000e-01,-2.12451100253374e-06
5.51000000000000e-08,6.00000000000000e-01,6.00000000000000e-01,2.52591056701910e-06
5.51100000000000e-08,5.40000000000021e-01,6.00000000000000e-01,-1.23542514797945e-04
5.51300000000000e-08,4.20000000000004e-01,6.00000000000000e-01,-2.46521710394423e-04
5.51700000000000e-08,1.80000000000010e-01,6.00000000000000e-01,1.62218083722132e-05
5.52000000000000e-08,0.00000000000000e+00,6.00000000000000e-01,7.50973516358500e-04
5.52080000000000e-08,0.00000000000000e+00,6.00000000000000e-01,9.66553224131320e-04
5.52240000000000e-08,0.00000000000000e+00,6.00000000000000e-01,8.52430823929537e-04
5.52560000000000e-08,0.00000000000000e+00,6.00000000000000e-01,-1.00071985198665e-03
5.53200000000000e-08,0.00000000000000e+00,6.00000000000000e-01,-1.70986321477184e-03
5.54480000000000e-08,0.00000000000000e+00,6.00000000000000e-01,4.61913780668413e-04
5.56504932550113e-08,0.00000000000000e+00,6.00000000000000e-01,-3.77450396912130e-04
5.59667693967384e-08,0.00000000000000e+00,6.00000000000000e-01,2.30992391417856e-04
5.64251599439963e-08,0.00000000000000e+00,6.00000000000000e-01,-5.31915686163044e-05
5.70952671510799e-08,0.00000000000000e+00,6.00000000000000e-01,-1.81353216209025e-05
5.83190619838748e-08,0.00000000000000e+00,6.00000000000000e-01,4.89297813225176e-05
6.07017680106844e-08,0.00000000000000e+00,6.00000000000000e-01,-5.94723277045394e-05
6.45017680106844e-08,0.00000000000000e+00,6.00000000000000e-01,6.82830186601413e-05
6.50000000000000e-08,0.00000000000000e+00,6.00000000000000e-01,-1.04138084093437e-04
6.50100000000000e-08,5.99999999999886e-02,6.00000000000000e-01,1.67598259720708e-04
6.50300000000000e-08,1.79999999999966e-01,6.00000000000000e-01,5.58521559033354e-04
6.50700000000000e-08,4.19999999999920e-01,6.00000000000000e-01,8.94976370164072e-04
6.51000000000000e-08,5.99999999999966e-01,6.00000000000000e-01,6.23217652427621e-06
6.51080000000000e-08,6.00000000000000e-01,6.00000000000000e-01,-7.97695739584936e-04
6.51240000000000e-08,6.00000000000000e-01,6.00000000000000e-01,-2.43213408352448e-03
6.51560000000000e-08,6.00000000000000e-01,6.00000000000000e-01,-5.06200790816203e-03
6.52200000000000e-08,6.00000000000000e-01,6.00000000000000e-01,-6.85039089459392e-03
6.53480000000000e-08,6.00000000000000e-01,6.00000000000000e-01,1.50262907845892e-01
6.56040000000000e-08,6.00000000000000e-01,6.00000000000000e-01,5.84508832582756e-01
6.61137464411622e-08,6.00000000000000e-01,6.00000000000000e-01,6.04385898841563e-01
6.66433939459227e-08,6.00000000000000e-01,6.00000000000000e-01,5.95497593749321e-01
6.75363950808684e-08,6.00000000000000e-01,6.00000000000000e-01,6.03775304777255e-01
6.88313743196858e-08,6.00000000000000e-01,6.00000000000000e-01,5.96061653905963e-01
7.01000000000000e-08,6.00000000000000e-01,6.00000000000000e-01,6.03612630601600e-01
7.01100000000000e-08,6.00000000000000e-01,5.40000000000011e-01,6.01569032849441e-01
7.01300000000000e-08,6.00000000000000e-01,4.20000000000034e-01,5.99875345291878e-01
7.01700000000000e-08,6.00000000000000e-01,1.80000000000080e-01,6.00185862293262e-01
7.02000000000000e-08,6.00000000000000e-01,3.44169137633799e-14,6.00041437885247e-01
7.02080000000000e-08,6.00000000000000e-01,0.00000000000000e+00,6.00044880259419e-01
7.02240000000000e-08,6.00000000000000e-01,0.00000000000000e+00,6.00019767563566e-01
7.02560000000000e-08,6.00000000000000e-01,0.00000000000000e+00,5.99964913789191e-01
7.03200000000000e-08,6.00000000000000e-01,0.00000000000000e+00,6.00021811881903e-01
7.04480000000000e-08,6.00000000000000e-01,0.00000000000000e+00,6.00000663771328e-01
7.06494989221900e-08,6.00000000000000e-01,0.00000000000000e+00,5.99986424969457e-01
7.09509666071792e-08,6.00000000000000e-01,0.00000000000000e+00,6.00002995461212e-01
7.15539019771576e-08,6.00000000000000e-01,0.00000000000000e+00,5.99986246265408e-01
7.27597727171143e-08,6.00000000000000e-01,0.00000000000000e+00,6.00003817854739e-01
7.51000000000000e-08,6.00000000000000e-01,0.00000000000000e+00,5.99987245683997e-01
7.51100000000000e-08,5.40000000000061e-01,0.00000000000000e+00,5.99891543212620e-01
7.51300000000000e-08,4.20000000000084e-01,0.00000000000000e+00,5.99830879565696e-01
7.51700000000000e-08,1.80000000000129e-01,0.00000000000000e+00,6.00971681402365e-01
7.52000000000000e-08,8.40438829641244e-14,0.00000000000000e+00,6.04475157380752e-01
7.52080000000000e-08,0.00000000000000e+00,0.00000000000000e+00,6.05180983769321e-01
7.52240000000000e-08,0.00000000000000e+00,0.00000000000000e+00,6.04238631269547e-01
7.52560000000000e-08,0.00000000000000e+00,0.00000000000000e+00,5.93790673745000e-01
7.53200000000000e-08,0.00000000000000e+00,0.00000000000000e+00,5.89187840890334e-01
7.54480000000000e-08,0.00000000000000e+00,0.00000000000000e+00,6.01674998009947e-01
7.56483149283583e-08,0.00000000000000e+00,0.00000000000000e+00,5.98019151902044e-01
7.59406175370323e-08,0.00000000000000e+00,0.00000000000000e+00,6.01219958722396e-01
7.64367940439872e-08,0.00000000000000e+00,0.00000000000000e+00,5.98627666137406e-01
7.73706994101075e-08,0.00000000000000e+00,0.00000000000000e+00,6.01130086068351e-01
7.81000000000000e-08,0.00000000000000e+00,0.00000000000000e+00,5.98837125245056e-01
7.82867810732241e-08,0.00000000000000e+00,0.00000000000000e+00,5.99881253515388e-01
7.86603432196722e-08,0.00000000000000e+00,0.00000000000000e+00,6.00021594018073e-01
7.94074675125684e-08,0.00000000000000e+00,0.00000000000000e+00,5.99905989821082e-01
8.09017160983608e-08,0.00000000000000e+00,0.00000000000000e+00,6.00028410978349e-01
8.38902132699457e-08,0.00000000000000e+00,0.00000000000000e+00,5.99923446070081e-01
8.50000000000000e-08,0.00000000000000e+00,0.00000000000000e+00,6.00032950207115e-01
8.50100000000000e-08,5.99999999999886e-02,0.00000000000000e+00,6.00119238767494e-01
8.50300000000000e-08,1.79999999999966e-01,0.00000000000000e+00,6.00129207968887e-01
8.50700000000000e-08,4.19999999999920e-01,0.00000000000000e+00,5.99976000480698e-01
8.51000000000000e-08,5.99999999999966e-01,0.00000000000000e+00,5.99809607559352e-01
8.51080000000000e-08,6.00000000000000e-01,0.00000000000000e+00,5.99731606378421e-01
8.51240000000000e-08,6.00000000000000e-01,0.00000000000000e+00,5.99659203745864e-01
8.51560000000000e-08,6.00000000000000e-01,0.00000000000000e+00,5.99762914621740e-01
8.52200000000000e-08,6.00000000000000e-01,0.00000000000000e+00,6.00032754807771e-01
8.53480000000000e-08,6.00000000000000e-01,0.00000000000000e+00,6.11797824420697e-01
8.56040000000000e-08,6.00000000000000e-01,0.00000000000000e+00,2.17532424989609e-01
8.59668249121084e-08,6.00000000000000e-01,0.00000000000000e+00,-6.46743192308194e-02
8.64258584625598e-08,6.00000000000000e-01,0.00000000000000e+00,5.17367635162393e-02
8.71820008935236e-08,6.00000000000000e-01,0.00000000000000e+00,-3.56604460704697e-02
8.81143210114812e-08,6.00000000000000e-01,0.00000000000000e+00,3.26639240564650e-02
8.99652150134271e-08,6.00000000000000e-01,0.00000000000000e+00,-2.71457594431802e-02
9.00000000000000e-08,6.00000000000000e-01,0.00000000000000e+00,-1.15635927686465e-02
9.00100000000000e-08,6.00000000000000e-01,5.99999999999886e-02,-8.99232622266766e-03
9.00300000000000e-08,6.00000000000000e-01,1.79999999999966e-01,-5.25070642660404e-03
9.00700000000000e-08,6.00000000000000e-01,4.19999999999920e-01,-1.84021589337945e-03
9.01000000000000e-08,6.00000000000000e-01,5.99999999999966e-01,-8.04737277472101e-04
9.01080000000000e-08,6.00000000000000e-01,6.00000000000000e-01,-6.84494132135921e-04
9.01240000000000e-08,6.00000000000000e-01,6.00000000000000e-01,-4.58366424741480e-04
9.01560000000000e-08,6.00000000000000e-01,6.00000000000000e-01,-1.91316215214857e-04
9.02200000000000e-08,6.00000000000000e-01,6.00000000000000e-01,-2.51071042511597e-05
9.03480000000000e-08,6.00000000000000e-01,6.00000000000000e-01,5.32307876222743e-06
9.06040000000000e-08,6.00000000000000e-01,6.00000000000000e-01,-2.35199367949399e-06
9.11159999999999e-08,6.00000000000000e-01,6.00000000000000e-01,2.64919262621399e-06
9.21399999999999e-08,6.00000000000000e-01,6.00000000000000e-01,-1.79958062409766e-06
9.41879999999998e-08,6.00000000000000e-01,6.00000000000000e-01,2.18154140401924e-06
9.51000000000000e-08,6.00000000000000e-01,6.00000000000000e-01,-1.34020695042626e-06
9.51100000000000e-08,5.40000000000061e-01,6.00000000000000e-01,-1.25222880255002e-04
9.51300000000000e-08,4.20000000000084e-01,6.00000000000000e-01,-2.46556633451314e-04
9.51700000000000e-08,1.80000000000129e-01,6.00000000000000e-01,1.58106015032411e-05
9.52000000000000e-08,8.40438829641244e-14,6.00000000000000e-01,7.49879805776191e-04
9.52080000000000e-08,0.00000000000000e+00,6.00000000000000e-01,9.65670784884770e-04
9.52240000000000e-08,0.00000000000000e+00,6.00000000000000e-01,8.51739354902945e-04
9.52560000000000e-08,0.00000000000000e+00,6.00000000000000e-01,-1.00184605185158e-03
9.53200000000000e-08,0.00000000000000e+00,6.00000000000000e-01,-1.71145697012959e-03
9.54480000000000e-08,0.00000000000000e+00,6.00000000000000e-01,4.61831629781036e-04
9.56504927973730e-08,0.00000000000000e+00,6.00000000000000e-01,-3.77234830375241e-04
9.59667692964167e-08,0.00000000000000e+00,6.00000000000000e-01,2.30775619118349e-04
9.64251585647535e-08,0.00000000000000e+00,6.00000000000000e-01,-5.29872964767537e-05
9.70952664229994e-08,0.00000000000000e+00,6.00000000000000e-01,-1.83301899499035e-05
9.83190585514724e-08,0.00000000000000e+00,6.00000000000000e-01,4.91174787714778e-05
1.00701751461421e-07,0.00000000000000e+00,6.00000000000000e-01,-5.96570548246967e-05
1.04501751461421e-07,0.00000000000000e+00,6.00000000000000e-01,6.84648380543896e-05
1.05000000000000e-07,0.00000000000000e+00,6.00000000000000e-01,-1.04302366097087e-04
1.05010000000000e-07,5.99999999999886e-02,6.00000000000000e-01,1.67504569083890e-04
1.05030000000000e-07,1.79999999999966e-01,6.00000000000000e-01,5.58504150888622e-04
1.05070000000000e-07,4.19999999999920e-01,6.00000000000000e-01,8.94980735463888e-04
1.05100000000000e-07,5.99999999999966e-01,6.00000000000000e-01,6.23975849940728e-06
1.05108000000000e-07,6.00000000000000e-01,6.00000000000000e-01,-7.97688821334977e-04
1.05124000000000e-07,6.00000000000000e-01,6.00000000000000e-01,-2.43212809272021e-03
1.05156000000000e-07,6.00000000000000e-01,6.00000000000000e-01,-5.06200422410716e-03
1.05220000000000e-07,6.00000000000000e-01,6.00000000000000e-01,-6.85039255527441e-03
1.05348000000000e-07,6.00000000000000e-01,6.00000000000000e-01,1.50262797242370e-01
1.05604000000000e-07,6.00000000000000e-01,6.00000000000000e-01,5.84508805493635e-01
1.06113746773732e-07,6.00000000000000e-01,6.00000000000000e-01,6.04385908579525e-01
1.06643394161653e-07,6.00000000000000e-01,6.00000000000000e-01,5.95497582623391e-01
