Time,v(clk),v(data),v(out)
1.00000000000000e-08,6.00000000000000e-01,0.00000000000000e+00,2.04812293103517e-05
1.00100000000000e-08,6.00000000000000e-01,5.99999999999985e-02,1.07311765391097e-05
1.00300000000000e-08,6.00000000000000e-01,1.79999999999996e-01,1.54799526314725e-06
1.00700000000000e-08,6.00000000000000e-01,4.19999999999990e-01,-3.20700724302375e-06
1.01000000000000e-08,6.00000000000000e-01,5.99999999999995e-01,-3.40894664772884e-06
1.01080000000000e-08,6.00000000000000e-01,6.00000000000000e-01,-2.55038802222246e-06
1.01240000000000e-08,6.00000000000000e-01,6.00000000000000e-01,-1.66662381333171e-07
1.01560000000000e-08,6.00000000000000e-01,6.00000000000000e-01,3.20165549551332e-06
1.02200000000000e-08,6.00000000000000e-01,6.00000000000000e-01,3.62135363389526e-06
1.03480000000000e-08,6.00000000000000e-01,6.00000000000000e-01,-3.97263501324130e-07
1.06040000000000e-08,6.00000000000000e-01,6.00000000000000e-01,2.77209437521755e-06
1.11160000000000e-08,6.00000000000000e-01,6.00000000000000e-01,5.43303041826426e-07
1.21400000000000e-08,6.00000000000000e-01,6.00000000000000e-01,2.24707501573704e-06
1.41880000000000e-08,6.00000000000000e-01,6.00000000000000e-01,4.16767324015353e-07
1.51000000000000e-08,6.00000000000000e-01,6.00000000000000e-01,1.88682684945738e-06
1.51100000000000e-08,5.39999999999991e-01,6.00000000000000e-01,-5.49990078823615e-05
1.51300000000000e-08,4.19999999999994e-01,6.00000000000000e-01,-1.25254049062842e-04
1.51700000000000e-08,1.80000000000000e-01,6.00000000000000e-01,-6.41976704183131e-05
1.52000000000000e-08,0.00000000000000e+00,6.00000000000000e-01,1.91489019309724e-04
1.52080000000000e-08,0.00000000000000e+00,6.00000000000000e-01,3.03215423415298e-04
1.52240000000000e-08,0.00000000000000e+00,6.00000000000000e-01,3.95691369707296e-04
1.52560000000000e-08,0.00000000000000e+00,6.00000000000000e-01,2.05996950410833e-04
1.53200000000000e-08,0.00000000000000e+00,6.00000000000000e-01,-1.91409675533327e-04
1.54480000000000e-08,0.00000000000000e+00,6.00000000000000e-01,-1.02165456303403e-04
1.57040000000000e-08,0.00000000000000e+00,6.00000000000000e-01,-8.79747401791291e-05
1.60725273617086e-08,0.00000000000000e+00,6.00000000000000e-01,8.82994083310617e-05
1.66582597531478e-08,0.00000000000000e+00,6.00000000000000e-01,2.19995913137349e-05
1.75857132343435e-08,0.00000000000000e+00,6.00000000000000e-01,-7.05182453390818e-05
1.90249578625198e-08,0.00000000000000e+00,6.00000000000000e-01,9.25697782876156e-05
2.19034471188725e-08,0.00000000000000e+00,6.00000000000000e-01,-1.01115071466588e-04
2.50000000000000e-08,0.00000000000000e+00,6.00000000000000e-01,1.08590417787800e-04
2.50100000000000e-08,5.99999999999886e-02,6.00000000000000e-01,1.71867751112047e-04
2.50300000000000e-08,1.80000000000006e-01,6.00000000000000e-01,2.61536545061315e-04
2.50700000000000e-08,4.20000000000000e-01,6.00000000000000e-01,3.36936459073275e-04
2.51000000000000e-08,6.00000000000000e-01,6.00000000000000e-01,-5.88447286012643e-04
2.51080000000000e-08,6.00000000000000e-01,6.00000000000000e-01,-1.24830949174850e-03
2.51240000000000e-08,6.00000000000000e-01,6.00000000000000e-01,-2.61997835933424e-03
2.51560000000000e-08,6.00000000000000e-01,6.00000000000000e-01,-4.78291489671457e-03
2.52200000000000e-08,6.00000000000000e-01,6.00000000000000e-01,-2.00930350752963e-03
2.53480000000000e-08,6.00000000000000e-01,6.00000000000000e-01,2.35771894282038e-01
2.56040000000000e-08,6.00000000000000e-01,6.00000000000000e-01,6.04639971070075e-01
2.60142657668390e-08,6.00000000000000e-01,6.00000000000000e-01,5.95957179258092e-01
2.66131259045812e-08,6.00000000000000e-01,6.00000000000000e-01,6.04624557498728e-01
2.74812887628444e-08,6.00000000000000e-01,6.00000000000000e-01,5.95771014264108e-01
2.87147964100272e-08,6.00000000000000e-01,6.00000000000000e-01,6.04418551806418e-01
3.01000000000000e-08,6.00000000000000e-01,6.00000000000000e-01,5.95831933020650e-01
3.01100000000000e-08,6.00000000000000e-01,5.40000000000031e-01,5.97977258317272e-01
3.01300000000000e-08,6.00000000000000e-01,4.20000000000014e-01,6.00135195347861e-01
3.01700000000000e-08,6.00000000000000e-01,1.80000000000020e-01,6.00132637719862e-01
3.02000000000000e-08,6.00000000000000e-01,1.44328993201270e-14,6.00084651411292e-01
3.02080000000000e-08,6.00000000000000e-01,0.00000000000000e+00,6.00070321912047e-01
3.02240000000000e-08,6.00000000000000e-01,0.00000000000000e+00,6.00049483150098e-01
3.02560000000000e-08,6.00000000000000e-01,0.00000000000000e+00,6.00005406270551e-01
3.03200000000000e-08,6.00000000000000e-01,0.00000000000000e+00,5.99984356873993e-01
3.04480000000000e-08,6.00000000000000e-01,0.00000000000000e+00,5.99996267708022e-01
3.06464213421671e-08,6.00000000000000e-01,0.00000000000000e+00,5.99982990176046e-01
3.10432640265013e-08,6.00000000000000e-01,0.00000000000000e+00,5.99982258883236e-01
3.15083912353547e-08,6.00000000000000e-01,0.00000000000000e+00,5.99992753553071e-01
3.24386456530613e-08,6.00000000000000e-01,0.00000000000000e+00,5.99979445354065e-01
3.42991544884747e-08,6.00000000000000e-01,0.00000000000000e+00,5.99997022274464e-01
3.51000000000000e-08,5.99999999999970e-01,0.00000000000000e+00,5.99979980283528e-01
3.51100000000000e-08,5.39999999999982e-01,0.00000000000000e+00,5.99927839433871e-01
3.51300000000000e-08,4.19999999999965e-01,0.00000000000000e+00,5.99875956773123e-01
3.51700000000000e-08,1.79999999999970e-01,0.00000000000000e+00,6.00455378249914e-01
3.52000000000000e-08,0.00000000000000e+00,0.00000000000000e+00,6.02235678709732e-01
3.52080000000000e-08,0.00000000000000e+00,0.00000000000000e+00,6.02649978834713e-01
3.52240000000000e-08,0.00000000000000e+00,0.00000000000000e+00,6.02910569828539e-01
3.52560000000000e-08,0.00000000000000e+00,0.00000000000000e+00,5.99162040268779e-01
3.53200000000000e-08,0.00000000000000e+00,0.00000000000000e+00,5.82888148448921e-01
3.54480000000000e-08,0.00000000000000e+00,0.00000000000000e+00,5.87079638228506e-01
3.56772084777701e-08,0.00000000000000e+00,0.00000000000000e+00,6.04299136678675e-01
3.59827646938992e-08,0.00000000000000e+00,0.00000000000000e+00,5.95709716542238e-01
3.65524919483019e-08,0.00000000000000e+00,0.00000000000000e+00,6.02990801930386e-01
3.73278153900887e-08,0.00000000000000e+00,0.00000000000000e+00,5.96942267647113e-01
3.88784622736623e-08,0.00000000000000e+00,0.00000000000000e+00,6.02623027293848e-01
3.91000000000000e-08,0.00000000000000e+00,0.00000000000000e+00,5.98087472176024e-01
3.93984800235229e-08,0.00000000000000e+00,0.00000000000000e+00,5.99787324315653e-01
3.99954400705687e-08,0.00000000000000e+00,0.00000000000000e+00,6.00036929403313e-01
4.11893601646603e-08,0.00000000000000e+00,0.00000000000000e+00,5.99832389994894e-01
4.35772003528435e-08,0.00000000000000e+00,0.00000000000000e+00,6.00049069820705e-01
4.50000000000000e-08,0.00000000000000e+00,0.00000000000000e+00,5.99858969680263e-01
4.50100000000000e-08,5.99999999999886e-02,0.00000000000000e+00,5.99946623017135e-01
4.50300000000000e-08,1.80000000000006e-01,0.00000000000000e+00,6.00033837493823e-01
4.50700000000000e-08,4.20000000000000e-01,0.00000000000000e+00,5.99972573429490e-01
4.51000000000000e-08,6.00000000000000e-01,0.00000000000000e+00,5.99808742274941e-01
4.51080000000000e-08,6.00000000000000e-01,0.00000000000000e+00,5.99753813584751e-01
4.51240000000000e-08,6.00000000000000e-01,0.00000000000000e+00,5.99705247497486e-01
4.51560000000000e-08,6.00000000000000e-01,0.00000000000000e+00,5.99724720690388e-01
4.52200000000000e-08,6.00000000000000e-01,0.00000000000000e+00,6.00401025984583e-01
4.53480000000000e-08,6.00000000000000e-01,0.00000000000000e+00,6.12882041843859e-01
4.56040000000000e-08,6.00000000000000e-01,0.00000000000000e+00,1.74847338401591e-01
4.59604408453284e-08,6.00000000000000e-01,0.00000000000000e+00,-6.81556871882347e-02
4.64038996183999e-08,6.00000000000000e-01,0.00000000000000e+00,5.93818646670610e-02
4.71827197715884e-08,6.00000000000000e-01,0.00000000000000e+00,-4.22161702645701e-02
4.80975625984631e-08,6.00000000000000e-01,0.00000000000000e+00,4.09091577682470e-02
4.98579292333229e-08,6.00000000000000e-01,0.00000000000000e+00,-3.38185377866986e-02
5.00000000000000e-08,6.00000000000000e-01,0.00000000000000e+00,1.30716607664309e-02
5.00100000000000e-08,6.00000000000000e-01,5.99999999999886e-02,1.02367221699017e-02
5.00300000000000e-08,6.00000000000000e-01,1.79999999999966e-01,5.60177691429736e-03
5.00700000000000e-08,6.00000000000000e-01,4.20000000000000e-01,1.33663287079105e-03
5.01000000000000e-08,6.00000000000000e-01,6.00000000000000e-01,5.25115307130009e-04
5.01080000000000e-08,6.00000000000000e-01,6.00000000000000e-01,4.15014360331555e-04
5.01240000000000e-08,6.00000000000000e-01,6.00000000000000e-01,2.05854107539497e-04
5.01560000000000e-08,6.00000000000000e-01,6.00000000000000e-01,6.27009762581010e-05
5.02200000000000e-08,6.00000000000000e-01,6.00000000000000e-01,3.62943428929008e-07
5.03480000000000e-08,6.00000000000000e-01,6.00000000000000e-01,9.86238509865373e-06
5.06040000000000e-08,6.00000000000000e-01,6.00000000000000e-01,-7.18847013467423e-06
5.11160000000001e-08,6.00000000000000e-01,6.00000000000000e-01,5.39568934805092e-06
5.21400000000002e-08,6.00000000000000e-01,6.00000000000000e-01,-5.73817661315545e-06
5.41880000000003e-08,6.00000000000000e-01,6.00000000000000e-01,4.69651814696218e-06
5.51000000000000e-08,6.00000000000000e-01,6.00000000000000e-01,-5.30305585145444e-06
5.51100000000000e-08,5.40000000000021e-01,6.00000000000000e-01,-6.54215197402400e-05
5.51300000000000e-08,4.20000000000004e-01,6.00000000000000e-01,-1.38988692325905e-04
5.51700000000000e-08,1.80000000000010e-01,6.00000000000000e-01,-7.62924802326162e-05
5.52000000000000e-08,0.00000000000000e+00,6.00000000000000e-01,1.81581081522393e-04
5.52080000000000e-08,0.00000000000000e+00,6.00000000000000e-01,2.90284989554718e-04
5.52240000000000e-08,0.00000000000000e+00,6.00000000000000e-01,3.62048883276123e-04
5.52560000000000e-08,0.00000000000000e+00,6.00000000000000e-01,-4.24810814346060e-05
5.53200000000000e-08,0.00000000000000e+00,6.00000000000000e-01,-1.33395640489617e-03
5.54480000000000e-08,0.00000000000000e+00,6.00000000000000e-01,-2.93692252350326e-04
5.56584561083654e-08,0.00000000000000e+00,6.00000000000000e-01,1.13302313470176e-04
5.60490308288636e-08,0.00000000000000e+00,6.00000000000000e-01,-1.27715724475404e-04
5.65402782508324e-08,0.00000000000000e+00,6.00000000000000e-01,2.67580335861020e-04
5.74540285503172e-08,0.00000000000000e+00,6.00000000000000e-01,-3.10902246161450e-04
5.87403518234024e-08,0.00000000000000e+00,6.00000000000000e-01,3.28205145696206e-04
6.11911954108851e-08,0.00000000000000e+00,6.00000000000000e-01,-3.37032944627262e-04
6.49911954108851e-08,0.00000000000000e+00,6.00000000000000e-01,3.39204024161412e-04
6.50000000000000e-08,0.00000000000000e+00,6.00000000000000e-01,1.55674667119049e-04
6.50100000000000e-08,5.99999999999886e-02,6.00000000000000e-01,1.90689322414846e-04
6.50300000000000e-08,1.79999999999966e-01,6.00000000000000e-01,2.47154962734392e-04
6.50700000000000e-08,4.19999999999920e-01,6.00000000000000e-01,3.15075612015360e-04
6.51000000000000e-08,5.99999999999966e-01,6.00000000000000e-01,-4.51031035882010e-04
6.51080000000000e-08,6.00000000000000e-01,6.00000000000000e-01,-1.07155415451329e-03
6.51240000000000e-08,6.00000000000000e-01,6.00000000000000e-01,-2.42256488879011e-03
6.51560000000000e-08,6.00000000000000e-01,6.00000000000000e-01,-4.66553599351212e-03
6.52200000000000e-08,6.00000000000000e-01,6.00000000000000e-01,-2.68416669639586e-03
6.53480000000000e-08,6.00000000000000e-01,6.00000000000000e-01,2.29851784051649e-01
6.56040000000000e-08,6.00000000000000e-01,6.00000000000000e-01,6.03327742729369e-01
6.60196951732442e-08,6.00000000000000e-01,6.00000000000000e-01,5.96678983249684e-01
6.66168229448349e-08,6.00000000000000e-01,6.00000000000000e-01,6.03886904981375e-01
6.74905471996414e-08,6.00000000000000e-01,6.00000000000000e-01,5.96422294141463e-01
6.87238493614211e-08,6.00000000000000e-01,6.00000000000000e-01,6.03763030662871e-01
7.01000000000000e-08,6.00000000000000e-01,6.00000000000000e-01,5.96441555804000e-01
7.01100000000000e-08,6.00000000000000e-01,5.40000000000011e-01,5.98308740206150e-01
7.01300000000000e-08,6.00000000000000e-01,4.20000000000034e-01,6.00166254694516e-01
7.01700000000000e-08,6.00000000000000e-01,1.80000000000080e-01,6.00126878817087e-01
7.02000000000000e-08,6.00000000000000e-01,3.44169137633799e-14,6.00087282973602e-01
7.02080000000000e-08,6.00000000000000e-01,0.00000000000000e+00,6.00072515232752e-01
7.02240000000000e-08,6.00000000000000e-01,0.00000000000000e+00,6.00053457121058e-01
7.02560000000000e-08,6.00000000000000e-01,0.00000000000000e+00,6.00007524808802e-01
7.03200000000000e-08,6.00000000000000e-01,0.00000000000000e+00,5.99984916252577e-01
7.04480000000000e-08,6.00000000000000e-01,0.00000000000000e+00,5.99999431680803e-01
7.06460932837407e-08,6.00000000000000e-01,0.00000000000000e+00,5.99980771166992e-01
7.10422798512221e-08,6.00000000000000e-01,0.00000000000000e+00,5.99984918114079e-01
7.15062167014914e-08,6.00000000000000e-01,0.00000000000000e+00,5.99989976380920e-01
7.24340904020300e-08,6.00000000000000e-01,0.00000000000000e+00,5.99982517913736e-01
7.42898378031072e-08,6.00000000000000e-01,0.00000000000000e+00,5.99994132538641e-01
7.51000000000000e-08,6.00000000000000e-01,0.00000000000000e+00,5.99983100760205e-01
7.51100000000000e-08,5.40000000000061e-01,0.00000000000000e+00,5.99931443423223e-01
7.51300000000000e-08,4.20000000000084e-01,0.00000000000000e+00,5.99879192539139e-01
7.51700000000000e-08,1.80000000000129e-01,0.00000000000000e+00,6.00455717784037e-01
7.52000000000000e-08,8.40438829641244e-14,0.00000000000000e+00,6.02236074748399e-01
7.52080000000000e-08,0.00000000000000e+00,0.00000000000000e+00,6.02652429279720e-01
7.52240000000000e-08,0.00000000000000e+00,0.00000000000000e+00,6.02917337493339e-01
7.52560000000000e-08,0.00000000000000e+00,0.00000000000000e+00,5.99181612114497e-01
7.53200000000000e-08,0.00000000000000e+00,0.00000000000000e+00,5.82906633356808e-01
7.54480000000000e-08,0.00000000000000e+00,0.00000000000000e+00,5.87068619478195e-01
7.56772126800053e-08,0.00000000000000e+00,0.00000000000000e+00,6.04302387679232e-01
7.59827695897353e-08,0.00000000000000e+00,0.00000000000000e+00,5.95707308340177e-01
7.65525010333983e-08,0.00000000000000e+00,0.00000000000000e+00,6.02992680655592e-01
7.73278298964036e-08,0.00000000000000e+00,0.00000000000000e+00,5.96940528329035e-01
7.81000000000000e-08,0.00000000000000e+00,0.00000000000000e+00,6.02450180220304e-01
7.82550657726011e-08,0.00000000000000e+00,0.00000000000000e+00,6.00202209487575e-01
7.85651973178032e-08,0.00000000000000e+00,0.00000000000000e+00,5.99661461871389e-01
7.91854604082074e-08,0.00000000000000e+00,0.00000000000000e+00,6.00116845563318e-01
8.04259865890159e-08,0.00000000000000e+00,0.00000000000000e+00,5.99737601585485e-01
8.29070389506328e-08,0.00000000000000e+00,0.00000000000000e+00,6.00130432333298e-01
8.50000000000000e-08,0.00000000000000e+00,0.00000000000000e+00,5.99775929280493e-01
8.50100000000000e-08,5.99999999999886e-02,0.00000000000000e+00,5.99884938916225e-01
8.50300000000000e-08,1.79999999999966e-01,0.00000000000000e+00,6.00003346627845e-01
8.50700000000000e-08,4.19999999999920e-01,0.00000000000000e+00,5.99970115345927e-01
8.51000000000000e-08,5.99999999999966e-01,0.00000000000000e+00,5.99808347535263e-01
8.51080000000000e-08,6.00000000000000e-01,0.00000000000000e+00,5.99762292046623e-01
8.51240000000000e-08,6.00000000000000e-01,0.00000000000000e+00,5.99697613519315e-01
8.51560000000000e-08,6.00000000000000e-01,0.00000000000000e+00,5.99728522976843e-01
8.52200000000000e-08,6.00000000000000e-01,0.00000000000000e+00,6.00395910148950e-01
8.53480000000000e-08,6.00000000000000e-01,0.00000000000000e+00,6.12888166050131e-01
8.56040000000000e-08,6.00000000000000e-01,0.00000000000000e+00,1.74855447298922e-01
8.59603614549969e-08,6.00000000000000e-01,0.00000000000000e+00,-6.81449628701137e-02
8.64038511275236e-08,6.00000000000000e-01,0.00000000000000e+00,5.93698703667022e-02
8.71821767982583e-08,6.00000000000000e-01,0.00000000000000e+00,-4.22019345801159e-02
8.80970791031879e-08,6.00000000000000e-01,0.00000000000000e+00,4.08957604084138e-02
8.98569432972857e-08,6.00000000000000e-01,0.00000000000000e+00,-3.37863533891397e-02
9.00000000000000e-08,6.00000000000000e-01,0.00000000000000e+00,1.31743265090875e-02
9.00100000000000e-08,6.00000000000000e-01,5.99999999999886e-02,1.03167123368062e-02
9.00300000000000e-08,6.00000000000000e-01,1.79999999999966e-01,5.64590964363368e-03
9.00700000000000e-08,6.00000000000000e-01,4.19999999999920e-01,1.34780773120354e-03
9.01000000000000e-08,6.00000000000000e-01,5.99999999999966e-01,5.29339212109160e-04
9.01080000000000e-08,6.00000000000000e-01,6.00000000000000e-01,4.18407771248075e-04
9.01240000000000e-08,6.00000000000000e-01,6.00000000000000e-01,2.07501544392946e-04
9.01560000000000e-08,6.00000000000000e-01,6.00000000000000e-01,6.31628241074406e-05
9.02200000000000e-08,6.00000000000000e-01,6.00000000000000e-01,3.62801304353011e-07
9.03480000000000e-08,6.00000000000000e-01,6.00000000000000e-01,9.96000847104661e-06
9.06040000000000e-08,6.00000000000000e-01,6.00000000000000e-01,-7.25372861410355e-06
9.11159999999999e-08,6.00000000000000e-01,6.00000000000000e-01,5.44503591592884e-06
9.21399999999999e-08,6.00000000000000e-01,6.00000000000000e-01,-5.78810718329182e-06
9.41879999999998e-08,6.00000000000000e-01,6.00000000000000e-01,4.73829490643543e-06
9.51000000000000e-08,6.00000000000000e-01,6.00000000000000e-01,-5.34891626848433e-06
9.51100000000000e-08,5.40000000000061e-01,6.00000000000000e-01,-6.55044385092993e-05
9.51300000000000e-08,4.20000000000084e-01,6.00000000000000e-01,-1.39132931376629e-04
9.51700000000000e-08,1.80000000000129e-01,6.00000000000000e-01,-7.64501202619589e-05
9.52000000000000e-08,8.40438829641244e-14,6.00000000000000e-01,1.81519805518129e-04
9.52080000000000e-08,0.00000000000000e+00,6.00000000000000e-01,2.90225059631062e-04
9.52240000000000e-08,0.00000000000000e+00,6.00000000000000e-01,3.61964136317769e-04
9.52560000000000e-08,0.00000000000000e+00,6.00000000000000e-01,-4.27978083428066e-05
9.53200000000000e-08,0.00000000000000e+00,6.00000000000000e-01,-1.33526827404809e-03
9.54480000000000e-08,0.00000000000000e+00,6.00000000000000e-01,-2.94109455074160e-04
9.56583625898849e-08,0.00000000000000e+00,6.00000000000000e-01,1.13526425438354e-04
9.60489922902810e-08,0.00000000000000e+00,6.00000000000000e-01,-1.27930894336650e-04
9.65400570773846e-08,0.00000000000000e+00,6.00000000000000e-01,2.67845171616276e-04
9.74537494310438e-08,0.00000000000000e+00,6.00000000000000e-01,-3.11157510704449e-04
9.87398072229354e-08,0.00000000000000e+00,6.00000000000000e-01,3.28455322514367e-04
1.01189589583718e-07,0.00000000000000e+00,6.00000000000000e-01,-3.37280825137550e-04
1.04989589583718e-07,0.00000000000000e+00,6.00000000000000e-01,3.39444921803856e-04
1.05000000000000e-07,0.00000000000000e+00,6.00000000000000e-01,1.32202535804614e-04
1.05010000000000e-07,5.99999999999886e-02,6.00000000000000e-01,1.75857889419775e-04
1.05030000000000e-07,1.79999999999966e-01,6.00000000000000e-01,2.42113561210143e-04
1.05070000000000e-07,4.19999999999920e-01,6.00000000000000e-01,3.14589519662609e-04
1.05100000000000e-07,5.99999999999966e-01,6.00000000000000e-01,-4.50705934758690e-04
1.05108000000000e-07,6.00000000000000e-01,6.00000000000000e-01,-1.07126335646684e-03
1.05124000000000e-07,6.00000000000000e-01,6.00000000000000e-01,-2.42234453491971e-03
1.05156000000000e-07,6.00000000000000e-01,6.00000000000000e-01,-4.66549412827316e-03
1.05220000000000e-07,6.00000000000000e-01,6.00000000000000e-01,-2.67634983447796e-03
1.05348000000000e-07,6.00000000000000e-01,6.00000000000000e-01,2.29919328574680e-01
1.05604000000000e-07,6.00000000000000e-01,6.00000000000000e-01,6.03342721846693e-01
1.06019629231082e-07,6.00000000000000e-01,6.00000000000000e-01,5.96670825190737e-01
1.06616773290509e-07,6.00000000000000e-01,6.00000000000000e-01,6.03895251398064e-01
