Time,v(clk),v(data),v(out)
1.00000000000000e-08,6.00000000000000e-01,0.00000000000000e+00,1.07475978401469e-05
1.00100000000000e-08,6.00000000000000e-01,5.99999999999985e-02,1.33680903176767e-05
1.00300000000000e-08,6.00000000000000e-01,1.79999999999996e-01,1.35589448252149e-05
1.00700000000000e-08,6.00000000000000e-01,4.19999999999990e-01,6.57699948754947e-06
1.01000000000000e-08,6.00000000000000e-01,5.99999999999995e-01,2.45469243333879e-06
1.01080000000000e-08,6.00000000000000e-01,6.00000000000000e-01,1.86409918073033e-06
1.01240000000000e-08,6.00000000000000e-01,6.00000000000000e-01,2.35990869026925e-06
1.01560000000000e-08,6.00000000000000e-01,6.00000000000000e-01,5.07844212142144e-06
1.02200000000000e-08,6.00000000000000e-01,6.00000000000000e-01,6.78139547063278e-06
1.03480000000000e-08,6.00000000000000e-01,6.00000000000000e-01,1.45386587867974e-06
1.06040000000000e-08,6.00000000000000e-01,6.00000000000000e-01,1.35104652577989e-06
1.11160000000000e-08,6.00000000000000e-01,6.00000000000000e-01,2.07354341741350e-06
1.21400000000000e-08,6.00000000000000e-01,6.00000000000000e-01,1.30629372723391e-06
1.41880000000000e-08,6.00000000000000e-01,6.00000000000000e-01,1.78733871622917e-06
1.51000000000000e-08,6.00000000000000e-01,6.00000000000000e-01,1.10499950873189e-06
1.51100000000000e-08,5.39999999999991e-01,6.00000000000000e-01,-6.37898672603832e-05
1.51300000000000e-08,4.19999999999994e-01,6.00000000000000e-01,-1.57686600715218e-04
1.51700000000000e-08,1.80000000000000e-01,6.00000000000000e-01,-1.52366281056866e-04
1.52000000000000e-08,0.00000000000000e+00,6.00000000000000e-01,1.07782674307021e-04
1.52080000000000e-08,0.00000000000000e+00,6.00000000000000e-01,2.51444178459993e-04
1.52240000000000e-08,0.00000000000000e+00,6.00000000000000e-01,4.20926171426216e-04
1.52560000000000e-08,0.00000000000000e+00,6.00000000000000e-01,3.96432429238966e-04
1.53200000000000e-08,0.00000000000000e+00,6.00000000000000e-01,5.09725205526043e-05
1.54480000000000e-08,0.00000000000000e+00,6.00000000000000e-01,-2.61000590671853e-04
1.57040000000000e-08,0.00000000000000e+00,6.00000000000000e-01,8.21793264023027e-06
1.62031591220706e-08,0.00000000000000e+00,6.00000000000000e-01,-5.06172220728265e-05
1.68008265154853e-08,0.00000000000000e+00,6.00000000000000e-01,1.40440610362546e-04
1.79961613023146e-08,0.00000000000000e+00,6.00000000000000e-01,-1.44159472450052e-04
1.93477649098831e-08,0.00000000000000e+00,6.00000000000000e-01,1.42879862851897e-04
2.20509721250201e-08,0.00000000000000e+00,6.00000000000000e-01,-1.39987015906241e-04
2.50000000000000e-08,0.00000000000000e+00,6.00000000000000e-01,1.37742279237205e-04
2.50100000000000e-08,5.99999999999886e-02,6.00000000000000e-01,2.38983755263468e-04
2.50300000000000e-08,1.80000000000006e-01,6.00000000000000e-01,3.94032738820778e-04
2.50700000000000e-08,4.20000000000000e-01,6.00000000000000e-01,5.00962069677501e-04
2.51000000000000e-08,6.00000000000000e-01,6.00000000000000e-01,-7.88034574279034e-06
2.51080000000000e-08,6.00000000000000e-01,6.00000000000000e-01,-4.37795887781818e-04
2.51240000000000e-08,6.00000000000000e-01,6.00000000000000e-01,-1.41449667933785e-03
2.51560000000000e-08,6.00000000000000e-01,6.00000000000000e-01,-3.33658464013502e-03
2.52200000000000e-08,6.00000000000000e-01,6.00000000000000e-01,-5.62940500061045e-03
2.53480000000000e-08,6.00000000000000e-01,6.00000000000000e-01,4.16351656050999e-02
2.56040000000000e-08,6.00000000000000e-01,6.00000000000000e-01,4.80265165076973e-01
2.61160000000000e-08,6.00000000000000e-01,6.00000000000000e-01,6.25168638898143e-01
2.66772786013964e-08,6.00000000000000e-01,6.00000000000000e-01,5.75783640921989e-01
2.77998358041891e-08,6.00000000000000e-01,6.00000000000000e-01,6.21277360987271e-01
2.94610878288563e-08,6.00000000000000e-01,6.00000000000000e-01,5.78033757468721e-01
3.01000000000000e-08,6.00000000000000e-01,6.00000000000000e-01,6.18557000465942e-01
3.01100000000000e-08,6.00000000000000e-01,5.40000000000031e-01,6.11157119529385e-01
3.01300000000000e-08,6.00000000000000e-01,4.20000000000014e-01,6.02252396549319e-01
3.01700000000000e-08,6.00000000000000e-01,1.80000000000020e-01,5.99675336759496e-01
3.02000000000000e-08,6.00000000000000e-01,1.44328993201270e-14,5.99958127350761e-01
3.02080000000000e-08,6.00000000000000e-01,0.00000000000000e+00,5.99963475690838e-01
3.02240000000000e-08,6.00000000000000e-01,0.00000000000000e+00,5.99967178256649e-01
3.02560000000000e-08,6.00000000000000e-01,0.00000000000000e+00,5.99966531977726e-01
3.03200000000000e-08,6.00000000000000e-01,0.00000000000000e+00,5.99960953930753e-01
3.04480000000000e-08,6.00000000000000e-01,0.00000000000000e+00,5.99981100335653e-01
3.07040000000000e-08,6.00000000000000e-01,0.00000000000000e+00,5.99996126991246e-01
3.11232078583852e-08,6.00000000000000e-01,0.00000000000000e+00,5.99967155548533e-01
3.17523405017280e-08,6.00000000000000e-01,0.00000000000000e+00,5.99998382653922e-01
3.30106057884136e-08,6.00000000000000e-01,0.00000000000000e+00,5.99971067788996e-01
3.51000000000000e-08,5.99999999999970e-01,0.00000000000000e+00,6.00000240872506e-01
3.51100000000000e-08,5.39999999999982e-01,0.00000000000000e+00,5.99925747306937e-01
3.51300000000000e-08,4.19999999999965e-01,0.00000000000000e+00,5.99844471748785e-01
3.51700000000000e-08,1.79999999999970e-01,0.00000000000000e+00,6.00352739250868e-01
3.52000000000000e-08,0.00000000000000e+00,0.00000000000000e+00,6.02002479145719e-01
3.52080000000000e-08,0.00000000000000e+00,0.00000000000000e+00,6.02467085348655e-01
3.52240000000000e-08,0.00000000000000e+00,0.00000000000000e+00,6.03025817483963e-01
3.52560000000000e-08,0.00000000000000e+00,0.00000000000000e+00,6.02272010166998e-01
3.53200000000000e-08,0.00000000000000e+00,0.00000000000000e+00,5.91369785470992e-01
3.54480000000000e-08,0.00000000000000e+00,0.00000000000000e+00,5.79331785646946e-01
3.57040000000000e-08,0.00000000000000e+00,0.00000000000000e+00,5.98463239880528e-01
3.60757714350935e-08,0.00000000000000e+00,0.00000000000000e+00,6.00126277260979e-01
3.67422754289278e-08,0.00000000000000e+00,0.00000000000000e+00,5.99339146256644e-01
3.74999480014452e-08,0.00000000000000e+00,0.00000000000000e+00,6.00133928407995e-01
3.76893661445745e-08,0.00000000000000e+00,0.00000000000000e+00,5.99888060337090e-01
3.80682024308332e-08,0.00000000000000e+00,0.00000000000000e+00,5.99811518460964e-01
3.88258750033506e-08,0.00000000000000e+00,0.00000000000000e+00,5.99907212394826e-01
3.91000000000000e-08,0.00000000000000e+00,0.00000000000000e+00,5.99868464956328e-01
3.92515345145035e-08,0.00000000000000e+00,0.00000000000000e+00,5.99884437257500e-01
3.95546035435104e-08,0.00000000000000e+00,0.00000000000000e+00,5.99896746262189e-01
4.01607416015243e-08,0.00000000000000e+00,0.00000000000000e+00,5.99903692929221e-01
4.13730177175521e-08,0.00000000000000e+00,0.00000000000000e+00,5.99922474024141e-01
4.37975699496077e-08,0.00000000000000e+00,0.00000000000000e+00,5.99937457637971e-01
4.50000000000000e-08,0.00000000000000e+00,0.00000000000000e+00,5.99945907853362e-01
4.50100000000000e-08,5.99999999999886e-02,0.00000000000000e+00,6.00010106442892e-01
4.50300000000000e-08,1.80000000000006e-01,0.00000000000000e+00,6.00079547739855e-01
4.50700000000000e-08,4.20000000000000e-01,0.00000000000000e+00,6.00023576989153e-01
4.51000000000000e-08,6.00000000000000e-01,0.00000000000000e+00,5.99868277219090e-01
4.51080000000000e-08,6.00000000000000e-01,0.00000000000000e+00,5.99804784485269e-01
4.51240000000000e-08,6.00000000000000e-01,0.00000000000000e+00,5.99723543271762e-01
4.51560000000000e-08,6.00000000000000e-01,0.00000000000000e+00,5.99682813495407e-01
4.52200000000000e-08,6.00000000000000e-01,0.00000000000000e+00,5.99781690335115e-01
4.53480000000000e-08,6.00000000000000e-01,0.00000000000000e+00,6.02191746437214e-01
4.56040000000000e-08,6.00000000000000e-01,0.00000000000000e+00,4.37195792674253e-01
4.61160000000000e-08,6.00000000000000e-01,0.00000000000000e+00,-5.60382729766018e-03
4.66800971420519e-08,6.00000000000000e-01,0.00000000000000e+00,3.74244473262729e-03
4.78082914261557e-08,6.00000000000000e-01,0.00000000000000e+00,-1.55063887089367e-03
4.90617911627616e-08,6.00000000000000e-01,0.00000000000000e+00,1.51091447097547e-03
5.00000000000000e-08,6.00000000000000e-01,0.00000000000000e+00,1.13478661905735e-04
5.00100000000000e-08,6.00000000000000e-01,5.99999999999886e-02,-1.30521833577738e-03
5.00300000000000e-08,6.00000000000000e-01,1.79999999999966e-01,-2.19248738531861e-03
5.00700000000000e-08,6.00000000000000e-01,4.20000000000000e-01,-1.01630825290189e-03
5.01000000000000e-08,6.00000000000000e-01,6.00000000000000e-01,-6.26479702104388e-04
5.01080000000000e-08,6.00000000000000e-01,6.00000000000000e-01,-5.16824099284732e-04
5.01240000000000e-08,6.00000000000000e-01,6.00000000000000e-01,-3.53552182560952e-04
5.01560000000000e-08,6.00000000000000e-01,6.00000000000000e-01,-1.75348944908955e-04
5.02200000000000e-08,6.00000000000000e-01,6.00000000000000e-01,-3.00949393997607e-05
5.03480000000000e-08,6.00000000000000e-01,6.00000000000000e-01,5.70931438738376e-06
5.06040000000000e-08,6.00000000000000e-01,6.00000000000000e-01,-2.81464765111358e-06
5.11160000000001e-08,6.00000000000000e-01,6.00000000000000e-01,1.01100751762409e-06
5.21400000000002e-08,6.00000000000000e-01,6.00000000000000e-01,-6.42540462766038e-07
5.41880000000003e-08,6.00000000000000e-01,6.00000000000000e-01,1.06381185232792e-06
5.51000000000000e-08,6.00000000000000e-01,6.00000000000000e-01,-6.86781021982073e-07
5.51100000000000e-08,5.40000000000021e-01,6.00000000000000e-01,-6.74337275207090e-05
5.51300000000000e-08,4.20000000000004e-01,6.00000000000000e-01,-1.62561031241161e-04
5.51700000000000e-08,1.80000000000010e-01,6.00000000000000e-01,-1.52165291056550e-04
5.52000000000000e-08,0.00000000000000e+00,6.00000000000000e-01,1.04496859065002e-04
5.52080000000000e-08,0.00000000000000e+00,6.00000000000000e-01,2.46973386378961e-04
5.52240000000000e-08,0.00000000000000e+00,6.00000000000000e-01,4.09512144197328e-04
5.52560000000000e-08,0.00000000000000e+00,6.00000000000000e-01,3.44636788387573e-04
5.53200000000000e-08,0.00000000000000e+00,6.00000000000000e-01,-4.95721012265624e-04
5.54480000000000e-08,0.00000000000000e+00,6.00000000000000e-01,-9.12892315953723e-04
5.57040000000000e-08,0.00000000000000e+00,6.00000000000000e-01,2.28182607446684e-04
5.62013269451548e-08,0.00000000000000e+00,6.00000000000000e-01,-1.73986858505762e-04
5.67998796026151e-08,0.00000000000000e+00,6.00000000000000e-01,2.09911888129433e-04
5.79969849175359e-08,0.00000000000000e+00,6.00000000000000e-01,-1.95794591921641e-04
5.93471396430295e-08,0.00000000000000e+00,6.00000000000000e-01,1.80973806380818e-04
6.20474490940168e-08,0.00000000000000e+00,6.00000000000000e-01,-1.72608187748042e-04
6.50000000000000e-08,0.00000000000000e+00,6.00000000000000e-01,1.65355138613863e-04
6.50100000000000e-08,5.99999999999886e-02,6.00000000000000e-01,2.66074305626932e-04
6.50300000000000e-08,1.79999999999966e-01,6.00000000000000e-01,4.23207173077443e-04
6.50700000000000e-08,4.19999999999920e-01,6.00000000000000e-01,5.25183810126145e-04
6.51000000000000e-08,5.99999999999966e-01,6.00000000000000e-01,5.99932853186796e-06
6.51080000000000e-08,6.00000000000000e-01,6.00000000000000e-01,-4.25251166407611e-04
6.51240000000000e-08,6.00000000000000e-01,6.00000000000000e-01,-1.40479697940486e-03
6.51560000000000e-08,6.00000000000000e-01,6.00000000000000e-01,-3.33116282955438e-03
6.52200000000000e-08,6.00000000000000e-01,6.00000000000000e-01,-5.62770891747948e-03
6.53480000000000e-08,6.00000000000000e-01,6.00000000000000e-01,4.16392629442810e-02
6.56040000000000e-08,6.00000000000000e-01,6.00000000000000e-01,4.80270194782290e-01
6.61159999999999e-08,6.00000000000000e-01,6.00000000000000e-01,6.25168201791634e-01
6.66772787581240e-08,6.00000000000000e-01,6.00000000000000e-01,5.75784000616265e-01
6.77998362743720e-08,6.00000000000000e-01,6.00000000000000e-01,6.21276983702546e-01
6.94610795188848e-08,6.00000000000000e-01,6.00000000000000e-01,5.78034116202091e-01
7.01000000000000e-08,6.00000000000000e-01,6.00000000000000e-01,6.18556693179678e-01
7.01100000000000e-08,6.00000000000000e-01,5.40000000000011e-01,6.11156943519846e-01
7.01300000000000e-08,6.00000000000000e-01,4.20000000000034e-01,6.02252368178310e-01
7.01700000000000e-08,6.00000000000000e-01,1.80000000000080e-01,5.99675338050663e-01
7.02000000000000e-08,6.00000000000000e-01,3.44169137633799e-14,5.99958133413480e-01
7.02080000000000e-08,6.00000000000000e-01,0.00000000000000e+00,5.99963481208645e-01
7.02240000000000e-08,6.00000000000000e-01,0.00000000000000e+00,5.99967183157923e-01
7.02560000000000e-08,6.00000000000000e-01,0.00000000000000e+00,5.99966535952519e-01
7.03200000000000e-08,6.00000000000000e-01,0.00000000000000e+00,5.99960956448721e-01
7.04480000000000e-08,6.00000000000000e-01,0.00000000000000e+00,5.99981101652507e-01
7.07040000000000e-08,6.00000000000000e-01,0.00000000000000e+00,5.99996126200138e-01
7.11232103298187e-08,6.00000000000000e-01,0.00000000000000e+00,5.99967157066513e-01
7.17523432648872e-08,6.00000000000000e-01,0.00000000000000e+00,5.99998382098592e-01
7.30106091350243e-08,6.00000000000000e-01,0.00000000000000e+00,5.99971068970728e-01
7.51000000000000e-08,6.00000000000000e-01,0.00000000000000e+00,6.00000240352489e-01
7.51100000000000e-08,5.40000000000061e-01,0.00000000000000e+00,5.99925747992718e-01
7.51300000000000e-08,4.20000000000084e-01,0.00000000000000e+00,5.99844471677724e-01
7.51700000000000e-08,1.80000000000129e-01,0.00000000000000e+00,6.00352737798121e-01
7.52000000000000e-08,8.40438829641244e-14,0.00000000000000e+00,6.02002480154373e-01
7.52080000000000e-08,0.00000000000000e+00,0.00000000000000e+00,6.02467086845176e-01
7.52240000000000e-08,0.00000000000000e+00,0.00000000000000e+00,6.03025821262313e-01
7.52560000000000e-08,0.00000000000000e+00,0.00000000000000e+00,6.02272031992867e-01
7.53200000000000e-08,0.00000000000000e+00,0.00000000000000e+00,5.91369851235677e-01
7.54480000000000e-08,0.00000000000000e+00,0.00000000000000e+00,5.79331805954479e-01
7.57040000000000e-08,0.00000000000000e+00,0.00000000000000e+00,5.98463214864571e-01
7.60757714246579e-08,0.00000000000000e+00,0.00000000000000e+00,6.00126297279454e-01
7.67422754106456e-08,0.00000000000000e+00,0.00000000000000e+00,5.99339130277454e-01
7.74999479714441e-08,0.00000000000000e+00,0.00000000000000e+00,6.00133942407502e-01
7.81000000000000e-08,0.00000000000000e+00,0.00000000000000e+00,5.99615580827591e-01
7.82515345121597e-08,0.00000000000000e+00,0.00000000000000e+00,5.99803320702628e-01
7.85546035364791e-08,0.00000000000000e+00,0.00000000000000e+00,5.99899404622934e-01
7.91607415851180e-08,0.00000000000000e+00,0.00000000000000e+00,5.99862169944295e-01
8.03730176823956e-08,0.00000000000000e+00,0.00000000000000e+00,5.99929760453183e-01
8.27975698769509e-08,0.00000000000000e+00,0.00000000000000e+00,5.99913657306484e-01
8.50000000000000e-08,0.00000000000000e+00,0.00000000000000e+00,5.99962831894406e-01
8.50100000000000e-08,5.99999999999886e-02,0.00000000000000e+00,6.00029481482745e-01
8.50300000000000e-08,1.79999999999966e-01,0.00000000000000e+00,6.00096388068659e-01
8.50700000000000e-08,4.19999999999920e-01,0.00000000000000e+00,6.00029668289860e-01
8.51000000000000e-08,5.99999999999966e-01,0.00000000000000e+00,5.99870318563498e-01
8.51080000000000e-08,6.00000000000000e-01,0.00000000000000e+00,5.99807881014896e-01
8.51240000000000e-08,6.00000000000000e-01,0.00000000000000e+00,5.99727495122952e-01
8.51560000000000e-08,6.00000000000000e-01,0.00000000000000e+00,5.99679910000890e-01
8.52200000000000e-08,6.00000000000000e-01,0.00000000000000e+00,5.99773533885988e-01
8.53480000000000e-08,6.00000000000000e-01,0.00000000000000e+00,6.02194803287761e-01
8.56040000000000e-08,6.00000000000000e-01,0.00000000000000e+00,4.37271230862747e-01
8.61159999999999e-08,6.00000000000000e-01,0.00000000000000e+00,-5.57173536885731e-03
8.66800132966304e-08,6.00000000000000e-01,0.00000000000000e+00,3.71714314989345e-03
8.78080398898915e-08,6.00000000000000e-01,0.00000000000000e+00,-1.53051997638421e-03
8.90615827858041e-08,6.00000000000000e-01,0.00000000000000e+00,1.49272873617754e-03
9.00000000000000e-08,6.00000000000000e-01,0.00000000000000e+00,1.27561650376374e-04
9.00100000000000e-08,6.00000000000000e-01,5.99999999999886e-02,-1.29393748071122e-03
9.00300000000000e-08,6.00000000000000e-01,1.79999999999966e-01,-2.18544747114569e-03
9.00700000000000e-08,6.00000000000000e-01,4.19999999999920e-01,-1.01342037726284e-03
9.01000000000000e-08,6.00000000000000e-01,5.99999999999966e-01,-6.25014076626518e-04
9.01080000000000e-08,6.00000000000000e-01,6.00000000000000e-01,-5.15558090025438e-04
9.01240000000000e-08,6.00000000000000e-01,6.00000000000000e-01,-3.52645044408545e-04
9.01560000000000e-08,6.00000000000000e-01,6.00000000000000e-01,-1.74924999270416e-04
9.02200000000000e-08,6.00000000000000e-01,6.00000000000000e-01,-3.00080160189481e-05
9.03480000000000e-08,6.00000000000000e-01,6.00000000000000e-01,5.71428306856900e-06
9.06040000000000e-08,6.00000000000000e-01,6.00000000000000e-01,-2.81678860796289e-06
9.11159999999999e-08,6.00000000000000e-01,6.00000000000000e-01,9.97829865975394e-07
9.21399999999999e-08,6.00000000000000e-01,6.00000000000000e-01,-6.31706585420451e-07
9.41879999999998e-08,6.00000000000000e-01,6.00000000000000e-01,1.06195306036989e-06
9.51000000000000e-08,6.00000000000000e-01,6.00000000000000e-01,-6.85369017146970e-07
9.51100000000000e-08,5.40000000000061e-01,6.00000000000000e-01,-6.74582261822390e-05
9.51300000000000e-08,4.20000000000084e-01,6.00000000000000e-01,-1.62622420471402e-04
9.51700000000000e-08,1.80000000000129e-01,6.00000000000000e-01,-1.52245872885287e-04
9.52000000000000e-08,8.40438829641244e-14,6.00000000000000e-01,1.04456333026214e-04
9.52080000000000e-08,0.00000000000000e+00,6.00000000000000e-01,2.46938219045735e-04
9.52240000000000e-08,0.00000000000000e+00,6.00000000000000e-01,4.09486501513262e-04
9.52560000000000e-08,0.00000000000000e+00,6.00000000000000e-01,3.44621116125710e-04
9.53200000000000e-08,0.00000000000000e+00,6.00000000000000e-01,-4.95748149312157e-04
9.54480000000000e-08,0.00000000000000e+00,6.00000000000000e-01,-9.12955196109122e-04
9.57040000000000e-08,0.00000000000000e+00,6.00000000000000e-01,2.28193104841366e-04
9.62013269591436e-08,0.00000000000000e+00,6.00000000000000e-01,-1.73986952979658e-04
9.67998796444979e-08,0.00000000000000e+00,6.00000000000000e-01,2.09907163316033e-04
9.79969850152064e-08,0.00000000000000e+00,6.00000000000000e-01,-1.95788373474255e-04
9.93471397958191e-08,0.00000000000000e+00,6.00000000000000e-01,1.80966635829062e-04
1.02047449357044e-07,0.00000000000000e+00,6.00000000000000e-01,-1.72600634901632e-04
1.05000000000000e-07,0.00000000000000e+00,6.00000000000000e-01,1.65347306211854e-04
1.05010000000000e-07,5.99999999999886e-02,6.00000000000000e-01,2.66070767470282e-04
1.05030000000000e-07,1.79999999999966e-01,6.00000000000000e-01,4.23208635126009e-04
1.05070000000000e-07,4.19999999999920e-01,6.00000000000000e-01,5.25186324698612e-04
1.05100000000000e-07,5.99999999999966e-01,6.00000000000000e-01,6.00121020949418e-06
1.05108000000000e-07,6.00000000000000e-01,6.00000000000000e-01,-4.25249527584937e-04
1.05124000000000e-07,6.00000000000000e-01,6.00000000000000e-01,-1.40479574692245e-03
1.05156000000000e-07,6.00000000000000e-01,6.00000000000000e-01,-3.33116210283436e-03
1.05220000000000e-07,6.00000000000000e-01,6.00000000000000e-01,-5.62770869228042e-03
1.05348000000000e-07,6.00000000000000e-01,6.00000000000000e-01,4.16392630293860e-02
1.05604000000000e-07,6.00000000000000e-01,6.00000000000000e-01,4.80270194858481e-01
1.06116000000000e-07,6.00000000000000e-01,6.00000000000000e-01,6.25168201765454e-01
1.06677278757940e-07,6.00000000000000e-01,6.00000000000000e-01,5.75784000641165e-01
1.07799836273819e-07,6.00000000000000e-01,6.00000000000000e-01,6.21276983701257e-01
1.09461079518597e-07,6.00000000000000e-01,6.00000000000000e-01,5.78034116203580e-01
1.10100000000000e-07,6.00000000000000e-01,6.00000000000000e-01,6.18556693179573e-01
