Time,v(clk),v(data),v(out)
1.00000000000000e-08,5.00000000000000e-01,0.00000000000000e+00,4.13617559446742e-06
1.00100000000000e-08,5.00000000000000e-01,4.99999999999988e-02,9.47095864564651e-06
1.00300000000000e-08,5.00000000000000e-01,1.49999999999996e-01,1.31147900453779e-05
1.00700000000000e-08,5.00000000000000e-01,3.49999999999992e-01,8.84461904405998e-06
1.01000000000000e-08,5.00000000000000e-01,4.99999999999996e-01,4.72718545884571e-06
1.01080000000000e-08,5.00000000000000e-01,5.00000000000000e-01,3.76696856328046e-06
1.01240000000000e-08,5.00000000000000e-01,5.00000000000000e-01,2.79515557286003e-06
1.01560000000000e-08,5.00000000000000e-01,5.00000000000000e-01,4.30915476085786e-06
1.02200000000000e-08,5.00000000000000e-01,5.00000000000000e-01,5.43946614182944e-06
1.03480000000000e-08,5.00000000000000e-01,5.00000000000000e-01,1.13706292815402e-06
1.06040000000000e-08,5.00000000000000e-01,5.00000000000000e-01,1.35328558472161e-06
1.11160000000000e-08,5.00000000000000e-01,5.00000000000000e-01,1.71477320939223e-06
1.21400000000000e-08,5.00000000000000e-01,5.00000000000000e-01,1.26147033752263e-06
1.41880000000000e-08,5.00000000000000e-01,5.00000000000000e-01,1.43667605148373e-06
1.51000000000000e-08,5.00000000000000e-01,5.00000000000000e-01,1.12488311067738e-06
1.51100000000000e-08,4.49999999999993e-01,5.00000000000000e-01,-4.64563615309166e-05
1.51300000000000e-08,3.49999999999995e-01,5.00000000000000e-01,-1.16624952981571e-04
1.51700000000000e-08,1.50000000000000e-01,5.00000000000000e-01,-1.39692233990789e-04
1.52000000000000e-08,0.00000000000000e+00,5.00000000000000e-01,2.44329662727610e-05
1.52080000000000e-08,0.00000000000000e+00,5.00000000000000e-01,1.36715066664198e-04
1.52240000000000e-08,0.00000000000000e+00,5.00000000000000e-01,2.76284648115660e-04
1.52560000000000e-08,0.00000000000000e+00,5.00000000000000e-01,2.82835426952871e-04
1.53200000000000e-08,0.00000000000000e+00,5.00000000000000e-01,7.25579689456052e-05
1.54480000000000e-08,0.00000000000000e+00,5.00000000000000e-01,-1.50913294902567e-04
1.57040000000000e-08,0.00000000000000e+00,5.00000000000000e-01,2.94251116902955e-06
1.62160000000000e-08,0.00000000000000e+00,5.00000000000000e-01,-9.04947483978957e-05
1.69582039010753e-08,0.00000000000000e+00,5.00000000000000e-01,1.09927029717421e-04
1.84075413028399e-08,0.00000000000000e+00,5.00000000000000e-01,-7.07298659454567e-05
2.01233270706201e-08,0.00000000000000e+00,5.00000000000000e-01,4.64564190898469e-05
2.35548986061804e-08,0.00000000000000e+00,5.00000000000000e-01,-3.45308960438464e-05
2.50000000000000e-08,0.00000000000000e+00,5.00000000000000e-01,1.37191098683021e-05
2.50100000000000e-08,4.99999999999905e-02,5.00000000000000e-01,1.13108125150196e-04
2.50300000000000e-08,1.50000000000005e-01,5.00000000000000e-01,2.64101836762010e-04
2.50700000000000e-08,3.50000000000000e-01,5.00000000000000e-01,3.48142910840302e-04
2.51000000000000e-08,5.00000000000000e-01,5.00000000000000e-01,1.86653298796323e-04
2.51080000000000e-08,5.00000000000000e-01,5.00000000000000e-01,-1.04210870062807e-05
2.51240000000000e-08,5.00000000000000e-01,5.00000000000000e-01,-6.06392293505204e-04
2.51560000000000e-08,5.00000000000000e-01,5.00000000000000e-01,-2.20092019263950e-03
2.52200000000000e-08,5.00000000000000e-01,5.00000000000000e-01,-4.50647755112995e-03
2.53480000000000e-08,5.00000000000000e-01,5.00000000000000e-01,1.16058443846863e-02
2.56040000000000e-08,5.00000000000000e-01,5.00000000000000e-01,3.29487784748071e-01
2.61160000000000e-08,5.00000000000000e-01,5.00000000000000e-01,5.21948856420903e-01
2.67792542387791e-08,5.00000000000000e-01,5.00000000000000e-01,4.81128781676020e-01
2.81057627163372e-08,5.00000000000000e-01,5.00000000000000e-01,5.17920399433022e-01
2.99362457662373e-08,5.00000000000000e-01,5.00000000000000e-01,4.82462974393592e-01
3.01000000000000e-08,5.00000000000000e-01,5.00000000000000e-01,5.10778885852044e-01
3.01100000000000e-08,5.00000000000000e-01,4.50000000000026e-01,5.06893112933318e-01
3.01300000000000e-08,5.00000000000000e-01,3.50000000000012e-01,5.01936148778626e-01
3.01700000000000e-08,5.00000000000000e-01,1.50000000000017e-01,4.99891497939748e-01
3.02000000000000e-08,5.00000000000000e-01,1.21014309684142e-14,5.00001225838045e-01
3.02080000000000e-08,5.00000000000000e-01,0.00000000000000e+00,4.99994523694420e-01
3.02240000000000e-08,5.00000000000000e-01,0.00000000000000e+00,4.99982603823250e-01
3.02560000000000e-08,5.00000000000000e-01,0.00000000000000e+00,4.99973938062133e-01
3.03200000000000e-08,5.00000000000000e-01,0.00000000000000e+00,4.99966864358651e-01
3.04480000000000e-08,5.00000000000000e-01,0.00000000000000e+00,4.99970411642274e-01
3.07040000000000e-08,5.00000000000000e-01,0.00000000000000e+00,4.99991293182774e-01
3.10847392672358e-08,5.00000000000000e-01,0.00000000000000e+00,4.99964260086412e-01
3.18462178017074e-08,5.00000000000000e-01,0.00000000000000e+00,4.99987151302027e-01
3.28478640550545e-08,5.00000000000000e-01,0.00000000000000e+00,4.99973147414271e-01
3.48511565617486e-08,5.00000000000000e-01,0.00000000000000e+00,4.99987727207032e-01
3.51000000000000e-08,4.99999999999975e-01,0.00000000000000e+00,4.99983699572063e-01
3.51100000000000e-08,4.49999999999985e-01,0.00000000000000e+00,4.99929821068021e-01
3.51300000000000e-08,3.49999999999971e-01,0.00000000000000e+00,4.99859573251837e-01
3.51700000000000e-08,1.49999999999975e-01,0.00000000000000e+00,5.00065178527566e-01
3.52000000000000e-08,0.00000000000000e+00,0.00000000000000e+00,5.01188717568032e-01
3.52080000000000e-08,0.00000000000000e+00,0.00000000000000e+00,5.01558814141100e-01
3.52240000000000e-08,0.00000000000000e+00,0.00000000000000e+00,5.02067809632306e-01
3.52560000000000e-08,0.00000000000000e+00,0.00000000000000e+00,5.02284283489136e-01
3.53200000000000e-08,0.00000000000000e+00,0.00000000000000e+00,4.99154656986622e-01
3.54480000000000e-08,0.00000000000000e+00,0.00000000000000e+00,4.84785173395037e-01
3.57040000000000e-08,0.00000000000000e+00,0.00000000000000e+00,4.90955936895759e-01
3.61118423152849e-08,0.00000000000000e+00,0.00000000000000e+00,5.03833990077449e-01
3.67848291828834e-08,0.00000000000000e+00,0.00000000000000e+00,4.95960774571392e-01
3.76861492363229e-08,0.00000000000000e+00,0.00000000000000e+00,5.02797574342087e-01
3.91000000000000e-08,0.00000000000000e+00,0.00000000000000e+00,4.97096608233551e-01
3.92802640106879e-08,0.00000000000000e+00,0.00000000000000e+00,4.99375463683548e-01
3.96407920320637e-08,0.00000000000000e+00,0.00000000000000e+00,5.00181956197294e-01
4.03618480748152e-08,0.00000000000000e+00,0.00000000000000e+00,4.99626885699334e-01
4.18039601603184e-08,0.00000000000000e+00,0.00000000000000e+00,5.00135150806439e-01
4.46881843313246e-08,0.00000000000000e+00,0.00000000000000e+00,4.99708452518060e-01
4.50000000000000e-08,0.00000000000000e+00,0.00000000000000e+00,5.00062086108885e-01
4.50100000000000e-08,4.99999999999905e-02,0.00000000000000e+00,5.00085303381964e-01
4.50300000000000e-08,1.50000000000005e-01,0.00000000000000e+00,5.00099626800362e-01
4.50700000000000e-08,3.50000000000000e-01,0.00000000000000e+00,5.00019220326621e-01
4.51000000000000e-08,5.00000000000000e-01,0.00000000000000e+00,4.99889958157893e-01
4.51080000000000e-08,5.00000000000000e-01,0.00000000000000e+00,4.99832939828130e-01
4.51240000000000e-08,5.00000000000000e-01,0.00000000000000e+00,4.99754012704743e-01
4.51560000000000e-08,5.00000000000000e-01,0.00000000000000e+00,4.99701124546306e-01
4.52200000000000e-08,5.00000000000000e-01,0.00000000000000e+00,4.99760302449940e-01
4.53480000000000e-08,5.00000000000000e-01,0.00000000000000e+00,5.01011892860087e-01
4.56040000000000e-08,5.00000000000000e-01,0.00000000000000e+00,5.11065442086607e-01
4.61160000000000e-08,5.00000000000000e-01,0.00000000000000e+00,7.01833320554138e-02
4.67378108987679e-08,5.00000000000000e-01,0.00000000000000e+00,-4.24339085286620e-02
4.78048453899357e-08,5.00000000000000e-01,0.00000000000000e+00,4.14500165888045e-02
4.93210512667164e-08,5.00000000000000e-01,0.00000000000000e+00,-3.27741464812409e-02
5.00000000000000e-08,5.00000000000000e-01,0.00000000000000e+00,2.81765423079915e-02
5.00100000000000e-08,5.00000000000000e-01,4.99999999999905e-02,2.21744110564396e-02
5.00300000000000e-08,5.00000000000000e-01,1.49999999999972e-01,1.32906232788521e-02
5.00700000000000e-08,5.00000000000000e-01,3.50000000000000e-01,4.96009748962822e-03
5.01000000000000e-08,5.00000000000000e-01,5.00000000000000e-01,2.36864420799391e-03
5.01080000000000e-08,5.00000000000000e-01,5.00000000000000e-01,2.01778212040689e-03
5.01240000000000e-08,5.00000000000000e-01,5.00000000000000e-01,1.25734786800751e-03
5.01560000000000e-08,5.00000000000000e-01,5.00000000000000e-01,5.98760508183048e-04
5.02200000000000e-08,5.00000000000000e-01,5.00000000000000e-01,8.61596105918364e-05
5.03480000000000e-08,5.00000000000000e-01,5.00000000000000e-01,-1.36918242082708e-05
5.06040000000000e-08,5.00000000000000e-01,5.00000000000000e-01,3.48903195345265e-06
5.11160000000001e-08,5.00000000000000e-01,5.00000000000000e-01,-5.57866841721481e-06
5.21400000000002e-08,5.00000000000000e-01,5.00000000000000e-01,2.80314265495470e-06
5.41880000000003e-08,5.00000000000000e-01,5.00000000000000e-01,-3.46954610703880e-06
5.51000000000000e-08,5.00000000000000e-01,5.00000000000000e-01,1.02757232071579e-06
5.51100000000000e-08,4.50000000000018e-01,5.00000000000000e-01,-5.11796856481825e-05
5.51300000000000e-08,3.50000000000004e-01,5.00000000000000e-01,-1.25385596421917e-04
5.51700000000000e-08,1.50000000000008e-01,5.00000000000000e-01,-1.48793056180534e-04
5.52000000000000e-08,0.00000000000000e+00,5.00000000000000e-01,1.50539580840298e-05
5.52080000000000e-08,0.00000000000000e+00,5.00000000000000e-01,1.27957887079866e-04
5.52240000000000e-08,0.00000000000000e+00,5.00000000000000e-01,2.65046828112070e-04
5.52560000000000e-08,0.00000000000000e+00,5.00000000000000e-01,2.57341481523753e-04
5.53200000000000e-08,0.00000000000000e+00,5.00000000000000e-01,-1.31820495153760e-04
5.54480000000000e-08,0.00000000000000e+00,5.00000000000000e-01,-1.22803601533528e-03
5.57040000000000e-08,0.00000000000000e+00,5.00000000000000e-01,1.20720712625783e-04
5.60742981482916e-08,0.00000000000000e+00,5.00000000000000e-01,-7.60476176887379e-05
5.68148944448747e-08,0.00000000000000e+00,5.00000000000000e-01,3.35457230473428e-05
5.77871133299667e-08,0.00000000000000e+00,5.00000000000000e-01,6.87494451252399e-05
5.93977961229325e-08,0.00000000000000e+00,5.00000000000000e-01,-1.12159904100702e-04
6.21722513620220e-08,0.00000000000000e+00,5.00000000000000e-01,1.32987265331604e-04
6.50000000000000e-08,0.00000000000000e+00,5.00000000000000e-01,-1.50467899799336e-04
6.50100000000000e-08,4.99999999999905e-02,5.00000000000000e-01,4.27203246525787e-05
6.50300000000000e-08,1.49999999999972e-01,5.00000000000000e-01,2.85254460523708e-04
6.50700000000000e-08,3.49999999999934e-01,5.00000000000000e-01,3.79047755621795e-04
6.51000000000000e-08,4.99999999999971e-01,5.00000000000000e-01,2.62824748172075e-04
6.51080000000000e-08,5.00000000000000e-01,5.00000000000000e-01,1.22201917625207e-04
6.51240000000000e-08,5.00000000000000e-01,5.00000000000000e-01,-3.57929361084253e-04
6.51560000000000e-08,5.00000000000000e-01,5.00000000000000e-01,-1.89871835310023e-03
6.52200000000000e-08,5.00000000000000e-01,5.00000000000000e-01,-4.37365208619866e-03
6.53480000000000e-08,5.00000000000000e-01,5.00000000000000e-01,8.92483527707406e-03
6.56040000000000e-08,5.00000000000000e-01,5.00000000000000e-01,3.21368433651492e-01
6.61159999999999e-08,5.00000000000000e-01,5.00000000000000e-01,5.21669222660684e-01
6.67847307142461e-08,5.00000000000000e-01,5.00000000000000e-01,4.81656676032145e-01
6.81221921427384e-08,5.00000000000000e-01,5.00000000000000e-01,5.17635276452458e-01
6.99464070303491e-08,5.00000000000000e-01,5.00000000000000e-01,4.82896828982573e-01
7.01000000000000e-08,5.00000000000000e-01,5.00000000000000e-01,5.10280643094848e-01
7.01100000000000e-08,5.00000000000000e-01,4.50000000000010e-01,5.06577518117500e-01
7.01300000000000e-08,5.00000000000000e-01,3.50000000000028e-01,5.01849612038870e-01
7.01700000000000e-08,5.00000000000000e-01,1.50000000000066e-01,4.99902482252756e-01
7.02000000000000e-08,5.00000000000000e-01,2.86437540353290e-14,5.00004280037859e-01
7.02080000000000e-08,5.00000000000000e-01,0.00000000000000e+00,4.99998260358199e-01
7.02240000000000e-08,5.00000000000000e-01,0.00000000000000e+00,4.99987473751886e-01
7.02560000000000e-08,5.00000000000000e-01,0.00000000000000e+00,4.99977945305646e-01
7.03200000000000e-08,5.00000000000000e-01,0.00000000000000e+00,4.99968914794831e-01
7.04480000000000e-08,5.00000000000000e-01,0.00000000000000e+00,4.99970053168187e-01
7.07040000000000e-08,5.00000000000000e-01,0.00000000000000e+00,4.99988816288094e-01
7.10837817470693e-08,5.00000000000000e-01,0.00000000000000e+00,4.99965503590446e-01
7.18433452412080e-08,5.00000000000000e-01,0.00000000000000e+00,4.99985607278116e-01
7.28409375826373e-08,5.00000000000000e-01,0.00000000000000e+00,4.99973613189663e-01
7.48361222654957e-08,5.00000000000000e-01,0.00000000000000e+00,4.99986790745768e-01
7.51000000000000e-08,5.00000000000000e-01,0.00000000000000e+00,4.99983400773769e-01
7.51100000000000e-08,4.50000000000051e-01,0.00000000000000e+00,4.99929985083959e-01
7.51300000000000e-08,3.50000000000070e-01,0.00000000000000e+00,4.99860142452680e-01
7.51700000000000e-08,1.50000000000108e-01,0.00000000000000e+00,5.00065208074920e-01
7.52000000000000e-08,6.99995617026161e-14,0.00000000000000e+00,5.01188432781041e-01
7.52080000000000e-08,0.00000000000000e+00,0.00000000000000e+00,5.01558611230920e-01
7.52240000000000e-08,0.00000000000000e+00,0.00000000000000e+00,5.02067353394166e-01
7.52560000000000e-08,0.00000000000000e+00,0.00000000000000e+00,5.02280258129041e-01
7.53200000000000e-08,0.00000000000000e+00,0.00000000000000e+00,4.99126744240718e-01
7.54480000000000e-08,0.00000000000000e+00,0.00000000000000e+00,4.84749137058999e-01
7.57040000000000e-08,0.00000000000000e+00,0.00000000000000e+00,4.90964528659269e-01
7.61118432974991e-08,0.00000000000000e+00,0.00000000000000e+00,5.03830762395956e-01
7.67848315995098e-08,0.00000000000000e+00,0.00000000000000e+00,4.95963718152823e-01
7.76861501820376e-08,0.00000000000000e+00,0.00000000000000e+00,5.02795215640956e-01
7.81000000000000e-08,0.00000000000000e+00,0.00000000000000e+00,4.97677000075370e-01
7.82802637165056e-08,0.00000000000000e+00,0.00000000000000e+00,4.99439888345100e-01
7.86407911495167e-08,0.00000000000000e+00,0.00000000000000e+00,5.00076514306518e-01
7.93618460155389e-08,0.00000000000000e+00,0.00000000000000e+00,4.99659884479520e-01
8.08039557475833e-08,0.00000000000000e+00,0.00000000000000e+00,5.00068916984615e-01
8.36881752116722e-08,0.00000000000000e+00,0.00000000000000e+00,4.99752861712802e-01
8.50000000000000e-08,0.00000000000000e+00,0.00000000000000e+00,5.00078683598060e-01
8.50100000000000e-08,4.99999999999905e-02,0.00000000000000e+00,5.00099899975552e-01
8.50300000000000e-08,1.49999999999972e-01,0.00000000000000e+00,5.00109922036327e-01
8.50700000000000e-08,3.49999999999934e-01,0.00000000000000e+00,5.00022896436434e-01
8.51000000000000e-08,4.99999999999971e-01,0.00000000000000e+00,4.99891325400259e-01
8.51080000000000e-08,5.00000000000000e-01,0.00000000000000e+00,4.99834431033521e-01
8.51240000000000e-08,5.00000000000000e-01,0.00000000000000e+00,4.99755497486901e-01
8.51560000000000e-08,5.00000000000000e-01,0.00000000000000e+00,4.99700554953433e-01
8.52200000000000e-08,5.00000000000000e-01,0.00000000000000e+00,4.99758061612940e-01
8.53480000000000e-08,5.00000000000000e-01,0.00000000000000e+00,5.01009426738121e-01
8.56040000000000e-08,5.00000000000000e-01,0.00000000000000e+00,5.11094348036933e-01
8.61159999999999e-08,5.00000000000000e-01,0.00000000000000e+00,7.02041289283330e-02
8.67376346893137e-08,5.00000000000000e-01,0.00000000000000e+00,-4.24385169893384e-02
8.78045982232925e-08,5.00000000000000e-01,0.00000000000000e+00,4.14552490556554e-02
8.93203319003947e-08,5.00000000000000e-01,0.00000000000000e+00,-3.27760235236003e-02
9.00000000000000e-08,5.00000000000000e-01,0.00000000000000e+00,2.81860567671030e-02
9.00100000000000e-08,5.00000000000000e-01,4.99999999999905e-02,2.21825092350814e-02
9.00300000000000e-08,5.00000000000000e-01,1.49999999999972e-01,1.32961644786704e-02
9.00700000000000e-08,5.00000000000000e-01,3.49999999999934e-01,4.96229241324834e-03
9.01000000000000e-08,5.00000000000000e-01,4.99999999999971e-01,2.36976873432050e-03
9.01080000000000e-08,5.00000000000000e-01,5.00000000000000e-01,2.01872667304100e-03
9.01240000000000e-08,5.00000000000000e-01,5.00000000000000e-01,1.25794830407645e-03
9.01560000000000e-08,5.00000000000000e-01,5.00000000000000e-01,5.99047013800279e-04
9.02200000000000e-08,5.00000000000000e-01,5.00000000000000e-01,8.61959955105115e-05
9.03480000000000e-08,5.00000000000000e-01,5.00000000000000e-01,-1.36976961006563e-05
9.06040000000000e-08,5.00000000000000e-01,5.00000000000000e-01,3.48959767851841e-06
9.11159999999999e-08,5.00000000000000e-01,5.00000000000000e-01,-5.58116089087804e-06
9.21399999999999e-08,5.00000000000000e-01,5.00000000000000e-01,2.80336817131549e-06
9.41879999999998e-08,5.00000000000000e-01,5.00000000000000e-01,-3.47097314794438e-06
9.51000000000000e-08,5.00000000000000e-01,5.00000000000000e-01,1.02697671485689e-06
9.51100000000000e-08,4.50000000000051e-01,5.00000000000000e-01,-5.11810619427538e-05
9.51300000000000e-08,3.50000000000070e-01,5.00000000000000e-01,-1.25389134951595e-04
9.51700000000000e-08,1.50000000000108e-01,5.00000000000000e-01,-1.48799059607546e-04
9.52000000000000e-08,6.99995617026161e-14,5.00000000000000e-01,1.50477588769030e-05
9.52080000000000e-08,0.00000000000000e+00,5.00000000000000e-01,1.27952104989372e-04
9.52240000000000e-08,0.00000000000000e+00,5.00000000000000e-01,2.65041665275446e-04
9.52560000000000e-08,0.00000000000000e+00,5.00000000000000e-01,2.57330400187619e-04
9.53200000000000e-08,0.00000000000000e+00,5.00000000000000e-01,-1.31907635921271e-04
9.54480000000000e-08,0.00000000000000e+00,5.00000000000000e-01,-1.22837211178659e-03
9.57040000000000e-08,0.00000000000000e+00,5.00000000000000e-01,1.20705448041570e-04
9.60742525316278e-08,0.00000000000000e+00,5.00000000000000e-01,-7.60172302382324e-05
9.68147575948834e-08,0.00000000000000e+00,5.00000000000000e-01,3.35058439653139e-05
9.77867804046492e-08,0.00000000000000e+00,5.00000000000000e-01,6.88128723473859e-05
9.93973705211319e-08,0.00000000000000e+00,5.00000000000000e-01,-1.12224891818819e-04
1.02171390888925e-07,0.00000000000000e+00,5.00000000000000e-01,1.33053390322972e-04
1.05000000000000e-07,0.00000000000000e+00,5.00000000000000e-01,-1.50527939969808e-04
1.05010000000000e-07,4.99999999999905e-02,5.00000000000000e-01,4.26809295147670e-05
1.05030000000000e-07,1.49999999999972e-01,5.00000000000000e-01,2.85236659523458e-04
1.05070000000000e-07,3.49999999999934e-01,5.00000000000000e-01,3.79041558823970e-04
1.05100000000000e-07,4.99999999999971e-01,5.00000000000000e-01,2.62807824126424e-04
1.05108000000000e-07,5.00000000000000e-01,5.00000000000000e-01,1.22165147406553e-04
1.05124000000000e-07,5.00000000000000e-01,5.00000000000000e-01,-3.58014344002171e-04
1.05156000000000e-07,5.00000000000000e-01,5.00000000000000e-01,-1.89883962386659e-03
1.05220000000000e-07,5.00000000000000e-01,5.00000000000000e-01,-4.37371157049889e-03
1.05348000000000e-07,5.00000000000000e-01,5.00000000000000e-01,8.92605549468241e-03
1.05604000000000e-07,5.00000000000000e-01,5.00000000000000e-01,3.21372282531379e-01
1.06116000000000e-07,5.00000000000000e-01,5.00000000000000e-01,5.21669373912577e-01
1.06784727946454e-07,5.00000000000000e-01,5.00000000000000e-01,4.81656413043112e-01
1.08122183839362e-07,5.00000000000000e-01,5.00000000000000e-01,5.17635426947352e-01
1.09946401348889e-07,5.00000000000000e-01,5.00000000000000e-01,4.82896609940723e-01
1.10100000000000e-07,5.00000000000000e-01,5.00000000000000e-01,5.10280921942851e-01
1.10110000000000e-07,5.00000000000000e-01,4.50000000000076e-01,5.06577694628935e-01
