Time,v(clk),v(data),v(out)
1.00000000000000e-08,5.00000000000000e-01,0.00000000000000e+00,-1.38668039768989e-05
1.00100000000000e-08,5.00000000000000e-01,4.99999999999988e-02,-4.05956148803732e-06
1.00300000000000e-08,5.00000000000000e-01,1.49999999999996e-01,6.78813989667126e-06
1.00700000000000e-08,5.00000000000000e-01,3.49999999999992e-01,1.09374969044854e-05
1.01000000000000e-08,5.00000000000000e-01,4.99999999999996e-01,6.44688138212030e-06
1.01080000000000e-08,5.00000000000000e-01,5.00000000000000e-01,5.34784876332628e-06
1.01240000000000e-08,5.00000000000000e-01,5.00000000000000e-01,4.60384482663112e-06
1.01560000000000e-08,5.00000000000000e-01,5.00000000000000e-01,5.63691865162336e-06
1.02200000000000e-08,5.00000000000000e-01,5.00000000000000e-01,7.09863076699124e-06
1.03480000000000e-08,5.00000000000000e-01,5.00000000000000e-01,2.80101298532481e-06
1.06040000000000e-08,5.00000000000000e-01,5.00000000000000e-01,1.67835285863616e-07
1.11160000000000e-08,5.00000000000000e-01,5.00000000000000e-01,2.07680137379908e-06
1.21400000000000e-08,5.00000000000000e-01,5.00000000000000e-01,4.83218108599665e-07
1.41880000000000e-08,5.00000000000000e-01,5.00000000000000e-01,1.62125834139259e-06
1.51000000000000e-08,5.00000000000000e-01,5.00000000000000e-01,4.27450845839721e-07
1.51100000000000e-08,4.49999999999993e-01,5.00000000000000e-01,-5.28662583348868e-05
1.51300000000000e-08,3.49999999999995e-01,5.00000000000000e-01,-1.36348442615487e-04
1.51700000000000e-08,1.50000000000000e-01,5.00000000000000e-01,-2.11136421029004e-04
1.52000000000000e-08,0.00000000000000e+00,5.00000000000000e-01,-1.30624592885861e-04
1.52080000000000e-08,0.00000000000000e+00,5.00000000000000e-01,-2.35205174908409e-05
1.52240000000000e-08,0.00000000000000e+00,5.00000000000000e-01,1.37842911681361e-04
1.52560000000000e-08,0.00000000000000e+00,5.00000000000000e-01,2.47505050182874e-04
1.53200000000000e-08,0.00000000000000e+00,5.00000000000000e-01,1.83679050417791e-04
1.54480000000000e-08,0.00000000000000e+00,5.00000000000000e-01,-8.23486397915490e-07
1.57040000000000e-08,0.00000000000000e+00,5.00000000000000e-01,-7.76933192749990e-05
1.62160000000000e-08,0.00000000000000e+00,5.00000000000000e-01,-4.06338492714257e-05
1.72004162155274e-08,0.00000000000000e+00,5.00000000000000e-01,1.34732695176308e-05
1.85122358209861e-08,0.00000000000000e+00,5.00000000000000e-01,4.16889867688873e-05
2.08704778563751e-08,0.00000000000000e+00,5.00000000000000e-01,-5.43248947409713e-05
2.39322446264916e-08,0.00000000000000e+00,5.00000000000000e-01,5.95686536265694e-05
2.50000000000000e-08,0.00000000000000e+00,5.00000000000000e-01,-6.32290621650823e-05
2.50100000000000e-08,4.99999999999905e-02,5.00000000000000e-01,3.91950841020852e-05
2.50300000000000e-08,1.50000000000005e-01,5.00000000000000e-01,2.00421666872973e-04
2.50700000000000e-08,3.50000000000000e-01,5.00000000000000e-01,2.99737270257082e-04
2.51000000000000e-08,5.00000000000000e-01,5.00000000000000e-01,-1.12636594055415e-05
2.51080000000000e-08,5.00000000000000e-01,5.00000000000000e-01,-3.09904546451224e-04
2.51240000000000e-08,5.00000000000000e-01,5.00000000000000e-01,-1.05332422946076e-03
2.51560000000000e-08,5.00000000000000e-01,5.00000000000000e-01,-2.64131296782723e-03
2.52200000000000e-08,5.00000000000000e-01,5.00000000000000e-01,-4.77730389893916e-03
2.53480000000000e-08,5.00000000000000e-01,5.00000000000000e-01,1.97278296069105e-03
2.56040000000000e-08,5.00000000000000e-01,5.00000000000000e-01,1.90167963190880e-01
2.61160000000000e-08,5.00000000000000e-01,5.00000000000000e-01,4.98979153718266e-01
2.70710336149722e-08,5.00000000000000e-01,5.00000000000000e-01,4.98906502615124e-01
2.82392241529912e-08,5.00000000000000e-01,5.00000000000000e-01,5.01934279136925e-01
3.01000000000000e-08,5.00000000000000e-01,5.00000000000000e-01,4.98157878610188e-01
3.01100000000000e-08,5.00000000000000e-01,4.50000000000026e-01,4.98919736104776e-01
3.01300000000000e-08,5.00000000000000e-01,3.50000000000012e-01,4.99955315019370e-01
3.01700000000000e-08,5.00000000000000e-01,1.50000000000017e-01,5.00625069093522e-01
3.02000000000000e-08,5.00000000000000e-01,1.21014309684142e-14,5.00624465959135e-01
3.02080000000000e-08,5.00000000000000e-01,0.00000000000000e+00,5.00599807108899e-01
3.02240000000000e-08,5.00000000000000e-01,0.00000000000000e+00,5.00549805105398e-01
3.02560000000000e-08,5.00000000000000e-01,0.00000000000000e+00,5.00391266794387e-01
3.03200000000000e-08,5.00000000000000e-01,0.00000000000000e+00,5.00180058021402e-01
3.04480000000000e-08,5.00000000000000e-01,0.00000000000000e+00,4.99957703035110e-01
3.07040000000000e-08,5.00000000000000e-01,0.00000000000000e+00,4.99934887961342e-01
3.12160000000000e-08,5.00000000000000e-01,0.00000000000000e+00,4.99964392535947e-01
3.18831946743978e-08,5.00000000000000e-01,0.00000000000000e+00,4.99932634224901e-01
3.32175840231933e-08,5.00000000000000e-01,0.00000000000000e+00,4.99968148543312e-01
3.51000000000000e-08,4.99999999999975e-01,0.00000000000000e+00,4.99948060087801e-01
3.51100000000000e-08,4.49999999999985e-01,0.00000000000000e+00,4.99877579908829e-01
3.51300000000000e-08,3.49999999999971e-01,0.00000000000000e+00,4.99768196364430e-01
3.51700000000000e-08,1.49999999999975e-01,0.00000000000000e+00,4.99813787820082e-01
3.52000000000000e-08,0.00000000000000e+00,0.00000000000000e+00,5.00510566003335e-01
3.52080000000000e-08,0.00000000000000e+00,0.00000000000000e+00,5.00811487014537e-01
3.52240000000000e-08,0.00000000000000e+00,0.00000000000000e+00,5.01294194061686e-01
3.52560000000000e-08,0.00000000000000e+00,0.00000000000000e+00,5.01825529955169e-01
3.53200000000000e-08,0.00000000000000e+00,0.00000000000000e+00,5.02031284627610e-01
3.54480000000000e-08,0.00000000000000e+00,0.00000000000000e+00,4.98425011835553e-01
3.57040000000000e-08,0.00000000000000e+00,0.00000000000000e+00,4.82496686640989e-01
3.62160000000000e-08,0.00000000000000e+00,0.00000000000000e+00,4.88985289218258e-01
3.68536943457039e-08,0.00000000000000e+00,0.00000000000000e+00,5.03382231355618e-01
3.81290830371117e-08,0.00000000000000e+00,0.00000000000000e+00,4.96099050033614e-01
3.91000000000000e-08,0.00000000000000e+00,0.00000000000000e+00,5.01994082656301e-01
3.92424518228595e-08,0.00000000000000e+00,0.00000000000000e+00,5.00494698693571e-01
3.95273554685785e-08,0.00000000000000e+00,0.00000000000000e+00,4.99440423895579e-01
4.00971627600165e-08,0.00000000000000e+00,0.00000000000000e+00,4.99829645796121e-01
4.12367773428924e-08,0.00000000000000e+00,0.00000000000000e+00,4.99662825384639e-01
4.35160065086443e-08,0.00000000000000e+00,0.00000000000000e+00,4.99894541569342e-01
4.50000000000000e-08,0.00000000000000e+00,0.00000000000000e+00,4.99769480339886e-01
4.50100000000000e-08,4.99999999999905e-02,0.00000000000000e+00,4.99843916586106e-01
4.50300000000000e-08,1.50000000000005e-01,0.00000000000000e+00,4.99957441930333e-01
4.50700000000000e-08,3.50000000000000e-01,0.00000000000000e+00,5.00004743756775e-01
4.51000000000000e-08,5.00000000000000e-01,0.00000000000000e+00,4.99878221778088e-01
4.51080000000000e-08,5.00000000000000e-01,0.00000000000000e+00,4.99801855732584e-01
4.51240000000000e-08,5.00000000000000e-01,0.00000000000000e+00,4.99673473227995e-01
4.51560000000000e-08,5.00000000000000e-01,0.00000000000000e+00,4.99497940812547e-01
4.52200000000000e-08,5.00000000000000e-01,0.00000000000000e+00,4.99415071079290e-01
4.53480000000000e-08,5.00000000000000e-01,0.00000000000000e+00,5.00282671918890e-01
4.56040000000000e-08,5.00000000000000e-01,0.00000000000000e+00,5.10881166116135e-01
4.61160000000000e-08,5.00000000000000e-01,0.00000000000000e+00,1.10386660876342e-01
4.70089282256244e-08,5.00000000000000e-01,0.00000000000000e+00,-5.04189993393211e-02
4.78667493403044e-08,5.00000000000000e-01,0.00000000000000e+00,5.34518214776213e-02
4.95823915696643e-08,5.00000000000000e-01,0.00000000000000e+00,-3.73361283017146e-02
5.00000000000000e-08,5.00000000000000e-01,0.00000000000000e+00,2.84171958472753e-02
5.00100000000000e-08,5.00000000000000e-01,4.99999999999905e-02,2.35127120614057e-02
5.00300000000000e-08,5.00000000000000e-01,1.49999999999972e-01,1.51856327480945e-02
5.00700000000000e-08,5.00000000000000e-01,3.50000000000000e-01,5.84109389424233e-03
5.01000000000000e-08,5.00000000000000e-01,5.00000000000000e-01,2.91859154958919e-03
5.01080000000000e-08,5.00000000000000e-01,5.00000000000000e-01,2.47310305259196e-03
5.01240000000000e-08,5.00000000000000e-01,5.00000000000000e-01,1.72219882878837e-03
5.01560000000000e-08,5.00000000000000e-01,5.00000000000000e-01,8.14055138824855e-04
5.02200000000000e-08,5.00000000000000e-01,5.00000000000000e-01,1.48184877946326e-04
5.03480000000000e-08,5.00000000000000e-01,5.00000000000000e-01,-1.99985703390748e-05
5.06040000000000e-08,5.00000000000000e-01,5.00000000000000e-01,9.38308404055399e-06
5.11160000000001e-08,5.00000000000000e-01,5.00000000000000e-01,-7.82457269189740e-06
5.21400000000002e-08,5.00000000000000e-01,5.00000000000000e-01,6.25445741220428e-06
5.41880000000003e-08,5.00000000000000e-01,5.00000000000000e-01,-7.37093890467778e-06
5.51000000000000e-08,5.00000000000000e-01,5.00000000000000e-01,5.29071505733433e-06
5.51100000000000e-08,4.50000000000018e-01,5.00000000000000e-01,-5.16292172944161e-05
5.51300000000000e-08,3.50000000000004e-01,5.00000000000000e-01,-1.38267994651477e-04
5.51700000000000e-08,1.50000000000008e-01,5.00000000000000e-01,-2.11643954905770e-04
5.52000000000000e-08,0.00000000000000e+00,5.00000000000000e-01,-1.29062532212038e-04
5.52080000000000e-08,0.00000000000000e+00,5.00000000000000e-01,-2.35834651307262e-05
5.52240000000000e-08,0.00000000000000e+00,5.00000000000000e-01,1.29916495688519e-04
5.52560000000000e-08,0.00000000000000e+00,5.00000000000000e-01,2.24963420665553e-04
5.53200000000000e-08,0.00000000000000e+00,5.00000000000000e-01,1.76671152248932e-04
5.54480000000000e-08,0.00000000000000e+00,5.00000000000000e-01,-9.95472915933382e-05
5.57040000000000e-08,0.00000000000000e+00,5.00000000000000e-01,-5.74086694450526e-04
5.62160000000000e-08,0.00000000000000e+00,5.00000000000000e-01,2.19280066420633e-04
5.70064079779202e-08,0.00000000000000e+00,5.00000000000000e-01,-1.70963743361484e-04
5.83878551706381e-08,0.00000000000000e+00,5.00000000000000e-01,1.75221012471115e-04
6.04937856249123e-08,0.00000000000000e+00,5.00000000000000e-01,-1.57933590653174e-04
6.34200398638141e-08,0.00000000000000e+00,5.00000000000000e-01,1.43455020931448e-04
6.50000000000000e-08,0.00000000000000e+00,5.00000000000000e-01,-1.17532757670962e-04
6.50100000000000e-08,4.99999999999905e-02,5.00000000000000e-01,-4.58424990941037e-05
6.50300000000000e-08,1.49999999999972e-01,5.00000000000000e-01,9.78178012078154e-05
6.50700000000000e-08,3.49999999999934e-01,5.00000000000000e-01,2.39178597174691e-04
6.51000000000000e-08,4.99999999999971e-01,5.00000000000000e-01,-1.68014589889895e-05
6.51080000000000e-08,5.00000000000000e-01,5.00000000000000e-01,-2.95553128589358e-04
6.51240000000000e-08,5.00000000000000e-01,5.00000000000000e-01,-1.01178482647246e-03
6.51560000000000e-08,5.00000000000000e-01,5.00000000000000e-01,-2.59571960374285e-03
6.52200000000000e-08,5.00000000000000e-01,5.00000000000000e-01,-4.74799242030589e-03
6.53480000000000e-08,5.00000000000000e-01,5.00000000000000e-01,1.58602538948096e-03
6.56040000000000e-08,5.00000000000000e-01,5.00000000000000e-01,1.88584427684513e-01
6.61159999999999e-08,5.00000000000000e-01,5.00000000000000e-01,4.98588557957625e-01
6.70738292969769e-08,5.00000000000000e-01,5.00000000000000e-01,4.99089292788677e-01
6.82407799913623e-08,5.00000000000000e-01,5.00000000000000e-01,5.01733126643730e-01
7.01000000000000e-08,5.00000000000000e-01,5.00000000000000e-01,4.98332834965021e-01
7.01100000000000e-08,5.00000000000000e-01,4.50000000000010e-01,4.99060115361358e-01
7.01300000000000e-08,5.00000000000000e-01,3.50000000000028e-01,5.00043131593553e-01
7.01700000000000e-08,5.00000000000000e-01,1.50000000000066e-01,5.00656911559360e-01
7.02000000000000e-08,5.00000000000000e-01,2.86437540353290e-14,5.00639561829910e-01
7.02080000000000e-08,5.00000000000000e-01,0.00000000000000e+00,5.00612773988696e-01
7.02240000000000e-08,5.00000000000000e-01,0.00000000000000e+00,5.00559079536860e-01
7.02560000000000e-08,5.00000000000000e-01,0.00000000000000e+00,5.00394184415938e-01
7.03200000000000e-08,5.00000000000000e-01,0.00000000000000e+00,5.00179616554359e-01
7.04480000000000e-08,5.00000000000000e-01,0.00000000000000e+00,4.99957524581918e-01
7.07040000000000e-08,5.00000000000000e-01,0.00000000000000e+00,4.99934789026944e-01
7.12159999999999e-08,5.00000000000000e-01,0.00000000000000e+00,4.99964738605954e-01
7.18827719994442e-08,5.00000000000000e-01,0.00000000000000e+00,4.99932416208962e-01
7.32163159983326e-08,5.00000000000000e-01,0.00000000000000e+00,4.99968446322764e-01
7.51000000000000e-08,5.00000000000000e-01,0.00000000000000e+00,4.99947842948258e-01
7.51100000000000e-08,4.50000000000051e-01,0.00000000000000e+00,4.99877385012543e-01
7.51300000000000e-08,3.50000000000070e-01,0.00000000000000e+00,4.99768067861645e-01
7.51700000000000e-08,1.50000000000108e-01,0.00000000000000e+00,4.99813736401516e-01
7.52000000000000e-08,6.99995617026161e-14,0.00000000000000e+00,5.00510563032700e-01
7.52080000000000e-08,0.00000000000000e+00,0.00000000000000e+00,5.00811474444694e-01
7.52240000000000e-08,0.00000000000000e+00,0.00000000000000e+00,5.01294178854340e-01
7.52560000000000e-08,0.00000000000000e+00,0.00000000000000e+00,5.01825584462841e-01
7.53200000000000e-08,0.00000000000000e+00,0.00000000000000e+00,5.02031669936339e-01
7.54480000000000e-08,0.00000000000000e+00,0.00000000000000e+00,4.98427164067545e-01
7.57040000000000e-08,0.00000000000000e+00,0.00000000000000e+00,4.82499183280494e-01
7.62159999999999e-08,0.00000000000000e+00,0.00000000000000e+00,4.88984483972536e-01
7.68536956616378e-08,0.00000000000000e+00,0.00000000000000e+00,5.03382593538884e-01
7.81000000000000e-08,0.00000000000000e+00,0.00000000000000e+00,4.96112800817800e-01
7.82275391323276e-08,0.00000000000000e+00,0.00000000000000e+00,4.98178950243190e-01
7.84826173969827e-08,0.00000000000000e+00,0.00000000000000e+00,4.99828108456873e-01
7.89927739262930e-08,0.00000000000000e+00,0.00000000000000e+00,4.99479016585932e-01
8.00130869849136e-08,0.00000000000000e+00,0.00000000000000e+00,4.99798993487010e-01
8.20537131021548e-08,0.00000000000000e+00,0.00000000000000e+00,4.99696800976810e-01
8.50000000000000e-08,0.00000000000000e+00,0.00000000000000e+00,4.99911735366562e-01
8.50100000000000e-08,4.99999999999905e-02,0.00000000000000e+00,4.99975591889087e-01
8.50300000000000e-08,1.49999999999972e-01,0.00000000000000e+00,5.00069013325923e-01
8.50700000000000e-08,3.49999999999934e-01,0.00000000000000e+00,5.00075521641727e-01
8.51000000000000e-08,4.99999999999971e-01,0.00000000000000e+00,4.99925397934883e-01
8.51080000000000e-08,5.00000000000000e-01,0.00000000000000e+00,4.99847295972562e-01
8.51240000000000e-08,5.00000000000000e-01,0.00000000000000e+00,4.99714580404067e-01
8.51560000000000e-08,5.00000000000000e-01,0.00000000000000e+00,4.99518410928521e-01
8.52200000000000e-08,5.00000000000000e-01,0.00000000000000e+00,4.99408108521298e-01
8.53480000000000e-08,5.00000000000000e-01,0.00000000000000e+00,5.00299002887950e-01
8.56040000000000e-08,5.00000000000000e-01,0.00000000000000e+00,5.10874684945727e-01
8.61159999999999e-08,5.00000000000000e-01,0.00000000000000e+00,1.10329853173558e-01
8.70102050307293e-08,5.00000000000000e-01,0.00000000000000e+00,-5.04522418678474e-02
8.78677633783723e-08,5.00000000000000e-01,0.00000000000000e+00,5.34835707894100e-02
8.95828800736585e-08,5.00000000000000e-01,0.00000000000000e+00,-3.73580711084874e-02
9.00000000000000e-08,5.00000000000000e-01,0.00000000000000e+00,2.84177688718138e-02
9.00100000000000e-08,5.00000000000000e-01,4.99999999999905e-02,2.35127172988029e-02
9.00300000000000e-08,5.00000000000000e-01,1.49999999999972e-01,1.51848506898089e-02
9.00700000000000e-08,5.00000000000000e-01,3.49999999999934e-01,5.84011931679334e-03
9.01000000000000e-08,5.00000000000000e-01,4.99999999999971e-01,2.91789017405426e-03
9.01080000000000e-08,5.00000000000000e-01,5.00000000000000e-01,2.47246834266618e-03
9.01240000000000e-08,5.00000000000000e-01,5.00000000000000e-01,1.72168980587752e-03
9.01560000000000e-08,5.00000000000000e-01,5.00000000000000e-01,8.13742019002507e-04
9.02200000000000e-08,5.00000000000000e-01,5.00000000000000e-01,1.48085978438177e-04
9.03480000000000e-08,5.00000000000000e-01,5.00000000000000e-01,-1.99905713121479e-05
9.06040000000000e-08,5.00000000000000e-01,5.00000000000000e-01,9.38299432234023e-06
9.11159999999999e-08,5.00000000000000e-01,5.00000000000000e-01,-7.82028066734219e-06
9.21399999999999e-08,5.00000000000000e-01,5.00000000000000e-01,6.25518875487733e-06
9.41879999999998e-08,5.00000000000000e-01,5.00000000000000e-01,-7.36699321797290e-06
9.51000000000000e-08,5.00000000000000e-01,5.00000000000000e-01,5.29187194905304e-06
9.51100000000000e-08,4.50000000000051e-01,5.00000000000000e-01,-5.16282029218093e-05
9.51300000000000e-08,3.50000000000070e-01,5.00000000000000e-01,-1.38265769855872e-04
9.51700000000000e-08,1.50000000000108e-01,5.00000000000000e-01,-2.11639338090611e-04
9.52000000000000e-08,6.99995617026161e-14,5.00000000000000e-01,-1.29057472613998e-04
9.52080000000000e-08,0.00000000000000e+00,5.00000000000000e-01,-2.35780754204371e-05
9.52240000000000e-08,0.00000000000000e+00,5.00000000000000e-01,1.29922334829891e-04
9.52560000000000e-08,0.00000000000000e+00,5.00000000000000e-01,2.24971748871594e-04
9.53200000000000e-08,0.00000000000000e+00,5.00000000000000e-01,1.76702725527306e-04
9.54480000000000e-08,0.00000000000000e+00,5.00000000000000e-01,-9.92406132980447e-05
9.57040000000000e-08,0.00000000000000e+00,5.00000000000000e-01,-5.72557859296375e-04
9.62159999999999e-08,0.00000000000000e+00,5.00000000000000e-01,2.18519420369998e-04
9.70075084443150e-08,0.00000000000000e+00,5.00000000000000e-01,-1.70479596454135e-04
9.83884516417961e-08,0.00000000000000e+00,5.00000000000000e-01,1.74870579720700e-04
1.00495829471089e-07,0.00000000000000e+00,5.00000000000000e-01,-1.57625659766744e-04
1.03422812838453e-07,0.00000000000000e+00,5.00000000000000e-01,1.43217098415989e-04
1.05000000000000e-07,0.00000000000000e+00,5.00000000000000e-01,-1.17355289001683e-04
1.05010000000000e-07,4.99999999999905e-02,5.00000000000000e-01,-4.55917343108458e-05
1.05030000000000e-07,1.49999999999972e-01,5.00000000000000e-01,9.81219502535491e-05
1.05070000000000e-07,3.49999999999934e-01,5.00000000000000e-01,2.39335154046519e-04
1.05100000000000e-07,4.99999999999971e-01,5.00000000000000e-01,-1.70781233784154e-05
1.05108000000000e-07,5.00000000000000e-01,5.00000000000000e-01,-2.96029577171238e-04
1.05124000000000e-07,5.00000000000000e-01,5.00000000000000e-01,-1.01253493134919e-03
1.05156000000000e-07,5.00000000000000e-01,5.00000000000000e-01,-2.59642792725989e-03
1.05220000000000e-07,5.00000000000000e-01,5.00000000000000e-01,-4.74839875794512e-03
1.05348000000000e-07,5.00000000000000e-01,5.00000000000000e-01,1.59097100737640e-03
1.05604000000000e-07,5.00000000000000e-01,5.00000000000000e-01,1.88604853919648e-01
1.06116000000000e-07,5.00000000000000e-01,5.00000000000000e-01,4.98593646490893e-01
1.07073792949120e-07,5.00000000000000e-01,5.00000000000000e-01,4.99086917920269e-01
1.08240759371918e-07,5.00000000000000e-01,5.00000000000000e-01,5.01735745183421e-01
1.10100000000000e-07,5.00000000000000e-01,5.00000000000000e-01,4.98330519140766e-01
1.10110000000000e-07,5.00000000000000e-01,4.50000000000076e-01,4.99058255746055e-01
1.10130000000000e-07,5.00000000000000e-01,3.50000000000095e-01,5.00041940835911e-01
1.10170000000000e-07,5.00000000000000e-01,1.50000000000133e-01,5.00656520954480e-01
1.10200000000000e-07,5.00000000000000e-01,9.48130463029884e-14,5.00639375373665e-01
1.10208000000000e-07,5.00000000000000e-01,0.00000000000000e+00,5.00612613449646e-01
1.10224000000000e-07,5.00000000000000e-01,0.00000000000000e+00,5.00558964053431e-01
1.10256000000000e-07,5.00000000000000e-01,0.00000000000000e+00,5.00394142687698e-01
