Time,v(clk),v(data),v(out)
1.00000000000000e-08,5.00000000000000e-01,0.00000000000000e+00,1.17986603444462e-05
1.00100000000000e-08,5.00000000000000e-01,4.99999999999988e-02,9.57164657476584e-06
1.00300000000000e-08,5.00000000000000e-01,1.49999999999996e-01,5.72376271029684e-06
1.00700000000000e-08,5.00000000000000e-01,3.49999999999992e-01,2.13349404360602e-06
1.01000000000000e-08,5.00000000000000e-01,4.99999999999996e-01,-3.36944220274971e-07
1.01080000000000e-08,5.00000000000000e-01,5.00000000000000e-01,-6.84378301731015e-07
1.01240000000000e-08,5.00000000000000e-01,5.00000000000000e-01,-1.81321391512501e-06
1.01560000000000e-08,5.00000000000000e-01,5.00000000000000e-01,-1.32738612963756e-06
1.02200000000000e-08,5.00000000000000e-01,5.00000000000000e-01,1.55188115667088e-06
1.03480000000000e-08,5.00000000000000e-01,5.00000000000000e-01,3.53248252021876e-06
1.06040000000000e-08,5.00000000000000e-01,5.00000000000000e-01,2.22794207987986e-06
1.11160000000000e-08,5.00000000000000e-01,5.00000000000000e-01,2.36341647644189e-06
1.20485786661644e-08,5.00000000000000e-01,5.00000000000000e-01,2.55124544460729e-06
1.39137359984933e-08,5.00000000000000e-01,5.00000000000000e-01,2.24089488209001e-06
1.51000000000000e-08,5.00000000000000e-01,5.00000000000000e-01,2.34656394068264e-06
1.51100000000000e-08,4.49999999999993e-01,5.00000000000000e-01,-4.91593452534439e-05
1.51300000000000e-08,3.49999999999995e-01,5.00000000000000e-01,-1.34429902827908e-04
1.51700000000000e-08,1.50000000000000e-01,5.00000000000000e-01,-2.06032762860540e-04
1.52000000000000e-08,0.00000000000000e+00,5.00000000000000e-01,-4.43275492451808e-05
1.52080000000000e-08,0.00000000000000e+00,5.00000000000000e-01,8.40898285283387e-05
1.52240000000000e-08,0.00000000000000e+00,5.00000000000000e-01,2.68529756265269e-04
1.52560000000000e-08,0.00000000000000e+00,5.00000000000000e-01,3.83354137671127e-04
1.53200000000000e-08,0.00000000000000e+00,5.00000000000000e-01,2.86580383470056e-04
1.54480000000000e-08,0.00000000000000e+00,5.00000000000000e-01,-6.25028593857699e-05
1.57040000000000e-08,0.00000000000000e+00,5.00000000000000e-01,-1.50519513449826e-04
1.62160000000000e-08,0.00000000000000e+00,5.00000000000000e-01,5.32603499036714e-05
1.69813411392896e-08,0.00000000000000e+00,5.00000000000000e-01,-8.70271673279691e-05
1.82951619954956e-08,0.00000000000000e+00,5.00000000000000e-01,1.30091206039864e-04
2.09228037079077e-08,0.00000000000000e+00,5.00000000000000e-01,-1.26614659337993e-04
2.38857180198789e-08,0.00000000000000e+00,5.00000000000000e-01,1.24934710949463e-04
2.50000000000000e-08,0.00000000000000e+00,5.00000000000000e-01,-1.09053253143138e-04
2.50100000000000e-08,4.99999999999905e-02,5.00000000000000e-01,-4.56197920438439e-06
2.50300000000000e-08,1.50000000000005e-01,5.00000000000000e-01,1.80145587855993e-04
2.50700000000000e-08,3.50000000000000e-01,5.00000000000000e-01,4.18341166231906e-04
2.51000000000000e-08,5.00000000000000e-01,5.00000000000000e-01,4.53103521358689e-04
2.51080000000000e-08,5.00000000000000e-01,5.00000000000000e-01,3.94556135070015e-04
2.51240000000000e-08,5.00000000000000e-01,5.00000000000000e-01,2.66858030884526e-04
2.51560000000000e-08,5.00000000000000e-01,5.00000000000000e-01,-1.19847454726596e-04
2.52200000000000e-08,5.00000000000000e-01,5.00000000000000e-01,-1.32585748979357e-03
2.53480000000000e-08,5.00000000000000e-01,5.00000000000000e-01,-3.50794002122808e-03
2.56040000000000e-08,5.00000000000000e-01,5.00000000000000e-01,-2.05589250996951e-05
2.61160000000000e-08,5.00000000000000e-01,5.00000000000000e-01,3.42629065267969e-01
2.71400000000000e-08,5.00000000000000e-01,5.00000000000000e-01,5.16232741265767e-01
2.83690411946882e-08,5.00000000000000e-01,5.00000000000000e-01,4.86808795295181e-01
3.08271235840646e-08,5.00000000000000e-01,5.00000000000000e-01,5.13226079396669e-01
3.46271235840646e-08,5.00000000000000e-01,5.00000000000000e-01,4.87070651051934e-01
3.51000000000000e-08,4.99999999999975e-01,5.00000000000000e-01,5.10826774960591e-01
3.51100000000000e-08,4.49999999999985e-01,5.00000000000000e-01,5.06871815205773e-01
3.51300000000000e-08,3.49999999999971e-01,5.00000000000000e-01,5.01818559343735e-01
3.51700000000000e-08,1.49999999999975e-01,5.00000000000000e-01,4.99983318099530e-01
3.52000000000000e-08,0.00000000000000e+00,5.00000000000000e-01,5.01291414010005e-01
3.52080000000000e-08,0.00000000000000e+00,5.00000000000000e-01,5.01694081096629e-01
3.52240000000000e-08,0.00000000000000e+00,5.00000000000000e-01,5.02259052318575e-01
3.52560000000000e-08,0.00000000000000e+00,5.00000000000000e-01,5.02634430596165e-01
3.53200000000000e-08,0.00000000000000e+00,5.00000000000000e-01,5.00544815656328e-01
3.54480000000000e-08,0.00000000000000e+00,5.00000000000000e-01,4.87744274981167e-01
3.57040000000000e-08,0.00000000000000e+00,5.00000000000000e-01,4.90695901084443e-01
3.62160000000000e-08,0.00000000000000e+00,5.00000000000000e-01,5.03506025190073e-01
3.70043175654908e-08,0.00000000000000e+00,5.00000000000000e-01,4.96345704922172e-01
3.85525161060340e-08,0.00000000000000e+00,5.00000000000000e-01,5.02773575594202e-01
4.16489131871205e-08,0.00000000000000e+00,5.00000000000000e-01,4.97090865520673e-01
4.50000000000000e-08,0.00000000000000e+00,5.00000000000000e-01,5.02594700336720e-01
4.50100000000000e-08,4.99999999999905e-02,5.00000000000000e-01,5.02077411546424e-01
4.50300000000000e-08,1.50000000000005e-01,5.00000000000000e-01,5.01253799560642e-01
4.50700000000000e-08,3.50000000000000e-01,5.00000000000000e-01,5.00454215533023e-01
4.51000000000000e-08,5.00000000000000e-01,5.00000000000000e-01,5.00220004300323e-01
4.51080000000000e-08,5.00000000000000e-01,4.60000000000021e-01,5.00150277760362e-01
4.51240000000000e-08,5.00000000000000e-01,3.79999999999996e-01,5.00023243125214e-01
4.51560000000000e-08,5.00000000000000e-01,2.20000000000013e-01,4.99786036542242e-01
4.52000000000000e-08,5.00000000000000e-01,2.86437540353290e-14,4.99469424617909e-01
4.52064000000000e-08,5.00000000000000e-01,0.00000000000000e+00,4.99431672969469e-01
4.52192000000000e-08,5.00000000000000e-01,0.00000000000000e+00,4.99359130329248e-01
4.52448000000000e-08,5.00000000000000e-01,0.00000000000000e+00,4.99241784323192e-01
4.52960000000000e-08,5.00000000000000e-01,0.00000000000000e+00,4.99116391131738e-01
4.53984000000000e-08,5.00000000000000e-01,0.00000000000000e+00,4.99160779745549e-01
4.56032000000000e-08,5.00000000000000e-01,0.00000000000000e+00,4.99565032138013e-01
4.60128000000000e-08,5.00000000000000e-01,0.00000000000000e+00,5.00057760559297e-01
4.66651250712020e-08,5.00000000000000e-01,0.00000000000000e+00,5.00904983773019e-01
4.78551598599444e-08,5.00000000000000e-01,0.00000000000000e+00,1.12263378769117e-01
4.94538808690620e-08,5.00000000000000e-01,0.00000000000000e+00,-5.17327642773170e-02
5.16449430949239e-08,5.00000000000000e-01,0.00000000000000e+00,5.43150820745915e-02
5.51000000000000e-08,5.00000000000000e-01,0.00000000000000e+00,-3.71714890224619e-02
5.51100000000000e-08,4.50000000000018e-01,0.00000000000000e+00,-3.43844176679494e-02
5.51300000000000e-08,3.50000000000004e-01,0.00000000000000e+00,-2.88763540522864e-02
5.51700000000000e-08,1.50000000000008e-01,0.00000000000000e+00,-1.98356022874913e-02
5.52000000000000e-08,0.00000000000000e+00,0.00000000000000e+00,-1.47816740987726e-02
5.52080000000000e-08,0.00000000000000e+00,0.00000000000000e+00,-1.36218628989202e-02
5.52240000000000e-08,0.00000000000000e+00,0.00000000000000e+00,-1.15064490064592e-02
5.52560000000000e-08,0.00000000000000e+00,0.00000000000000e+00,-8.31509388742074e-03
5.53200000000000e-08,0.00000000000000e+00,0.00000000000000e+00,-4.45715139662353e-03
5.54480000000000e-08,0.00000000000000e+00,0.00000000000000e+00,-1.40039731694132e-03
5.57040000000000e-08,0.00000000000000e+00,0.00000000000000e+00,-1.07245423270255e-04
5.62160000000000e-08,0.00000000000000e+00,0.00000000000000e+00,7.09795381967221e-05
5.69797151726407e-08,0.00000000000000e+00,0.00000000000000e+00,-4.80610168627181e-05
5.85071455179220e-08,0.00000000000000e+00,0.00000000000000e+00,4.10323335884571e-05
6.15620062084847e-08,0.00000000000000e+00,0.00000000000000e+00,-3.48729896308378e-05
6.50000000000000e-08,0.00000000000000e+00,0.00000000000000e+00,3.36227050030890e-05
6.50100000000000e-08,4.99999999999905e-02,0.00000000000000e+00,1.15585726016360e-04
6.50300000000000e-08,1.49999999999972e-01,0.00000000000000e+00,2.36351097420803e-04
6.50700000000000e-08,3.49999999999934e-01,0.00000000000000e+00,2.72631855035337e-04
6.51000000000000e-08,4.99999999999971e-01,0.00000000000000e+00,1.68518047943517e-04
6.51080000000000e-08,5.00000000000000e-01,0.00000000000000e+00,9.70238183349362e-05
6.51240000000000e-08,5.00000000000000e-01,0.00000000000000e+00,-2.26334990978266e-05
6.51560000000000e-08,5.00000000000000e-01,0.00000000000000e+00,-1.59445407818357e-04
6.52200000000000e-08,5.00000000000000e-01,0.00000000000000e+00,-1.81299168542745e-04
6.53480000000000e-08,5.00000000000000e-01,0.00000000000000e+00,-7.99899561692158e-05
6.56040000000000e-08,5.00000000000000e-01,0.00000000000000e+00,-6.95352502019797e-06
6.61159999999999e-08,5.00000000000000e-01,0.00000000000000e+00,1.91401781914086e-05
6.71399999999999e-08,5.00000000000000e-01,0.00000000000000e+00,5.16809481209551e-06
6.91879999999998e-08,5.00000000000000e-01,0.00000000000000e+00,-2.81298754689369e-06
7.20975372829975e-08,5.00000000000000e-01,0.00000000000000e+00,9.19903829212521e-06
7.51000000000000e-08,5.00000000000000e-01,0.00000000000000e+00,-5.29751778084861e-06
7.51100000000000e-08,4.50000000000051e-01,0.00000000000000e+00,-5.35939452725176e-05
7.51300000000000e-08,3.50000000000070e-01,0.00000000000000e+00,-1.34828739528914e-04
7.51700000000000e-08,1.50000000000108e-01,0.00000000000000e+00,-2.03528242636572e-04
7.52000000000000e-08,6.99995617026161e-14,0.00000000000000e+00,-4.10844348034192e-05
7.52080000000000e-08,0.00000000000000e+00,0.00000000000000e+00,8.74098901868861e-05
7.52240000000000e-08,0.00000000000000e+00,0.00000000000000e+00,2.72104519103547e-04
7.52560000000000e-08,0.00000000000000e+00,0.00000000000000e+00,3.87108780886852e-04
7.53200000000000e-08,0.00000000000000e+00,0.00000000000000e+00,2.89325369004896e-04
7.54480000000000e-08,0.00000000000000e+00,0.00000000000000e+00,-6.36706305019580e-05
7.57040000000000e-08,0.00000000000000e+00,0.00000000000000e+00,-1.50388692158703e-04
7.62159999999999e-08,0.00000000000000e+00,0.00000000000000e+00,7.87450529770792e-05
7.69815298708636e-08,0.00000000000000e+00,0.00000000000000e+00,-4.75873810923538e-05
7.85125896125909e-08,0.00000000000000e+00,0.00000000000000e+00,3.86779481816035e-05
8.15747090960454e-08,0.00000000000000e+00,0.00000000000000e+00,-3.18454830275901e-05
8.50000000000000e-08,0.00000000000000e+00,0.00000000000000e+00,3.01119502396602e-05
8.50100000000000e-08,4.99999999999905e-02,0.00000000000000e+00,1.14344280737047e-04
8.50300000000000e-08,1.49999999999972e-01,0.00000000000000e+00,2.37493659286638e-04
8.50700000000000e-08,3.49999999999934e-01,0.00000000000000e+00,2.74234280626812e-04
8.51000000000000e-08,4.99999999999971e-01,0.00000000000000e+00,1.70147941586624e-04
8.51080000000000e-08,5.00000000000000e-01,0.00000000000000e+00,9.86382634976593e-05
8.51240000000000e-08,5.00000000000000e-01,0.00000000000000e+00,-2.10674308690484e-05
8.51560000000000e-08,5.00000000000000e-01,0.00000000000000e+00,-1.57990780149775e-04
8.52200000000000e-08,5.00000000000000e-01,0.00000000000000e+00,-1.80291876340596e-04
8.53480000000000e-08,5.00000000000000e-01,0.00000000000000e+00,-7.95965278027229e-05
8.56040000000000e-08,5.00000000000000e-01,0.00000000000000e+00,-6.95475098122511e-06
8.61159999999999e-08,5.00000000000000e-01,0.00000000000000e+00,1.91392306197503e-05
8.71399999999999e-08,5.00000000000000e-01,0.00000000000000e+00,5.16849162761866e-06
8.91879999999998e-08,5.00000000000000e-01,0.00000000000000e+00,-2.81353360124213e-06
9.00000000000000e-08,5.00000000000000e-01,0.00000000000000e+00,1.10883738662880e-05
9.00100000000000e-08,5.00000000000000e-01,4.99999999999905e-02,8.48043057714160e-06
9.00300000000000e-08,5.00000000000000e-01,1.49999999999972e-01,5.39341843684010e-06
9.00700000000000e-08,5.00000000000000e-01,3.49999999999934e-01,1.61637039987339e-06
9.01000000000000e-08,5.00000000000000e-01,4.99999999999971e-01,-4.94723451510692e-07
9.01080000000000e-08,5.00000000000000e-01,5.00000000000000e-01,-1.32336766463931e-06
9.01240000000000e-08,5.00000000000000e-01,5.00000000000000e-01,-2.02497563703274e-06
9.01560000000000e-08,5.00000000000000e-01,5.00000000000000e-01,-9.81113034995151e-07
9.02200000000000e-08,5.00000000000000e-01,5.00000000000000e-01,1.77116980969866e-06
9.03480000000000e-08,5.00000000000000e-01,5.00000000000000e-01,4.40742793856100e-06
9.06040000000000e-08,5.00000000000000e-01,5.00000000000000e-01,2.03244355191298e-06
9.11159999999999e-08,5.00000000000000e-01,5.00000000000000e-01,2.55670219254447e-06
9.21388444305901e-08,5.00000000000000e-01,5.00000000000000e-01,2.36976557062632e-06
9.41845332917705e-08,5.00000000000000e-01,5.00000000000000e-01,2.41303055780948e-06
9.51000000000000e-08,5.00000000000000e-01,5.00000000000000e-01,2.16113976203754e-06
9.51100000000000e-08,4.50000000000051e-01,5.00000000000000e-01,-4.94833769035877e-05
9.51300000000000e-08,3.50000000000070e-01,5.00000000000000e-01,-1.34510674357408e-04
9.51700000000000e-08,1.50000000000108e-01,5.00000000000000e-01,-2.05957889510597e-04
9.52000000000000e-08,6.99995617026161e-14,5.00000000000000e-01,-4.42416884345459e-05
9.52080000000000e-08,0.00000000000000e+00,5.00000000000000e-01,8.41747902853018e-05
9.52240000000000e-08,0.00000000000000e+00,5.00000000000000e-01,2.68611828062655e-04
9.52560000000000e-08,0.00000000000000e+00,5.00000000000000e-01,3.83434316610677e-04
9.53200000000000e-08,0.00000000000000e+00,5.00000000000000e-01,2.86763356993264e-04
9.54480000000000e-08,0.00000000000000e+00,5.00000000000000e-01,-6.20833465642193e-05
9.57040000000000e-08,0.00000000000000e+00,5.00000000000000e-01,-1.50403288861296e-04
9.62159999999999e-08,0.00000000000000e+00,5.00000000000000e-01,5.31935211313221e-05
9.69813020289548e-08,0.00000000000000e+00,5.00000000000000e-01,-8.69868276110342e-05
9.82952054327976e-08,0.00000000000000e+00,5.00000000000000e-01,1.30049731150176e-04
1.00923012240483e-07,0.00000000000000e+00,5.00000000000000e-01,-1.26562867337736e-04
1.03885866187203e-07,0.00000000000000e+00,5.00000000000000e-01,1.24882542883655e-04
1.05000000000000e-07,0.00000000000000e+00,5.00000000000000e-01,-1.08999125599004e-04
1.05010000000000e-07,4.99999999999905e-02,5.00000000000000e-01,-4.51996824077372e-06
1.05030000000000e-07,1.49999999999972e-01,5.00000000000000e-01,1.80170921360218e-04
1.05070000000000e-07,3.49999999999934e-01,5.00000000000000e-01,4.18357662519610e-04
1.05100000000000e-07,4.99999999999971e-01,5.00000000000000e-01,4.53119475023314e-04
1.05108000000000e-07,5.00000000000000e-01,5.00000000000000e-01,3.94574002298649e-04
1.05124000000000e-07,5.00000000000000e-01,5.00000000000000e-01,2.66883929164664e-04
1.05156000000000e-07,5.00000000000000e-01,5.00000000000000e-01,-1.19790092059639e-04
1.05220000000000e-07,5.00000000000000e-01,5.00000000000000e-01,-1.32576701668879e-03
1.05348000000000e-07,5.00000000000000e-01,5.00000000000000e-01,-3.50788311794432e-03
1.05604000000000e-07,5.00000000000000e-01,5.00000000000000e-01,-2.10685686974563e-05
1.06116000000000e-07,5.00000000000000e-01,5.00000000000000e-01,3.42625049142938e-01
1.07140000000000e-07,5.00000000000000e-01,5.00000000000000e-01,5.16232559845512e-01
1.08369049048114e-07,5.00000000000000e-01,5.00000000000000e-01,4.86809065692733e-01
1.10827147144341e-07,5.00000000000000e-01,5.00000000000000e-01,5.13225874587804e-01
1.14627147144341e-07,5.00000000000000e-01,5.00000000000000e-01,4.87070901120891e-01
1.15100000000000e-07,5.00000000000000e-01,5.00000000000000e-01,5.10826510861486e-01
1.15110000000000e-07,4.50000000000051e-01,5.00000000000000e-01,5.06871646369591e-01
1.15130000000000e-07,3.50000000000070e-01,5.00000000000000e-01,5.01818511842471e-01
1.15170000000000e-07,1.50000000000108e-01,5.00000000000000e-01,4.99983322535272e-01
1.15200000000000e-07,6.99995617026161e-14,5.00000000000000e-01,5.01291416356380e-01
1.15208000000000e-07,0.00000000000000e+00,5.00000000000000e-01,5.01694082696820e-01
1.15224000000000e-07,0.00000000000000e+00,5.00000000000000e-01,5.02259053454941e-01
1.15256000000000e-07,0.00000000000000e+00,5.00000000000000e-01,5.02634430972415e-01
1.15320000000000e-07,0.00000000000000e+00,5.00000000000000e-01,5.00544808768682e-01
1.15448000000000e-07,0.00000000000000e+00,5.00000000000000e-01,4.87744267956442e-01
1.15704000000000e-07,0.00000000000000e+00,5.00000000000000e-01,4.90695907350302e-01
1.16216000000000e-07,0.00000000000000e+00,5.00000000000000e-01,5.03506024580597e-01
1.17004317583748e-07,0.00000000000000e+00,5.00000000000000e-01,4.96345705306568e-01
1.18552516361702e-07,0.00000000000000e+00,5.00000000000000e-01,5.02773575286122e-01
1.21648913917611e-07,0.00000000000000e+00,5.00000000000000e-01,4.97090865834281e-01
1.25000000000000e-07,0.00000000000000e+00,5.00000000000000e-01,5.02594700046921e-01
1.25010000000000e-07,4.99999999999243e-02,5.00000000000000e-01,5.02077411376233e-01
1.25030000000000e-07,1.49999999999905e-01,5.00000000000000e-01,5.01253799508495e-01
1.25070000000000e-07,3.49999999999867e-01,5.00000000000000e-01,5.00454215476926e-01
1.25100000000000e-07,4.99999999999905e-01,5.00000000000000e-01,5.00220004283988e-01
1.25108000000000e-07,5.00000000000000e-01,4.59999999999955e-01,5.00150277768413e-01
1.25124000000000e-07,5.00000000000000e-01,3.79999999999996e-01,5.00023243126609e-01
1.25156000000000e-07,5.00000000000000e-01,2.19999999999947e-01,4.99786036538816e-01
1.25200000000000e-07,5.00000000000000e-01,0.00000000000000e+00,4.99469424672644e-01
1.25206400000000e-07,5.00000000000000e-01,0.00000000000000e+00,4.99431673026411e-01
1.25219200000000e-07,5.00000000000000e-01,0.00000000000000e+00,4.99359130386483e-01
1.25244800000000e-07,5.00000000000000e-01,0.00000000000000e+00,4.99241784369723e-01
1.25296000000000e-07,5.00000000000000e-01,0.00000000000000e+00,4.99116391196400e-01
1.25398400000000e-07,5.00000000000000e-01,0.00000000000000e+00,4.99160780119176e-01
1.25603200000000e-07,5.00000000000000e-01,0.00000000000000e+00,4.99565032851973e-01
1.26012800000000e-07,5.00000000000000e-01,0.00000000000000e+00,5.00057761734100e-01
1.26665125025769e-07,5.00000000000000e-01,0.00000000000000e+00,5.00904985960076e-01
1.27855158405431e-07,5.00000000000000e-01,0.00000000000000e+00,1.12263512345411e-01
1.29453879602417e-07,5.00000000000000e-01,0.00000000000000e+00,-5.17327997124006e-02
1.31644939539243e-07,5.00000000000000e-01,0.00000000000000e+00,5.43151177826886e-02
1.35100000000000e-07,4.99999999999909e-01,0.00000000000000e+00,-3.71715123918172e-02
1.35110000000000e-07,4.49999999999852e-01,0.00000000000000e+00,-3.43844388436515e-02
1.35130000000000e-07,3.49999999999871e-01,0.00000000000000e+00,-2.88763716413721e-02
1.35170000000000e-07,1.49999999999909e-01,0.00000000000000e+00,-1.98356142081323e-02
1.35200000000000e-07,0.00000000000000e+00,0.00000000000000e+00,-1.47816831076329e-02
1.35208000000000e-07,0.00000000000000e+00,0.00000000000000e+00,-1.36218712969143e-02
1.35224000000000e-07,0.00000000000000e+00,0.00000000000000e+00,-1.15064562584564e-02
1.35256000000000e-07,0.00000000000000e+00,0.00000000000000e+00,-8.31509928655115e-03
1.35320000000000e-07,0.00000000000000e+00,0.00000000000000e+00,-4.45715460295776e-03
1.35448000000000e-07,0.00000000000000e+00,0.00000000000000e+00,-1.40039929758327e-03
1.35704000000000e-07,0.00000000000000e+00,0.00000000000000e+00,-1.07245939405261e-04
1.36216000000000e-07,0.00000000000000e+00,0.00000000000000e+00,7.09798541164083e-05
1.36979715190378e-07,0.00000000000000e+00,0.00000000000000e+00,-4.80612530252313e-05
1.38507145571132e-07,0.00000000000000e+00,0.00000000000000e+00,4.10325374351666e-05
1.41562006332642e-07,0.00000000000000e+00,0.00000000000000e+00,-3.48731797127412e-05
