Time,v(clk),v(data),v(out)
1.00000000000000e-08,5.00000000000000e-01,0.00000000000000e+00,2.80916721598530e-05
1.00100000000000e-08,5.00000000000000e-01,4.99999999999988e-02,2.91926309783155e-05
1.00300000000000e-08,5.00000000000000e-01,1.49999999999996e-01,2.98883697005259e-05
1.00700000000000e-08,5.00000000000000e-01,3.49999999999992e-01,2.90226928371107e-05
1.01000000000000e-08,5.00000000000000e-01,4.99999999999996e-01,2.65140983854162e-05
1.01080000000000e-08,5.00000000000000e-01,5.00000000000000e-01,2.55848866421993e-05
1.01240000000000e-08,5.00000000000000e-01,5.00000000000000e-01,2.44842464219922e-05
1.01560000000000e-08,5.00000000000000e-01,5.00000000000000e-01,2.44234775973046e-05
1.02200000000000e-08,5.00000000000000e-01,5.00000000000000e-01,2.57567056734243e-05
1.03480000000000e-08,5.00000000000000e-01,5.00000000000000e-01,2.77438286733975e-05
1.06040000000000e-08,5.00000000000000e-01,5.00000000000000e-01,2.73948314496210e-05
1.11160000000000e-08,5.00000000000000e-01,5.00000000000000e-01,2.41307581929084e-05
1.21400000000000e-08,5.00000000000000e-01,5.00000000000000e-01,2.53110560181138e-05
1.40719947931550e-08,5.00000000000000e-01,5.00000000000000e-01,2.34940183274921e-05
1.51000000000000e-08,5.00000000000000e-01,5.00000000000000e-01,2.41375941484965e-05
1.51100000000000e-08,4.49999999999993e-01,5.00000000000000e-01,-2.73666170618955e-05
1.51300000000000e-08,3.49999999999995e-01,5.00000000000000e-01,-1.21080773014662e-04
1.51700000000000e-08,1.50000000000000e-01,5.00000000000000e-01,-2.08411494480247e-04
1.52000000000000e-08,0.00000000000000e+00,5.00000000000000e-01,-7.09138267710047e-05
1.52080000000000e-08,0.00000000000000e+00,5.00000000000000e-01,4.88403448341349e-05
1.52240000000000e-08,0.00000000000000e+00,5.00000000000000e-01,2.33147195961597e-04
1.52560000000000e-08,0.00000000000000e+00,5.00000000000000e-01,3.91019929188691e-04
1.53200000000000e-08,0.00000000000000e+00,5.00000000000000e-01,3.75994979719511e-04
1.54480000000000e-08,0.00000000000000e+00,5.00000000000000e-01,2.24460332040113e-05
1.57040000000000e-08,0.00000000000000e+00,5.00000000000000e-01,-2.40141733509822e-04
1.62160000000000e-08,0.00000000000000e+00,5.00000000000000e-01,8.83215179370046e-05
1.70065767568042e-08,0.00000000000000e+00,5.00000000000000e-01,-1.34948816227958e-04
1.85877302704127e-08,0.00000000000000e+00,5.00000000000000e-01,1.66497812172253e-04
2.08529874864567e-08,0.00000000000000e+00,5.00000000000000e-01,-5.11637128644696e-05
2.40551070345233e-08,0.00000000000000e+00,5.00000000000000e-01,5.59795853695456e-05
2.50000000000000e-08,0.00000000000000e+00,5.00000000000000e-01,5.19586324935692e-05
2.50100000000000e-08,4.99999999999905e-02,5.00000000000000e-01,1.38682072247889e-04
2.50300000000000e-08,1.50000000000005e-01,5.00000000000000e-01,2.96768177129855e-04
2.50700000000000e-08,3.50000000000000e-01,5.00000000000000e-01,5.36479953897974e-04
2.51000000000000e-08,5.00000000000000e-01,5.00000000000000e-01,6.16864116662466e-04
2.51080000000000e-08,5.00000000000000e-01,5.00000000000000e-01,5.75865822491986e-04
2.51240000000000e-08,5.00000000000000e-01,5.00000000000000e-01,4.99012296451801e-04
2.51560000000000e-08,5.00000000000000e-01,5.00000000000000e-01,3.65292160817057e-04
2.52200000000000e-08,5.00000000000000e-01,5.00000000000000e-01,9.26337895176127e-06
2.53480000000000e-08,5.00000000000000e-01,5.00000000000000e-01,-1.39876644011728e-03
2.56040000000000e-08,5.00000000000000e-01,5.00000000000000e-01,-3.72601214751068e-03
2.61160000000000e-08,5.00000000000000e-01,5.00000000000000e-01,9.37971208342481e-02
2.71400000000000e-08,5.00000000000000e-01,5.00000000000000e-01,4.81995297161146e-01
2.91880000000000e-08,5.00000000000000e-01,5.00000000000000e-01,5.06066710975087e-01
3.01000000000000e-08,5.00000000000000e-01,5.00000000000000e-01,4.93848053765305e-01
3.01100000000000e-08,5.00000000000000e-01,4.50000000000026e-01,4.95609361339280e-01
3.01300000000000e-08,5.00000000000000e-01,3.50000000000012e-01,4.98109011975860e-01
3.01700000000000e-08,5.00000000000000e-01,1.50000000000017e-01,4.99737281606778e-01
3.02000000000000e-08,5.00000000000000e-01,1.21014309684142e-14,4.99903981738726e-01
3.02080000000000e-08,5.00000000000000e-01,0.00000000000000e+00,4.99918384034627e-01
3.02240000000000e-08,5.00000000000000e-01,0.00000000000000e+00,4.99935645067207e-01
3.02560000000000e-08,5.00000000000000e-01,0.00000000000000e+00,4.99945231696827e-01
3.03200000000000e-08,5.00000000000000e-01,0.00000000000000e+00,4.99946376413870e-01
3.04480000000000e-08,5.00000000000000e-01,0.00000000000000e+00,4.99947059292849e-01
3.07040000000000e-08,5.00000000000000e-01,0.00000000000000e+00,4.99971440094496e-01
3.12160000000000e-08,5.00000000000000e-01,0.00000000000000e+00,4.99965755529586e-01
3.20044699111680e-08,5.00000000000000e-01,0.00000000000000e+00,4.99976543189743e-01
3.34940283646120e-08,5.00000000000000e-01,0.00000000000000e+00,4.99970846088204e-01
3.51000000000000e-08,4.99999999999975e-01,0.00000000000000e+00,4.99980035596728e-01
3.51100000000000e-08,4.49999999999985e-01,0.00000000000000e+00,4.99929653613982e-01
3.51300000000000e-08,3.49999999999971e-01,0.00000000000000e+00,4.99860327460198e-01
3.51700000000000e-08,1.49999999999975e-01,0.00000000000000e+00,5.00139325259407e-01
3.52000000000000e-08,0.00000000000000e+00,0.00000000000000e+00,5.01331183119079e-01
3.52080000000000e-08,0.00000000000000e+00,0.00000000000000e+00,5.01728436293365e-01
3.52240000000000e-08,0.00000000000000e+00,0.00000000000000e+00,5.02300054963013e-01
3.52560000000000e-08,0.00000000000000e+00,0.00000000000000e+00,5.02683622446616e-01
3.53200000000000e-08,0.00000000000000e+00,0.00000000000000e+00,5.01472676285113e-01
3.54480000000000e-08,0.00000000000000e+00,0.00000000000000e+00,4.91144895308849e-01
3.57040000000000e-08,0.00000000000000e+00,0.00000000000000e+00,4.88421637209142e-01
3.62160000000000e-08,0.00000000000000e+00,0.00000000000000e+00,5.01744856284557e-01
3.70090262988314e-08,0.00000000000000e+00,0.00000000000000e+00,4.97466236049631e-01
3.85155120100958e-08,0.00000000000000e+00,0.00000000000000e+00,5.01512425792155e-01
3.91000000000000e-08,0.00000000000000e+00,0.00000000000000e+00,4.98466402023865e-01
3.93083108813825e-08,0.00000000000000e+00,0.00000000000000e+00,4.99539290451902e-01
3.97249326441475e-08,0.00000000000000e+00,0.00000000000000e+00,4.99948683570188e-01
4.05581761696775e-08,0.00000000000000e+00,0.00000000000000e+00,4.99704240901524e-01
4.22246632207376e-08,0.00000000000000e+00,0.00000000000000e+00,4.99967978188148e-01
4.50000000000000e-08,0.00000000000000e+00,0.00000000000000e+00,4.99790992199029e-01
4.50100000000000e-08,4.99999999999905e-02,0.00000000000000e+00,4.99861051715437e-01
4.50300000000000e-08,1.50000000000005e-01,0.00000000000000e+00,4.99954081246379e-01
4.50700000000000e-08,3.50000000000000e-01,0.00000000000000e+00,4.99981269705418e-01
4.51000000000000e-08,5.00000000000000e-01,0.00000000000000e+00,4.99925877828459e-01
4.51080000000000e-08,5.00000000000000e-01,0.00000000000000e+00,4.99880225820640e-01
4.51240000000000e-08,5.00000000000000e-01,0.00000000000000e+00,4.99814669624541e-01
4.51560000000000e-08,5.00000000000000e-01,0.00000000000000e+00,4.99777333649434e-01
4.52200000000000e-08,5.00000000000000e-01,0.00000000000000e+00,4.99807725873228e-01
4.53480000000000e-08,5.00000000000000e-01,0.00000000000000e+00,4.99855713518007e-01
4.56040000000000e-08,5.00000000000000e-01,0.00000000000000e+00,4.99881834465654e-01
4.61160000000000e-08,5.00000000000000e-01,0.00000000000000e+00,5.03032532645319e-01
4.71400000000000e-08,5.00000000000000e-01,0.00000000000000e+00,1.97069069524666e-01
4.73908896626783e-08,5.00000000000000e-01,0.00000000000000e+00,8.83346910231517e-02
4.78926689880350e-08,5.00000000000000e-01,0.00000000000000e+00,-7.15042036896675e-03
4.88962276387482e-08,5.00000000000000e-01,0.00000000000000e+00,3.66585688877386e-03
5.00000000000000e-08,5.00000000000000e-01,0.00000000000000e+00,-1.91103082978410e-03
5.00100000000000e-08,5.00000000000000e-01,4.99999999999905e-02,-1.77690683466244e-03
5.00300000000000e-08,5.00000000000000e-01,1.49999999999972e-01,-1.55082576410320e-03
5.00700000000000e-08,5.00000000000000e-01,3.50000000000000e-01,-1.21295854067409e-03
5.01000000000000e-08,5.00000000000000e-01,5.00000000000000e-01,-1.01759075224057e-03
5.01080000000000e-08,5.00000000000000e-01,5.00000000000000e-01,-9.71003730868829e-04
5.01240000000000e-08,5.00000000000000e-01,5.00000000000000e-01,-8.78855148711596e-04
5.01560000000000e-08,5.00000000000000e-01,5.00000000000000e-01,-7.20140506266349e-04
5.02200000000000e-08,5.00000000000000e-01,5.00000000000000e-01,-4.83247416951278e-04
5.03480000000000e-08,5.00000000000000e-01,5.00000000000000e-01,-2.03965213623654e-04
5.06040000000000e-08,5.00000000000000e-01,5.00000000000000e-01,-1.35846566769252e-05
5.11160000000001e-08,5.00000000000000e-01,5.00000000000000e-01,2.36498411540359e-05
5.21400000000002e-08,5.00000000000000e-01,5.00000000000000e-01,1.41941479652897e-05
5.41880000000003e-08,5.00000000000000e-01,5.00000000000000e-01,2.06043768560347e-05
5.51000000000000e-08,5.00000000000000e-01,5.00000000000000e-01,1.78592870295584e-05
5.51100000000000e-08,4.50000000000018e-01,5.00000000000000e-01,-3.39286047109574e-05
5.51300000000000e-08,3.50000000000004e-01,5.00000000000000e-01,-1.25146627072664e-04
5.51700000000000e-08,1.50000000000008e-01,5.00000000000000e-01,-2.04667501054481e-04
5.52000000000000e-08,0.00000000000000e+00,5.00000000000000e-01,-7.33989092051995e-05
5.52080000000000e-08,0.00000000000000e+00,5.00000000000000e-01,4.50622733054601e-05
5.52240000000000e-08,0.00000000000000e+00,5.00000000000000e-01,2.22785772924748e-04
5.52560000000000e-08,0.00000000000000e+00,5.00000000000000e-01,3.63458807586030e-04
5.53200000000000e-08,0.00000000000000e+00,5.00000000000000e-01,2.95916998087363e-04
5.54480000000000e-08,0.00000000000000e+00,5.00000000000000e-01,-5.59480317669642e-04
5.57040000000000e-08,0.00000000000000e+00,5.00000000000000e-01,-1.01088502065100e-03
5.62160000000000e-08,0.00000000000000e+00,5.00000000000000e-01,1.40373749314665e-04
5.70045337635361e-08,0.00000000000000e+00,5.00000000000000e-01,-1.33682129057464e-04
5.85816012906083e-08,0.00000000000000e+00,5.00000000000000e-01,1.60687561519377e-04
6.08389046512957e-08,0.00000000000000e+00,5.00000000000000e-01,-4.48820741841575e-05
6.40356837489574e-08,0.00000000000000e+00,5.00000000000000e-01,5.08268128843921e-05
6.50000000000000e-08,0.00000000000000e+00,5.00000000000000e-01,5.12887162226559e-05
6.50100000000000e-08,4.99999999999905e-02,5.00000000000000e-01,1.45889964565528e-04
6.50300000000000e-08,1.49999999999972e-01,5.00000000000000e-01,3.12463093912176e-04
6.50700000000000e-08,3.49999999999934e-01,5.00000000000000e-01,5.49141515386625e-04
6.51000000000000e-08,4.99999999999971e-01,5.00000000000000e-01,6.25335710990535e-04
6.51080000000000e-08,5.00000000000000e-01,5.00000000000000e-01,5.83497338193927e-04
6.51240000000000e-08,5.00000000000000e-01,5.00000000000000e-01,5.05111842041488e-04
6.51560000000000e-08,5.00000000000000e-01,5.00000000000000e-01,3.68951805749897e-04
6.52200000000000e-08,5.00000000000000e-01,5.00000000000000e-01,9.41469483766583e-06
6.53480000000000e-08,5.00000000000000e-01,5.00000000000000e-01,-1.40171722242190e-03
6.56040000000000e-08,5.00000000000000e-01,5.00000000000000e-01,-3.72709168475980e-03
6.61159999999999e-08,5.00000000000000e-01,5.00000000000000e-01,9.38620493004449e-02
6.71399999999999e-08,5.00000000000000e-01,5.00000000000000e-01,4.82011745615486e-01
6.91879999999998e-08,5.00000000000000e-01,5.00000000000000e-01,5.06061585589587e-01
7.01000000000000e-08,5.00000000000000e-01,5.00000000000000e-01,4.93853519870660e-01
7.01100000000000e-08,5.00000000000000e-01,4.50000000000010e-01,4.95613236870070e-01
7.01300000000000e-08,5.00000000000000e-01,3.50000000000028e-01,4.98110625622933e-01
7.01700000000000e-08,5.00000000000000e-01,1.50000000000066e-01,4.99737415781578e-01
7.02000000000000e-08,5.00000000000000e-01,2.86437540353290e-14,4.99904001789027e-01
7.02080000000000e-08,5.00000000000000e-01,0.00000000000000e+00,4.99918394169981e-01
7.02240000000000e-08,5.00000000000000e-01,0.00000000000000e+00,4.99935642652713e-01
7.02560000000000e-08,5.00000000000000e-01,0.00000000000000e+00,4.99945225820069e-01
7.03200000000000e-08,5.00000000000000e-01,0.00000000000000e+00,4.99946374603219e-01
7.04480000000000e-08,5.00000000000000e-01,0.00000000000000e+00,4.99947065298507e-01
7.07040000000000e-08,5.00000000000000e-01,0.00000000000000e+00,4.99971442550933e-01
7.12159999999999e-08,5.00000000000000e-01,0.00000000000000e+00,4.99965760099439e-01
7.20044705919797e-08,5.00000000000000e-01,0.00000000000000e+00,4.99976544000409e-01
7.34940443094482e-08,5.00000000000000e-01,0.00000000000000e+00,4.99970850541476e-01
7.51000000000000e-08,5.00000000000000e-01,0.00000000000000e+00,4.99980035395243e-01
7.51100000000000e-08,4.50000000000051e-01,0.00000000000000e+00,4.99929649540135e-01
7.51300000000000e-08,3.50000000000070e-01,0.00000000000000e+00,4.99860319544928e-01
7.51700000000000e-08,1.50000000000108e-01,0.00000000000000e+00,5.00139323133984e-01
7.52000000000000e-08,6.99995617026161e-14,0.00000000000000e+00,5.01331183854479e-01
7.52080000000000e-08,0.00000000000000e+00,0.00000000000000e+00,5.01728436739326e-01
7.52240000000000e-08,0.00000000000000e+00,0.00000000000000e+00,5.02300055743679e-01
7.52560000000000e-08,0.00000000000000e+00,0.00000000000000e+00,5.02683637607174e-01
7.53200000000000e-08,0.00000000000000e+00,0.00000000000000e+00,5.01472793290770e-01
7.54480000000000e-08,0.00000000000000e+00,0.00000000000000e+00,4.91145205093192e-01
7.57040000000000e-08,0.00000000000000e+00,0.00000000000000e+00,4.88421714277914e-01
7.62159999999999e-08,0.00000000000000e+00,0.00000000000000e+00,5.01744782177600e-01
7.70090263042725e-08,0.00000000000000e+00,0.00000000000000e+00,4.97466300265001e-01
7.81000000000000e-08,0.00000000000000e+00,0.00000000000000e+00,5.01391320029533e-01
7.82506485533744e-08,0.00000000000000e+00,0.00000000000000e+00,5.00097235593534e-01
7.85519456601232e-08,0.00000000000000e+00,0.00000000000000e+00,4.99523547005891e-01
7.91545398736208e-08,0.00000000000000e+00,0.00000000000000e+00,4.99919708008783e-01
8.03597283006160e-08,0.00000000000000e+00,0.00000000000000e+00,4.99686254024217e-01
8.27701051546064e-08,0.00000000000000e+00,0.00000000000000e+00,4.99988565960228e-01
8.50000000000000e-08,0.00000000000000e+00,0.00000000000000e+00,4.99780976265987e-01
8.50100000000000e-08,4.99999999999905e-02,0.00000000000000e+00,4.99859403604322e-01
8.50300000000000e-08,1.49999999999972e-01,0.00000000000000e+00,4.99962907889300e-01
8.50700000000000e-08,3.49999999999934e-01,0.00000000000000e+00,4.99990768871092e-01
8.51000000000000e-08,4.99999999999971e-01,0.00000000000000e+00,4.99931574918356e-01
8.51080000000000e-08,5.00000000000000e-01,0.00000000000000e+00,4.99886829341765e-01
8.51240000000000e-08,5.00000000000000e-01,0.00000000000000e+00,4.99821833955432e-01
8.51560000000000e-08,5.00000000000000e-01,0.00000000000000e+00,4.99781225152779e-01
8.52200000000000e-08,5.00000000000000e-01,0.00000000000000e+00,4.99805940714725e-01
8.53480000000000e-08,5.00000000000000e-01,0.00000000000000e+00,4.99852913458276e-01
8.56040000000000e-08,5.00000000000000e-01,0.00000000000000e+00,4.99877949342138e-01
8.61159999999999e-08,5.00000000000000e-01,0.00000000000000e+00,5.03037152151201e-01
8.71399999999999e-08,5.00000000000000e-01,0.00000000000000e+00,1.97020665069590e-01
8.73906320652799e-08,5.00000000000000e-01,0.00000000000000e+00,8.83662615006951e-02
8.78918961958399e-08,5.00000000000000e-01,0.00000000000000e+00,-7.11136215600569e-03
8.88944244569599e-08,5.00000000000000e-01,0.00000000000000e+00,3.64263737537460e-03
9.00000000000000e-08,5.00000000000000e-01,0.00000000000000e+00,-1.90124676907093e-03
9.00100000000000e-08,5.00000000000000e-01,4.99999999999905e-02,-1.76768207275841e-03
9.00300000000000e-08,5.00000000000000e-01,1.49999999999972e-01,-1.54260419193645e-03
9.00700000000000e-08,5.00000000000000e-01,3.49999999999934e-01,-1.20648458890073e-03
9.01000000000000e-08,5.00000000000000e-01,4.99999999999971e-01,-1.01216933035004e-03
9.01080000000000e-08,5.00000000000000e-01,5.00000000000000e-01,-9.65831484364701e-04
9.01240000000000e-08,5.00000000000000e-01,5.00000000000000e-01,-8.74168711727366e-04
9.01560000000000e-08,5.00000000000000e-01,5.00000000000000e-01,-7.16278014422832e-04
9.02200000000000e-08,5.00000000000000e-01,5.00000000000000e-01,-4.80613197257833e-04
9.03480000000000e-08,5.00000000000000e-01,5.00000000000000e-01,-2.02796107163533e-04
9.06040000000000e-08,5.00000000000000e-01,5.00000000000000e-01,-1.34111427951833e-05
9.11159999999999e-08,5.00000000000000e-01,5.00000000000000e-01,2.36019988191921e-05
9.21399999999999e-08,5.00000000000000e-01,5.00000000000000e-01,1.42209531866881e-05
9.41879999999998e-08,5.00000000000000e-01,5.00000000000000e-01,2.05751896338226e-05
9.51000000000000e-08,5.00000000000000e-01,5.00000000000000e-01,1.78616400653923e-05
9.51100000000000e-08,4.50000000000051e-01,5.00000000000000e-01,-3.39274619010344e-05
9.51300000000000e-08,3.50000000000070e-01,5.00000000000000e-01,-1.25146255769669e-04
9.51700000000000e-08,1.50000000000108e-01,5.00000000000000e-01,-2.04666236445321e-04
9.52000000000000e-08,6.99995617026161e-14,5.00000000000000e-01,-7.33994944423014e-05
9.52080000000000e-08,0.00000000000000e+00,5.00000000000000e-01,4.50612159348732e-05
9.52240000000000e-08,0.00000000000000e+00,5.00000000000000e-01,2.22783536029149e-04
9.52560000000000e-08,0.00000000000000e+00,5.00000000000000e-01,3.63452132577075e-04
9.53200000000000e-08,0.00000000000000e+00,5.00000000000000e-01,2.95877821650477e-04
9.54480000000000e-08,0.00000000000000e+00,5.00000000000000e-01,-5.59833228115328e-04
9.57040000000000e-08,0.00000000000000e+00,5.00000000000000e-01,-1.01159696487502e-03
9.62159999999999e-08,0.00000000000000e+00,5.00000000000000e-01,1.40285072807271e-04
9.70045328258321e-08,0.00000000000000e+00,5.00000000000000e-01,-1.33574168067906e-04
9.85815984774965e-08,0.00000000000000e+00,5.00000000000000e-01,1.60592081452305e-04
1.00838897791001e-07,0.00000000000000e+00,5.00000000000000e-01,-4.47968552847134e-05
1.04035674688123e-07,0.00000000000000e+00,5.00000000000000e-01,5.07481359670646e-05
1.05000000000000e-07,0.00000000000000e+00,5.00000000000000e-01,5.13448356486545e-05
1.05010000000000e-07,4.99999999999905e-02,5.00000000000000e-01,1.45940494615054e-04
1.05030000000000e-07,1.49999999999972e-01,5.00000000000000e-01,3.12503394558426e-04
1.05070000000000e-07,3.49999999999934e-01,5.00000000000000e-01,5.49166939394850e-04
1.05100000000000e-07,4.99999999999971e-01,5.00000000000000e-01,6.25354204165068e-04
1.05108000000000e-07,5.00000000000000e-01,5.00000000000000e-01,5.83514324591847e-04
1.05124000000000e-07,5.00000000000000e-01,5.00000000000000e-01,5.05126045034741e-04
1.05156000000000e-07,5.00000000000000e-01,5.00000000000000e-01,3.68961560545743e-04
1.05220000000000e-07,5.00000000000000e-01,5.00000000000000e-01,9.41859532840178e-06
1.05348000000000e-07,5.00000000000000e-01,5.00000000000000e-01,-1.40171810676878e-03
1.05604000000000e-07,5.00000000000000e-01,5.00000000000000e-01,-3.72709266728840e-03
1.06116000000000e-07,5.00000000000000e-01,5.00000000000000e-01,9.38620749600052e-02
1.07140000000000e-07,5.00000000000000e-01,5.00000000000000e-01,4.82011752062260e-01
1.09188000000000e-07,5.00000000000000e-01,5.00000000000000e-01,5.06061583573690e-01
1.10100000000000e-07,5.00000000000000e-01,5.00000000000000e-01,4.93853522014079e-01
1.10110000000000e-07,5.00000000000000e-01,4.50000000000076e-01,4.95613238387629e-01
1.10130000000000e-07,5.00000000000000e-01,3.50000000000095e-01,4.98110626251209e-01
1.10170000000000e-07,5.00000000000000e-01,1.50000000000133e-01,4.99737415832141e-01
1.10200000000000e-07,5.00000000000000e-01,9.48130463029884e-14,4.99904001797095e-01
1.10208000000000e-07,5.00000000000000e-01,0.00000000000000e+00,4.99918394174093e-01
1.10224000000000e-07,5.00000000000000e-01,0.00000000000000e+00,4.99935642651855e-01
