Time,v(clk),v(data),v(out),v(reset)
1.00000000000000e-08,5.00000000000000e-01,0.00000000000000e+00,6.20848734534128e-03,0.00000000000000e+00
1.00100000000000e-08,5.00000000000000e-01,4.99999999999988e-02,5.40174704501799e-03,0.00000000000000e+00
1.00300000000000e-08,5.00000000000000e-01,1.49999999999996e-01,4.17666880434261e-03,0.00000000000000e+00
1.00700000000000e-08,5.00000000000000e-01,3.49999999999992e-01,2.84606351302753e-03,0.00000000000000e+00
1.01000000000000e-08,5.00000000000000e-01,4.99999999999996e-01,2.18770734515130e-03,0.00000000000000e+00
1.01080000000000e-08,5.00000000000000e-01,5.00000000000000e-01,2.04061130434568e-03,0.00000000000000e+00
1.01240000000000e-08,5.00000000000000e-01,5.00000000000000e-01,1.73847872280279e-03,0.00000000000000e+00
1.01560000000000e-08,5.00000000000000e-01,5.00000000000000e-01,1.30459817000832e-03,0.00000000000000e+00
1.02200000000000e-08,5.00000000000000e-01,5.00000000000000e-01,7.24326313664966e-04,0.00000000000000e+00
1.03480000000000e-08,5.00000000000000e-01,5.00000000000000e-01,7.03103123364628e-05,0.00000000000000e+00
1.06040000000000e-08,5.00000000000000e-01,5.00000000000000e-01,1.39423706046332e-06,0.00000000000000e+00
1.11160000000000e-08,5.00000000000000e-01,5.00000000000000e-01,-2.48681096855739e-06,0.00000000000000e+00
1.21400000000000e-08,5.00000000000000e-01,5.00000000000000e-01,5.35574552224145e-06,0.00000000000000e+00
1.41880000000000e-08,5.00000000000000e-01,5.00000000000000e-01,-2.75085280129067e-06,0.00000000000000e+00
1.51000000000000e-08,5.00000000000000e-01,5.00000000000000e-01,5.25102942305726e-06,0.00000000000000e+00
1.51100000000000e-08,4.49999999999993e-01,5.00000000000000e-01,1.88720396182479e-04,5.00000000000071e-02
1.51300000000000e-08,3.49999999999995e-01,5.00000000000000e-01,4.51435760094501e-04,1.50000000000005e-01
1.51700000000000e-08,1.50000000000000e-01,5.00000000000000e-01,4.72704918748935e-04,3.50000000000000e-01
1.52000000000000e-08,0.00000000000000e+00,5.00000000000000e-01,3.13991426884069e-04,5.00000000000000e-01
1.52080000000000e-08,0.00000000000000e+00,5.00000000000000e-01,2.55252229987936e-04,5.00000000000000e-01
1.52240000000000e-08,0.00000000000000e+00,5.00000000000000e-01,1.59864216360779e-04,5.00000000000000e-01
1.52560000000000e-08,0.00000000000000e+00,5.00000000000000e-01,6.08219684434044e-05,5.00000000000000e-01
1.53200000000000e-08,0.00000000000000e+00,5.00000000000000e-01,7.86130453812178e-06,5.00000000000000e-01
1.54480000000000e-08,0.00000000000000e+00,5.00000000000000e-01,-2.08345335248050e-07,5.00000000000000e-01
1.57040000000000e-08,0.00000000000000e+00,5.00000000000000e-01,-1.13890267644155e-04,5.00000000000000e-01
1.62160000000000e-08,0.00000000000000e+00,5.00000000000000e-01,-5.96105078655255e-05,5.00000000000000e-01
1.70844740146238e-08,0.00000000000000e+00,5.00000000000000e-01,-3.47544494131175e-05,5.00000000000000e-01
1.86853720756194e-08,0.00000000000000e+00,5.00000000000000e-01,2.32244470478081e-05,5.00000000000000e-01
2.07458316527433e-08,0.00000000000000e+00,5.00000000000000e-01,4.60123620814644e-05,5.00000000000000e-01
2.45458316527433e-08,0.00000000000000e+00,5.00000000000000e-01,-6.99630638646637e-05,5.00000000000000e-01
2.50000000000000e-08,0.00000000000000e+00,5.00000000000000e-01,1.10597145062348e-04,5.00000000000000e-01
2.50100000000000e-08,4.99999999999905e-02,5.00000000000000e-01,2.08868317552915e-04,5.00000000000000e-01
2.50300000000000e-08,1.50000000000005e-01,5.00000000000000e-01,3.81391658011238e-04,5.00000000000000e-01
2.50700000000000e-08,3.50000000000000e-01,5.00000000000000e-01,5.82895252038716e-04,5.00000000000000e-01
2.51000000000000e-08,5.00000000000000e-01,5.00000000000000e-01,5.91426727544614e-04,5.00000000000000e-01
2.51080000000000e-08,5.00000000000000e-01,5.00000000000000e-01,5.31623340128795e-04,5.00000000000000e-01
2.51240000000000e-08,5.00000000000000e-01,5.00000000000000e-01,4.15144092926992e-04,5.00000000000000e-01
2.51560000000000e-08,5.00000000000000e-01,5.00000000000000e-01,1.26184455186078e-04,5.00000000000000e-01
2.52200000000000e-08,5.00000000000000e-01,5.00000000000000e-01,-9.41492968328787e-04,5.00000000000000e-01
2.53480000000000e-08,5.00000000000000e-01,5.00000000000000e-01,-3.26901878147115e-03,5.00000000000000e-01
2.56040000000000e-08,5.00000000000000e-01,5.00000000000000e-01,-4.85804263037231e-03,5.00000000000000e-01
2.61160000000000e-08,5.00000000000000e-01,5.00000000000000e-01,1.86773441505923e-01,5.00000000000000e-01
2.71400000000000e-08,5.00000000000000e-01,5.00000000000000e-01,5.03439539211962e-01,5.00000000000000e-01
2.89496358297539e-08,5.00000000000000e-01,5.00000000000000e-01,4.97408551483926e-01,5.00000000000000e-01
3.14168753270946e-08,5.00000000000000e-01,5.00000000000000e-01,5.03300407588663e-01,5.00000000000000e-01
3.51000000000000e-08,4.99999999999975e-01,5.00000000000000e-01,4.97143484961406e-01,5.00000000000000e-01
3.51100000000000e-08,4.49999999999985e-01,5.00000000000000e-01,4.97806041421238e-01,5.00000000000000e-01
3.51300000000000e-08,3.49999999999971e-01,5.00000000000000e-01,4.98830601051156e-01,5.00000000000000e-01
3.51700000000000e-08,1.49999999999975e-01,5.00000000000000e-01,4.99853173102152e-01,5.00000000000000e-01
3.52000000000000e-08,0.00000000000000e+00,5.00000000000000e-01,5.00809347818525e-01,5.00000000000000e-01
3.52080000000000e-08,0.00000000000000e+00,5.00000000000000e-01,5.01149090623538e-01,5.00000000000000e-01
3.52240000000000e-08,0.00000000000000e+00,5.00000000000000e-01,5.01690362143492e-01,5.00000000000000e-01
3.52560000000000e-08,0.00000000000000e+00,5.00000000000000e-01,5.02269646411041e-01,5.00000000000000e-01
3.53200000000000e-08,0.00000000000000e+00,5.00000000000000e-01,5.02586725255259e-01,5.00000000000000e-01
3.54480000000000e-08,0.00000000000000e+00,5.00000000000000e-01,5.00353310019967e-01,5.00000000000000e-01
3.57040000000000e-08,0.00000000000000e+00,5.00000000000000e-01,4.85410109941389e-01,5.00000000000000e-01
3.62160000000000e-08,0.00000000000000e+00,5.00000000000000e-01,4.88411070307928e-01,5.00000000000000e-01
3.72400000000000e-08,0.00000000000000e+00,5.00000000000000e-01,5.04574969772622e-01,5.00000000000000e-01
3.88342971549120e-08,0.00000000000000e+00,5.00000000000000e-01,4.95407287683073e-01,5.00000000000000e-01
4.17595589632909e-08,0.00000000000000e+00,5.00000000000000e-01,5.03480583525843e-01,5.00000000000000e-01
4.50000000000000e-08,0.00000000000000e+00,5.00000000000000e-01,4.96498771211588e-01,5.00000000000000e-01
4.50100000000000e-08,4.99999999999905e-02,5.00000000000000e-01,4.96785827098135e-01,4.50000000000010e-01
4.50300000000000e-08,1.50000000000005e-01,5.00000000000000e-01,4.97295307354937e-01,3.49999999999995e-01
4.50700000000000e-08,3.50000000000000e-01,5.00000000000000e-01,4.98290871830564e-01,1.50000000000000e-01
4.51000000000000e-08,5.00000000000000e-01,5.00000000000000e-01,5.00344057517349e-01,0.00000000000000e+00
4.51080000000000e-08,5.00000000000000e-01,5.00000000000000e-01,5.01240528558331e-01,0.00000000000000e+00
4.51240000000000e-08,5.00000000000000e-01,5.00000000000000e-01,5.02816606021681e-01,0.00000000000000e+00
4.51560000000000e-08,5.00000000000000e-01,5.00000000000000e-01,5.05169143911308e-01,0.00000000000000e+00
4.52200000000000e-08,5.00000000000000e-01,5.00000000000000e-01,5.08742263166098e-01,0.00000000000000e+00
4.53480000000000e-08,5.00000000000000e-01,5.00000000000000e-01,5.16618985088212e-01,0.00000000000000e+00
4.56040000000000e-08,5.00000000000000e-01,5.00000000000000e-01,4.80839566532300e-01,0.00000000000000e+00
4.61160000000000e-08,5.00000000000000e-01,5.00000000000000e-01,1.06094023235240e-01,0.00000000000000e+00
4.69904265911678e-08,5.00000000000000e-01,5.00000000000000e-01,-4.20427538339776e-02,0.00000000000000e+00
4.82382595695062e-08,5.00000000000000e-01,5.00000000000000e-01,3.61811644867254e-02,0.00000000000000e+00
5.01000000000000e-08,5.00000000000000e-01,4.99999999999971e-01,-2.54816767935808e-02,0.00000000000000e+00
5.03307468172057e-08,5.00000000000000e-01,5.00000000000000e-01,-7.02046625915580e-03,0.00000000000000e+00
5.07922404516170e-08,5.00000000000000e-01,5.00000000000000e-01,2.69646701808717e-03,0.00000000000000e+00
5.17152277204396e-08,5.00000000000000e-01,5.00000000000000e-01,-1.71405308245963e-03,0.00000000000000e+00
5.35612022580849e-08,5.00000000000000e-01,5.00000000000000e-01,1.39389716679951e-03,0.00000000000000e+00
5.51000000000000e-08,5.00000000000000e-01,5.00000000000000e-01,-1.09422049484377e-03,0.00000000000000e+00
5.51100000000000e-08,4.50000000000018e-01,5.00000000000000e-01,-7.68751061840406e-04,4.99999999999822e-02
5.51300000000000e-08,3.50000000000004e-01,5.00000000000000e-01,-2.66116468965134e-04,1.49999999999996e-01
5.51700000000000e-08,1.50000000000008e-01,5.00000000000000e-01,3.82913410245517e-06,3.49999999999992e-01
5.52000000000000e-08,0.00000000000000e+00,5.00000000000000e-01,-4.35674542545381e-05,5.00000000000000e-01
5.52080000000000e-08,0.00000000000000e+00,5.00000000000000e-01,-7.86470323063115e-05,5.00000000000000e-01
5.52240000000000e-08,0.00000000000000e+00,5.00000000000000e-01,-1.29452536962608e-04,5.00000000000000e-01
5.52560000000000e-08,0.00000000000000e+00,5.00000000000000e-01,-1.57798064679388e-04,5.00000000000000e-01
5.53200000000000e-08,0.00000000000000e+00,5.00000000000000e-01,-1.10892118746021e-04,5.00000000000000e-01
5.54480000000000e-08,0.00000000000000e+00,5.00000000000000e-01,-7.84148565097231e-05,5.00000000000000e-01
5.57040000000000e-08,0.00000000000000e+00,5.00000000000000e-01,-6.75841879913694e-04,5.00000000000000e-01
5.62160000000000e-08,0.00000000000000e+00,5.00000000000000e-01,-1.12455953710153e-04,5.00000000000000e-01
5.70154737973858e-08,0.00000000000000e+00,5.00000000000000e-01,1.83723143386730e-04,5.00000000000000e-01
5.86144213921574e-08,0.00000000000000e+00,5.00000000000000e-01,-2.35216316703483e-04,5.00000000000000e-01
6.05437844255940e-08,0.00000000000000e+00,5.00000000000000e-01,2.48917512123383e-04,5.00000000000000e-01
6.43437844255940e-08,0.00000000000000e+00,5.00000000000000e-01,-2.43019896699637e-04,5.00000000000000e-01
6.50000000000000e-08,0.00000000000000e+00,5.00000000000000e-01,1.82185823665880e-04,5.00000000000000e-01
6.50100000000000e-08,4.99999999999905e-02,5.00000000000000e-01,2.61072856369594e-04,5.00000000000000e-01
6.50300000000000e-08,1.49999999999972e-01,5.00000000000000e-01,4.09980258090761e-04,5.00000000000000e-01
6.50700000000000e-08,3.49999999999934e-01,5.00000000000000e-01,5.93137233403568e-04,5.00000000000000e-01
6.51000000000000e-08,4.99999999999971e-01,5.00000000000000e-01,5.87234518761436e-04,5.00000000000000e-01
6.51080000000000e-08,5.00000000000000e-01,5.00000000000000e-01,5.19204575804198e-04,5.00000000000000e-01
6.51240000000000e-08,5.00000000000000e-01,5.00000000000000e-01,3.73104400464813e-04,5.00000000000000e-01
6.51560000000000e-08,5.00000000000000e-01,5.00000000000000e-01,-4.56781176386770e-05,5.00000000000000e-01
6.52200000000000e-08,5.00000000000000e-01,5.00000000000000e-01,-1.30500932659637e-03,5.00000000000000e-01
6.53480000000000e-08,5.00000000000000e-01,5.00000000000000e-01,-3.53721176404522e-03,5.00000000000000e-01
6.56040000000000e-08,5.00000000000000e-01,5.00000000000000e-01,-4.33627481728770e-03,5.00000000000000e-01
6.61159999999999e-08,5.00000000000000e-01,5.00000000000000e-01,1.96890338237705e-01,5.00000000000000e-01
6.71399999999999e-08,5.00000000000000e-01,5.00000000000000e-01,5.05857824657543e-01,5.00000000000000e-01
6.88939833557663e-08,5.00000000000000e-01,5.00000000000000e-01,4.96058717496555e-01,5.00000000000000e-01
7.13727997909391e-08,5.00000000000000e-01,5.00000000000000e-01,5.04801269559045e-01,5.00000000000000e-01
7.51000000000000e-08,5.00000000000000e-01,5.00000000000000e-01,4.95891069054172e-01,5.00000000000000e-01
7.51100000000000e-08,4.50000000000051e-01,5.00000000000000e-01,4.96807364710811e-01,5.00000000000000e-01
7.51300000000000e-08,3.50000000000070e-01,5.00000000000000e-01,4.98230782501797e-01,5.00000000000000e-01
7.51700000000000e-08,1.50000000000108e-01,5.00000000000000e-01,4.99650214658891e-01,5.00000000000000e-01
7.52000000000000e-08,6.99995617026161e-14,5.00000000000000e-01,5.00705776835311e-01,5.00000000000000e-01
7.52080000000000e-08,0.00000000000000e+00,5.00000000000000e-01,5.01061832030979e-01,5.00000000000000e-01
7.52240000000000e-08,0.00000000000000e+00,5.00000000000000e-01,5.01629854069722e-01,5.00000000000000e-01
7.52560000000000e-08,0.00000000000000e+00,5.00000000000000e-01,5.02238678475798e-01,5.00000000000000e-01
7.53200000000000e-08,0.00000000000000e+00,5.00000000000000e-01,5.02573630518479e-01,5.00000000000000e-01
7.54480000000000e-08,0.00000000000000e+00,5.00000000000000e-01,5.00318032993812e-01,5.00000000000000e-01
7.57040000000000e-08,0.00000000000000e+00,5.00000000000000e-01,4.85349363134969e-01,5.00000000000000e-01
7.62159999999999e-08,0.00000000000000e+00,5.00000000000000e-01,4.88411734917369e-01,5.00000000000000e-01
7.72399999999999e-08,0.00000000000000e+00,5.00000000000000e-01,5.04579647312079e-01,5.00000000000000e-01
7.88342894712814e-08,0.00000000000000e+00,5.00000000000000e-01,4.95403047387954e-01,5.00000000000000e-01
8.17587517278671e-08,0.00000000000000e+00,5.00000000000000e-01,5.03484025599652e-01,5.00000000000000e-01
8.50000000000000e-08,0.00000000000000e+00,5.00000000000000e-01,4.96495386982682e-01,5.00000000000000e-01
8.50100000000000e-08,4.99999999999905e-02,5.00000000000000e-01,4.96782828296398e-01,4.50000000000010e-01
8.50300000000000e-08,1.49999999999972e-01,5.00000000000000e-01,4.97292989923004e-01,3.50000000000028e-01
8.50700000000000e-08,3.49999999999934e-01,5.00000000000000e-01,4.98289498269452e-01,1.50000000000066e-01
8.51000000000000e-08,4.99999999999971e-01,5.00000000000000e-01,5.00343009502391e-01,2.86437540353290e-14
8.51080000000000e-08,5.00000000000000e-01,5.00000000000000e-01,5.01239532700843e-01,0.00000000000000e+00
8.51240000000000e-08,5.00000000000000e-01,5.00000000000000e-01,5.02815711560515e-01,0.00000000000000e+00
8.51560000000000e-08,5.00000000000000e-01,5.00000000000000e-01,5.05168427800809e-01,0.00000000000000e+00
8.52200000000000e-08,5.00000000000000e-01,5.00000000000000e-01,5.08741805824176e-01,0.00000000000000e+00
8.53480000000000e-08,5.00000000000000e-01,5.00000000000000e-01,5.16618777658889e-01,0.00000000000000e+00
8.56040000000000e-08,5.00000000000000e-01,5.00000000000000e-01,4.80842578284340e-01,0.00000000000000e+00
8.61159999999999e-08,5.00000000000000e-01,5.00000000000000e-01,1.06097097281247e-01,0.00000000000000e+00
8.69904281016926e-08,5.00000000000000e-01,5.00000000000000e-01,-4.20438043295557e-02,0.00000000000000e+00
8.82382504422415e-08,5.00000000000000e-01,5.00000000000000e-01,3.61820708920026e-02,0.00000000000000e+00
9.01000000000000e-08,5.00000000000000e-01,4.99999999999971e-01,-2.54824295306281e-02,0.00000000000000e+00
9.03307517521519e-08,5.00000000000000e-01,5.00000000000000e-01,-7.02058018282085e-03,0.00000000000000e+00
9.07922552564556e-08,5.00000000000000e-01,5.00000000000000e-01,2.69657019064922e-03,0.00000000000000e+00
9.17152622650631e-08,5.00000000000000e-01,5.00000000000000e-01,-1.71413185830876e-03,0.00000000000000e+00
9.35612762822781e-08,5.00000000000000e-01,5.00000000000000e-01,1.39396452932135e-03,0.00000000000000e+00
9.51000000000000e-08,5.00000000000000e-01,5.00000000000000e-01,-1.09425649460369e-03,0.00000000000000e+00
9.51100000000000e-08,4.50000000000051e-01,5.00000000000000e-01,-7.68783177074447e-04,4.99999999999492e-02
9.51300000000000e-08,3.50000000000070e-01,5.00000000000000e-01,-2.66146081347431e-04,1.49999999999930e-01
9.51700000000000e-08,1.50000000000108e-01,5.00000000000000e-01,3.80737071213610e-06,3.49999999999892e-01
9.52000000000000e-08,6.99995617026161e-14,5.00000000000000e-01,-4.35845612474228e-05,4.99999999999930e-01
9.52080000000000e-08,0.00000000000000e+00,5.00000000000000e-01,-7.86631470874599e-05,5.00000000000000e-01
9.52240000000000e-08,0.00000000000000e+00,5.00000000000000e-01,-1.29466588322386e-04,5.00000000000000e-01
9.52560000000000e-08,0.00000000000000e+00,5.00000000000000e-01,-1.57807832325316e-04,5.00000000000000e-01
9.53200000000000e-08,0.00000000000000e+00,5.00000000000000e-01,-1.10896611556673e-04,5.00000000000000e-01
9.54480000000000e-08,0.00000000000000e+00,5.00000000000000e-01,-7.84206312464258e-05,5.00000000000000e-01
9.57040000000000e-08,0.00000000000000e+00,5.00000000000000e-01,-6.75864633052074e-04,5.00000000000000e-01
9.62159999999999e-08,0.00000000000000e+00,5.00000000000000e-01,-1.12456072017776e-04,5.00000000000000e-01
9.70157019809628e-08,0.00000000000000e+00,5.00000000000000e-01,1.83694997679666e-04,5.00000000000000e-01
9.86151059428886e-08,0.00000000000000e+00,5.00000000000000e-01,-2.35168923363362e-04,5.00000000000000e-01
1.00544813863337e-07,0.00000000000000e+00,5.00000000000000e-01,2.48889654848087e-04,5.00000000000000e-01
1.04344813863337e-07,0.00000000000000e+00,5.00000000000000e-01,-2.43003801427925e-04,5.00000000000000e-01
1.05000000000000e-07,0.00000000000000e+00,5.00000000000000e-01,1.82101947938787e-04,5.00000000000000e-01
1.05010000000000e-07,4.99999999999905e-02,5.00000000000000e-01,2.60995159256372e-04,5.00000000000000e-01
1.05030000000000e-07,1.49999999999972e-01,5.00000000000000e-01,4.09915132499258e-04,5.00000000000000e-01
1.05070000000000e-07,3.49999999999934e-01,5.00000000000000e-01,5.93084915141755e-04,5.00000000000000e-01
1.05100000000000e-07,4.99999999999971e-01,5.00000000000000e-01,5.87186880869638e-04,5.00000000000000e-01
1.05108000000000e-07,5.00000000000000e-01,5.00000000000000e-01,5.19156163185437e-04,5.00000000000000e-01
1.05124000000000e-07,5.00000000000000e-01,5.00000000000000e-01,3.73050070205619e-04,5.00000000000000e-01
1.05156000000000e-07,5.00000000000000e-01,5.00000000000000e-01,-4.57589245396392e-05,5.00000000000000e-01
1.05220000000000e-07,5.00000000000000e-01,5.00000000000000e-01,-1.30511139659990e-03,5.00000000000000e-01
1.05348000000000e-07,5.00000000000000e-01,5.00000000000000e-01,-3.53727015174574e-03,5.00000000000000e-01
1.05604000000000e-07,5.00000000000000e-01,5.00000000000000e-01,-4.33604933068480e-03,5.00000000000000e-01
1.06116000000000e-07,5.00000000000000e-01,5.00000000000000e-01,1.96894202208372e-01,5.00000000000000e-01
1.07140000000000e-07,5.00000000000000e-01,5.00000000000000e-01,5.05858756266210e-01,5.00000000000000e-01
1.08893962881055e-07,5.00000000000000e-01,5.00000000000000e-01,4.96058211609520e-01,5.00000000000000e-01
1.11372784154673e-07,5.00000000000000e-01,5.00000000000000e-01,5.04801825232757e-01,5.00000000000000e-01
1.15100000000000e-07,5.00000000000000e-01,5.00000000000000e-01,4.95890599701600e-01,5.00000000000000e-01
1.15110000000000e-07,4.50000000000051e-01,5.00000000000000e-01,4.96806989822944e-01,5.00000000000000e-01
1.15130000000000e-07,3.50000000000070e-01,5.00000000000000e-01,4.98230556760669e-01,5.00000000000000e-01
1.15170000000000e-07,1.50000000000108e-01,5.00000000000000e-01,4.99650137924118e-01,5.00000000000000e-01
1.15200000000000e-07,6.99995617026161e-14,5.00000000000000e-01,5.00705737659270e-01,5.00000000000000e-01
1.15208000000000e-07,0.00000000000000e+00,5.00000000000000e-01,5.01061799089010e-01,5.00000000000000e-01
1.15224000000000e-07,0.00000000000000e+00,5.00000000000000e-01,5.01629831208577e-01,5.00000000000000e-01
1.15256000000000e-07,0.00000000000000e+00,5.00000000000000e-01,5.02238666749375e-01,5.00000000000000e-01
1.15320000000000e-07,0.00000000000000e+00,5.00000000000000e-01,5.02573625541637e-01,5.00000000000000e-01
1.15448000000000e-07,0.00000000000000e+00,5.00000000000000e-01,5.00318019746515e-01,5.00000000000000e-01
1.15704000000000e-07,0.00000000000000e+00,5.00000000000000e-01,4.85349340289945e-01,5.00000000000000e-01
1.16216000000000e-07,0.00000000000000e+00,5.00000000000000e-01,4.88411734992162e-01,5.00000000000000e-01
1.17240000000000e-07,0.00000000000000e+00,5.00000000000000e-01,5.04579649131227e-01,5.00000000000000e-01
1.18834289461044e-07,0.00000000000000e+00,5.00000000000000e-01,4.95403045755006e-01,5.00000000000000e-01
