Time,v(clk),v(data),v(out)
1.00000000000000e-08,5.00000000000000e-01,0.00000000000000e+00,1.46587484574738e-05
1.00100000000000e-08,5.00000000000000e-01,4.99999999999988e-02,1.40854133321572e-05
1.00300000000000e-08,5.00000000000000e-01,1.49999999999996e-01,1.36252284948513e-05
1.00700000000000e-08,5.00000000000000e-01,3.49999999999992e-01,1.01451769099759e-05
1.01000000000000e-08,5.00000000000000e-01,4.99999999999996e-01,6.66444918170223e-06
1.01080000000000e-08,5.00000000000000e-01,5.00000000000000e-01,5.77421986806131e-06
1.01240000000000e-08,5.00000000000000e-01,5.00000000000000e-01,3.64397411842243e-06
1.01560000000000e-08,5.00000000000000e-01,5.00000000000000e-01,2.12333989774854e-06
1.02200000000000e-08,5.00000000000000e-01,5.00000000000000e-01,2.85988109502422e-06
1.03480000000000e-08,5.00000000000000e-01,5.00000000000000e-01,6.90727208469896e-06
1.06040000000000e-08,5.00000000000000e-01,5.00000000000000e-01,5.87857294780808e-06
1.11160000000000e-08,5.00000000000000e-01,5.00000000000000e-01,2.61071847067890e-06
1.20845592647982e-08,5.00000000000000e-01,5.00000000000000e-01,4.22393644109072e-06
1.40216777943947e-08,5.00000000000000e-01,5.00000000000000e-01,3.15048411782953e-06
1.51000000000000e-08,5.00000000000000e-01,5.00000000000000e-01,3.40446683516453e-06
1.51100000000000e-08,4.49999999999993e-01,5.00000000000000e-01,-5.34148306269855e-05
1.51300000000000e-08,3.49999999999995e-01,5.00000000000000e-01,-1.57506691977893e-04
1.51700000000000e-08,1.50000000000000e-01,5.00000000000000e-01,-3.10495730382276e-04
1.52000000000000e-08,0.00000000000000e+00,5.00000000000000e-01,-2.81259117733072e-04
1.52080000000000e-08,0.00000000000000e+00,5.00000000000000e-01,-1.78078714924521e-04
1.52240000000000e-08,0.00000000000000e+00,5.00000000000000e-01,3.96056588705673e-08
1.52560000000000e-08,0.00000000000000e+00,5.00000000000000e-01,2.10873594754642e-04
1.53200000000000e-08,0.00000000000000e+00,5.00000000000000e-01,3.31540764178101e-04
1.54480000000000e-08,0.00000000000000e+00,5.00000000000000e-01,2.16927241463612e-04
1.57040000000000e-08,0.00000000000000e+00,5.00000000000000e-01,-8.78381254728090e-05
1.62160000000000e-08,0.00000000000000e+00,5.00000000000000e-01,-1.00021085218572e-04
1.72400000000000e-08,0.00000000000000e+00,5.00000000000000e-01,-2.08859206506876e-05
1.87986428011501e-08,0.00000000000000e+00,5.00000000000000e-01,2.18246368675961e-05
2.10774897135291e-08,0.00000000000000e+00,5.00000000000000e-01,5.47460679808888e-05
2.48774897135291e-08,0.00000000000000e+00,5.00000000000000e-01,-7.93867027652452e-05
2.50000000000000e-08,0.00000000000000e+00,5.00000000000000e-01,3.62574137621301e-05
2.50100000000000e-08,4.99999999999905e-02,5.00000000000000e-01,1.38145883860276e-04
2.50300000000000e-08,1.50000000000005e-01,5.00000000000000e-01,3.20255140534555e-04
2.50700000000000e-08,3.50000000000000e-01,5.00000000000000e-01,5.43964003749647e-04
2.51000000000000e-08,5.00000000000000e-01,5.00000000000000e-01,5.78645108928931e-04
2.51080000000000e-08,5.00000000000000e-01,5.00000000000000e-01,5.26026174707428e-04
2.51240000000000e-08,5.00000000000000e-01,5.00000000000000e-01,4.20905928339953e-04
2.51560000000000e-08,5.00000000000000e-01,5.00000000000000e-01,1.74217968135736e-04
2.52200000000000e-08,5.00000000000000e-01,5.00000000000000e-01,-6.84057262348173e-04
2.53480000000000e-08,5.00000000000000e-01,5.00000000000000e-01,-2.75164486030659e-03
2.56040000000000e-08,5.00000000000000e-01,5.00000000000000e-01,-4.80510235139939e-03
2.61160000000000e-08,5.00000000000000e-01,5.00000000000000e-01,1.26954581659938e-01
2.71400000000000e-08,5.00000000000000e-01,5.00000000000000e-01,4.83070387442583e-01
2.91880000000000e-08,5.00000000000000e-01,5.00000000000000e-01,5.06105470379954e-01
3.01000000000000e-08,5.00000000000000e-01,5.00000000000000e-01,4.94674664871230e-01
3.01100000000000e-08,5.00000000000000e-01,4.50000000000026e-01,4.95510755306549e-01
3.01300000000000e-08,5.00000000000000e-01,3.50000000000012e-01,4.96911785107886e-01
3.01700000000000e-08,5.00000000000000e-01,1.50000000000017e-01,4.98540019536826e-01
3.02000000000000e-08,5.00000000000000e-01,1.21014309684142e-14,4.99148748777113e-01
3.02080000000000e-08,5.00000000000000e-01,0.00000000000000e+00,4.99246161317921e-01
3.02240000000000e-08,5.00000000000000e-01,0.00000000000000e+00,4.99432152197993e-01
3.02560000000000e-08,5.00000000000000e-01,0.00000000000000e+00,4.99626128564747e-01
3.03200000000000e-08,5.00000000000000e-01,0.00000000000000e+00,4.99793993573887e-01
3.04480000000000e-08,5.00000000000000e-01,0.00000000000000e+00,4.99892372538187e-01
3.07040000000000e-08,5.00000000000000e-01,0.00000000000000e+00,4.99911734387776e-01
3.12160000000000e-08,5.00000000000000e-01,0.00000000000000e+00,4.99991330046201e-01
3.21496961883552e-08,5.00000000000000e-01,0.00000000000000e+00,4.99954414354552e-01
3.37536035778864e-08,5.00000000000000e-01,0.00000000000000e+00,4.99981011982581e-01
3.51000000000000e-08,4.99999999999975e-01,0.00000000000000e+00,4.99966749265070e-01
3.51100000000000e-08,4.49999999999985e-01,0.00000000000000e+00,4.99908529616910e-01
3.51300000000000e-08,3.49999999999971e-01,0.00000000000000e+00,4.99809346108241e-01
3.51700000000000e-08,1.49999999999975e-01,0.00000000000000e+00,4.99857800597669e-01
3.52000000000000e-08,0.00000000000000e+00,0.00000000000000e+00,5.00578420190752e-01
3.52080000000000e-08,0.00000000000000e+00,0.00000000000000e+00,5.00895114530548e-01
3.52240000000000e-08,0.00000000000000e+00,0.00000000000000e+00,5.01408219650679e-01
3.52560000000000e-08,0.00000000000000e+00,0.00000000000000e+00,5.01981390971056e-01
3.53200000000000e-08,0.00000000000000e+00,0.00000000000000e+00,5.02360615363801e-01
3.54480000000000e-08,0.00000000000000e+00,0.00000000000000e+00,5.00898506514093e-01
3.57040000000000e-08,0.00000000000000e+00,0.00000000000000e+00,4.87454065889898e-01
3.62160000000000e-08,0.00000000000000e+00,0.00000000000000e+00,4.86850753795386e-01
3.71828838569862e-08,0.00000000000000e+00,0.00000000000000e+00,5.03500965287848e-01
3.84347098599661e-08,0.00000000000000e+00,0.00000000000000e+00,4.96204468404662e-01
3.91000000000000e-08,0.00000000000000e+00,0.00000000000000e+00,5.01460917145238e-01
3.93503652005960e-08,0.00000000000000e+00,0.00000000000000e+00,5.00101392659736e-01
3.98510956017880e-08,0.00000000000000e+00,0.00000000000000e+00,4.99417809875720e-01
4.08525564041719e-08,0.00000000000000e+00,0.00000000000000e+00,4.99870653445319e-01
4.28554780089398e-08,0.00000000000000e+00,0.00000000000000e+00,4.99650194653260e-01
4.50000000000000e-08,0.00000000000000e+00,0.00000000000000e+00,4.99934597278496e-01
4.50100000000000e-08,4.99999999999905e-02,0.00000000000000e+00,4.99990024045813e-01
4.50300000000000e-08,1.50000000000005e-01,0.00000000000000e+00,5.00074478922632e-01
4.50700000000000e-08,3.50000000000000e-01,0.00000000000000e+00,5.00108055573573e-01
4.51000000000000e-08,5.00000000000000e-01,0.00000000000000e+00,5.00031964385053e-01
4.51080000000000e-08,5.00000000000000e-01,0.00000000000000e+00,4.99972459163416e-01
4.51240000000000e-08,5.00000000000000e-01,0.00000000000000e+00,4.99871466924288e-01
4.51560000000000e-08,5.00000000000000e-01,0.00000000000000e+00,4.99746249232043e-01
4.52200000000000e-08,5.00000000000000e-01,0.00000000000000e+00,4.99648238134143e-01
4.53480000000000e-08,5.00000000000000e-01,0.00000000000000e+00,4.99640140611887e-01
4.56040000000000e-08,5.00000000000000e-01,0.00000000000000e+00,4.99807850239017e-01
4.61160000000000e-08,5.00000000000000e-01,0.00000000000000e+00,5.05107418193318e-01
4.71400000000000e-08,5.00000000000000e-01,0.00000000000000e+00,1.62747038837673e-01
4.89458864129958e-08,5.00000000000000e-01,0.00000000000000e+00,-5.59219088521715e-02
5.00000000000000e-08,5.00000000000000e-01,0.00000000000000e+00,4.40819919876455e-02
5.00100000000000e-08,5.00000000000000e-01,4.99999999999905e-02,4.16292750440909e-02
5.00300000000000e-08,5.00000000000000e-01,1.49999999999972e-01,3.68278288767277e-02
5.00700000000000e-08,5.00000000000000e-01,3.50000000000000e-01,2.82038168040979e-02
5.01000000000000e-08,5.00000000000000e-01,5.00000000000000e-01,2.28682033427446e-02
5.01080000000000e-08,5.00000000000000e-01,5.00000000000000e-01,2.16431495019948e-02
5.01240000000000e-08,5.00000000000000e-01,5.00000000000000e-01,1.93085601911975e-02
5.01560000000000e-08,5.00000000000000e-01,5.00000000000000e-01,1.53360286263132e-02
5.02200000000000e-08,5.00000000000000e-01,5.00000000000000e-01,9.54745763371661e-03
5.03480000000000e-08,5.00000000000000e-01,5.00000000000000e-01,3.41963021679563e-03
5.06040000000000e-08,5.00000000000000e-01,5.00000000000000e-01,8.00339917926690e-05
5.11160000000001e-08,5.00000000000000e-01,5.00000000000000e-01,-2.64308822237429e-05
5.21400000000002e-08,5.00000000000000e-01,5.00000000000000e-01,4.67405818381159e-06
5.41880000000003e-08,5.00000000000000e-01,5.00000000000000e-01,-2.89511648682034e-06
5.51000000000000e-08,5.00000000000000e-01,5.00000000000000e-01,3.46078263325535e-06
5.51100000000000e-08,4.50000000000018e-01,5.00000000000000e-01,-5.36434901185420e-05
5.51300000000000e-08,3.50000000000004e-01,5.00000000000000e-01,-1.55630191656694e-04
5.51700000000000e-08,1.50000000000008e-01,5.00000000000000e-01,-3.00523137502409e-04
5.52000000000000e-08,0.00000000000000e+00,5.00000000000000e-01,-2.75958140440506e-04
5.52080000000000e-08,0.00000000000000e+00,5.00000000000000e-01,-1.74037413788887e-04
5.52240000000000e-08,0.00000000000000e+00,5.00000000000000e-01,-3.39195001321929e-06
5.52560000000000e-08,0.00000000000000e+00,5.00000000000000e-01,1.88660693179230e-04
5.53200000000000e-08,0.00000000000000e+00,5.00000000000000e-01,3.18015130402013e-04
5.54480000000000e-08,0.00000000000000e+00,5.00000000000000e-01,1.52227792215180e-04
5.57040000000000e-08,0.00000000000000e+00,5.00000000000000e-01,-7.47672710590657e-04
5.62160000000000e-08,0.00000000000000e+00,5.00000000000000e-01,-3.10453427342500e-04
5.72400000000000e-08,0.00000000000000e+00,5.00000000000000e-01,1.70173792585535e-04
5.87970253773715e-08,0.00000000000000e+00,5.00000000000000e-01,-1.51578240390244e-04
6.10757046676731e-08,0.00000000000000e+00,5.00000000000000e-01,2.12368511514734e-04
6.48757046676731e-08,0.00000000000000e+00,5.00000000000000e-01,-2.31157353706792e-04
6.50000000000000e-08,0.00000000000000e+00,5.00000000000000e-01,5.12632974604445e-05
6.50100000000000e-08,4.99999999999905e-02,5.00000000000000e-01,1.44555367658047e-04
6.50300000000000e-08,1.49999999999972e-01,5.00000000000000e-01,3.18465617645806e-04
6.50700000000000e-08,3.49999999999934e-01,5.00000000000000e-01,5.43733328123880e-04
6.51000000000000e-08,4.99999999999971e-01,5.00000000000000e-01,5.79827052918813e-04
6.51080000000000e-08,5.00000000000000e-01,5.00000000000000e-01,5.27346972864412e-04
6.51240000000000e-08,5.00000000000000e-01,5.00000000000000e-01,4.22448788122323e-04
6.51560000000000e-08,5.00000000000000e-01,5.00000000000000e-01,1.76102769847690e-04
6.52200000000000e-08,5.00000000000000e-01,5.00000000000000e-01,-6.81965855432315e-04
6.53480000000000e-08,5.00000000000000e-01,5.00000000000000e-01,-2.75021766872287e-03
6.56040000000000e-08,5.00000000000000e-01,5.00000000000000e-01,-4.80562938651668e-03
6.61159999999999e-08,5.00000000000000e-01,5.00000000000000e-01,1.26913420227130e-01
6.71399999999999e-08,5.00000000000000e-01,5.00000000000000e-01,4.83055123117491e-01
6.91879999999998e-08,5.00000000000000e-01,5.00000000000000e-01,5.06112302759659e-01
7.01000000000000e-08,5.00000000000000e-01,5.00000000000000e-01,4.94669051931491e-01
7.01100000000000e-08,5.00000000000000e-01,4.50000000000010e-01,4.95506114498407e-01
7.01300000000000e-08,5.00000000000000e-01,3.50000000000028e-01,4.96908754106242e-01
7.01700000000000e-08,5.00000000000000e-01,1.50000000000066e-01,4.98538779783189e-01
7.02000000000000e-08,5.00000000000000e-01,2.86437540353290e-14,4.99148114857186e-01
7.02080000000000e-08,5.00000000000000e-01,0.00000000000000e+00,4.99245624168380e-01
7.02240000000000e-08,5.00000000000000e-01,0.00000000000000e+00,4.99431803125970e-01
7.02560000000000e-08,5.00000000000000e-01,0.00000000000000e+00,4.99625968414231e-01
7.03200000000000e-08,5.00000000000000e-01,0.00000000000000e+00,4.99793978835631e-01
7.04480000000000e-08,5.00000000000000e-01,0.00000000000000e+00,4.99892388955282e-01
7.07040000000000e-08,5.00000000000000e-01,0.00000000000000e+00,4.99911729199945e-01
7.12159999999999e-08,5.00000000000000e-01,0.00000000000000e+00,4.99991334741678e-01
7.21496746177077e-08,5.00000000000000e-01,0.00000000000000e+00,4.99954411662672e-01
7.37535946170228e-08,5.00000000000000e-01,0.00000000000000e+00,4.99981015211466e-01
7.51000000000000e-08,5.00000000000000e-01,0.00000000000000e+00,4.99966747074612e-01
7.51100000000000e-08,4.50000000000051e-01,0.00000000000000e+00,4.99908527900078e-01
7.51300000000000e-08,3.50000000000070e-01,0.00000000000000e+00,4.99809345252122e-01
7.51700000000000e-08,1.50000000000108e-01,0.00000000000000e+00,4.99857800663443e-01
7.52000000000000e-08,6.99995617026161e-14,0.00000000000000e+00,5.00578420364294e-01
7.52080000000000e-08,0.00000000000000e+00,0.00000000000000e+00,5.00895114726107e-01
7.52240000000000e-08,0.00000000000000e+00,0.00000000000000e+00,5.01408219919025e-01
7.52560000000000e-08,0.00000000000000e+00,0.00000000000000e+00,5.01981391627145e-01
7.53200000000000e-08,0.00000000000000e+00,0.00000000000000e+00,5.02360618214812e-01
7.54480000000000e-08,0.00000000000000e+00,0.00000000000000e+00,5.00898527777354e-01
7.57040000000000e-08,0.00000000000000e+00,0.00000000000000e+00,4.87454115917844e-01
7.62159999999999e-08,0.00000000000000e+00,0.00000000000000e+00,4.86850757280269e-01
7.71828841434885e-08,0.00000000000000e+00,0.00000000000000e+00,5.03500955727432e-01
7.81000000000000e-08,0.00000000000000e+00,0.00000000000000e+00,4.96467947720993e-01
7.82251826034387e-08,0.00000000000000e+00,0.00000000000000e+00,4.98208643093474e-01
7.84755478103160e-08,0.00000000000000e+00,0.00000000000000e+00,4.99712399748180e-01
7.89762782240705e-08,0.00000000000000e+00,0.00000000000000e+00,4.99485042401733e-01
7.99777390515797e-08,0.00000000000000e+00,0.00000000000000e+00,4.99715082265807e-01
8.19806607065981e-08,0.00000000000000e+00,0.00000000000000e+00,4.99711579801827e-01
8.50000000000000e-08,0.00000000000000e+00,0.00000000000000e+00,4.99863795855230e-01
8.50100000000000e-08,4.99999999999905e-02,0.00000000000000e+00,4.99924836692663e-01
8.50300000000000e-08,1.49999999999972e-01,0.00000000000000e+00,5.00018712538269e-01
8.50700000000000e-08,3.49999999999934e-01,0.00000000000000e+00,5.00072124698638e-01
8.51000000000000e-08,4.99999999999971e-01,0.00000000000000e+00,5.00006759070142e-01
8.51080000000000e-08,5.00000000000000e-01,0.00000000000000e+00,4.99949787990627e-01
8.51240000000000e-08,5.00000000000000e-01,0.00000000000000e+00,4.99852474209155e-01
8.51560000000000e-08,5.00000000000000e-01,0.00000000000000e+00,4.99733038350654e-01
8.52200000000000e-08,5.00000000000000e-01,0.00000000000000e+00,4.99642478496521e-01
8.53480000000000e-08,5.00000000000000e-01,0.00000000000000e+00,4.99641170150542e-01
8.56040000000000e-08,5.00000000000000e-01,0.00000000000000e+00,4.99809851287104e-01
8.61159999999999e-08,5.00000000000000e-01,0.00000000000000e+00,5.05107660077058e-01
8.71399999999999e-08,5.00000000000000e-01,0.00000000000000e+00,1.62758339680848e-01
8.89456988832662e-08,5.00000000000000e-01,0.00000000000000e+00,-5.59213457254957e-02
9.00000000000000e-08,5.00000000000000e-01,0.00000000000000e+00,4.40854813008054e-02
9.00100000000000e-08,5.00000000000000e-01,4.99999999999905e-02,4.16327609279897e-02
9.00300000000000e-08,5.00000000000000e-01,1.49999999999972e-01,3.68311726024610e-02
9.00700000000000e-08,5.00000000000000e-01,3.49999999999934e-01,2.82064539546723e-02
9.01000000000000e-08,5.00000000000000e-01,4.99999999999971e-01,2.28703249274188e-02
9.01080000000000e-08,5.00000000000000e-01,5.00000000000000e-01,2.16451556714300e-02
9.01240000000000e-08,5.00000000000000e-01,5.00000000000000e-01,1.93103468119415e-02
9.01560000000000e-08,5.00000000000000e-01,5.00000000000000e-01,1.53374467556399e-02
9.02200000000000e-08,5.00000000000000e-01,5.00000000000000e-01,9.54834226755179e-03
9.03480000000000e-08,5.00000000000000e-01,5.00000000000000e-01,3.41994809135679e-03
9.06040000000000e-08,5.00000000000000e-01,5.00000000000000e-01,8.00410930716713e-05
9.11159999999999e-08,5.00000000000000e-01,5.00000000000000e-01,-2.64324319606060e-05
9.21399999999999e-08,5.00000000000000e-01,5.00000000000000e-01,4.67325048567405e-06
9.41879999999998e-08,5.00000000000000e-01,5.00000000000000e-01,-2.89450714580260e-06
9.51000000000000e-08,5.00000000000000e-01,5.00000000000000e-01,3.46077634282363e-06
9.51100000000000e-08,4.50000000000051e-01,5.00000000000000e-01,-5.36477800004848e-05
9.51300000000000e-08,3.50000000000070e-01,5.00000000000000e-01,-1.55632193099303e-04
9.51700000000000e-08,1.50000000000108e-01,5.00000000000000e-01,-3.00523408957844e-04
9.52000000000000e-08,6.99995617026161e-14,5.00000000000000e-01,-2.75958078247741e-04
9.52080000000000e-08,0.00000000000000e+00,5.00000000000000e-01,-1.74037316134204e-04
9.52240000000000e-08,0.00000000000000e+00,5.00000000000000e-01,-3.39178814506846e-06
9.52560000000000e-08,0.00000000000000e+00,5.00000000000000e-01,1.88660929976284e-04
9.53200000000000e-08,0.00000000000000e+00,5.00000000000000e-01,3.18015520468694e-04
9.54480000000000e-08,0.00000000000000e+00,5.00000000000000e-01,1.52230710043694e-04
9.57040000000000e-08,0.00000000000000e+00,5.00000000000000e-01,-7.47651063385674e-04
9.62159999999999e-08,0.00000000000000e+00,5.00000000000000e-01,-3.10443674334315e-04
9.72399999999999e-08,0.00000000000000e+00,5.00000000000000e-01,1.70167142017719e-04
9.87970246705763e-08,0.00000000000000e+00,5.00000000000000e-01,-1.51573068832401e-04
1.01075703024242e-07,0.00000000000000e+00,5.00000000000000e-01,2.12364137944650e-04
1.04875703024242e-07,0.00000000000000e+00,5.00000000000000e-01,-2.31153271839609e-04
1.05000000000000e-07,0.00000000000000e+00,5.00000000000000e-01,5.12652454901785e-05
1.05010000000000e-07,4.99999999999905e-02,5.00000000000000e-01,1.44557289120086e-04
1.05030000000000e-07,1.49999999999972e-01,5.00000000000000e-01,3.18467414688696e-04
1.05070000000000e-07,3.49999999999934e-01,5.00000000000000e-01,5.43734686829847e-04
1.05100000000000e-07,4.99999999999971e-01,5.00000000000000e-01,5.79828125149090e-04
1.05108000000000e-07,5.00000000000000e-01,5.00000000000000e-01,5.27347970587559e-04
1.05124000000000e-07,5.00000000000000e-01,5.00000000000000e-01,4.22449596361459e-04
1.05156000000000e-07,5.00000000000000e-01,5.00000000000000e-01,1.76102993949420e-04
1.05220000000000e-07,5.00000000000000e-01,5.00000000000000e-01,-6.81966859858225e-04
1.05348000000000e-07,5.00000000000000e-01,5.00000000000000e-01,-2.75021901415480e-03
1.05604000000000e-07,5.00000000000000e-01,5.00000000000000e-01,-4.80562910208997e-03
1.06116000000000e-07,5.00000000000000e-01,5.00000000000000e-01,1.26913446899282e-01
1.07140000000000e-07,5.00000000000000e-01,5.00000000000000e-01,4.83055133048706e-01
1.09188000000000e-07,5.00000000000000e-01,5.00000000000000e-01,5.06112298304425e-01
1.10100000000000e-07,5.00000000000000e-01,5.00000000000000e-01,4.94669055599536e-01
1.10110000000000e-07,5.00000000000000e-01,4.50000000000076e-01,4.95506117526000e-01
1.10130000000000e-07,5.00000000000000e-01,3.50000000000095e-01,4.96908756085075e-01
1.10170000000000e-07,5.00000000000000e-01,1.50000000000133e-01,4.98538780596320e-01
1.10200000000000e-07,5.00000000000000e-01,9.48130463029884e-14,4.99148115271595e-01
1.10208000000000e-07,5.00000000000000e-01,0.00000000000000e+00,4.99245624519271e-01
1.10224000000000e-07,5.00000000000000e-01,0.00000000000000e+00,4.99431803353540e-01
1.10256000000000e-07,5.00000000000000e-01,0.00000000000000e+00,4.99625968517961e-01
1.10320000000000e-07,5.00000000000000e-01,0.00000000000000e+00,4.99793978843743e-01
1.10448000000000e-07,5.00000000000000e-01,0.00000000000000e+00,4.99892388943512e-01
1.10704000000000e-07,5.00000000000000e-01,0.00000000000000e+00,4.99911729202620e-01
