Time,v(clk),v(data),v(out)
1.00000000000000e-08,5.00000000000000e-01,0.00000000000000e+00,1.15116683216156e-05
1.00100000000000e-08,5.00000000000000e-01,4.99999999999988e-02,1.33801847786372e-05
1.00300000000000e-08,5.00000000000000e-01,1.49999999999996e-01,1.55207788218870e-05
1.00700000000000e-08,5.00000000000000e-01,3.49999999999992e-01,1.67341893117998e-05
1.01000000000000e-08,5.00000000000000e-01,4.99999999999996e-01,1.47248724471222e-05
1.01080000000000e-08,5.00000000000000e-01,5.00000000000000e-01,1.37886393053316e-05
1.01240000000000e-08,5.00000000000000e-01,5.00000000000000e-01,1.25633039249548e-05
1.01560000000000e-08,5.00000000000000e-01,5.00000000000000e-01,1.20413556247770e-05
1.02200000000000e-08,5.00000000000000e-01,5.00000000000000e-01,1.21968569515990e-05
1.03480000000000e-08,5.00000000000000e-01,5.00000000000000e-01,1.44016442810910e-05
1.06040000000000e-08,5.00000000000000e-01,5.00000000000000e-01,1.54103753439577e-05
1.11160000000000e-08,5.00000000000000e-01,5.00000000000000e-01,1.19552897098023e-05
1.21400000000000e-08,5.00000000000000e-01,5.00000000000000e-01,1.18377751798758e-05
1.40723158181777e-08,5.00000000000000e-01,5.00000000000000e-01,1.09087433724760e-05
1.51000000000000e-08,5.00000000000000e-01,5.00000000000000e-01,1.10386841286250e-05
1.51100000000000e-08,4.49999999999993e-01,5.00000000000000e-01,-4.47199702975978e-05
1.51300000000000e-08,3.49999999999995e-01,5.00000000000000e-01,-1.51730675280307e-04
1.51700000000000e-08,1.50000000000000e-01,5.00000000000000e-01,-3.15649090298173e-04
1.52000000000000e-08,0.00000000000000e+00,5.00000000000000e-01,-3.06205772065693e-04
1.52080000000000e-08,0.00000000000000e+00,5.00000000000000e-01,-2.12532301298779e-04
1.52240000000000e-08,0.00000000000000e+00,5.00000000000000e-01,-4.70068625360101e-05
1.52560000000000e-08,0.00000000000000e+00,5.00000000000000e-01,1.67102036207518e-04
1.53200000000000e-08,0.00000000000000e+00,5.00000000000000e-01,3.29136822408517e-04
1.54480000000000e-08,0.00000000000000e+00,5.00000000000000e-01,2.74719648662186e-04
1.57040000000000e-08,0.00000000000000e+00,5.00000000000000e-01,-5.85247859760975e-05
1.62160000000000e-08,0.00000000000000e+00,5.00000000000000e-01,-1.63759138494580e-04
1.72400000000000e-08,0.00000000000000e+00,5.00000000000000e-01,9.72917868936191e-06
1.88622842621585e-08,0.00000000000000e+00,5.00000000000000e-01,-2.09476287853054e-06
2.11386971810054e-08,0.00000000000000e+00,5.00000000000000e-01,9.65872046001038e-05
2.49386971810054e-08,0.00000000000000e+00,5.00000000000000e-01,-1.04843113374386e-04
2.50000000000000e-08,0.00000000000000e+00,5.00000000000000e-01,-4.84064110966645e-05
2.50100000000000e-08,4.99999999999905e-02,5.00000000000000e-01,5.19354673916214e-05
2.50300000000000e-08,1.50000000000005e-01,5.00000000000000e-01,2.32196516316001e-04
2.50700000000000e-08,3.50000000000000e-01,5.00000000000000e-01,4.79361586202473e-04
2.51000000000000e-08,5.00000000000000e-01,5.00000000000000e-01,5.47462932296454e-04
2.51080000000000e-08,5.00000000000000e-01,5.00000000000000e-01,5.03237430153694e-04
2.51240000000000e-08,5.00000000000000e-01,5.00000000000000e-01,4.12954782632383e-04
2.51560000000000e-08,5.00000000000000e-01,5.00000000000000e-01,2.07648206152850e-04
2.52200000000000e-08,5.00000000000000e-01,5.00000000000000e-01,-4.23603358389604e-04
2.53480000000000e-08,5.00000000000000e-01,5.00000000000000e-01,-2.07990729116025e-03
2.56040000000000e-08,5.00000000000000e-01,5.00000000000000e-01,-4.18787512395001e-03
2.61160000000000e-08,5.00000000000000e-01,5.00000000000000e-01,5.61779358295927e-02
2.71400000000000e-08,5.00000000000000e-01,5.00000000000000e-01,4.40550497888512e-01
2.73960000000000e-08,5.00000000000000e-01,5.00000000000000e-01,4.82354796802901e-01
2.79080000000000e-08,5.00000000000000e-01,5.00000000000000e-01,5.02870358113428e-01
2.89320000000000e-08,5.00000000000000e-01,5.00000000000000e-01,4.97213298058193e-01
3.01000000000000e-08,5.00000000000000e-01,5.00000000000000e-01,5.02272569960070e-01
3.01100000000000e-08,5.00000000000000e-01,4.50000000000026e-01,5.01874359566107e-01
3.01300000000000e-08,5.00000000000000e-01,3.50000000000012e-01,5.01219734582373e-01
3.01700000000000e-08,5.00000000000000e-01,1.50000000000017e-01,5.00471101079756e-01
3.02000000000000e-08,5.00000000000000e-01,1.21014309684142e-14,5.00214995353872e-01
3.02080000000000e-08,5.00000000000000e-01,0.00000000000000e+00,5.00179506174413e-01
3.02240000000000e-08,5.00000000000000e-01,0.00000000000000e+00,5.00116202218119e-01
3.02560000000000e-08,5.00000000000000e-01,0.00000000000000e+00,5.00027754361171e-01
3.03200000000000e-08,5.00000000000000e-01,0.00000000000000e+00,4.99947076806849e-01
3.04480000000000e-08,5.00000000000000e-01,0.00000000000000e+00,4.99902876079477e-01
3.07040000000000e-08,5.00000000000000e-01,0.00000000000000e+00,4.99907188296018e-01
3.12160000000000e-08,5.00000000000000e-01,0.00000000000000e+00,4.99940149695675e-01
3.22400000000000e-08,5.00000000000000e-01,0.00000000000000e+00,4.99931184483673e-01
3.38621348693571e-08,5.00000000000000e-01,0.00000000000000e+00,4.99939984056300e-01
3.51000000000000e-08,4.99999999999975e-01,0.00000000000000e+00,4.99946437130176e-01
3.51100000000000e-08,4.49999999999985e-01,0.00000000000000e+00,4.99890094697845e-01
3.51300000000000e-08,3.49999999999971e-01,0.00000000000000e+00,4.99793208371433e-01
3.51700000000000e-08,1.49999999999975e-01,0.00000000000000e+00,4.99854073042289e-01
3.52000000000000e-08,0.00000000000000e+00,0.00000000000000e+00,5.00542795469944e-01
3.52080000000000e-08,0.00000000000000e+00,0.00000000000000e+00,5.00845878441839e-01
3.52240000000000e-08,0.00000000000000e+00,0.00000000000000e+00,5.01343367481534e-01
3.52560000000000e-08,0.00000000000000e+00,0.00000000000000e+00,5.01920987467128e-01
3.53200000000000e-08,0.00000000000000e+00,0.00000000000000e+00,5.02286706097023e-01
3.54480000000000e-08,0.00000000000000e+00,0.00000000000000e+00,5.01039122564374e-01
3.57040000000000e-08,0.00000000000000e+00,0.00000000000000e+00,4.89101046513156e-01
3.62160000000000e-08,0.00000000000000e+00,0.00000000000000e+00,4.84895092698499e-01
3.72400000000000e-08,0.00000000000000e+00,0.00000000000000e+00,5.02005216380136e-01
3.85778294473864e-08,0.00000000000000e+00,0.00000000000000e+00,4.97221894455800e-01
3.91000000000000e-08,0.00000000000000e+00,0.00000000000000e+00,5.00434441170439e-01
3.93675658894773e-08,0.00000000000000e+00,0.00000000000000e+00,4.99772842766361e-01
3.99026976684319e-08,0.00000000000000e+00,0.00000000000000e+00,4.99437452306037e-01
4.09729612263410e-08,0.00000000000000e+00,0.00000000000000e+00,4.99700699021468e-01
4.31134883421593e-08,0.00000000000000e+00,0.00000000000000e+00,4.99646977227682e-01
4.50000000000000e-08,0.00000000000000e+00,0.00000000000000e+00,4.99800123425893e-01
4.50100000000000e-08,4.99999999999905e-02,0.00000000000000e+00,4.99854362807099e-01
4.50300000000000e-08,1.50000000000005e-01,0.00000000000000e+00,4.99939418320800e-01
4.50700000000000e-08,3.50000000000000e-01,0.00000000000000e+00,5.00000981493546e-01
4.51000000000000e-08,5.00000000000000e-01,0.00000000000000e+00,4.99956752729413e-01
4.51080000000000e-08,5.00000000000000e-01,0.00000000000000e+00,4.99902207891109e-01
4.51240000000000e-08,5.00000000000000e-01,0.00000000000000e+00,4.99808715031547e-01
4.51560000000000e-08,5.00000000000000e-01,0.00000000000000e+00,4.99690928733571e-01
4.52200000000000e-08,5.00000000000000e-01,0.00000000000000e+00,4.99595090632203e-01
4.53480000000000e-08,5.00000000000000e-01,0.00000000000000e+00,4.99587865608553e-01
4.56040000000000e-08,5.00000000000000e-01,0.00000000000000e+00,4.99682957310024e-01
4.61160000000000e-08,5.00000000000000e-01,0.00000000000000e+00,5.01721826579289e-01
4.71400000000000e-08,5.00000000000000e-01,0.00000000000000e+00,2.68051304749576e-01
4.91880000000000e-08,5.00000000000000e-01,0.00000000000000e+00,-3.85572959807167e-02
5.00000000000000e-08,5.00000000000000e-01,0.00000000000000e+00,1.93953138064072e-02
5.00100000000000e-08,5.00000000000000e-01,4.99999999999905e-02,1.89146356420576e-02
5.00300000000000e-08,5.00000000000000e-01,1.49999999999972e-01,1.77497241551376e-02
5.00700000000000e-08,5.00000000000000e-01,3.50000000000000e-01,1.48852163797450e-02
5.01000000000000e-08,5.00000000000000e-01,5.00000000000000e-01,1.27705436520025e-02
5.01080000000000e-08,5.00000000000000e-01,5.00000000000000e-01,1.22538521783059e-02
5.01240000000000e-08,5.00000000000000e-01,5.00000000000000e-01,1.12548172499935e-02
5.01560000000000e-08,5.00000000000000e-01,5.00000000000000e-01,9.46234441179511e-03
5.02200000000000e-08,5.00000000000000e-01,5.00000000000000e-01,6.60388641997050e-03
5.03480000000000e-08,5.00000000000000e-01,5.00000000000000e-01,3.06945182365577e-03
5.06040000000000e-08,5.00000000000000e-01,5.00000000000000e-01,4.55545208076155e-04
5.11160000000001e-08,5.00000000000000e-01,5.00000000000000e-01,-8.35423390249702e-05
5.21400000000002e-08,5.00000000000000e-01,5.00000000000000e-01,4.30528588931407e-05
5.41880000000003e-08,5.00000000000000e-01,5.00000000000000e-01,-2.17748510525275e-05
5.51000000000000e-08,5.00000000000000e-01,5.00000000000000e-01,1.74663438712325e-05
5.51100000000000e-08,4.50000000000018e-01,5.00000000000000e-01,-4.03178922125727e-05
5.51300000000000e-08,3.50000000000004e-01,5.00000000000000e-01,-1.48667359445423e-04
5.51700000000000e-08,1.50000000000008e-01,5.00000000000000e-01,-3.08333633547646e-04
5.52000000000000e-08,0.00000000000000e+00,5.00000000000000e-01,-3.02477093321367e-04
5.52080000000000e-08,0.00000000000000e+00,5.00000000000000e-01,-2.08687525109649e-04
5.52240000000000e-08,0.00000000000000e+00,5.00000000000000e-01,-5.01421509275443e-05
5.52560000000000e-08,0.00000000000000e+00,5.00000000000000e-01,1.62603161027945e-04
5.53200000000000e-08,0.00000000000000e+00,5.00000000000000e-01,3.19650328094306e-04
5.54480000000000e-08,0.00000000000000e+00,5.00000000000000e-01,2.30153782883602e-04
5.57040000000000e-08,0.00000000000000e+00,5.00000000000000e-01,-4.35106312292387e-04
5.62160000000000e-08,0.00000000000000e+00,5.00000000000000e-01,-3.78065095918347e-04
5.72400000000000e-08,0.00000000000000e+00,5.00000000000000e-01,1.51180296261353e-04
5.88603856045807e-08,0.00000000000000e+00,5.00000000000000e-01,-1.12022428149909e-04
6.11376480361316e-08,0.00000000000000e+00,5.00000000000000e-01,1.86880057265322e-04
6.49376480361316e-08,0.00000000000000e+00,5.00000000000000e-01,-1.87618147297365e-04
6.50000000000000e-08,0.00000000000000e+00,5.00000000000000e-01,-7.66863607180243e-05
6.50100000000000e-08,4.99999999999905e-02,5.00000000000000e-01,2.40949677334096e-05
6.50300000000000e-08,1.49999999999972e-01,5.00000000000000e-01,2.06284207747050e-04
6.50700000000000e-08,3.49999999999934e-01,5.00000000000000e-01,4.60342213046028e-04
6.51000000000000e-08,4.99999999999971e-01,5.00000000000000e-01,5.32829742354572e-04
6.51080000000000e-08,5.00000000000000e-01,5.00000000000000e-01,4.89510735179811e-04
6.51240000000000e-08,5.00000000000000e-01,5.00000000000000e-01,4.01496437878048e-04
6.51560000000000e-08,5.00000000000000e-01,5.00000000000000e-01,1.98889489631773e-04
6.52200000000000e-08,5.00000000000000e-01,5.00000000000000e-01,-4.29043083565152e-04
6.53480000000000e-08,5.00000000000000e-01,5.00000000000000e-01,-2.08211103850704e-03
6.56040000000000e-08,5.00000000000000e-01,5.00000000000000e-01,-4.18814081730713e-03
6.61159999999999e-08,5.00000000000000e-01,5.00000000000000e-01,5.61758759018127e-02
6.71399999999999e-08,5.00000000000000e-01,5.00000000000000e-01,4.40549182870108e-01
6.73959999999999e-08,5.00000000000000e-01,5.00000000000000e-01,4.82354380045787e-01
6.79079999999998e-08,5.00000000000000e-01,5.00000000000000e-01,5.02870420225325e-01
6.89319999999998e-08,5.00000000000000e-01,5.00000000000000e-01,4.97213252209104e-01
7.01000000000000e-08,5.00000000000000e-01,5.00000000000000e-01,5.02272609223024e-01
7.01100000000000e-08,5.00000000000000e-01,4.50000000000010e-01,5.01874390914493e-01
7.01300000000000e-08,5.00000000000000e-01,3.50000000000028e-01,5.01219755798168e-01
7.01700000000000e-08,5.00000000000000e-01,1.50000000000066e-01,5.00471111291235e-01
7.02000000000000e-08,5.00000000000000e-01,2.86437540353290e-14,5.00214999763568e-01
7.02080000000000e-08,5.00000000000000e-01,0.00000000000000e+00,5.00179510113643e-01
7.02240000000000e-08,5.00000000000000e-01,0.00000000000000e+00,5.00116205327913e-01
7.02560000000000e-08,5.00000000000000e-01,0.00000000000000e+00,5.00027756046823e-01
7.03200000000000e-08,5.00000000000000e-01,0.00000000000000e+00,4.99947077022938e-01
7.04480000000000e-08,5.00000000000000e-01,0.00000000000000e+00,4.99902875716631e-01
7.07040000000000e-08,5.00000000000000e-01,0.00000000000000e+00,4.99907188067819e-01
7.12159999999999e-08,5.00000000000000e-01,0.00000000000000e+00,4.99940149736036e-01
7.22399999999999e-08,5.00000000000000e-01,0.00000000000000e+00,4.99931184427362e-01
7.38621351564806e-08,5.00000000000000e-01,0.00000000000000e+00,4.99939984104409e-01
7.51000000000000e-08,5.00000000000000e-01,0.00000000000000e+00,4.99946437076581e-01
7.51100000000000e-08,4.50000000000051e-01,0.00000000000000e+00,4.99890094632094e-01
7.51300000000000e-08,3.50000000000070e-01,0.00000000000000e+00,4.99793208270612e-01
7.51700000000000e-08,1.50000000000108e-01,0.00000000000000e+00,4.99854072953147e-01
7.52000000000000e-08,6.99995617026161e-14,0.00000000000000e+00,5.00542795400070e-01
7.52080000000000e-08,0.00000000000000e+00,0.00000000000000e+00,5.00845878365062e-01
7.52240000000000e-08,0.00000000000000e+00,0.00000000000000e+00,5.01343367402922e-01
7.52560000000000e-08,0.00000000000000e+00,0.00000000000000e+00,5.01920987404091e-01
7.53200000000000e-08,0.00000000000000e+00,0.00000000000000e+00,5.02286706043440e-01
7.54480000000000e-08,0.00000000000000e+00,0.00000000000000e+00,5.01039122457217e-01
7.57040000000000e-08,0.00000000000000e+00,0.00000000000000e+00,4.89101046182477e-01
7.62159999999999e-08,0.00000000000000e+00,0.00000000000000e+00,4.84895092658474e-01
7.72399999999999e-08,0.00000000000000e+00,0.00000000000000e+00,5.02005216456875e-01
7.81000000000000e-08,0.00000000000000e+00,0.00000000000000e+00,4.97468980914961e-01
7.82337829452045e-08,0.00000000000000e+00,0.00000000000000e+00,4.98537109258587e-01
7.85013488356136e-08,0.00000000000000e+00,0.00000000000000e+00,4.99501494667885e-01
7.90364806164316e-08,0.00000000000000e+00,0.00000000000000e+00,4.99426728528847e-01
8.01067441780678e-08,0.00000000000000e+00,0.00000000000000e+00,4.99594838776575e-01
8.22472713013401e-08,0.00000000000000e+00,0.00000000000000e+00,4.99661819769783e-01
8.50000000000000e-08,0.00000000000000e+00,0.00000000000000e+00,4.99768553957558e-01
8.50100000000000e-08,4.99999999999905e-02,0.00000000000000e+00,4.99830028722818e-01
8.50300000000000e-08,1.49999999999972e-01,0.00000000000000e+00,4.99926187272118e-01
8.50700000000000e-08,3.49999999999934e-01,0.00000000000000e+00,4.99996304499149e-01
8.51000000000000e-08,4.99999999999971e-01,0.00000000000000e+00,4.99953883820334e-01
8.51080000000000e-08,5.00000000000000e-01,0.00000000000000e+00,4.99900483361066e-01
8.51240000000000e-08,5.00000000000000e-01,0.00000000000000e+00,4.99808686917335e-01
8.51560000000000e-08,5.00000000000000e-01,0.00000000000000e+00,4.99691527738163e-01
8.52200000000000e-08,5.00000000000000e-01,0.00000000000000e+00,4.99593707489019e-01
8.53480000000000e-08,5.00000000000000e-01,0.00000000000000e+00,4.99585709662856e-01
8.56040000000000e-08,5.00000000000000e-01,0.00000000000000e+00,4.99680322183490e-01
8.61159999999999e-08,5.00000000000000e-01,0.00000000000000e+00,5.01723004089826e-01
8.71399999999999e-08,5.00000000000000e-01,0.00000000000000e+00,2.68059856735004e-01
8.91879999999998e-08,5.00000000000000e-01,0.00000000000000e+00,-3.85585786567245e-02
9.00000000000000e-08,5.00000000000000e-01,0.00000000000000e+00,1.93958925995864e-02
9.00100000000000e-08,5.00000000000000e-01,4.99999999999905e-02,1.89153912787495e-02
9.00300000000000e-08,5.00000000000000e-01,1.49999999999972e-01,1.77506841753188e-02
9.00700000000000e-08,5.00000000000000e-01,3.49999999999934e-01,1.48861266734622e-02
9.01000000000000e-08,5.00000000000000e-01,4.99999999999971e-01,1.27713093548993e-02
9.01080000000000e-08,5.00000000000000e-01,5.00000000000000e-01,1.22545833580349e-02
9.01240000000000e-08,5.00000000000000e-01,5.00000000000000e-01,1.12554822363946e-02
9.01560000000000e-08,5.00000000000000e-01,5.00000000000000e-01,9.46289484515358e-03
9.02200000000000e-08,5.00000000000000e-01,5.00000000000000e-01,6.60426222092978e-03
9.03480000000000e-08,5.00000000000000e-01,5.00000000000000e-01,3.06962472939885e-03
9.06040000000000e-08,5.00000000000000e-01,5.00000000000000e-01,4.55571820657502e-04
9.11159999999999e-08,5.00000000000000e-01,5.00000000000000e-01,-8.35474517802241e-05
9.21399999999999e-08,5.00000000000000e-01,5.00000000000000e-01,4.30536223924270e-05
9.41879999999998e-08,5.00000000000000e-01,5.00000000000000e-01,-2.17756206245959e-05
9.51000000000000e-08,5.00000000000000e-01,5.00000000000000e-01,1.74660808016317e-05
9.51100000000000e-08,4.50000000000051e-01,5.00000000000000e-01,-4.03183732086421e-05
9.51300000000000e-08,3.50000000000070e-01,5.00000000000000e-01,-1.48667667446922e-04
9.51700000000000e-08,1.50000000000108e-01,5.00000000000000e-01,-3.08333982748682e-04
9.52000000000000e-08,6.99995617026161e-14,5.00000000000000e-01,-3.02477481363986e-04
9.52080000000000e-08,0.00000000000000e+00,5.00000000000000e-01,-2.08687933371192e-04
9.52240000000000e-08,0.00000000000000e+00,5.00000000000000e-01,-5.01425860641516e-05
9.52560000000000e-08,0.00000000000000e+00,5.00000000000000e-01,1.62602631481150e-04
9.53200000000000e-08,0.00000000000000e+00,5.00000000000000e-01,3.19649485944727e-04
9.54480000000000e-08,0.00000000000000e+00,5.00000000000000e-01,2.30150417462369e-04
9.57040000000000e-08,0.00000000000000e+00,5.00000000000000e-01,-4.35164334229399e-04
9.62159999999999e-08,0.00000000000000e+00,5.00000000000000e-01,-3.78111514584455e-04
9.72399999999999e-08,0.00000000000000e+00,5.00000000000000e-01,1.51206602373433e-04
9.88603851608635e-08,0.00000000000000e+00,5.00000000000000e-01,-1.12041257454260e-04
1.01137647776746e-07,0.00000000000000e+00,5.00000000000000e-01,1.86894828082828e-04
1.04937647776746e-07,0.00000000000000e+00,5.00000000000000e-01,-1.87631324739356e-04
1.05000000000000e-07,0.00000000000000e+00,5.00000000000000e-01,-7.66911458572883e-05
1.05010000000000e-07,4.99999999999905e-02,5.00000000000000e-01,2.40901631037987e-05
1.05030000000000e-07,1.49999999999972e-01,5.00000000000000e-01,2.06279544119989e-04
1.05070000000000e-07,3.49999999999934e-01,5.00000000000000e-01,4.60338510777349e-04
1.05100000000000e-07,4.99999999999971e-01,5.00000000000000e-01,5.32826719739261e-04
1.05108000000000e-07,5.00000000000000e-01,5.00000000000000e-01,4.89507857467299e-04
1.05124000000000e-07,5.00000000000000e-01,5.00000000000000e-01,4.01493840661814e-04
1.05156000000000e-07,5.00000000000000e-01,5.00000000000000e-01,1.98887348886179e-04
1.05220000000000e-07,5.00000000000000e-01,5.00000000000000e-01,-4.29044606673534e-04
1.05348000000000e-07,5.00000000000000e-01,5.00000000000000e-01,-2.08211182780844e-03
1.05604000000000e-07,5.00000000000000e-01,5.00000000000000e-01,-4.18814099998992e-03
1.06116000000000e-07,5.00000000000000e-01,5.00000000000000e-01,5.61758755031502e-02
1.07140000000000e-07,5.00000000000000e-01,5.00000000000000e-01,4.40549182445394e-01
1.07396000000000e-07,5.00000000000000e-01,5.00000000000000e-01,4.82354379935285e-01
1.07908000000000e-07,5.00000000000000e-01,5.00000000000000e-01,5.02870420241361e-01
1.08932000000000e-07,5.00000000000000e-01,5.00000000000000e-01,4.97213252197178e-01
1.10100000000000e-07,5.00000000000000e-01,5.00000000000000e-01,5.02272609238622e-01
1.10110000000000e-07,5.00000000000000e-01,4.50000000000076e-01,5.01874390927107e-01
1.10130000000000e-07,5.00000000000000e-01,3.50000000000095e-01,5.01219755807735e-01
1.10170000000000e-07,5.00000000000000e-01,1.50000000000133e-01,5.00471111297024e-01
1.10200000000000e-07,5.00000000000000e-01,9.48130463029884e-14,5.00214999766767e-01
