Time,v(clk),v(data),v(out),v(reset)
1.00000000000000e-08,5.00000000000000e-01,0.00000000000000e+00,-8.22606222205743e-06,0.00000000000000e+00
1.00100000000000e-08,5.00000000000000e-01,4.99999999999988e-02,-7.16314461729484e-06,0.00000000000000e+00
1.00300000000000e-08,5.00000000000000e-01,1.49999999999996e-01,-5.03910592934004e-06,0.00000000000000e+00
1.00700000000000e-08,5.00000000000000e-01,3.49999999999992e-01,-2.59458259582734e-06,0.00000000000000e+00
1.01000000000000e-08,5.00000000000000e-01,4.99999999999996e-01,-2.60883676477669e-06,0.00000000000000e+00
1.01080000000000e-08,5.00000000000000e-01,5.00000000000000e-01,-1.96602746566077e-06,0.00000000000000e+00
1.01240000000000e-08,5.00000000000000e-01,5.00000000000000e-01,-1.26942396706103e-06,0.00000000000000e+00
1.01560000000000e-08,5.00000000000000e-01,5.00000000000000e-01,1.36359020875415e-06,0.00000000000000e+00
1.02200000000000e-08,5.00000000000000e-01,5.00000000000000e-01,4.28211701700154e-06,0.00000000000000e+00
1.03480000000000e-08,5.00000000000000e-01,5.00000000000000e-01,4.98424800509864e-06,0.00000000000000e+00
1.06040000000000e-08,5.00000000000000e-01,5.00000000000000e-01,4.04306274197005e-06,0.00000000000000e+00
1.11160000000000e-08,5.00000000000000e-01,5.00000000000000e-01,4.46783070116342e-06,0.00000000000000e+00
1.21400000000000e-08,5.00000000000000e-01,5.00000000000000e-01,3.58419282187224e-06,0.00000000000000e+00
1.41880000000000e-08,5.00000000000000e-01,5.00000000000000e-01,3.77012944391148e-06,0.00000000000000e+00
1.51000000000000e-08,5.00000000000000e-01,5.00000000000000e-01,2.98453349243007e-06,0.00000000000000e+00
1.51100000000000e-08,4.49999999999993e-01,5.00000000000000e-01,1.66794561670104e-04,5.00000000000071e-02
1.51300000000000e-08,3.49999999999995e-01,5.00000000000000e-01,3.72076457089844e-04,1.50000000000005e-01
1.51700000000000e-08,1.50000000000000e-01,5.00000000000000e-01,3.15305032444410e-04,3.50000000000000e-01
1.52000000000000e-08,0.00000000000000e+00,5.00000000000000e-01,1.85294844785237e-04,5.00000000000000e-01
1.52080000000000e-08,0.00000000000000e+00,5.00000000000000e-01,1.44878167956018e-04,5.00000000000000e-01
1.52240000000000e-08,0.00000000000000e+00,5.00000000000000e-01,8.55831912075986e-05,5.00000000000000e-01
1.52560000000000e-08,0.00000000000000e+00,5.00000000000000e-01,4.13841033952769e-05,5.00000000000000e-01
1.53200000000000e-08,0.00000000000000e+00,5.00000000000000e-01,2.55886978157080e-05,5.00000000000000e-01
1.54480000000000e-08,0.00000000000000e+00,5.00000000000000e-01,-4.34319025022951e-05,5.00000000000000e-01
1.57040000000000e-08,0.00000000000000e+00,5.00000000000000e-01,-1.39281025753932e-04,5.00000000000000e-01
1.62160000000000e-08,0.00000000000000e+00,5.00000000000000e-01,1.69705582298910e-05,5.00000000000000e-01
1.72232324558308e-08,0.00000000000000e+00,5.00000000000000e-01,-3.83929181942359e-05,5.00000000000000e-01
1.84134067824223e-08,0.00000000000000e+00,5.00000000000000e-01,9.52720076573994e-05,5.00000000000000e-01
2.07937554356052e-08,0.00000000000000e+00,5.00000000000000e-01,-9.87786173861447e-05,5.00000000000000e-01
2.38273316608008e-08,0.00000000000000e+00,5.00000000000000e-01,1.02303304485184e-04,5.00000000000000e-01
2.50000000000000e-08,0.00000000000000e+00,5.00000000000000e-01,-9.40405773290041e-05,5.00000000000000e-01
2.50100000000000e-08,4.99999999999905e-02,5.00000000000000e-01,7.02842769133988e-06,5.00000000000000e-01
2.50300000000000e-08,1.50000000000005e-01,5.00000000000000e-01,1.79492337994018e-04,5.00000000000000e-01
2.50700000000000e-08,3.50000000000000e-01,5.00000000000000e-01,3.64962221818733e-04,5.00000000000000e-01
2.51000000000000e-08,5.00000000000000e-01,5.00000000000000e-01,3.32981281707646e-04,5.00000000000000e-01
2.51080000000000e-08,5.00000000000000e-01,5.00000000000000e-01,2.37155789428137e-04,5.00000000000000e-01
2.51240000000000e-08,5.00000000000000e-01,5.00000000000000e-01,-1.11294964656727e-05,5.00000000000000e-01
2.51560000000000e-08,5.00000000000000e-01,5.00000000000000e-01,-8.04244687396469e-04,5.00000000000000e-01
2.52200000000000e-08,5.00000000000000e-01,5.00000000000000e-01,-2.58114580291712e-03,5.00000000000000e-01
2.53480000000000e-08,5.00000000000000e-01,5.00000000000000e-01,-4.73298256849540e-03,5.00000000000000e-01
2.56040000000000e-08,5.00000000000000e-01,5.00000000000000e-01,5.43544927600933e-02,5.00000000000000e-01
2.61160000000000e-08,5.00000000000000e-01,5.00000000000000e-01,4.33040375527065e-01,5.00000000000000e-01
2.71400000000000e-08,5.00000000000000e-01,5.00000000000000e-01,5.18021607806328e-01,5.00000000000000e-01
2.83554392733608e-08,5.00000000000000e-01,5.00000000000000e-01,4.80621285099002e-01,5.00000000000000e-01
3.07653846014130e-08,5.00000000000000e-01,5.00000000000000e-01,5.15885013357315e-01,5.00000000000000e-01
3.40077911330378e-08,5.00000000000000e-01,5.00000000000000e-01,4.82559172899771e-01,5.00000000000000e-01
3.51000000000000e-08,4.99999999999975e-01,5.00000000000000e-01,5.13900168130105e-01,5.00000000000000e-01
3.51100000000000e-08,4.49999999999985e-01,5.00000000000000e-01,5.10123843821725e-01,5.00000000000000e-01
3.51300000000000e-08,3.49999999999971e-01,5.00000000000000e-01,5.04566168482271e-01,5.00000000000000e-01
3.51700000000000e-08,1.49999999999975e-01,5.00000000000000e-01,5.00744709556220e-01,5.00000000000000e-01
3.52000000000000e-08,0.00000000000000e+00,5.00000000000000e-01,5.01192944190140e-01,5.00000000000000e-01
3.52080000000000e-08,0.00000000000000e+00,5.00000000000000e-01,5.01497936427473e-01,5.00000000000000e-01
3.52240000000000e-08,0.00000000000000e+00,5.00000000000000e-01,5.01951652379874e-01,5.00000000000000e-01
3.52560000000000e-08,0.00000000000000e+00,5.00000000000000e-01,5.02347501076591e-01,5.00000000000000e-01
3.53200000000000e-08,0.00000000000000e+00,5.00000000000000e-01,5.02021314694170e-01,5.00000000000000e-01
3.54480000000000e-08,0.00000000000000e+00,5.00000000000000e-01,4.93744135252839e-01,5.00000000000000e-01
3.57040000000000e-08,0.00000000000000e+00,5.00000000000000e-01,4.83462429882264e-01,5.00000000000000e-01
3.62160000000000e-08,0.00000000000000e+00,5.00000000000000e-01,4.98442674250279e-01,5.00000000000000e-01
3.72400000000000e-08,0.00000000000000e+00,5.00000000000000e-01,5.00316527121222e-01,5.00000000000000e-01
3.86193000920409e-08,0.00000000000000e+00,5.00000000000000e-01,4.99224057846429e-01,5.00000000000000e-01
4.13779002761227e-08,0.00000000000000e+00,5.00000000000000e-01,5.00309151114729e-01,5.00000000000000e-01
4.50000000000000e-08,0.00000000000000e+00,5.00000000000000e-01,4.99460606206762e-01,5.00000000000000e-01
4.50100000000000e-08,4.99999999999905e-02,5.00000000000000e-01,4.99437782830354e-01,4.50000000000010e-01
4.50300000000000e-08,1.50000000000005e-01,5.00000000000000e-01,4.99398537251524e-01,3.49999999999995e-01
4.50700000000000e-08,3.50000000000000e-01,5.00000000000000e-01,4.99842680975601e-01,1.50000000000000e-01
4.51000000000000e-08,5.00000000000000e-01,5.00000000000000e-01,5.02256633108316e-01,0.00000000000000e+00
4.51080000000000e-08,5.00000000000000e-01,5.00000000000000e-01,5.03277465473522e-01,0.00000000000000e+00
4.51240000000000e-08,5.00000000000000e-01,5.00000000000000e-01,5.05048425426719e-01,0.00000000000000e+00
4.51560000000000e-08,5.00000000000000e-01,5.00000000000000e-01,5.07733259008624e-01,0.00000000000000e+00
4.52200000000000e-08,5.00000000000000e-01,5.00000000000000e-01,5.12773420181614e-01,0.00000000000000e+00
4.53480000000000e-08,5.00000000000000e-01,5.00000000000000e-01,5.22211612655784e-01,0.00000000000000e+00
4.56040000000000e-08,5.00000000000000e-01,5.00000000000000e-01,2.98801562990829e-01,0.00000000000000e+00
4.61160000000000e-08,5.00000000000000e-01,5.00000000000000e-01,-2.74371635372220e-02,0.00000000000000e+00
4.68418064118206e-08,5.00000000000000e-01,5.00000000000000e-01,1.99096425588176e-02,0.00000000000000e+00
4.82290524344505e-08,5.00000000000000e-01,5.00000000000000e-01,-1.49288355572528e-02,0.00000000000000e+00
4.97654892123306e-08,5.00000000000000e-01,5.00000000000000e-01,1.30365727828595e-02,0.00000000000000e+00
5.01000000000000e-08,5.00000000000000e-01,4.99999999999971e-01,-5.05244020691820e-03,0.00000000000000e+00
5.04072873555760e-08,5.00000000000000e-01,5.00000000000000e-01,-8.40687205945628e-04,0.00000000000000e+00
5.10218620667281e-08,5.00000000000000e-01,5.00000000000000e-01,5.14186560024672e-04,0.00000000000000e+00
5.22510114890322e-08,5.00000000000000e-01,5.00000000000000e-01,-4.01050493497855e-04,0.00000000000000e+00
5.47093103336403e-08,5.00000000000000e-01,5.00000000000000e-01,3.59155329203484e-04,0.00000000000000e+00
5.51000000000000e-08,5.00000000000000e-01,5.00000000000000e-01,-1.65701124797373e-04,0.00000000000000e+00
5.51100000000000e-08,4.50000000000018e-01,5.00000000000000e-01,2.95365544580733e-05,4.99999999999822e-02
5.51300000000000e-08,3.50000000000004e-01,5.00000000000000e-01,2.76100300709806e-04,1.49999999999996e-01
5.51700000000000e-08,1.50000000000008e-01,5.00000000000000e-01,2.57573586893829e-04,3.49999999999992e-01
5.52000000000000e-08,0.00000000000000e+00,5.00000000000000e-01,1.42503387607448e-04,5.00000000000000e-01
5.52080000000000e-08,0.00000000000000e+00,5.00000000000000e-01,1.04713104004790e-04,5.00000000000000e-01
5.52240000000000e-08,0.00000000000000e+00,5.00000000000000e-01,5.06918866331058e-05,5.00000000000000e-01
5.52560000000000e-08,0.00000000000000e+00,5.00000000000000e-01,1.11663364710732e-05,5.00000000000000e-01
5.53200000000000e-08,0.00000000000000e+00,5.00000000000000e-01,-5.02243739548131e-06,5.00000000000000e-01
5.54480000000000e-08,0.00000000000000e+00,5.00000000000000e-01,-4.14868663664778e-04,5.00000000000000e-01
5.57040000000000e-08,0.00000000000000e+00,5.00000000000000e-01,-5.64014969918519e-04,5.00000000000000e-01
5.61961651173314e-08,0.00000000000000e+00,5.00000000000000e-01,2.87985342077263e-04,5.00000000000000e-01
5.71021007618593e-08,0.00000000000000e+00,5.00000000000000e-01,-2.64637708803028e-04,5.00000000000000e-01
5.83089283236623e-08,0.00000000000000e+00,5.00000000000000e-01,2.26491495272704e-04,5.00000000000000e-01
6.07225834472682e-08,0.00000000000000e+00,5.00000000000000e-01,-1.88445816118171e-04,5.00000000000000e-01
6.36063121986445e-08,0.00000000000000e+00,5.00000000000000e-01,1.65703713123619e-04,5.00000000000000e-01
6.50000000000000e-08,0.00000000000000e+00,5.00000000000000e-01,-1.15775371834118e-04,5.00000000000000e-01
6.50100000000000e-08,4.99999999999905e-02,5.00000000000000e-01,-1.98926381097878e-05,5.00000000000000e-01
6.50300000000000e-08,1.49999999999972e-01,5.00000000000000e-01,1.45233308729224e-04,5.00000000000000e-01
6.50700000000000e-08,3.49999999999934e-01,5.00000000000000e-01,3.34728549375503e-04,5.00000000000000e-01
6.51000000000000e-08,4.99999999999971e-01,5.00000000000000e-01,3.13677430402656e-04,5.00000000000000e-01
6.51080000000000e-08,5.00000000000000e-01,5.00000000000000e-01,2.21978278751311e-04,5.00000000000000e-01
6.51240000000000e-08,5.00000000000000e-01,5.00000000000000e-01,-1.66863977766815e-05,5.00000000000000e-01
6.51560000000000e-08,5.00000000000000e-01,5.00000000000000e-01,-7.93663028386377e-04,5.00000000000000e-01
6.52200000000000e-08,5.00000000000000e-01,5.00000000000000e-01,-2.56350388782015e-03,5.00000000000000e-01
6.53480000000000e-08,5.00000000000000e-01,5.00000000000000e-01,-4.73036419197331e-03,5.00000000000000e-01
6.56040000000000e-08,5.00000000000000e-01,5.00000000000000e-01,5.29897153901274e-02,5.00000000000000e-01
6.61159999999999e-08,5.00000000000000e-01,5.00000000000000e-01,4.31984049820311e-01,5.00000000000000e-01
6.71399999999999e-08,5.00000000000000e-01,5.00000000000000e-01,5.18216367683798e-01,5.00000000000000e-01
6.83522776363239e-08,5.00000000000000e-01,5.00000000000000e-01,4.80427916216177e-01,5.00000000000000e-01
7.07670480249429e-08,5.00000000000000e-01,5.00000000000000e-01,5.16054820858685e-01,5.00000000000000e-01
7.40129832511697e-08,5.00000000000000e-01,5.00000000000000e-01,4.82374293483229e-01,5.00000000000000e-01
7.51000000000000e-08,5.00000000000000e-01,5.00000000000000e-01,5.14042947574084e-01,5.00000000000000e-01
7.51100000000000e-08,4.50000000000051e-01,5.00000000000000e-01,5.10226576699888e-01,5.00000000000000e-01
7.51300000000000e-08,3.50000000000070e-01,5.00000000000000e-01,5.04611377544395e-01,5.00000000000000e-01
7.51700000000000e-08,1.50000000000108e-01,5.00000000000000e-01,5.00750015135982e-01,5.00000000000000e-01
7.52000000000000e-08,6.99995617026161e-14,5.00000000000000e-01,5.01193935524908e-01,5.00000000000000e-01
7.52080000000000e-08,0.00000000000000e+00,5.00000000000000e-01,5.01498345563321e-01,5.00000000000000e-01
7.52240000000000e-08,0.00000000000000e+00,5.00000000000000e-01,5.01951118538336e-01,5.00000000000000e-01
7.52560000000000e-08,0.00000000000000e+00,5.00000000000000e-01,5.02346073875160e-01,5.00000000000000e-01
7.53200000000000e-08,0.00000000000000e+00,5.00000000000000e-01,5.02018263922420e-01,5.00000000000000e-01
7.54480000000000e-08,0.00000000000000e+00,5.00000000000000e-01,4.93734903466628e-01,5.00000000000000e-01
7.57040000000000e-08,0.00000000000000e+00,5.00000000000000e-01,4.83459277309860e-01,5.00000000000000e-01
7.62159999999999e-08,0.00000000000000e+00,5.00000000000000e-01,4.98445913322598e-01,5.00000000000000e-01
7.72399999999999e-08,0.00000000000000e+00,5.00000000000000e-01,5.00313746884693e-01,5.00000000000000e-01
7.86192725112562e-08,0.00000000000000e+00,5.00000000000000e-01,4.99226335181370e-01,5.00000000000000e-01
8.13778175337690e-08,0.00000000000000e+00,5.00000000000000e-01,5.00307045217029e-01,5.00000000000000e-01
8.50000000000000e-08,0.00000000000000e+00,5.00000000000000e-01,4.99462584071174e-01,5.00000000000000e-01
8.50100000000000e-08,4.99999999999905e-02,5.00000000000000e-01,4.99439423322890e-01,4.50000000000010e-01
8.50300000000000e-08,1.49999999999972e-01,5.00000000000000e-01,4.99399692252970e-01,3.50000000000028e-01
8.50700000000000e-08,3.49999999999934e-01,5.00000000000000e-01,4.99843295019470e-01,1.50000000000066e-01
8.51000000000000e-08,4.99999999999971e-01,5.00000000000000e-01,5.02257004585755e-01,2.86437540353290e-14
8.51080000000000e-08,5.00000000000000e-01,5.00000000000000e-01,5.03277802457699e-01,0.00000000000000e+00
8.51240000000000e-08,5.00000000000000e-01,5.00000000000000e-01,5.05048698870731e-01,0.00000000000000e+00
8.51560000000000e-08,5.00000000000000e-01,5.00000000000000e-01,5.07733442782425e-01,0.00000000000000e+00
8.52200000000000e-08,5.00000000000000e-01,5.00000000000000e-01,5.12773499742039e-01,0.00000000000000e+00
8.53480000000000e-08,5.00000000000000e-01,5.00000000000000e-01,5.22211568300172e-01,0.00000000000000e+00
8.56040000000000e-08,5.00000000000000e-01,5.00000000000000e-01,2.98801470841466e-01,0.00000000000000e+00
8.61159999999999e-08,5.00000000000000e-01,5.00000000000000e-01,-2.74373558521467e-02,0.00000000000000e+00
8.68418040573200e-08,5.00000000000000e-01,5.00000000000000e-01,1.99097783846376e-02,0.00000000000000e+00
8.82286555148549e-08,5.00000000000000e-01,5.00000000000000e-01,-1.49279884411766e-02,0.00000000000000e+00
8.97651758434978e-08,5.00000000000000e-01,5.00000000000000e-01,1.30359431329288e-02,0.00000000000000e+00
9.01000000000000e-08,5.00000000000000e-01,4.99999999999971e-01,-5.05701628259911e-03,0.00000000000000e+00
9.04073040657286e-08,5.00000000000000e-01,5.00000000000000e-01,-8.41568978714329e-04,0.00000000000000e+00
9.10219121971857e-08,5.00000000000000e-01,5.00000000000000e-01,5.14726985274100e-04,0.00000000000000e+00
9.22511284601001e-08,5.00000000000000e-01,5.00000000000000e-01,-4.01473070870160e-04,0.00000000000000e+00
9.47095609859287e-08,5.00000000000000e-01,5.00000000000000e-01,3.59530401847349e-04,0.00000000000000e+00
9.51000000000000e-08,5.00000000000000e-01,5.00000000000000e-01,-1.65774543975528e-04,0.00000000000000e+00
9.51100000000000e-08,4.50000000000051e-01,5.00000000000000e-01,2.94703027408846e-05,4.99999999999492e-02
9.51300000000000e-08,3.50000000000070e-01,5.00000000000000e-01,2.76049278887552e-04,1.49999999999930e-01
9.51700000000000e-08,1.50000000000108e-01,5.00000000000000e-01,2.57543635491658e-04,3.49999999999892e-01
9.52000000000000e-08,6.99995617026161e-14,5.00000000000000e-01,1.42483039844370e-04,4.99999999999930e-01
9.52080000000000e-08,0.00000000000000e+00,5.00000000000000e-01,1.04694645851389e-04,5.00000000000000e-01
9.52240000000000e-08,0.00000000000000e+00,5.00000000000000e-01,5.06767057853047e-05,5.00000000000000e-01
9.52560000000000e-08,0.00000000000000e+00,5.00000000000000e-01,1.11559064844904e-05,5.00000000000000e-01
9.53200000000000e-08,0.00000000000000e+00,5.00000000000000e-01,-5.02566976010033e-06,5.00000000000000e-01
9.54480000000000e-08,0.00000000000000e+00,5.00000000000000e-01,-4.14858172725689e-04,5.00000000000000e-01
9.57040000000000e-08,0.00000000000000e+00,5.00000000000000e-01,-5.63990221459060e-04,5.00000000000000e-01
9.61961318034936e-08,0.00000000000000e+00,5.00000000000000e-01,2.87964690026265e-04,5.00000000000000e-01
9.71019660725235e-08,0.00000000000000e+00,5.00000000000000e-01,-2.64622722117976e-04,5.00000000000000e-01
9.83088030788392e-08,0.00000000000000e+00,5.00000000000000e-01,2.26478283363134e-04,5.00000000000000e-01
1.00722477091470e-07,0.00000000000000e+00,5.00000000000000e-01,-1.88431793435085e-04,5.00000000000000e-01
1.03606015209070e-07,0.00000000000000e+00,5.00000000000000e-01,1.65688934804811e-04,5.00000000000000e-01
1.05000000000000e-07,0.00000000000000e+00,5.00000000000000e-01,-1.15770302011118e-04,5.00000000000000e-01
1.05010000000000e-07,4.99999999999905e-02,5.00000000000000e-01,-1.98870652504957e-05,5.00000000000000e-01
1.05030000000000e-07,1.49999999999972e-01,5.00000000000000e-01,1.45239627666570e-04,5.00000000000000e-01
1.05070000000000e-07,3.49999999999934e-01,5.00000000000000e-01,3.34735179608296e-04,5.00000000000000e-01
1.05100000000000e-07,4.99999999999971e-01,5.00000000000000e-01,3.13684163168654e-04,5.00000000000000e-01
1.05108000000000e-07,5.00000000000000e-01,5.00000000000000e-01,2.21985516343115e-04,5.00000000000000e-01
1.05124000000000e-07,5.00000000000000e-01,5.00000000000000e-01,-1.66776085126080e-05,5.00000000000000e-01
1.05156000000000e-07,5.00000000000000e-01,5.00000000000000e-01,-7.93651734315212e-04,5.00000000000000e-01
1.05220000000000e-07,5.00000000000000e-01,5.00000000000000e-01,-2.56349446882515e-03,5.00000000000000e-01
1.05348000000000e-07,5.00000000000000e-01,5.00000000000000e-01,-4.73036250742354e-03,5.00000000000000e-01
1.05604000000000e-07,5.00000000000000e-01,5.00000000000000e-01,5.29893680205106e-02,5.00000000000000e-01
1.06116000000000e-07,5.00000000000000e-01,5.00000000000000e-01,4.31983779133487e-01,5.00000000000000e-01
1.07140000000000e-07,5.00000000000000e-01,5.00000000000000e-01,5.18216417160043e-01,5.00000000000000e-01
1.08352276837127e-07,5.00000000000000e-01,5.00000000000000e-01,4.80427867249445e-01,5.00000000000000e-01
1.10767048466046e-07,5.00000000000000e-01,5.00000000000000e-01,5.16054863970460e-01,5.00000000000000e-01
1.14012984618604e-07,5.00000000000000e-01,5.00000000000000e-01,4.82374246590948e-01,5.00000000000000e-01
1.15100000000000e-07,5.00000000000000e-01,5.00000000000000e-01,5.14042983767669e-01,5.00000000000000e-01
1.15110000000000e-07,4.50000000000051e-01,5.00000000000000e-01,5.10226602723435e-01,5.00000000000000e-01
1.15130000000000e-07,3.50000000000070e-01,5.00000000000000e-01,5.04611388991257e-01,5.00000000000000e-01
1.15170000000000e-07,1.50000000000108e-01,5.00000000000000e-01,5.00750016477720e-01,5.00000000000000e-01
1.15200000000000e-07,6.99995617026161e-14,5.00000000000000e-01,5.01193935767513e-01,5.00000000000000e-01
1.15208000000000e-07,0.00000000000000e+00,5.00000000000000e-01,5.01498345661465e-01,5.00000000000000e-01
1.15224000000000e-07,0.00000000000000e+00,5.00000000000000e-01,5.01951118404005e-01,5.00000000000000e-01
1.15256000000000e-07,0.00000000000000e+00,5.00000000000000e-01,5.02346073516917e-01,5.00000000000000e-01
1.15320000000000e-07,0.00000000000000e+00,5.00000000000000e-01,5.02018263139626e-01,5.00000000000000e-01
