Time,v(clk),v(data),v(out)
1.00000000000000e-08,5.00000000000000e-01,0.00000000000000e+00,-3.21204399629602e-06
1.00100000000000e-08,5.00000000000000e-01,4.99999999999988e-02,-3.22682080265008e-06
1.00300000000000e-08,5.00000000000000e-01,1.49999999999996e-01,-2.99151187960200e-06
1.00700000000000e-08,5.00000000000000e-01,3.49999999999992e-01,-3.42541864233048e-06
1.01000000000000e-08,5.00000000000000e-01,4.99999999999996e-01,-5.61305227302078e-06
1.01080000000000e-08,5.00000000000000e-01,5.00000000000000e-01,-5.87297224637073e-06
1.01240000000000e-08,5.00000000000000e-01,5.00000000000000e-01,-5.67357217567260e-06
1.01560000000000e-08,5.00000000000000e-01,5.00000000000000e-01,-4.10615120868818e-06
1.02200000000000e-08,5.00000000000000e-01,5.00000000000000e-01,1.61458455406188e-06
1.03480000000000e-08,5.00000000000000e-01,5.00000000000000e-01,5.95720502474112e-06
1.06040000000000e-08,5.00000000000000e-01,5.00000000000000e-01,2.90180086014516e-06
1.11160000000000e-08,5.00000000000000e-01,5.00000000000000e-01,3.59601446831004e-06
1.21400000000000e-08,5.00000000000000e-01,5.00000000000000e-01,3.48794076160310e-06
1.41880000000000e-08,5.00000000000000e-01,5.00000000000000e-01,2.93778512847759e-06
1.51000000000000e-08,5.00000000000000e-01,5.00000000000000e-01,3.14462292279414e-06
1.51100000000000e-08,4.49999999999993e-01,5.00000000000000e-01,-5.01359204853336e-05
1.51300000000000e-08,3.49999999999995e-01,5.00000000000000e-01,-1.40726254730182e-04
1.51700000000000e-08,1.50000000000000e-01,5.00000000000000e-01,-2.28340246799907e-04
1.52000000000000e-08,0.00000000000000e+00,5.00000000000000e-01,-1.13426268379103e-04
1.52080000000000e-08,0.00000000000000e+00,5.00000000000000e-01,3.81945149006274e-06
1.52240000000000e-08,0.00000000000000e+00,5.00000000000000e-01,1.81976962654942e-04
1.52560000000000e-08,0.00000000000000e+00,5.00000000000000e-01,3.17670489444345e-04
1.53200000000000e-08,0.00000000000000e+00,5.00000000000000e-01,2.66682118327692e-04
1.54480000000000e-08,0.00000000000000e+00,5.00000000000000e-01,-2.45123745818664e-05
1.57040000000000e-08,0.00000000000000e+00,5.00000000000000e-01,-1.66041600815261e-04
1.62160000000000e-08,0.00000000000000e+00,5.00000000000000e-01,3.87919163824697e-06
1.72246896858287e-08,0.00000000000000e+00,5.00000000000000e-01,-1.29932184568353e-05
1.84070933377488e-08,0.00000000000000e+00,5.00000000000000e-01,8.44768321892906e-05
2.07719006415889e-08,0.00000000000000e+00,5.00000000000000e-01,-1.02360311208720e-04
2.37986301741538e-08,0.00000000000000e+00,5.00000000000000e-01,1.10345647634191e-04
2.50000000000000e-08,0.00000000000000e+00,5.00000000000000e-01,-1.10499127816683e-04
2.50100000000000e-08,4.99999999999905e-02,5.00000000000000e-01,-4.59695967904017e-06
2.50300000000000e-08,1.50000000000005e-01,5.00000000000000e-01,1.74425503704577e-04
2.50700000000000e-08,3.50000000000000e-01,5.00000000000000e-01,3.62853332391146e-04
2.51000000000000e-08,5.00000000000000e-01,5.00000000000000e-01,3.32026895747746e-04
2.51080000000000e-08,5.00000000000000e-01,5.00000000000000e-01,2.36824578757358e-04
2.51240000000000e-08,5.00000000000000e-01,5.00000000000000e-01,-9.96121372039832e-06
2.51560000000000e-08,5.00000000000000e-01,5.00000000000000e-01,-8.00704540442607e-04
2.52200000000000e-08,5.00000000000000e-01,5.00000000000000e-01,-2.57799914906209e-03
2.53480000000000e-08,5.00000000000000e-01,5.00000000000000e-01,-4.73208563194585e-03
2.56040000000000e-08,5.00000000000000e-01,5.00000000000000e-01,5.45679082104521e-02
2.61160000000000e-08,5.00000000000000e-01,5.00000000000000e-01,4.33203512292250e-01
2.71400000000000e-08,5.00000000000000e-01,5.00000000000000e-01,5.17990943871921e-01
2.83559377715005e-08,5.00000000000000e-01,5.00000000000000e-01,4.80651744075940e-01
3.01000000000000e-08,5.00000000000000e-01,5.00000000000000e-01,5.15587938231985e-01
3.01100000000000e-08,5.00000000000000e-01,4.50000000000026e-01,5.11364872430466e-01
3.01300000000000e-08,5.00000000000000e-01,3.50000000000012e-01,5.05245316224989e-01
3.01700000000000e-08,5.00000000000000e-01,1.50000000000017e-01,5.00848247294803e-01
3.02000000000000e-08,5.00000000000000e-01,1.21014309684142e-14,5.00296880947137e-01
3.02080000000000e-08,5.00000000000000e-01,0.00000000000000e+00,5.00236410122087e-01
3.02240000000000e-08,5.00000000000000e-01,0.00000000000000e+00,5.00140171412438e-01
3.02560000000000e-08,5.00000000000000e-01,0.00000000000000e+00,5.00048827173539e-01
3.03200000000000e-08,5.00000000000000e-01,0.00000000000000e+00,5.00000386604351e-01
3.04480000000000e-08,5.00000000000000e-01,0.00000000000000e+00,4.99967823808807e-01
3.07040000000000e-08,5.00000000000000e-01,0.00000000000000e+00,4.99979847235259e-01
3.12160000000000e-08,5.00000000000000e-01,0.00000000000000e+00,4.99970447152986e-01
3.20886811944885e-08,5.00000000000000e-01,0.00000000000000e+00,4.99967276987507e-01
3.34020462941342e-08,5.00000000000000e-01,0.00000000000000e+00,4.99977239405340e-01
3.51000000000000e-08,4.99999999999975e-01,0.00000000000000e+00,4.99971079292283e-01
3.51100000000000e-08,4.49999999999985e-01,0.00000000000000e+00,4.99914744907794e-01
3.51300000000000e-08,3.49999999999971e-01,0.00000000000000e+00,4.99824628233645e-01
3.51700000000000e-08,1.49999999999975e-01,0.00000000000000e+00,4.99974498547379e-01
3.52000000000000e-08,0.00000000000000e+00,0.00000000000000e+00,5.00942681963714e-01
3.52080000000000e-08,0.00000000000000e+00,0.00000000000000e+00,5.01295839032071e-01
3.52240000000000e-08,0.00000000000000e+00,0.00000000000000e+00,5.01825404222404e-01
3.52560000000000e-08,0.00000000000000e+00,0.00000000000000e+00,5.02290030666625e-01
3.53200000000000e-08,0.00000000000000e+00,0.00000000000000e+00,5.01990345905822e-01
3.54480000000000e-08,0.00000000000000e+00,0.00000000000000e+00,4.93867402507002e-01
3.57040000000000e-08,0.00000000000000e+00,0.00000000000000e+00,4.83697097456713e-01
3.62160000000000e-08,0.00000000000000e+00,0.00000000000000e+00,4.98350676838539e-01
3.69253920197520e-08,0.00000000000000e+00,0.00000000000000e+00,5.00210653758081e-01
3.83441760592560e-08,0.00000000000000e+00,0.00000000000000e+00,4.99191897900309e-01
3.91000000000000e-08,0.00000000000000e+00,0.00000000000000e+00,5.00141408340512e-01
3.92494862203177e-08,0.00000000000000e+00,0.00000000000000e+00,4.99887512026591e-01
3.95484586609530e-08,0.00000000000000e+00,0.00000000000000e+00,4.99744523709248e-01
4.01464035422237e-08,0.00000000000000e+00,0.00000000000000e+00,4.99834992950884e-01
4.13422933047650e-08,0.00000000000000e+00,0.00000000000000e+00,4.99814079320393e-01
4.37340728298477e-08,0.00000000000000e+00,0.00000000000000e+00,4.99892585476636e-01
4.50000000000000e-08,0.00000000000000e+00,0.00000000000000e+00,4.99865656927556e-01
4.50100000000000e-08,4.99999999999905e-02,0.00000000000000e+00,4.99921877309611e-01
4.50300000000000e-08,1.50000000000005e-01,0.00000000000000e+00,5.00000632533345e-01
4.50700000000000e-08,3.50000000000000e-01,0.00000000000000e+00,5.00016344644884e-01
4.51000000000000e-08,5.00000000000000e-01,0.00000000000000e+00,4.99931353218218e-01
4.51080000000000e-08,5.00000000000000e-01,0.00000000000000e+00,4.99873894011623e-01
4.51240000000000e-08,5.00000000000000e-01,0.00000000000000e+00,4.99782747053466e-01
4.51560000000000e-08,5.00000000000000e-01,0.00000000000000e+00,4.99701089776808e-01
4.52200000000000e-08,5.00000000000000e-01,0.00000000000000e+00,4.99692745457070e-01
4.53480000000000e-08,5.00000000000000e-01,0.00000000000000e+00,4.99768775877538e-01
4.56040000000000e-08,5.00000000000000e-01,0.00000000000000e+00,5.02117427422627e-01
4.61160000000000e-08,5.00000000000000e-01,0.00000000000000e+00,2.82082556632335e-01
4.71400000000000e-08,5.00000000000000e-01,0.00000000000000e+00,-3.18368784470097e-02
4.82279595382359e-08,5.00000000000000e-01,0.00000000000000e+00,2.98124016347238e-02
5.00000000000000e-08,5.00000000000000e-01,0.00000000000000e+00,-1.90789762247247e-02
5.00100000000000e-08,5.00000000000000e-01,4.99999999999905e-02,-1.75824114026462e-02
5.00300000000000e-08,5.00000000000000e-01,1.49999999999972e-01,-1.43573564143768e-02
5.00700000000000e-08,5.00000000000000e-01,3.50000000000000e-01,-8.70634936095015e-03
5.01000000000000e-08,5.00000000000000e-01,5.00000000000000e-01,-5.96716201787515e-03
5.01080000000000e-08,5.00000000000000e-01,5.00000000000000e-01,-5.42220631703064e-03
5.01240000000000e-08,5.00000000000000e-01,5.00000000000000e-01,-4.42490373410775e-03
5.01560000000000e-08,5.00000000000000e-01,5.00000000000000e-01,-2.92418975858666e-03
5.02200000000000e-08,5.00000000000000e-01,5.00000000000000e-01,-1.23147870521279e-03
5.03480000000000e-08,5.00000000000000e-01,5.00000000000000e-01,-1.23438939969731e-04
5.06040000000000e-08,5.00000000000000e-01,5.00000000000000e-01,2.93176616121688e-05
5.11160000000001e-08,5.00000000000000e-01,5.00000000000000e-01,-1.71147797221778e-05
5.21400000000002e-08,5.00000000000000e-01,5.00000000000000e-01,1.39294050882149e-05
5.41880000000003e-08,5.00000000000000e-01,5.00000000000000e-01,-1.11112589697331e-05
5.51000000000000e-08,5.00000000000000e-01,5.00000000000000e-01,9.23657993136175e-06
5.51100000000000e-08,4.50000000000018e-01,5.00000000000000e-01,-4.42972852311568e-05
5.51300000000000e-08,3.50000000000004e-01,5.00000000000000e-01,-1.34225876829056e-04
5.51700000000000e-08,1.50000000000008e-01,5.00000000000000e-01,-2.15984248455009e-04
5.52000000000000e-08,0.00000000000000e+00,5.00000000000000e-01,-1.08695872753459e-04
5.52080000000000e-08,0.00000000000000e+00,5.00000000000000e-01,7.36077159027571e-06
5.52240000000000e-08,0.00000000000000e+00,5.00000000000000e-01,1.79211754749241e-04
5.52560000000000e-08,0.00000000000000e+00,5.00000000000000e-01,3.13804430063909e-04
5.53200000000000e-08,0.00000000000000e+00,5.00000000000000e-01,2.48358674218400e-04
5.54480000000000e-08,0.00000000000000e+00,5.00000000000000e-01,-2.99156850988708e-04
5.57040000000000e-08,0.00000000000000e+00,5.00000000000000e-01,-3.99371024086607e-04
5.62160000000000e-08,0.00000000000000e+00,5.00000000000000e-01,1.25160318938887e-04
5.72227398692075e-08,0.00000000000000e+00,5.00000000000000e-01,-1.00972051235731e-04
5.84060310929012e-08,0.00000000000000e+00,5.00000000000000e-01,1.50326376281544e-04
6.07726135402886e-08,0.00000000000000e+00,5.00000000000000e-01,-1.55042160526570e-04
6.37976244670107e-08,0.00000000000000e+00,5.00000000000000e-01,1.57471105131102e-04
6.50000000000000e-08,0.00000000000000e+00,5.00000000000000e-01,-1.47307475072311e-04
6.50100000000000e-08,4.99999999999905e-02,5.00000000000000e-01,-3.46201446855474e-05
6.50300000000000e-08,1.49999999999972e-01,5.00000000000000e-01,1.53821516601323e-04
6.50700000000000e-08,3.49999999999934e-01,5.00000000000000e-01,3.48447507995273e-04
6.51000000000000e-08,4.99999999999971e-01,5.00000000000000e-01,3.21880468916770e-04
6.51080000000000e-08,5.00000000000000e-01,5.00000000000000e-01,2.27424919021148e-04
6.51240000000000e-08,5.00000000000000e-01,5.00000000000000e-01,-1.79837783637754e-05
6.51560000000000e-08,5.00000000000000e-01,5.00000000000000e-01,-8.06568414381301e-04
6.52200000000000e-08,5.00000000000000e-01,5.00000000000000e-01,-2.58098464957562e-03
6.53480000000000e-08,5.00000000000000e-01,5.00000000000000e-01,-4.73272351939066e-03
6.56040000000000e-08,5.00000000000000e-01,5.00000000000000e-01,5.45747440238517e-02
6.61159999999999e-08,5.00000000000000e-01,5.00000000000000e-01,4.33208753979497e-01
6.71399999999999e-08,5.00000000000000e-01,5.00000000000000e-01,5.17989966072525e-01
6.83559554110062e-08,5.00000000000000e-01,5.00000000000000e-01,4.80652713889043e-01
7.01000000000000e-08,5.00000000000000e-01,5.00000000000000e-01,5.15587098255943e-01
7.01100000000000e-08,5.00000000000000e-01,4.50000000000010e-01,5.11364270574093e-01
7.01300000000000e-08,5.00000000000000e-01,3.50000000000028e-01,5.05245052908590e-01
7.01700000000000e-08,5.00000000000000e-01,1.50000000000066e-01,5.00848218163709e-01
7.02000000000000e-08,5.00000000000000e-01,2.86437540353290e-14,5.00296877529100e-01
7.02080000000000e-08,5.00000000000000e-01,0.00000000000000e+00,5.00236410406598e-01
7.02240000000000e-08,5.00000000000000e-01,0.00000000000000e+00,5.00140177436263e-01
7.02560000000000e-08,5.00000000000000e-01,0.00000000000000e+00,5.00048836835909e-01
7.03200000000000e-08,5.00000000000000e-01,0.00000000000000e+00,5.00000394093664e-01
7.04480000000000e-08,5.00000000000000e-01,0.00000000000000e+00,4.99967823633624e-01
7.07040000000000e-08,5.00000000000000e-01,0.00000000000000e+00,4.99979848954709e-01
7.12159999999999e-08,5.00000000000000e-01,0.00000000000000e+00,4.99970447052146e-01
7.20886920735507e-08,5.00000000000000e-01,0.00000000000000e+00,4.99967277922564e-01
7.34020569206486e-08,5.00000000000000e-01,0.00000000000000e+00,4.99977239483882e-01
7.51000000000000e-08,5.00000000000000e-01,0.00000000000000e+00,4.99971079865246e-01
7.51100000000000e-08,4.50000000000051e-01,0.00000000000000e+00,4.99914745795941e-01
7.51300000000000e-08,3.50000000000070e-01,0.00000000000000e+00,4.99824628181972e-01
7.51700000000000e-08,1.50000000000108e-01,0.00000000000000e+00,4.99974497424760e-01
7.52000000000000e-08,6.99995617026161e-14,0.00000000000000e+00,5.00942682001666e-01
7.52080000000000e-08,0.00000000000000e+00,0.00000000000000e+00,5.01295839053209e-01
7.52240000000000e-08,0.00000000000000e+00,0.00000000000000e+00,5.01825404391206e-01
7.52560000000000e-08,0.00000000000000e+00,0.00000000000000e+00,5.02290032129195e-01
7.53200000000000e-08,0.00000000000000e+00,0.00000000000000e+00,5.01990356282984e-01
7.54480000000000e-08,0.00000000000000e+00,0.00000000000000e+00,4.93867447982177e-01
7.57040000000000e-08,0.00000000000000e+00,0.00000000000000e+00,4.83697117362010e-01
7.62159999999999e-08,0.00000000000000e+00,0.00000000000000e+00,4.98350656420771e-01
7.69253920095644e-08,0.00000000000000e+00,0.00000000000000e+00,5.00210670191389e-01
7.81000000000000e-08,0.00000000000000e+00,0.00000000000000e+00,4.99192214761304e-01
7.82418784019129e-08,0.00000000000000e+00,0.00000000000000e+00,4.99554494963297e-01
7.85256352057387e-08,0.00000000000000e+00,0.00000000000000e+00,4.99794639266736e-01
7.90931488133903e-08,0.00000000000000e+00,0.00000000000000e+00,4.99729210237086e-01
8.02281760286934e-08,0.00000000000000e+00,0.00000000000000e+00,4.99839233818004e-01
8.24982304592997e-08,0.00000000000000e+00,0.00000000000000e+00,4.99829901058053e-01
8.50000000000000e-08,0.00000000000000e+00,0.00000000000000e+00,4.99907577400870e-01
8.50100000000000e-08,4.99999999999905e-02,0.00000000000000e+00,4.99960545610048e-01
8.50300000000000e-08,1.49999999999972e-01,0.00000000000000e+00,5.00032700910780e-01
8.50700000000000e-08,3.49999999999934e-01,0.00000000000000e+00,5.00033904121338e-01
8.51000000000000e-08,4.99999999999971e-01,0.00000000000000e+00,4.99941637031873e-01
8.51080000000000e-08,5.00000000000000e-01,0.00000000000000e+00,4.99883925369241e-01
8.51240000000000e-08,5.00000000000000e-01,0.00000000000000e+00,4.99791800971865e-01
8.51560000000000e-08,5.00000000000000e-01,0.00000000000000e+00,4.99706419626174e-01
8.52200000000000e-08,5.00000000000000e-01,0.00000000000000e+00,4.99693029726809e-01
8.53480000000000e-08,5.00000000000000e-01,0.00000000000000e+00,4.99765718658002e-01
8.56040000000000e-08,5.00000000000000e-01,0.00000000000000e+00,5.02117515724892e-01
8.61159999999999e-08,5.00000000000000e-01,0.00000000000000e+00,2.82084883812607e-01
8.71399999999999e-08,5.00000000000000e-01,0.00000000000000e+00,-3.18357551805586e-02
8.82279583410739e-08,5.00000000000000e-01,0.00000000000000e+00,2.98112745691992e-02
9.00000000000000e-08,5.00000000000000e-01,0.00000000000000e+00,-1.90782123742670e-02
9.00100000000000e-08,5.00000000000000e-01,4.99999999999905e-02,-1.75816760168562e-02
9.00300000000000e-08,5.00000000000000e-01,1.49999999999972e-01,-1.43568337925513e-02
9.00700000000000e-08,5.00000000000000e-01,3.49999999999934e-01,-8.70606384486172e-03
9.01000000000000e-08,5.00000000000000e-01,4.99999999999971e-01,-5.96697543469493e-03
9.01080000000000e-08,5.00000000000000e-01,5.00000000000000e-01,-5.42203803708381e-03
9.01240000000000e-08,5.00000000000000e-01,5.00000000000000e-01,-4.42476841858033e-03
9.01560000000000e-08,5.00000000000000e-01,5.00000000000000e-01,-2.92410248291046e-03
9.02200000000000e-08,5.00000000000000e-01,5.00000000000000e-01,-1.23144282348817e-03
9.03480000000000e-08,5.00000000000000e-01,5.00000000000000e-01,-1.23435257412416e-04
9.06040000000000e-08,5.00000000000000e-01,5.00000000000000e-01,2.93168479999911e-05
9.11159999999999e-08,5.00000000000000e-01,5.00000000000000e-01,-1.71144532844190e-05
9.21399999999999e-08,5.00000000000000e-01,5.00000000000000e-01,1.39291880926259e-05
9.41879999999998e-08,5.00000000000000e-01,5.00000000000000e-01,-1.11111239443386e-05
9.51000000000000e-08,5.00000000000000e-01,5.00000000000000e-01,9.23648917890239e-06
9.51100000000000e-08,4.50000000000051e-01,5.00000000000000e-01,-4.42978188127524e-05
9.51300000000000e-08,3.50000000000070e-01,5.00000000000000e-01,-1.34226151490828e-04
9.51700000000000e-08,1.50000000000108e-01,5.00000000000000e-01,-2.15984399858836e-04
9.52000000000000e-08,6.99995617026161e-14,5.00000000000000e-01,-1.08696038499126e-04
9.52080000000000e-08,0.00000000000000e+00,5.00000000000000e-01,7.36060835944408e-06
9.52240000000000e-08,0.00000000000000e+00,5.00000000000000e-01,1.79211590836399e-04
9.52560000000000e-08,0.00000000000000e+00,5.00000000000000e-01,3.13804231736298e-04
9.53200000000000e-08,0.00000000000000e+00,5.00000000000000e-01,2.48358049343596e-04
9.54480000000000e-08,0.00000000000000e+00,5.00000000000000e-01,-2.99168496096298e-04
9.57040000000000e-08,0.00000000000000e+00,5.00000000000000e-01,-3.99388672160404e-04
9.62159999999999e-08,0.00000000000000e+00,5.00000000000000e-01,1.25167275417551e-04
9.72227398689598e-08,0.00000000000000e+00,5.00000000000000e-01,-1.00976129410922e-04
9.84060311925352e-08,0.00000000000000e+00,5.00000000000000e-01,1.50328701319549e-04
1.00772613839686e-07,0.00000000000000e+00,5.00000000000000e-01,-1.55043887541862e-04
1.03797624864383e-07,0.00000000000000e+00,5.00000000000000e-01,1.57472394932716e-04
1.05000000000000e-07,0.00000000000000e+00,5.00000000000000e-01,-1.47307965362371e-04
1.05010000000000e-07,4.99999999999905e-02,5.00000000000000e-01,-3.46208418131738e-05
1.05030000000000e-07,1.49999999999972e-01,5.00000000000000e-01,1.53820519977393e-04
1.05070000000000e-07,3.49999999999934e-01,5.00000000000000e-01,3.48446433815819e-04
1.05100000000000e-07,4.99999999999971e-01,5.00000000000000e-01,3.21879551663892e-04
1.05108000000000e-07,5.00000000000000e-01,5.00000000000000e-01,2.27424047790234e-04
1.05124000000000e-07,5.00000000000000e-01,5.00000000000000e-01,-1.79845636956374e-05
1.05156000000000e-07,5.00000000000000e-01,5.00000000000000e-01,-8.06569044034748e-04
1.05220000000000e-07,5.00000000000000e-01,5.00000000000000e-01,-2.58098500951363e-03
1.05348000000000e-07,5.00000000000000e-01,5.00000000000000e-01,-4.73272360740142e-03
1.05604000000000e-07,5.00000000000000e-01,5.00000000000000e-01,5.45747446401779e-02
1.06116000000000e-07,5.00000000000000e-01,5.00000000000000e-01,4.33208754168795e-01
1.07140000000000e-07,5.00000000000000e-01,5.00000000000000e-01,5.17989965933914e-01
1.08355955413409e-07,5.00000000000000e-01,5.00000000000000e-01,4.80652714019176e-01
1.10100000000000e-07,5.00000000000000e-01,5.00000000000000e-01,5.15587098153757e-01
1.10110000000000e-07,5.00000000000000e-01,4.50000000000076e-01,5.11364270500941e-01
1.10130000000000e-07,5.00000000000000e-01,3.50000000000095e-01,5.05245052876322e-01
1.10170000000000e-07,5.00000000000000e-01,1.50000000000133e-01,5.00848218158217e-01
1.10200000000000e-07,5.00000000000000e-01,9.48130463029884e-14,5.00296877527226e-01
1.10208000000000e-07,5.00000000000000e-01,0.00000000000000e+00,5.00236410405256e-01
1.10224000000000e-07,5.00000000000000e-01,0.00000000000000e+00,5.00140177435765e-01
1.10256000000000e-07,5.00000000000000e-01,0.00000000000000e+00,5.00048836836188e-01
1.10320000000000e-07,5.00000000000000e-01,0.00000000000000e+00,5.00000394094112e-01
