Time,v(clk),v(data),v(out)
1.00000000000000e-08,6.00000000000000e-01,0.00000000000000e+00,4.66022930388490e-05
1.00100000000000e-08,6.00000000000000e-01,5.99999999999985e-02,3.47255459739737e-05
1.00300000000000e-08,6.00000000000000e-01,1.79999999999996e-01,1.78891625960964e-05
1.00700000000000e-08,6.00000000000000e-01,4.19999999999990e-01,1.30424107158689e-06
1.01000000000000e-08,6.00000000000000e-01,5.99999999999995e-01,-2.27307232048002e-06
1.01080000000000e-08,6.00000000000000e-01,6.00000000000000e-01,-2.10904029544767e-06
1.01240000000000e-08,6.00000000000000e-01,6.00000000000000e-01,-6.16669585562502e-07
1.01560000000000e-08,6.00000000000000e-01,6.00000000000000e-01,2.68952757465774e-06
1.02200000000000e-08,6.00000000000000e-01,6.00000000000000e-01,4.95868505074465e-06
1.03480000000000e-08,6.00000000000000e-01,6.00000000000000e-01,-4.57356832229278e-07
1.06040000000000e-08,6.00000000000000e-01,6.00000000000000e-01,1.67254971029235e-06
1.11160000000000e-08,6.00000000000000e-01,6.00000000000000e-01,9.62174063194599e-07
1.21400000000000e-08,6.00000000000000e-01,6.00000000000000e-01,1.21265661849439e-06
1.41880000000000e-08,6.00000000000000e-01,6.00000000000000e-01,7.78089318429495e-07
1.51000000000000e-08,6.00000000000000e-01,6.00000000000000e-01,9.12173576312226e-07
1.51100000000000e-08,5.39999999999991e-01,6.00000000000000e-01,-5.70233107801896e-05
1.51300000000000e-08,4.19999999999994e-01,6.00000000000000e-01,-1.39297848976122e-04
1.51700000000000e-08,1.80000000000000e-01,6.00000000000000e-01,-1.61827107890623e-04
1.52000000000000e-08,0.00000000000000e+00,6.00000000000000e-01,3.69299560984415e-06
1.52080000000000e-08,0.00000000000000e+00,6.00000000000000e-01,1.23231502619066e-04
1.52240000000000e-08,0.00000000000000e+00,6.00000000000000e-01,2.74612725363312e-04
1.52560000000000e-08,0.00000000000000e+00,6.00000000000000e-01,2.85032363687945e-04
1.53200000000000e-08,0.00000000000000e+00,6.00000000000000e-01,8.26009051619198e-05
1.54480000000000e-08,0.00000000000000e+00,6.00000000000000e-01,-1.19165779010617e-04
1.57040000000000e-08,0.00000000000000e+00,6.00000000000000e-01,-4.46428022899265e-05
1.62160000000000e-08,0.00000000000000e+00,6.00000000000000e-01,-7.87822754887467e-05
1.69164202061792e-08,0.00000000000000e+00,6.00000000000000e-01,1.32438141997769e-04
1.81414553425079e-08,0.00000000000000e+00,6.00000000000000e-01,-9.50156198364881e-05
1.96751258769134e-08,0.00000000000000e+00,6.00000000000000e-01,7.15883393214265e-05
2.27424669457243e-08,0.00000000000000e+00,6.00000000000000e-01,-6.06611074239741e-05
2.50000000000000e-08,0.00000000000000e+00,6.00000000000000e-01,4.87253252113762e-05
2.50100000000000e-08,5.99999999999886e-02,6.00000000000000e-01,1.53945683475334e-04
2.50300000000000e-08,1.80000000000006e-01,6.00000000000000e-01,3.00597835879407e-04
2.50700000000000e-08,4.20000000000000e-01,6.00000000000000e-01,3.26842654743358e-04
2.51000000000000e-08,6.00000000000000e-01,6.00000000000000e-01,-6.46525012812829e-04
2.51080000000000e-08,6.00000000000000e-01,6.00000000000000e-01,-1.30263498647841e-03
2.51240000000000e-08,6.00000000000000e-01,6.00000000000000e-01,-2.65264972693191e-03
2.51560000000000e-08,6.00000000000000e-01,6.00000000000000e-01,-4.78450009240604e-03
2.52200000000000e-08,6.00000000000000e-01,6.00000000000000e-01,-4.91923565622580e-03
2.53480000000000e-08,6.00000000000000e-01,6.00000000000000e-01,1.21559492194579e-01
2.56040000000000e-08,6.00000000000000e-01,6.00000000000000e-01,5.27337697260818e-01
2.61160000000000e-08,6.00000000000000e-01,6.00000000000000e-01,6.18821515442081e-01
2.67042260970925e-08,6.00000000000000e-01,6.00000000000000e-01,5.81786951365631e-01
2.78806782912776e-08,6.00000000000000e-01,6.00000000000000e-01,6.13830159447717e-01
2.91921183077406e-08,6.00000000000000e-01,6.00000000000000e-01,5.85691736615377e-01
3.18149983406667e-08,6.00000000000000e-01,6.00000000000000e-01,6.12068154097210e-01
3.51000000000000e-08,5.99999999999970e-01,6.00000000000000e-01,5.87014359620614e-01
3.51100000000000e-08,5.39999999999982e-01,6.00000000000000e-01,5.90095468419757e-01
3.51300000000000e-08,4.19999999999965e-01,6.00000000000000e-01,5.94731147193502e-01
3.51700000000000e-08,1.79999999999970e-01,6.00000000000000e-01,5.98924016813307e-01
3.52000000000000e-08,0.00000000000000e+00,6.00000000000000e-01,6.00745285044094e-01
3.52080000000000e-08,0.00000000000000e+00,6.00000000000000e-01,6.01231108712259e-01
3.52240000000000e-08,0.00000000000000e+00,6.00000000000000e-01,6.01951186761837e-01
3.52560000000000e-08,0.00000000000000e+00,6.00000000000000e-01,6.02497625092586e-01
3.53200000000000e-08,0.00000000000000e+00,6.00000000000000e-01,5.99967494330156e-01
3.54480000000000e-08,0.00000000000000e+00,6.00000000000000e-01,5.81822445389558e-01
3.57040000000000e-08,0.00000000000000e+00,6.00000000000000e-01,5.80574964654167e-01
3.62160000000000e-08,0.00000000000000e+00,6.00000000000000e-01,6.05009659162023e-01
3.70828359460829e-08,0.00000000000000e+00,6.00000000000000e-01,5.95063538898734e-01
3.83681021200717e-08,0.00000000000000e+00,6.00000000000000e-01,6.03595889794386e-01
4.09386344680494e-08,0.00000000000000e+00,6.00000000000000e-01,5.96238088710631e-01
4.47386344680494e-08,0.00000000000000e+00,6.00000000000000e-01,6.03267100773964e-01
4.50000000000000e-08,0.00000000000000e+00,6.00000000000000e-01,5.98338544819403e-01
4.50100000000000e-08,5.99999999999886e-02,6.00000000000000e-01,5.98682962448613e-01
4.50300000000000e-08,1.80000000000006e-01,6.00000000000000e-01,5.99234173867016e-01
4.50700000000000e-08,4.20000000000000e-01,6.00000000000000e-01,5.99762262069627e-01
4.51000000000000e-08,6.00000000000000e-01,6.00000000000000e-01,5.99086807729780e-01
4.51080000000000e-08,6.00000000000000e-01,5.52000000000025e-01,5.98590301863358e-01
4.51240000000000e-08,6.00000000000000e-01,4.55999999999996e-01,5.97589362597563e-01
4.51560000000000e-08,6.00000000000000e-01,2.64000000000016e-01,5.95959776512870e-01
4.52000000000000e-08,6.00000000000000e-01,3.44169137633799e-14,5.94578083710901e-01
4.52064000000000e-08,6.00000000000000e-01,0.00000000000000e+00,5.94457007329881e-01
4.52192000000000e-08,6.00000000000000e-01,0.00000000000000e+00,5.94240235770878e-01
4.52448000000000e-08,6.00000000000000e-01,0.00000000000000e+00,5.94154403077671e-01
4.52960000000000e-08,6.00000000000000e-01,0.00000000000000e+00,5.95326985084782e-01
4.53984000000000e-08,6.00000000000000e-01,0.00000000000000e+00,5.98416910879208e-01
4.56032000000000e-08,6.00000000000000e-01,0.00000000000000e+00,6.00197375004579e-01
4.59730142664551e-08,6.00000000000000e-01,0.00000000000000e+00,5.99897865410061e-01
4.66186751222428e-08,6.00000000000000e-01,0.00000000000000e+00,6.00068854627944e-01
4.73188432036598e-08,6.00000000000000e-01,0.00000000000000e+00,5.99950260339886e-01
4.87191793664940e-08,6.00000000000000e-01,0.00000000000000e+00,6.00042575697658e-01
5.15198516921624e-08,6.00000000000000e-01,0.00000000000000e+00,5.99960498063712e-01
5.51000000000000e-08,6.00000000000000e-01,0.00000000000000e+00,6.00037171693343e-01
5.51100000000000e-08,5.40000000000021e-01,0.00000000000000e+00,5.99958945425763e-01
5.51300000000000e-08,4.20000000000004e-01,0.00000000000000e+00,5.99850636777311e-01
5.51700000000000e-08,1.80000000000010e-01,0.00000000000000e+00,6.00104079699999e-01
5.52000000000000e-08,0.00000000000000e+00,0.00000000000000e+00,6.01311983364222e-01
5.52080000000000e-08,0.00000000000000e+00,0.00000000000000e+00,6.01725660493331e-01
5.52240000000000e-08,0.00000000000000e+00,0.00000000000000e+00,6.02362114455170e-01
5.52560000000000e-08,0.00000000000000e+00,0.00000000000000e+00,6.03016054969620e-01
5.53200000000000e-08,0.00000000000000e+00,0.00000000000000e+00,6.03675584453456e-01
5.54480000000000e-08,0.00000000000000e+00,0.00000000000000e+00,6.03928674804727e-01
5.57040000000000e-08,0.00000000000000e+00,0.00000000000000e+00,6.00254116566844e-01
5.60906528897059e-08,0.00000000000000e+00,0.00000000000000e+00,5.99411238464253e-01
5.67190278930587e-08,0.00000000000000e+00,0.00000000000000e+00,5.99958430176896e-01
5.74988205813209e-08,0.00000000000000e+00,0.00000000000000e+00,5.99643928061608e-01
5.90584059578453e-08,0.00000000000000e+00,0.00000000000000e+00,5.99963615452646e-01
6.21775767108941e-08,0.00000000000000e+00,0.00000000000000e+00,5.99759072913121e-01
6.50000000000000e-08,0.00000000000000e+00,0.00000000000000e+00,6.00001593464041e-01
6.50100000000000e-08,5.99999999999886e-02,0.00000000000000e+00,6.00050203179529e-01
6.50300000000000e-08,1.79999999999966e-01,0.00000000000000e+00,6.00109854083901e-01
6.50700000000000e-08,4.19999999999920e-01,0.00000000000000e+00,6.00051043343839e-01
6.51000000000000e-08,5.99999999999966e-01,0.00000000000000e+00,5.99799292091631e-01
6.51080000000000e-08,6.00000000000000e-01,0.00000000000000e+00,5.99701828284423e-01
6.51240000000000e-08,6.00000000000000e-01,0.00000000000000e+00,5.99562402034981e-01
6.51560000000000e-08,6.00000000000000e-01,0.00000000000000e+00,5.99442457501868e-01
6.52200000000000e-08,6.00000000000000e-01,0.00000000000000e+00,5.99878244855628e-01
6.53480000000000e-08,6.00000000000000e-01,0.00000000000000e+00,6.06554727548100e-01
6.56040000000000e-08,6.00000000000000e-01,0.00000000000000e+00,2.63803759960264e-01
6.60588218125743e-08,6.00000000000000e-01,0.00000000000000e+00,-4.86477456903713e-02
6.65252288513150e-08,6.00000000000000e-01,0.00000000000000e+00,4.35626646906898e-02
6.74580429287964e-08,6.00000000000000e-01,0.00000000000000e+00,-3.16314115720789e-02
6.84967042510748e-08,6.00000000000000e-01,0.00000000000000e+00,3.15374845843375e-02
7.05740268956316e-08,6.00000000000000e-01,0.00000000000000e+00,-2.60623875041060e-02
7.40066069927893e-08,6.00000000000000e-01,0.00000000000000e+00,2.80311412169619e-02
7.51000000000000e-08,6.00000000000000e-01,0.00000000000000e+00,-2.21423760636612e-02
7.51100000000000e-08,5.40000000000061e-01,0.00000000000000e+00,-1.72992167991602e-02
7.51300000000000e-08,4.20000000000084e-01,0.00000000000000e+00,-9.36002009377855e-03
7.51700000000000e-08,1.80000000000129e-01,0.00000000000000e+00,-2.25510493519156e-03
7.52000000000000e-08,8.40438829641244e-14,0.00000000000000e+00,-8.78401453846385e-04
7.52080000000000e-08,0.00000000000000e+00,0.00000000000000e+00,-5.74714929849666e-04
7.52240000000000e-08,0.00000000000000e+00,0.00000000000000e+00,-1.39413318339249e-04
7.52560000000000e-08,0.00000000000000e+00,0.00000000000000e+00,1.32556200652029e-04
7.53200000000000e-08,0.00000000000000e+00,0.00000000000000e+00,1.45797155447630e-05
7.54480000000000e-08,0.00000000000000e+00,0.00000000000000e+00,-5.47229373466320e-04
7.57040000000000e-08,0.00000000000000e+00,0.00000000000000e+00,9.97755614164549e-05
7.61860242643316e-08,0.00000000000000e+00,0.00000000000000e+00,-3.58131125792671e-05
7.69901121854392e-08,0.00000000000000e+00,0.00000000000000e+00,8.75092053290345e-06
7.82644349761671e-08,0.00000000000000e+00,0.00000000000000e+00,5.68516061931696e-06
8.08130805576230e-08,0.00000000000000e+00,0.00000000000000e+00,-1.13846769055665e-05
8.46130805576230e-08,0.00000000000000e+00,0.00000000000000e+00,1.55907397011298e-05
8.50000000000000e-08,0.00000000000000e+00,0.00000000000000e+00,-4.41669213789003e-05
8.50100000000000e-08,5.99999999999886e-02,0.00000000000000e+00,9.23933625531850e-05
8.50300000000000e-08,1.79999999999966e-01,0.00000000000000e+00,2.40690966060053e-04
8.50700000000000e-08,4.19999999999920e-01,0.00000000000000e+00,1.63272422459469e-04
8.51000000000000e-08,5.99999999999966e-01,0.00000000000000e+00,-1.02643695660209e-04
8.51080000000000e-08,6.00000000000000e-01,0.00000000000000e+00,-1.87003539016593e-04
8.51240000000000e-08,6.00000000000000e-01,0.00000000000000e+00,-2.91362597285710e-04
8.51560000000000e-08,6.00000000000000e-01,0.00000000000000e+00,-2.99032019661305e-04
8.52200000000000e-08,6.00000000000000e-01,0.00000000000000e+00,-1.76348020588673e-04
8.53480000000000e-08,6.00000000000000e-01,0.00000000000000e+00,9.03894442059461e-05
8.56040000000000e-08,6.00000000000000e-01,0.00000000000000e+00,6.88161878211017e-05
8.61159999999999e-08,6.00000000000000e-01,0.00000000000000e+00,-5.66230960744422e-05
8.68193045409262e-08,6.00000000000000e-01,0.00000000000000e+00,5.37075264718159e-05
8.82259136227788e-08,6.00000000000000e-01,0.00000000000000e+00,-4.62690627034733e-05
9.00000000000000e-08,6.00000000000000e-01,0.00000000000000e+00,4.63636961468964e-05
9.00100000000000e-08,6.00000000000000e-01,5.99999999999886e-02,3.45208705329753e-05
9.00300000000000e-08,6.00000000000000e-01,1.79999999999966e-01,1.77440108102625e-05
9.00700000000000e-08,6.00000000000000e-01,4.19999999999920e-01,1.31308389447055e-06
9.01000000000000e-08,6.00000000000000e-01,5.99999999999966e-01,-2.08398667000953e-06
9.01080000000000e-08,6.00000000000000e-01,6.00000000000000e-01,-1.92815417632969e-06
9.01240000000000e-08,6.00000000000000e-01,6.00000000000000e-01,-5.43355709529958e-07
9.01560000000000e-08,6.00000000000000e-01,6.00000000000000e-01,2.56916076047525e-06
9.02200000000000e-08,6.00000000000000e-01,6.00000000000000e-01,4.72166802083923e-06
9.03480000000000e-08,6.00000000000000e-01,6.00000000000000e-01,-3.29606361294810e-07
9.06040000000000e-08,6.00000000000000e-01,6.00000000000000e-01,1.63805370744126e-06
9.11159999999999e-08,6.00000000000000e-01,6.00000000000000e-01,9.76877361777602e-07
9.21399999999999e-08,6.00000000000000e-01,6.00000000000000e-01,1.20541212609085e-06
9.41879999999998e-08,6.00000000000000e-01,6.00000000000000e-01,7.82945721156071e-07
9.51000000000000e-08,6.00000000000000e-01,6.00000000000000e-01,9.12655496871240e-07
9.51100000000000e-08,5.40000000000061e-01,6.00000000000000e-01,-5.70569947356894e-05
9.51300000000000e-08,4.20000000000084e-01,6.00000000000000e-01,-1.39306670335980e-04
9.51700000000000e-08,1.80000000000129e-01,6.00000000000000e-01,-1.61825844543946e-04
9.52000000000000e-08,8.40438829641244e-14,6.00000000000000e-01,3.69302686158840e-06
9.52080000000000e-08,0.00000000000000e+00,6.00000000000000e-01,1.23231331837323e-04
9.52240000000000e-08,0.00000000000000e+00,6.00000000000000e-01,2.74612456829956e-04
9.52560000000000e-08,0.00000000000000e+00,6.00000000000000e-01,2.85032681261101e-04
9.53200000000000e-08,0.00000000000000e+00,6.00000000000000e-01,8.26069887711091e-05
9.54480000000000e-08,0.00000000000000e+00,6.00000000000000e-01,-1.19154558563948e-04
9.57040000000000e-08,0.00000000000000e+00,6.00000000000000e-01,-4.46469039954416e-05
9.62159999999999e-08,0.00000000000000e+00,6.00000000000000e-01,-7.87808480924544e-05
9.69164190248450e-08,0.00000000000000e+00,6.00000000000000e-01,1.32436870045143e-04
9.81414555972869e-08,0.00000000000000e+00,6.00000000000000e-01,-9.50138500823289e-05
9.96751275640495e-08,0.00000000000000e+00,6.00000000000000e-01,7.15863902468893e-05
1.02742471497575e-07,0.00000000000000e+00,6.00000000000000e-01,-6.06591179799405e-05
1.05000000000000e-07,0.00000000000000e+00,6.00000000000000e-01,4.87232824146358e-05
1.05010000000000e-07,5.99999999999886e-02,6.00000000000000e-01,1.53943717718472e-04
1.05030000000000e-07,1.79999999999966e-01,6.00000000000000e-01,3.00596225980707e-04
1.05070000000000e-07,4.19999999999920e-01,6.00000000000000e-01,3.26842283316794e-04
1.05100000000000e-07,5.99999999999966e-01,6.00000000000000e-01,-6.46520138462572e-04
1.05108000000000e-07,6.00000000000000e-01,6.00000000000000e-01,-1.30262883846551e-03
1.05124000000000e-07,6.00000000000000e-01,6.00000000000000e-01,-2.65264306777413e-03
1.05156000000000e-07,6.00000000000000e-01,6.00000000000000e-01,-4.78449620370940e-03
1.05220000000000e-07,6.00000000000000e-01,6.00000000000000e-01,-4.91924404514119e-03
1.05348000000000e-07,6.00000000000000e-01,6.00000000000000e-01,1.21559403660036e-01
1.05604000000000e-07,6.00000000000000e-01,6.00000000000000e-01,5.27337630079873e-01
1.06116000000000e-07,6.00000000000000e-01,6.00000000000000e-01,6.18821529438838e-01
1.06704226132306e-07,6.00000000000000e-01,6.00000000000000e-01,5.81786936991023e-01
1.07880678396918e-07,6.00000000000000e-01,6.00000000000000e-01,6.13830171027842e-01
1.09192118545625e-07,6.00000000000000e-01,6.00000000000000e-01,5.85691724310492e-01
1.11814998843039e-07,6.00000000000000e-01,6.00000000000000e-01,6.12068164670241e-01
1.15100000000000e-07,6.00000000000000e-01,6.00000000000000e-01,5.87014348214950e-01
1.15110000000000e-07,5.40000000000061e-01,6.00000000000000e-01,5.90095460147308e-01
1.15130000000000e-07,4.20000000000084e-01,6.00000000000000e-01,5.94731143427505e-01
1.15170000000000e-07,1.80000000000129e-01,6.00000000000000e-01,5.98924016337569e-01
1.15200000000000e-07,8.40438829641244e-14,6.00000000000000e-01,6.00745284978243e-01
1.15208000000000e-07,0.00000000000000e+00,6.00000000000000e-01,6.01231108676429e-01
1.15224000000000e-07,0.00000000000000e+00,6.00000000000000e-01,6.01951186772738e-01
1.15256000000000e-07,0.00000000000000e+00,6.00000000000000e-01,6.02497625121109e-01
1.15320000000000e-07,0.00000000000000e+00,6.00000000000000e-01,5.99967494284749e-01
1.15448000000000e-07,0.00000000000000e+00,6.00000000000000e-01,5.81822445306015e-01
1.15704000000000e-07,0.00000000000000e+00,6.00000000000000e-01,5.80574964693265e-01
1.16216000000000e-07,0.00000000000000e+00,6.00000000000000e-01,6.05009659167987e-01
1.17082835945796e-07,0.00000000000000e+00,6.00000000000000e-01,5.95063538890408e-01
1.18368102120058e-07,0.00000000000000e+00,6.00000000000000e-01,6.03595889800321e-01
1.20938634468583e-07,0.00000000000000e+00,6.00000000000000e-01,5.96238088704908e-01
1.24738634468583e-07,0.00000000000000e+00,6.00000000000000e-01,6.03267100779127e-01
1.25000000000000e-07,0.00000000000000e+00,6.00000000000000e-01,5.98338544819172e-01
1.25010000000000e-07,5.99999999999092e-02,6.00000000000000e-01,5.98682962448369e-01
1.25030000000000e-07,1.79999999999886e-01,6.00000000000000e-01,5.99234173866790e-01
1.25070000000000e-07,4.19999999999841e-01,6.00000000000000e-01,5.99762262069894e-01
1.25100000000000e-07,5.99999999999886e-01,6.00000000000000e-01,5.99086807730316e-01
1.25108000000000e-07,6.00000000000000e-01,5.51999999999946e-01,5.98590301863710e-01
1.25124000000000e-07,6.00000000000000e-01,4.55999999999996e-01,5.97589362598198e-01
1.25156000000000e-07,6.00000000000000e-01,2.63999999999937e-01,5.95959776513166e-01
1.25200000000000e-07,6.00000000000000e-01,0.00000000000000e+00,5.94578083710585e-01
1.25206400000000e-07,6.00000000000000e-01,0.00000000000000e+00,5.94457007330605e-01
1.25219200000000e-07,6.00000000000000e-01,0.00000000000000e+00,5.94240235774765e-01
1.25244800000000e-07,6.00000000000000e-01,0.00000000000000e+00,5.94154403084630e-01
1.25296000000000e-07,6.00000000000000e-01,0.00000000000000e+00,5.95326985085978e-01
1.25398400000000e-07,6.00000000000000e-01,0.00000000000000e+00,5.98416910878263e-01
1.25603200000000e-07,6.00000000000000e-01,0.00000000000000e+00,6.00197375004711e-01
1.25973014266603e-07,6.00000000000000e-01,0.00000000000000e+00,5.99897865410040e-01
1.26618675118230e-07,6.00000000000000e-01,0.00000000000000e+00,6.00068854627627e-01
1.27318843199188e-07,6.00000000000000e-01,0.00000000000000e+00,5.99950260339976e-01
1.28719179361105e-07,6.00000000000000e-01,0.00000000000000e+00,6.00042575697464e-01
1.31519851684937e-07,6.00000000000000e-01,0.00000000000000e+00,5.99960498063963e-01
1.35100000000000e-07,5.99999999999891e-01,0.00000000000000e+00,6.00037171693172e-01
1.35110000000000e-07,5.39999999999823e-01,0.00000000000000e+00,5.99958945425749e-01
1.35130000000000e-07,4.19999999999845e-01,0.00000000000000e+00,5.99850636777573e-01
1.35170000000000e-07,1.79999999999891e-01,0.00000000000000e+00,6.00104079700201e-01
1.35200000000000e-07,0.00000000000000e+00,0.00000000000000e+00,6.01311983355119e-01
1.35208000000000e-07,0.00000000000000e+00,0.00000000000000e+00,6.01725660488205e-01
1.35224000000000e-07,0.00000000000000e+00,0.00000000000000e+00,6.02362114454823e-01
1.35256000000000e-07,0.00000000000000e+00,0.00000000000000e+00,6.03016054973805e-01
1.35320000000000e-07,0.00000000000000e+00,0.00000000000000e+00,6.03675584477655e-01
1.35448000000000e-07,0.00000000000000e+00,0.00000000000000e+00,6.03928674813286e-01
