Time,v(clk),v(data),v(out)
1.00000000000000e-08,6.00000000000000e-01,0.00000000000000e+00,9.57081945949026e-06
1.00100000000000e-08,6.00000000000000e-01,5.99999999999985e-02,1.35981082950085e-05
1.00300000000000e-08,6.00000000000000e-01,1.79999999999996e-01,1.67167829892775e-05
1.00700000000000e-08,6.00000000000000e-01,4.19999999999990e-01,1.28771491504018e-05
1.01000000000000e-08,6.00000000000000e-01,5.99999999999995e-01,1.04806729269019e-05
1.01080000000000e-08,6.00000000000000e-01,6.00000000000000e-01,9.58745442756342e-06
1.01240000000000e-08,6.00000000000000e-01,6.00000000000000e-01,9.05228104246258e-06
1.01560000000000e-08,6.00000000000000e-01,6.00000000000000e-01,9.39305222861370e-06
1.02200000000000e-08,6.00000000000000e-01,6.00000000000000e-01,1.03886025746153e-05
1.03480000000000e-08,6.00000000000000e-01,6.00000000000000e-01,5.56523692622768e-06
1.06040000000000e-08,6.00000000000000e-01,6.00000000000000e-01,5.29564868203408e-06
1.11160000000000e-08,6.00000000000000e-01,6.00000000000000e-01,5.26402279220177e-06
1.21400000000000e-08,6.00000000000000e-01,6.00000000000000e-01,4.66735644302513e-06
1.41880000000000e-08,6.00000000000000e-01,6.00000000000000e-01,4.39989284683725e-06
1.51000000000000e-08,6.00000000000000e-01,6.00000000000000e-01,3.99053881760571e-06
1.51100000000000e-08,5.39999999999991e-01,6.00000000000000e-01,-5.76524979406801e-05
1.51300000000000e-08,4.19999999999994e-01,6.00000000000000e-01,-1.57662182419839e-04
1.51700000000000e-08,1.80000000000000e-01,6.00000000000000e-01,-2.25108016933422e-04
1.52000000000000e-08,0.00000000000000e+00,6.00000000000000e-01,-8.27664472857204e-05
1.52080000000000e-08,0.00000000000000e+00,6.00000000000000e-01,4.14379431534079e-05
1.52240000000000e-08,0.00000000000000e+00,6.00000000000000e-01,2.23343491859790e-04
1.52560000000000e-08,0.00000000000000e+00,6.00000000000000e-01,3.35902804011391e-04
1.53200000000000e-08,0.00000000000000e+00,6.00000000000000e-01,1.97809753150605e-04
1.54480000000000e-08,0.00000000000000e+00,6.00000000000000e-01,-1.51650949727675e-04
1.57040000000000e-08,0.00000000000000e+00,6.00000000000000e-01,-9.28826130606047e-05
1.62160000000000e-08,0.00000000000000e+00,6.00000000000000e-01,-1.27171705281192e-04
1.69996754510794e-08,0.00000000000000e+00,6.00000000000000e-01,1.32401346891389e-04
1.81484588925028e-08,0.00000000000000e+00,6.00000000000000e-01,3.70319439459491e-06
1.98639037729646e-08,0.00000000000000e+00,6.00000000000000e-01,-4.85981934477708e-05
2.27902192673138e-08,0.00000000000000e+00,6.00000000000000e-01,7.47417336946189e-05
2.50000000000000e-08,0.00000000000000e+00,6.00000000000000e-01,-9.04963005733993e-05
2.50100000000000e-08,5.99999999999886e-02,6.00000000000000e-01,4.23969931119123e-05
2.50300000000000e-08,1.80000000000006e-01,6.00000000000000e-01,2.43590080089541e-04
2.50700000000000e-08,4.20000000000000e-01,6.00000000000000e-01,3.72147235294641e-04
2.51000000000000e-08,6.00000000000000e-01,6.00000000000000e-01,-1.16880534208795e-04
2.51080000000000e-08,6.00000000000000e-01,6.00000000000000e-01,-5.21959568955496e-04
2.51240000000000e-08,6.00000000000000e-01,6.00000000000000e-01,-1.46444084170660e-03
2.51560000000000e-08,6.00000000000000e-01,6.00000000000000e-01,-3.34541056132916e-03
2.52200000000000e-08,6.00000000000000e-01,6.00000000000000e-01,-5.41029384247371e-03
2.53480000000000e-08,6.00000000000000e-01,6.00000000000000e-01,2.95001855214797e-02
2.56040000000000e-08,6.00000000000000e-01,6.00000000000000e-01,3.61256859185734e-01
2.61160000000000e-08,6.00000000000000e-01,6.00000000000000e-01,6.25358044795348e-01
2.68007143915233e-08,6.00000000000000e-01,6.00000000000000e-01,5.79516329240442e-01
2.80792172463487e-08,6.00000000000000e-01,6.00000000000000e-01,6.18704388762968e-01
2.97117039832679e-08,6.00000000000000e-01,6.00000000000000e-01,5.82491441422618e-01
3.01000000000000e-08,6.00000000000000e-01,6.00000000000000e-01,6.12323902072992e-01
3.01100000000000e-08,6.00000000000000e-01,5.40000000000031e-01,6.09373553908740e-01
3.01300000000000e-08,6.00000000000000e-01,4.20000000000014e-01,6.04896229497064e-01
3.01700000000000e-08,6.00000000000000e-01,1.80000000000020e-01,6.01034144265281e-01
3.02000000000000e-08,6.00000000000000e-01,1.44328993201270e-14,6.00281048694845e-01
3.02080000000000e-08,6.00000000000000e-01,0.00000000000000e+00,6.00184845742039e-01
3.02240000000000e-08,6.00000000000000e-01,0.00000000000000e+00,6.00032438806618e-01
3.02560000000000e-08,6.00000000000000e-01,0.00000000000000e+00,5.99908060175103e-01
3.03200000000000e-08,6.00000000000000e-01,0.00000000000000e+00,5.99793115662560e-01
3.04480000000000e-08,6.00000000000000e-01,0.00000000000000e+00,5.99886587836774e-01
3.07040000000000e-08,6.00000000000000e-01,0.00000000000000e+00,5.99907070852900e-01
3.11505813868952e-08,6.00000000000000e-01,0.00000000000000e+00,5.99910760636148e-01
3.20437441606856e-08,6.00000000000000e-01,0.00000000000000e+00,5.99902017495515e-01
3.29895796075992e-08,6.00000000000000e-01,0.00000000000000e+00,5.99933670402212e-01
3.48812505014264e-08,6.00000000000000e-01,0.00000000000000e+00,5.99917771016664e-01
3.51000000000000e-08,5.99999999999970e-01,0.00000000000000e+00,5.99941600143577e-01
3.51100000000000e-08,5.39999999999982e-01,0.00000000000000e+00,5.99863798128054e-01
3.51300000000000e-08,4.19999999999965e-01,0.00000000000000e+00,5.99756606861158e-01
3.51700000000000e-08,1.79999999999970e-01,0.00000000000000e+00,6.00038757242424e-01
3.52000000000000e-08,0.00000000000000e+00,0.00000000000000e+00,6.01124020855965e-01
3.52080000000000e-08,0.00000000000000e+00,0.00000000000000e+00,6.01498845713500e-01
3.52240000000000e-08,0.00000000000000e+00,0.00000000000000e+00,6.02069249106041e-01
3.52560000000000e-08,0.00000000000000e+00,0.00000000000000e+00,6.02522020056956e-01
3.53200000000000e-08,0.00000000000000e+00,0.00000000000000e+00,6.01315490941111e-01
3.54480000000000e-08,0.00000000000000e+00,0.00000000000000e+00,5.88423525009619e-01
3.57040000000000e-08,0.00000000000000e+00,0.00000000000000e+00,5.75425424526674e-01
3.62068029178405e-08,0.00000000000000e+00,0.00000000000000e+00,5.97742662359082e-01
3.67536559186915e-08,0.00000000000000e+00,0.00000000000000e+00,5.99833716970305e-01
3.78473619203934e-08,0.00000000000000e+00,0.00000000000000e+00,5.99156677523471e-01
3.91000000000000e-08,0.00000000000000e+00,0.00000000000000e+00,5.99772188019273e-01
3.92270607488295e-08,0.00000000000000e+00,0.00000000000000e+00,5.99696147727550e-01
3.94811822464886e-08,0.00000000000000e+00,0.00000000000000e+00,5.99592043723724e-01
3.99894252418067e-08,0.00000000000000e+00,0.00000000000000e+00,5.99600703602453e-01
4.10059112324428e-08,0.00000000000000e+00,0.00000000000000e+00,5.99645875562320e-01
4.30388832137152e-08,0.00000000000000e+00,0.00000000000000e+00,5.99660452237835e-01
4.50000000000000e-08,0.00000000000000e+00,0.00000000000000e+00,5.99690765040405e-01
4.50100000000000e-08,5.99999999999886e-02,0.00000000000000e+00,5.99758977724900e-01
4.50300000000000e-08,1.80000000000006e-01,0.00000000000000e+00,5.99853667245500e-01
4.50700000000000e-08,4.20000000000000e-01,0.00000000000000e+00,5.99857640995354e-01
4.51000000000000e-08,6.00000000000000e-01,0.00000000000000e+00,5.99688098119921e-01
4.51080000000000e-08,6.00000000000000e-01,0.00000000000000e+00,5.99606463724714e-01
4.51240000000000e-08,6.00000000000000e-01,0.00000000000000e+00,5.99474312168098e-01
4.51560000000000e-08,6.00000000000000e-01,0.00000000000000e+00,5.99308451008207e-01
4.52200000000000e-08,6.00000000000000e-01,0.00000000000000e+00,5.99306325266227e-01
4.53480000000000e-08,6.00000000000000e-01,0.00000000000000e+00,6.01631935008237e-01
4.56040000000000e-08,6.00000000000000e-01,0.00000000000000e+00,6.09562511471052e-01
4.61160000000000e-08,6.00000000000000e-01,0.00000000000000e+00,1.02815609977923e-01
4.67587996751760e-08,6.00000000000000e-01,0.00000000000000e+00,-5.74040588205386e-02
4.76856809312708e-08,6.00000000000000e-01,0.00000000000000e+00,5.34317072087594e-02
4.91700526997672e-08,6.00000000000000e-01,0.00000000000000e+00,-4.11733252346380e-02
5.00000000000000e-08,6.00000000000000e-01,0.00000000000000e+00,3.58517596137280e-02
5.00100000000000e-08,6.00000000000000e-01,5.99999999999886e-02,2.93721311996701e-02
5.00300000000000e-08,6.00000000000000e-01,1.79999999999966e-01,1.92162274974476e-02
5.00700000000000e-08,6.00000000000000e-01,4.20000000000000e-01,8.29784509321527e-03
5.01000000000000e-08,6.00000000000000e-01,6.00000000000000e-01,4.40299303055449e-03
5.01080000000000e-08,6.00000000000000e-01,6.00000000000000e-01,3.79873342285363e-03
5.01240000000000e-08,6.00000000000000e-01,6.00000000000000e-01,2.72926896963858e-03
5.01560000000000e-08,6.00000000000000e-01,6.00000000000000e-01,1.39926478626597e-03
5.02200000000000e-08,6.00000000000000e-01,6.00000000000000e-01,3.11009866665546e-04
5.03480000000000e-08,6.00000000000000e-01,6.00000000000000e-01,-3.49259327799417e-05
5.06040000000000e-08,6.00000000000000e-01,6.00000000000000e-01,1.40760748763100e-05
5.11160000000001e-08,6.00000000000000e-01,6.00000000000000e-01,-1.19774321448007e-05
5.21400000000002e-08,6.00000000000000e-01,6.00000000000000e-01,8.76959340989029e-06
5.41880000000003e-08,6.00000000000000e-01,6.00000000000000e-01,-9.86234004439436e-06
5.51000000000000e-08,6.00000000000000e-01,6.00000000000000e-01,6.47323247134155e-06
5.51100000000000e-08,5.40000000000021e-01,6.00000000000000e-01,-5.64754777386614e-05
5.51300000000000e-08,4.20000000000004e-01,6.00000000000000e-01,-1.58772898762961e-04
5.51700000000000e-08,1.80000000000010e-01,6.00000000000000e-01,-2.19591098220062e-04
5.52000000000000e-08,0.00000000000000e+00,6.00000000000000e-01,-7.80786751628168e-05
5.52080000000000e-08,0.00000000000000e+00,6.00000000000000e-01,4.36511233559561e-05
5.52240000000000e-08,0.00000000000000e+00,6.00000000000000e-01,2.14126062450838e-04
5.52560000000000e-08,0.00000000000000e+00,6.00000000000000e-01,2.93265652504086e-04
5.53200000000000e-08,0.00000000000000e+00,6.00000000000000e-01,1.13449806700500e-04
5.54480000000000e-08,0.00000000000000e+00,6.00000000000000e-01,-8.23406132938419e-04
5.57040000000000e-08,0.00000000000000e+00,6.00000000000000e-01,-4.31908528158453e-04
5.61696578344510e-08,0.00000000000000e+00,6.00000000000000e-01,1.02705729633973e-04
5.69658997167084e-08,0.00000000000000e+00,6.00000000000000e-01,-6.55159604685592e-05
5.80223429874541e-08,0.00000000000000e+00,6.00000000000000e-01,1.91048676869163e-04
5.97397771635686e-08,0.00000000000000e+00,6.00000000000000e-01,-2.25067712045744e-04
6.24682455461559e-08,0.00000000000000e+00,6.00000000000000e-01,2.42465611644444e-04
6.50000000000000e-08,0.00000000000000e+00,6.00000000000000e-01,-2.48654066421386e-04
6.50100000000000e-08,5.99999999999886e-02,6.00000000000000e-01,-7.24257339024051e-05
6.50300000000000e-08,1.79999999999966e-01,6.00000000000000e-01,1.82493656924583e-04
6.50700000000000e-08,4.19999999999920e-01,6.00000000000000e-01,3.49783565044177e-04
6.51000000000000e-08,5.99999999999966e-01,6.00000000000000e-01,-1.09176516140515e-04
6.51080000000000e-08,6.00000000000000e-01,6.00000000000000e-01,-5.06592850463047e-04
6.51240000000000e-08,6.00000000000000e-01,6.00000000000000e-01,-1.43905545576983e-03
6.51560000000000e-08,6.00000000000000e-01,6.00000000000000e-01,-3.32153636472263e-03
6.52200000000000e-08,6.00000000000000e-01,6.00000000000000e-01,-5.40743794316887e-03
6.53480000000000e-08,6.00000000000000e-01,6.00000000000000e-01,2.91990925365779e-02
6.56040000000000e-08,6.00000000000000e-01,6.00000000000000e-01,3.60532832869385e-01
6.61159999999999e-08,6.00000000000000e-01,6.00000000000000e-01,6.25312219439889e-01
6.68010720909399e-08,6.00000000000000e-01,6.00000000000000e-01,5.79558426104464e-01
6.80799324710013e-08,6.00000000000000e-01,6.00000000000000e-01,6.18678310771440e-01
6.97121201102191e-08,6.00000000000000e-01,6.00000000000000e-01,5.82522311113028e-01
7.01000000000000e-08,6.00000000000000e-01,6.00000000000000e-01,6.12304241791716e-01
7.01100000000000e-08,6.00000000000000e-01,5.40000000000011e-01,6.09358001233819e-01
7.01300000000000e-08,6.00000000000000e-01,4.20000000000034e-01,6.04887449572935e-01
7.01700000000000e-08,6.00000000000000e-01,1.80000000000080e-01,6.01031184113307e-01
7.02000000000000e-08,6.00000000000000e-01,3.44169137633799e-14,6.00279887839845e-01
7.02080000000000e-08,6.00000000000000e-01,0.00000000000000e+00,6.00183852437481e-01
7.02240000000000e-08,6.00000000000000e-01,0.00000000000000e+00,6.00031737714383e-01
7.02560000000000e-08,6.00000000000000e-01,0.00000000000000e+00,5.99907632971116e-01
7.03200000000000e-08,6.00000000000000e-01,0.00000000000000e+00,5.99792972267353e-01
7.04480000000000e-08,6.00000000000000e-01,0.00000000000000e+00,5.99886535171781e-01
7.07040000000000e-08,6.00000000000000e-01,0.00000000000000e+00,5.99907000065607e-01
7.11507330233726e-08,6.00000000000000e-01,0.00000000000000e+00,5.99910770014402e-01
7.20441990701179e-08,6.00000000000000e-01,0.00000000000000e+00,5.99901914276948e-01
7.29900462429705e-08,6.00000000000000e-01,0.00000000000000e+00,5.99933701741161e-01
7.48817405886757e-08,6.00000000000000e-01,0.00000000000000e+00,5.99917690602131e-01
7.51000000000000e-08,6.00000000000000e-01,0.00000000000000e+00,5.99941600757860e-01
7.51100000000000e-08,5.40000000000061e-01,0.00000000000000e+00,5.99863785724450e-01
7.51300000000000e-08,4.20000000000084e-01,0.00000000000000e+00,5.99756578164995e-01
7.51700000000000e-08,1.80000000000129e-01,0.00000000000000e+00,6.00038724850555e-01
7.52000000000000e-08,8.40438829641244e-14,0.00000000000000e+00,6.01123993359166e-01
7.52080000000000e-08,0.00000000000000e+00,0.00000000000000e+00,6.01498810101852e-01
7.52240000000000e-08,0.00000000000000e+00,0.00000000000000e+00,6.02069195517695e-01
7.52560000000000e-08,0.00000000000000e+00,0.00000000000000e+00,6.02521906195037e-01
7.53200000000000e-08,0.00000000000000e+00,0.00000000000000e+00,6.01314984688358e-01
7.54480000000000e-08,0.00000000000000e+00,0.00000000000000e+00,5.88422084961439e-01
7.57040000000000e-08,0.00000000000000e+00,0.00000000000000e+00,5.75425004762707e-01
7.62067985543829e-08,0.00000000000000e+00,0.00000000000000e+00,5.97743185489513e-01
7.67536511058890e-08,0.00000000000000e+00,0.00000000000000e+00,5.99833290816767e-01
7.78473562089013e-08,0.00000000000000e+00,0.00000000000000e+00,5.99156963395160e-01
7.81000000000000e-08,0.00000000000000e+00,0.00000000000000e+00,5.99475019790758e-01
7.82270600290277e-08,0.00000000000000e+00,0.00000000000000e+00,5.99516658192688e-01
7.84811800870831e-08,0.00000000000000e+00,0.00000000000000e+00,5.99543397023234e-01
7.89894202031939e-08,0.00000000000000e+00,0.00000000000000e+00,5.99553452047732e-01
8.00059004354155e-08,0.00000000000000e+00,0.00000000000000e+00,5.99615747828496e-01
8.20388608998587e-08,0.00000000000000e+00,0.00000000000000e+00,5.99650457741573e-01
8.50000000000000e-08,0.00000000000000e+00,0.00000000000000e+00,5.99688784804944e-01
8.50100000000000e-08,5.99999999999886e-02,0.00000000000000e+00,5.99750364270750e-01
8.50300000000000e-08,1.79999999999966e-01,0.00000000000000e+00,5.99837489781750e-01
8.50700000000000e-08,4.19999999999920e-01,0.00000000000000e+00,5.99845610083988e-01
8.51000000000000e-08,5.99999999999966e-01,0.00000000000000e+00,5.99681701055347e-01
8.51080000000000e-08,6.00000000000000e-01,0.00000000000000e+00,5.99598735585421e-01
8.51240000000000e-08,6.00000000000000e-01,0.00000000000000e+00,5.99465288944033e-01
8.51560000000000e-08,6.00000000000000e-01,0.00000000000000e+00,5.99310797843466e-01
8.52200000000000e-08,6.00000000000000e-01,0.00000000000000e+00,5.99324067241752e-01
8.53480000000000e-08,6.00000000000000e-01,0.00000000000000e+00,6.01632023315621e-01
8.56040000000000e-08,6.00000000000000e-01,0.00000000000000e+00,6.09568961123236e-01
8.61159999999999e-08,6.00000000000000e-01,0.00000000000000e+00,1.02826217001718e-01
8.67589237598611e-08,6.00000000000000e-01,0.00000000000000e+00,-5.74085578236741e-02
8.76857479602277e-08,6.00000000000000e-01,0.00000000000000e+00,5.34372686943429e-02
8.91699310695840e-08,6.00000000000000e-01,0.00000000000000e+00,-4.11749298928249e-02
9.00000000000000e-08,6.00000000000000e-01,0.00000000000000e+00,3.58553002167086e-02
9.00100000000000e-08,6.00000000000000e-01,5.99999999999886e-02,2.93753264687128e-02
9.00300000000000e-08,6.00000000000000e-01,1.79999999999966e-01,1.92188027510582e-02
9.00700000000000e-08,6.00000000000000e-01,4.19999999999920e-01,8.29920145237245e-03
9.01000000000000e-08,6.00000000000000e-01,5.99999999999966e-01,4.40380289633253e-03
9.01080000000000e-08,6.00000000000000e-01,6.00000000000000e-01,3.79944097824791e-03
9.01240000000000e-08,6.00000000000000e-01,6.00000000000000e-01,2.72979753333354e-03
9.01560000000000e-08,6.00000000000000e-01,6.00000000000000e-01,1.39955493845670e-03
9.02200000000000e-08,6.00000000000000e-01,6.00000000000000e-01,3.11080425511132e-04
9.03480000000000e-08,6.00000000000000e-01,6.00000000000000e-01,-3.49366480048921e-05
9.06040000000000e-08,6.00000000000000e-01,6.00000000000000e-01,1.40759678797890e-05
9.11159999999999e-08,6.00000000000000e-01,6.00000000000000e-01,-1.19830814227506e-05
9.21399999999999e-08,6.00000000000000e-01,6.00000000000000e-01,8.76853429191641e-06
9.41879999999998e-08,6.00000000000000e-01,6.00000000000000e-01,-9.86712199175371e-06
9.51000000000000e-08,6.00000000000000e-01,6.00000000000000e-01,6.47198946144342e-06
9.51100000000000e-08,5.40000000000061e-01,6.00000000000000e-01,-5.64769013074798e-05
9.51300000000000e-08,4.20000000000084e-01,6.00000000000000e-01,-1.58774625146803e-04
9.51700000000000e-08,1.80000000000129e-01,6.00000000000000e-01,-2.19593304204950e-04
9.52000000000000e-08,8.40438829641244e-14,6.00000000000000e-01,-7.80817201152945e-05
9.52080000000000e-08,0.00000000000000e+00,6.00000000000000e-01,4.36474998099581e-05
9.52240000000000e-08,0.00000000000000e+00,6.00000000000000e-01,2.14120289298639e-04
9.52560000000000e-08,0.00000000000000e+00,6.00000000000000e-01,2.93250396016603e-04
9.53200000000000e-08,0.00000000000000e+00,6.00000000000000e-01,1.13384113093737e-04
9.54480000000000e-08,0.00000000000000e+00,6.00000000000000e-01,-8.23646224221479e-04
9.57040000000000e-08,0.00000000000000e+00,6.00000000000000e-01,-4.32185796286982e-04
9.61696231575713e-08,0.00000000000000e+00,6.00000000000000e-01,1.02813936723520e-04
9.69658754195232e-08,0.00000000000000e+00,6.00000000000000e-01,-6.55790306080366e-05
9.80222514751062e-08,0.00000000000000e+00,6.00000000000000e-01,1.91094879843631e-04
9.97396881898740e-08,0.00000000000000e+00,6.00000000000000e-01,-2.25100484034634e-04
1.02467941379454e-07,0.00000000000000e+00,6.00000000000000e-01,2.42490703149461e-04
1.05000000000000e-07,0.00000000000000e+00,6.00000000000000e-01,-2.48670422887294e-04
1.05010000000000e-07,5.99999999999886e-02,6.00000000000000e-01,-7.24612616981035e-05
1.05030000000000e-07,1.79999999999966e-01,6.00000000000000e-01,1.82443323998131e-04
1.05070000000000e-07,4.19999999999920e-01,6.00000000000000e-01,3.49747980234322e-04
1.05100000000000e-07,5.99999999999966e-01,6.00000000000000e-01,-1.09187085204715e-04
1.05108000000000e-07,6.00000000000000e-01,6.00000000000000e-01,-5.06595271601552e-04
1.05124000000000e-07,6.00000000000000e-01,6.00000000000000e-01,-1.43904672011746e-03
1.05156000000000e-07,6.00000000000000e-01,6.00000000000000e-01,-3.32152454496410e-03
1.05220000000000e-07,6.00000000000000e-01,6.00000000000000e-01,-5.40743795996104e-03
1.05348000000000e-07,6.00000000000000e-01,6.00000000000000e-01,2.91988553230568e-02
1.05604000000000e-07,6.00000000000000e-01,6.00000000000000e-01,3.60532262724352e-01
1.06116000000000e-07,6.00000000000000e-01,6.00000000000000e-01,6.25312183322757e-01
1.06801072376877e-07,6.00000000000000e-01,6.00000000000000e-01,5.79558459490735e-01
1.08079933024705e-07,6.00000000000000e-01,6.00000000000000e-01,6.18678290042157e-01
1.09712120439043e-07,6.00000000000000e-01,6.00000000000000e-01,5.82522335605021e-01
1.10100000000000e-07,6.00000000000000e-01,6.00000000000000e-01,6.12304226191019e-01
1.10110000000000e-07,6.00000000000000e-01,5.40000000000091e-01,6.09357988971300e-01
