Time,v(clk),v(data),v(out)
1.00000000000000e-08,6.00000000000000e-01,0.00000000000000e+00,2.34832200135190e-07
1.00100000000000e-08,6.00000000000000e-01,5.99999999999985e-02,1.65356028924285e-06
1.00300000000000e-08,6.00000000000000e-01,1.79999999999996e-01,3.24788804142301e-06
1.00700000000000e-08,6.00000000000000e-01,4.19999999999990e-01,2.35968532956432e-06
1.01000000000000e-08,6.00000000000000e-01,5.99999999999995e-01,4.88073164946201e-07
1.01080000000000e-08,6.00000000000000e-01,6.00000000000000e-01,2.75434485594306e-07
1.01240000000000e-08,6.00000000000000e-01,6.00000000000000e-01,2.32898132786208e-07
1.01560000000000e-08,6.00000000000000e-01,6.00000000000000e-01,2.92135324529014e-06
1.02200000000000e-08,6.00000000000000e-01,6.00000000000000e-01,6.52490454733368e-06
1.03480000000000e-08,6.00000000000000e-01,6.00000000000000e-01,7.87529760952477e-06
1.06040000000000e-08,6.00000000000000e-01,6.00000000000000e-01,5.54204367155323e-06
1.11160000000000e-08,6.00000000000000e-01,6.00000000000000e-01,6.65274225491834e-06
1.20464994208421e-08,6.00000000000000e-01,6.00000000000000e-01,5.69212547054873e-06
1.39074982625262e-08,6.00000000000000e-01,6.00000000000000e-01,6.35104685029267e-06
1.51000000000000e-08,6.00000000000000e-01,6.00000000000000e-01,5.18209126693699e-06
1.51100000000000e-08,5.39999999999991e-01,6.00000000000000e-01,-5.19317758948534e-05
1.51300000000000e-08,4.19999999999994e-01,6.00000000000000e-01,-1.43106088302730e-04
1.51700000000000e-08,1.80000000000000e-01,6.00000000000000e-01,-1.43734257898237e-04
1.52000000000000e-08,0.00000000000000e+00,6.00000000000000e-01,1.14804937031303e-04
1.52080000000000e-08,0.00000000000000e+00,6.00000000000000e-01,2.51839164694297e-04
1.52240000000000e-08,0.00000000000000e+00,6.00000000000000e-01,4.28826863828773e-04
1.52560000000000e-08,0.00000000000000e+00,6.00000000000000e-01,4.60465259236591e-04
1.53200000000000e-08,0.00000000000000e+00,6.00000000000000e-01,1.38038194428078e-04
1.54480000000000e-08,0.00000000000000e+00,6.00000000000000e-01,-2.91484582120992e-04
1.57040000000000e-08,0.00000000000000e+00,6.00000000000000e-01,3.50805757544335e-05
1.61267909140610e-08,0.00000000000000e+00,6.00000000000000e-01,-1.86028936316175e-04
1.68134272412314e-08,0.00000000000000e+00,6.00000000000000e-01,1.73689573742801e-04
1.78994373906599e-08,0.00000000000000e+00,6.00000000000000e-01,-4.07623535721418e-05
1.94028003634006e-08,0.00000000000000e+00,6.00000000000000e-01,-6.48494574040804e-06
2.21556051412909e-08,0.00000000000000e+00,6.00000000000000e-01,3.61773697410170e-05
2.50000000000000e-08,0.00000000000000e+00,6.00000000000000e-01,-4.60448437202511e-05
2.50100000000000e-08,5.99999999999886e-02,6.00000000000000e-01,8.46062445309451e-05
2.50300000000000e-08,1.80000000000006e-01,6.00000000000000e-01,2.99893056037316e-04
2.50700000000000e-08,4.20000000000000e-01,6.00000000000000e-01,5.42765416659194e-04
2.51000000000000e-08,6.00000000000000e-01,6.00000000000000e-01,5.54110088461311e-04
2.51080000000000e-08,6.00000000000000e-01,6.00000000000000e-01,4.75699824611570e-04
2.51240000000000e-08,6.00000000000000e-01,6.00000000000000e-01,2.95996836260609e-04
2.51560000000000e-08,6.00000000000000e-01,6.00000000000000e-01,-3.49302611308465e-04
2.52200000000000e-08,6.00000000000000e-01,6.00000000000000e-01,-2.30712686869113e-03
2.53480000000000e-08,6.00000000000000e-01,6.00000000000000e-01,-4.84489511483631e-03
2.56040000000000e-08,6.00000000000000e-01,6.00000000000000e-01,1.24648462126572e-01
2.61160000000000e-08,6.00000000000000e-01,6.00000000000000e-01,5.77960299903558e-01
2.71400000000000e-08,6.00000000000000e-01,6.00000000000000e-01,6.07364815415900e-01
2.83347803955996e-08,6.00000000000000e-01,6.00000000000000e-01,5.92052727364739e-01
3.01000000000000e-08,6.00000000000000e-01,6.00000000000000e-01,6.06899230023816e-01
3.01100000000000e-08,6.00000000000000e-01,5.40000000000031e-01,6.03965442366311e-01
3.01300000000000e-08,6.00000000000000e-01,4.20000000000014e-01,6.00637856799034e-01
3.01700000000000e-08,6.00000000000000e-01,1.80000000000020e-01,5.99964936870314e-01
3.02000000000000e-08,6.00000000000000e-01,1.44328993201270e-14,6.00069285746799e-01
3.02080000000000e-08,6.00000000000000e-01,0.00000000000000e+00,6.00062921700028e-01
3.02240000000000e-08,6.00000000000000e-01,0.00000000000000e+00,6.00052231213475e-01
3.02560000000000e-08,6.00000000000000e-01,0.00000000000000e+00,6.00036668006941e-01
3.03200000000000e-08,6.00000000000000e-01,0.00000000000000e+00,6.00006136047679e-01
3.04480000000000e-08,6.00000000000000e-01,0.00000000000000e+00,6.00002192797631e-01
3.07040000000000e-08,6.00000000000000e-01,0.00000000000000e+00,5.99997657833359e-01
3.11260397729887e-08,6.00000000000000e-01,0.00000000000000e+00,5.99980591216939e-01
3.18033808426391e-08,6.00000000000000e-01,0.00000000000000e+00,5.99993554976766e-01
3.30482146592600e-08,6.00000000000000e-01,0.00000000000000e+00,5.99982866523180e-01
3.51000000000000e-08,5.99999999999970e-01,0.00000000000000e+00,5.99995095930368e-01
3.51100000000000e-08,5.39999999999982e-01,0.00000000000000e+00,5.99941684578030e-01
3.51300000000000e-08,4.19999999999965e-01,0.00000000000000e+00,5.99880560051366e-01
3.51700000000000e-08,1.79999999999970e-01,0.00000000000000e+00,6.00460184490650e-01
3.52000000000000e-08,0.00000000000000e+00,0.00000000000000e+00,6.02187764339060e-01
3.52080000000000e-08,0.00000000000000e+00,0.00000000000000e+00,6.02627023093567e-01
3.52240000000000e-08,0.00000000000000e+00,0.00000000000000e+00,6.03114900012499e-01
3.52560000000000e-08,0.00000000000000e+00,0.00000000000000e+00,6.01901715479938e-01
3.53200000000000e-08,0.00000000000000e+00,0.00000000000000e+00,5.90336791402041e-01
3.54480000000000e-08,0.00000000000000e+00,0.00000000000000e+00,5.82729173863208e-01
3.57040000000000e-08,0.00000000000000e+00,0.00000000000000e+00,6.00535100266761e-01
3.61452106304144e-08,0.00000000000000e+00,0.00000000000000e+00,5.98545780521008e-01
3.67984232966849e-08,0.00000000000000e+00,0.00000000000000e+00,6.00589604676789e-01
3.79165562598248e-08,0.00000000000000e+00,0.00000000000000e+00,5.99052410007076e-01
3.91000000000000e-08,0.00000000000000e+00,0.00000000000000e+00,6.00601573189365e-01
3.92925022804291e-08,0.00000000000000e+00,0.00000000000000e+00,5.99970505338990e-01
3.96775068412873e-08,0.00000000000000e+00,0.00000000000000e+00,5.99834737822284e-01
4.04475159630037e-08,0.00000000000000e+00,0.00000000000000e+00,5.99965581458470e-01
4.19875342064365e-08,0.00000000000000e+00,0.00000000000000e+00,5.99877887730714e-01
4.50000000000000e-08,0.00000000000000e+00,0.00000000000000e+00,5.99996417671323e-01
4.50100000000000e-08,5.99999999999886e-02,0.00000000000000e+00,6.00038407906060e-01
4.50300000000000e-08,1.80000000000006e-01,0.00000000000000e+00,6.00069045878311e-01
4.50700000000000e-08,4.20000000000000e-01,0.00000000000000e+00,6.00007148652709e-01
4.51000000000000e-08,6.00000000000000e-01,0.00000000000000e+00,5.99923071055920e-01
4.51080000000000e-08,6.00000000000000e-01,0.00000000000000e+00,5.99879961069977e-01
4.51240000000000e-08,6.00000000000000e-01,0.00000000000000e+00,5.99829295660003e-01
4.51560000000000e-08,6.00000000000000e-01,0.00000000000000e+00,5.99834138734957e-01
4.52200000000000e-08,6.00000000000000e-01,0.00000000000000e+00,5.99878093986901e-01
4.53480000000000e-08,6.00000000000000e-01,0.00000000000000e+00,5.99922565182972e-01
4.56040000000000e-08,6.00000000000000e-01,0.00000000000000e+00,6.04032979092654e-01
4.61160000000000e-08,6.00000000000000e-01,0.00000000000000e+00,2.54072581448086e-01
4.70445786320903e-08,6.00000000000000e-01,0.00000000000000e+00,-7.26061844061876e-02
4.79500122046525e-08,6.00000000000000e-01,0.00000000000000e+00,5.82105923558864e-02
4.97524580692024e-08,6.00000000000000e-01,0.00000000000000e+00,-3.85126654023566e-02
5.00000000000000e-08,6.00000000000000e-01,0.00000000000000e+00,5.03178933461804e-03
5.00100000000000e-08,6.00000000000000e-01,5.99999999999886e-02,5.22963468545486e-03
5.00300000000000e-08,6.00000000000000e-01,1.79999999999966e-01,4.97309785287751e-03
5.00700000000000e-08,6.00000000000000e-01,4.20000000000000e-01,3.37231330902644e-03
5.01000000000000e-08,6.00000000000000e-01,6.00000000000000e-01,2.43735120378186e-03
5.01080000000000e-08,6.00000000000000e-01,6.00000000000000e-01,2.24783706744238e-03
5.01240000000000e-08,6.00000000000000e-01,6.00000000000000e-01,1.89678309776897e-03
5.01560000000000e-08,6.00000000000000e-01,6.00000000000000e-01,1.34029907928575e-03
5.02200000000000e-08,6.00000000000000e-01,6.00000000000000e-01,6.70741566606341e-04
5.03480000000000e-08,6.00000000000000e-01,6.00000000000000e-01,1.32251754937952e-04
5.06040000000000e-08,6.00000000000000e-01,6.00000000000000e-01,-1.69066983450282e-05
5.11160000000001e-08,6.00000000000000e-01,6.00000000000000e-01,1.22149976206389e-05
5.21277510010933e-08,6.00000000000000e-01,6.00000000000000e-01,-3.37119846555156e-06
5.41512530032797e-08,6.00000000000000e-01,6.00000000000000e-01,8.73594660099307e-06
5.51000000000000e-08,6.00000000000000e-01,6.00000000000000e-01,-9.00972744501127e-09
5.51100000000000e-08,5.40000000000021e-01,6.00000000000000e-01,-4.79175378946747e-05
5.51300000000000e-08,4.20000000000004e-01,6.00000000000000e-01,-1.29057519492486e-04
5.51700000000000e-08,1.80000000000010e-01,6.00000000000000e-01,-1.39753765801873e-04
5.52000000000000e-08,0.00000000000000e+00,6.00000000000000e-01,1.13665002529247e-04
5.52080000000000e-08,0.00000000000000e+00,6.00000000000000e-01,2.47627945308145e-04
5.52240000000000e-08,0.00000000000000e+00,6.00000000000000e-01,4.13747064859527e-04
5.52560000000000e-08,0.00000000000000e+00,6.00000000000000e-01,3.71177188586320e-04
5.53200000000000e-08,0.00000000000000e+00,6.00000000000000e-01,-5.27259970875153e-04
5.54480000000000e-08,0.00000000000000e+00,6.00000000000000e-01,-1.30935951572102e-03
5.57040000000000e-08,0.00000000000000e+00,6.00000000000000e-01,-2.69797464000250e-05
5.61252378117962e-08,0.00000000000000e+00,6.00000000000000e-01,-1.14052690535629e-04
5.68150839218311e-08,0.00000000000000e+00,6.00000000000000e-01,1.16552862871201e-04
5.78961251901610e-08,0.00000000000000e+00,6.00000000000000e-01,6.54970809037779e-06
5.94016231405514e-08,0.00000000000000e+00,6.00000000000000e-01,-4.69036514639488e-05
6.21475419081944e-08,0.00000000000000e+00,6.00000000000000e-01,7.29339275797984e-05
6.50000000000000e-08,0.00000000000000e+00,6.00000000000000e-01,-7.95018995003488e-05
6.50100000000000e-08,5.99999999999886e-02,6.00000000000000e-01,4.90742308128511e-05
6.50300000000000e-08,1.79999999999966e-01,6.00000000000000e-01,2.68564316954892e-04
6.50700000000000e-08,4.19999999999920e-01,6.00000000000000e-01,5.29547567511161e-04
6.51000000000000e-08,5.99999999999966e-01,6.00000000000000e-01,5.47322352955938e-04
6.51080000000000e-08,6.00000000000000e-01,6.00000000000000e-01,4.70457648338071e-04
6.51240000000000e-08,6.00000000000000e-01,6.00000000000000e-01,2.94593325932291e-04
6.51560000000000e-08,6.00000000000000e-01,6.00000000000000e-01,-3.41744232135642e-04
6.52200000000000e-08,6.00000000000000e-01,6.00000000000000e-01,-2.29324925476358e-03
6.53480000000000e-08,6.00000000000000e-01,6.00000000000000e-01,-4.84497455078577e-03
6.56040000000000e-08,6.00000000000000e-01,6.00000000000000e-01,1.24159878502630e-01
6.61159999999999e-08,6.00000000000000e-01,6.00000000000000e-01,5.77817497039310e-01
6.71399999999999e-08,6.00000000000000e-01,6.00000000000000e-01,6.07410630071490e-01
6.83331733099228e-08,6.00000000000000e-01,6.00000000000000e-01,5.92002691481769e-01
7.01000000000000e-08,6.00000000000000e-01,6.00000000000000e-01,6.06943340574512e-01
7.01100000000000e-08,6.00000000000000e-01,5.40000000000011e-01,6.03990045500400e-01
7.01300000000000e-08,6.00000000000000e-01,4.20000000000034e-01,6.00640676970210e-01
7.01700000000000e-08,6.00000000000000e-01,1.80000000000080e-01,5.99964148594232e-01
7.02000000000000e-08,6.00000000000000e-01,3.44169137633799e-14,6.00069297085635e-01
7.02080000000000e-08,6.00000000000000e-01,0.00000000000000e+00,6.00062882931801e-01
7.02240000000000e-08,6.00000000000000e-01,0.00000000000000e+00,6.00052133985144e-01
7.02560000000000e-08,6.00000000000000e-01,0.00000000000000e+00,6.00036562835147e-01
7.03200000000000e-08,6.00000000000000e-01,0.00000000000000e+00,6.00006053296676e-01
7.04480000000000e-08,6.00000000000000e-01,0.00000000000000e+00,6.00002151655725e-01
7.07040000000000e-08,6.00000000000000e-01,0.00000000000000e+00,5.99997635085536e-01
7.11260400994221e-08,6.00000000000000e-01,0.00000000000000e+00,5.99980584084838e-01
7.18033806282540e-08,6.00000000000000e-01,0.00000000000000e+00,5.99993538245496e-01
7.30478956415820e-08,6.00000000000000e-01,0.00000000000000e+00,5.99982861360969e-01
7.51000000000000e-08,6.00000000000000e-01,0.00000000000000e+00,5.99995082597793e-01
7.51100000000000e-08,5.40000000000061e-01,0.00000000000000e+00,5.99941674007665e-01
7.51300000000000e-08,4.20000000000084e-01,0.00000000000000e+00,5.99880551901422e-01
7.51700000000000e-08,1.80000000000129e-01,0.00000000000000e+00,6.00460174896638e-01
7.52000000000000e-08,8.40438829641244e-14,0.00000000000000e+00,6.02187727495408e-01
7.52080000000000e-08,0.00000000000000e+00,0.00000000000000e+00,6.02626959741052e-01
7.52240000000000e-08,0.00000000000000e+00,0.00000000000000e+00,6.03114720245972e-01
7.52560000000000e-08,0.00000000000000e+00,0.00000000000000e+00,6.01900678687562e-01
7.53200000000000e-08,0.00000000000000e+00,0.00000000000000e+00,5.90334168458812e-01
7.54480000000000e-08,0.00000000000000e+00,0.00000000000000e+00,5.82728437455012e-01
7.57040000000000e-08,0.00000000000000e+00,0.00000000000000e+00,6.00535780445016e-01
7.61452104452271e-08,0.00000000000000e+00,0.00000000000000e+00,5.98545207030591e-01
7.67984229452922e-08,0.00000000000000e+00,0.00000000000000e+00,6.00590078301309e-01
7.79165556054561e-08,0.00000000000000e+00,0.00000000000000e+00,5.99051970420034e-01
7.81000000000000e-08,0.00000000000000e+00,0.00000000000000e+00,6.00285888074862e-01
7.82925022903508e-08,0.00000000000000e+00,0.00000000000000e+00,5.99905829155858e-01
7.86775068710525e-08,0.00000000000000e+00,0.00000000000000e+00,5.99831519619915e-01
7.94475160324558e-08,0.00000000000000e+00,0.00000000000000e+00,5.99925745671500e-01
8.09875343552623e-08,0.00000000000000e+00,0.00000000000000e+00,5.99886565054944e-01
8.40675710008754e-08,0.00000000000000e+00,0.00000000000000e+00,5.99973822166638e-01
8.50000000000000e-08,0.00000000000000e+00,0.00000000000000e+00,5.99919852982082e-01
8.50100000000000e-08,5.99999999999886e-02,0.00000000000000e+00,5.99979276502723e-01
8.50300000000000e-08,1.79999999999966e-01,0.00000000000000e+00,6.00040083000323e-01
8.50700000000000e-08,4.19999999999920e-01,0.00000000000000e+00,6.00001881802176e-01
8.51000000000000e-08,5.99999999999966e-01,0.00000000000000e+00,5.99921395588838e-01
8.51080000000000e-08,6.00000000000000e-01,0.00000000000000e+00,5.99878124195825e-01
8.51240000000000e-08,6.00000000000000e-01,0.00000000000000e+00,5.99827474745094e-01
8.51560000000000e-08,6.00000000000000e-01,0.00000000000000e+00,5.99833330065819e-01
8.52200000000000e-08,6.00000000000000e-01,0.00000000000000e+00,5.99878720636703e-01
8.53480000000000e-08,6.00000000000000e-01,0.00000000000000e+00,5.99923581791031e-01
8.56040000000000e-08,6.00000000000000e-01,0.00000000000000e+00,6.04032620862865e-01
8.61159999999999e-08,6.00000000000000e-01,0.00000000000000e+00,2.54070600028897e-01
8.70446723156796e-08,6.00000000000000e-01,0.00000000000000e+00,-7.26114120729528e-02
8.79500947381394e-08,6.00000000000000e-01,0.00000000000000e+00,5.82152220607616e-02
8.97525963085131e-08,6.00000000000000e-01,0.00000000000000e+00,-3.85156529387265e-02
9.00000000000000e-08,6.00000000000000e-01,0.00000000000000e+00,5.02098043289664e-03
9.00100000000000e-08,6.00000000000000e-01,5.99999999999886e-02,5.21970219269930e-03
9.00300000000000e-08,6.00000000000000e-01,1.79999999999966e-01,4.96491450951256e-03
9.00700000000000e-08,6.00000000000000e-01,4.19999999999920e-01,3.36691097000871e-03
9.01000000000000e-08,6.00000000000000e-01,5.99999999999966e-01,2.43340959715384e-03
9.01080000000000e-08,6.00000000000000e-01,6.00000000000000e-01,2.24419998372892e-03
9.01240000000000e-08,6.00000000000000e-01,6.00000000000000e-01,1.89371130480901e-03
9.01560000000000e-08,6.00000000000000e-01,6.00000000000000e-01,1.33812772932120e-03
9.02200000000000e-08,6.00000000000000e-01,6.00000000000000e-01,6.69660959010249e-04
9.03480000000000e-08,6.00000000000000e-01,6.00000000000000e-01,1.32046432590710e-04
9.06040000000000e-08,6.00000000000000e-01,6.00000000000000e-01,-1.68768314741698e-05
9.11159999999999e-08,6.00000000000000e-01,6.00000000000000e-01,1.22016962982550e-05
9.21269214197257e-08,6.00000000000000e-01,6.00000000000000e-01,-3.36004880128159e-06
9.41487642591773e-08,6.00000000000000e-01,6.00000000000000e-01,8.72528499439116e-06
9.51000000000000e-08,6.00000000000000e-01,6.00000000000000e-01,-8.88055588267600e-09
9.51100000000000e-08,5.40000000000061e-01,6.00000000000000e-01,-4.79246510899020e-05
9.51300000000000e-08,4.20000000000084e-01,6.00000000000000e-01,-1.29079950797535e-04
9.51700000000000e-08,1.80000000000129e-01,6.00000000000000e-01,-1.39765818960406e-04
9.52000000000000e-08,8.40438829641244e-14,6.00000000000000e-01,1.13655865027033e-04
9.52080000000000e-08,0.00000000000000e+00,6.00000000000000e-01,2.47619580686483e-04
9.52240000000000e-08,0.00000000000000e+00,6.00000000000000e-01,4.13740100855257e-04
9.52560000000000e-08,0.00000000000000e+00,6.00000000000000e-01,3.71172544212456e-04
9.53200000000000e-08,0.00000000000000e+00,6.00000000000000e-01,-5.27258508166970e-04
9.54480000000000e-08,0.00000000000000e+00,6.00000000000000e-01,-1.30934547120565e-03
9.57040000000000e-08,0.00000000000000e+00,6.00000000000000e-01,-2.69749283219531e-05
9.61252378284106e-08,0.00000000000000e+00,6.00000000000000e-01,-1.14056539919919e-04
9.68150843451204e-08,0.00000000000000e+00,6.00000000000000e-01,1.16555986249217e-04
9.78961260114584e-08,0.00000000000000e+00,6.00000000000000e-01,6.54698116702053e-06
9.94016240704886e-08,0.00000000000000e+00,6.00000000000000e-01,-4.69011734716895e-05
1.02147543981958e-07,0.00000000000000e+00,6.00000000000000e-01,7.29315893806667e-05
1.05000000000000e-07,0.00000000000000e+00,6.00000000000000e-01,-7.94996883475736e-05
1.05010000000000e-07,5.99999999999886e-02,6.00000000000000e-01,4.90758838668157e-05
1.05030000000000e-07,1.79999999999966e-01,6.00000000000000e-01,2.68565303761369e-04
1.05070000000000e-07,4.19999999999920e-01,6.00000000000000e-01,5.29548044163629e-04
1.05100000000000e-07,5.99999999999966e-01,6.00000000000000e-01,5.47322654113759e-04
1.05108000000000e-07,6.00000000000000e-01,6.00000000000000e-01,4.70457956035904e-04
1.05124000000000e-07,6.00000000000000e-01,6.00000000000000e-01,2.94593753875007e-04
1.05156000000000e-07,6.00000000000000e-01,6.00000000000000e-01,-3.41743267827488e-04
1.05220000000000e-07,6.00000000000000e-01,6.00000000000000e-01,-2.29324794551912e-03
1.05348000000000e-07,6.00000000000000e-01,6.00000000000000e-01,-4.84497464980266e-03
1.05604000000000e-07,6.00000000000000e-01,6.00000000000000e-01,1.24159829364193e-01
1.06116000000000e-07,6.00000000000000e-01,6.00000000000000e-01,5.77817482633032e-01
1.07140000000000e-07,6.00000000000000e-01,6.00000000000000e-01,6.07410634675589e-01
1.08333173148927e-07,6.00000000000000e-01,6.00000000000000e-01,5.92002686449664e-01
1.10100000000000e-07,6.00000000000000e-01,6.00000000000000e-01,6.06943345007306e-01
1.10110000000000e-07,6.00000000000000e-01,5.40000000000091e-01,6.03990047972540e-01
1.10130000000000e-07,6.00000000000000e-01,4.20000000000114e-01,6.00640677252996e-01
1.10170000000000e-07,6.00000000000000e-01,1.80000000000159e-01,5.99964148515086e-01
1.10200000000000e-07,6.00000000000000e-01,1.13686837721616e-13,6.00069297086660e-01
1.10208000000000e-07,6.00000000000000e-01,0.00000000000000e+00,6.00062882927950e-01
1.10224000000000e-07,6.00000000000000e-01,0.00000000000000e+00,6.00052133975302e-01
1.10256000000000e-07,6.00000000000000e-01,0.00000000000000e+00,6.00036562824514e-01
