Time,v(clk),v(data),v(out)
1.00000000000000e-08,6.00000000000000e-01,0.00000000000000e+00,-3.15282179097660e-06
1.00100000000000e-08,6.00000000000000e-01,5.99999999999985e-02,-2.54053123475984e-06
1.00300000000000e-08,6.00000000000000e-01,1.79999999999996e-01,-1.74046650400217e-06
1.00700000000000e-08,6.00000000000000e-01,4.19999999999990e-01,-2.64008818973843e-06
1.01000000000000e-08,6.00000000000000e-01,5.99999999999995e-01,-5.13825275294533e-06
1.01080000000000e-08,6.00000000000000e-01,6.00000000000000e-01,-5.49137859503362e-06
1.01240000000000e-08,6.00000000000000e-01,6.00000000000000e-01,-6.61206907712902e-06
1.01560000000000e-08,6.00000000000000e-01,6.00000000000000e-01,-5.26019761896979e-06
1.02200000000000e-08,6.00000000000000e-01,6.00000000000000e-01,2.19723479820411e-07
1.03480000000000e-08,6.00000000000000e-01,6.00000000000000e-01,6.39054438904968e-06
1.06040000000000e-08,6.00000000000000e-01,6.00000000000000e-01,3.37844975531465e-06
1.11160000000000e-08,6.00000000000000e-01,6.00000000000000e-01,3.30422968324896e-06
1.20470233521209e-08,6.00000000000000e-01,6.00000000000000e-01,3.97656777637902e-06
1.39090700563627e-08,6.00000000000000e-01,6.00000000000000e-01,2.90573782436940e-06
1.51000000000000e-08,6.00000000000000e-01,6.00000000000000e-01,3.46743639229648e-06
1.51100000000000e-08,5.39999999999991e-01,6.00000000000000e-01,-6.15519240782791e-05
1.51300000000000e-08,4.19999999999994e-01,6.00000000000000e-01,-1.75405305771197e-04
1.51700000000000e-08,1.80000000000000e-01,6.00000000000000e-01,-2.84875940501222e-04
1.52000000000000e-08,0.00000000000000e+00,6.00000000000000e-01,-1.39905210754923e-04
1.52080000000000e-08,0.00000000000000e+00,6.00000000000000e-01,-9.62426932246685e-07
1.52240000000000e-08,0.00000000000000e+00,6.00000000000000e-01,2.14457579113182e-04
1.52560000000000e-08,0.00000000000000e+00,6.00000000000000e-01,3.94730675684719e-04
1.53200000000000e-08,0.00000000000000e+00,6.00000000000000e-01,3.67791915586113e-04
1.54480000000000e-08,0.00000000000000e+00,6.00000000000000e-01,2.43430002678444e-05
1.57040000000000e-08,0.00000000000000e+00,6.00000000000000e-01,-2.28903594143490e-04
1.62160000000000e-08,0.00000000000000e+00,6.00000000000000e-01,-3.35272577283788e-05
1.70691604020516e-08,0.00000000000000e+00,6.00000000000000e-01,1.15242875518822e-05
1.81701554240064e-08,0.00000000000000e+00,6.00000000000000e-01,1.12463638534029e-04
2.03721454679160e-08,0.00000000000000e+00,6.00000000000000e-01,-1.48836615917056e-04
2.28553309400347e-08,0.00000000000000e+00,6.00000000000000e-01,1.59492226079303e-04
2.50000000000000e-08,0.00000000000000e+00,6.00000000000000e-01,-1.58683748116549e-04
2.50100000000000e-08,5.99999999999886e-02,6.00000000000000e-01,-3.21726198522776e-05
2.50300000000000e-08,1.80000000000006e-01,6.00000000000000e-01,1.86820339514532e-04
2.50700000000000e-08,4.20000000000000e-01,6.00000000000000e-01,4.48220040854624e-04
2.51000000000000e-08,6.00000000000000e-01,6.00000000000000e-01,4.19909054074491e-04
2.51080000000000e-08,6.00000000000000e-01,6.00000000000000e-01,3.00525181316971e-04
2.51240000000000e-08,6.00000000000000e-01,6.00000000000000e-01,-4.57372782949883e-06
2.51560000000000e-08,6.00000000000000e-01,6.00000000000000e-01,-9.30757916448137e-04
2.52200000000000e-08,6.00000000000000e-01,6.00000000000000e-01,-2.97017954512174e-03
2.53480000000000e-08,6.00000000000000e-01,6.00000000000000e-01,-5.33187165058825e-03
2.56040000000000e-08,6.00000000000000e-01,6.00000000000000e-01,6.95650310849204e-02
2.61160000000000e-08,6.00000000000000e-01,6.00000000000000e-01,5.18207223416134e-01
2.71400000000000e-08,6.00000000000000e-01,6.00000000000000e-01,6.21690597033360e-01
2.82741376266163e-08,6.00000000000000e-01,6.00000000000000e-01,5.77999008419761e-01
3.05424128798490e-08,6.00000000000000e-01,6.00000000000000e-01,6.18786341891421e-01
3.35458640978441e-08,6.00000000000000e-01,6.00000000000000e-01,5.80260276710305e-01
3.51000000000000e-08,5.99999999999970e-01,6.00000000000000e-01,6.16794729511652e-01
3.51100000000000e-08,5.39999999999982e-01,6.00000000000000e-01,6.12374695393376e-01
3.51300000000000e-08,4.19999999999965e-01,6.00000000000000e-01,6.05798957102235e-01
3.51700000000000e-08,1.79999999999970e-01,6.00000000000000e-01,6.01189580364319e-01
3.52000000000000e-08,0.00000000000000e+00,6.00000000000000e-01,6.01696828636776e-01
3.52080000000000e-08,0.00000000000000e+00,6.00000000000000e-01,6.02051036937963e-01
3.52240000000000e-08,0.00000000000000e+00,6.00000000000000e-01,6.02575957828547e-01
3.52560000000000e-08,0.00000000000000e+00,6.00000000000000e-01,6.02962017493340e-01
3.53200000000000e-08,0.00000000000000e+00,6.00000000000000e-01,6.01787445635667e-01
3.54480000000000e-08,0.00000000000000e+00,6.00000000000000e-01,5.87939636741383e-01
3.57040000000000e-08,0.00000000000000e+00,6.00000000000000e-01,5.78359502082297e-01
3.62160000000000e-08,0.00000000000000e+00,6.00000000000000e-01,6.01004225224491e-01
3.71551472360374e-08,0.00000000000000e+00,6.00000000000000e-01,5.98215335099087e-01
3.84420694537806e-08,0.00000000000000e+00,6.00000000000000e-01,6.00915530565690e-01
4.10159138892670e-08,0.00000000000000e+00,6.00000000000000e-01,5.98721945995928e-01
4.48159138892670e-08,0.00000000000000e+00,6.00000000000000e-01,6.00937880638415e-01
4.50000000000000e-08,0.00000000000000e+00,6.00000000000000e-01,5.99584687801869e-01
4.50100000000000e-08,5.99999999999886e-02,6.00000000000000e-01,5.99710343262066e-01
4.50300000000000e-08,1.80000000000006e-01,6.00000000000000e-01,5.99912982895935e-01
4.50700000000000e-08,4.20000000000000e-01,6.00000000000000e-01,6.00115723982786e-01
4.51000000000000e-08,6.00000000000000e-01,6.00000000000000e-01,6.00090145307035e-01
4.51080000000000e-08,6.00000000000000e-01,5.52000000000025e-01,6.00003571683604e-01
4.51240000000000e-08,6.00000000000000e-01,4.55999999999996e-01,5.99798312099241e-01
4.51560000000000e-08,6.00000000000000e-01,2.64000000000016e-01,5.99247523835824e-01
4.52000000000000e-08,6.00000000000000e-01,3.44169137633799e-14,5.98532546853981e-01
4.52064000000000e-08,6.00000000000000e-01,0.00000000000000e+00,5.98457085698332e-01
4.52192000000000e-08,6.00000000000000e-01,0.00000000000000e+00,5.98313702333515e-01
4.52448000000000e-08,6.00000000000000e-01,0.00000000000000e+00,5.98078296568355e-01
4.52960000000000e-08,6.00000000000000e-01,0.00000000000000e+00,5.97777065247735e-01
4.53984000000000e-08,6.00000000000000e-01,0.00000000000000e+00,5.97623505173854e-01
4.56032000000000e-08,6.00000000000000e-01,0.00000000000000e+00,5.98288180367376e-01
4.60128000000000e-08,6.00000000000000e-01,0.00000000000000e+00,5.99373759049389e-01
4.65381291696686e-08,6.00000000000000e-01,0.00000000000000e+00,5.99947138272804e-01
4.75887875090057e-08,6.00000000000000e-01,0.00000000000000e+00,6.00022978553688e-01
4.88170344734288e-08,6.00000000000000e-01,0.00000000000000e+00,5.99987091221740e-01
5.12735284022751e-08,6.00000000000000e-01,0.00000000000000e+00,6.00010154982059e-01
5.50735284022751e-08,6.00000000000000e-01,0.00000000000000e+00,5.99991030279472e-01
5.51000000000000e-08,6.00000000000000e-01,0.00000000000000e+00,6.00013231700471e-01
5.51100000000000e-08,5.40000000000021e-01,0.00000000000000e+00,5.99935003178919e-01
5.51300000000000e-08,4.20000000000004e-01,0.00000000000000e+00,5.99828898034630e-01
5.51700000000000e-08,1.80000000000010e-01,0.00000000000000e+00,6.00129133158746e-01
5.52000000000000e-08,0.00000000000000e+00,0.00000000000000e+00,6.01375121372120e-01
5.52080000000000e-08,0.00000000000000e+00,0.00000000000000e+00,6.01806030611091e-01
5.52240000000000e-08,0.00000000000000e+00,0.00000000000000e+00,6.02470389783325e-01
5.52560000000000e-08,0.00000000000000e+00,0.00000000000000e+00,6.03125808612167e-01
5.53200000000000e-08,0.00000000000000e+00,0.00000000000000e+00,6.03767928111137e-01
5.54480000000000e-08,0.00000000000000e+00,0.00000000000000e+00,6.04030220197776e-01
5.57040000000000e-08,0.00000000000000e+00,0.00000000000000e+00,6.00738015332400e-01
5.62160000000000e-08,0.00000000000000e+00,0.00000000000000e+00,5.99413919296228e-01
5.68884948070216e-08,0.00000000000000e+00,0.00000000000000e+00,6.00117061365894e-01
5.82334844210649e-08,0.00000000000000e+00,0.00000000000000e+00,5.99640830227326e-01
5.96279948722232e-08,0.00000000000000e+00,0.00000000000000e+00,6.00067877129905e-01
6.24170157745398e-08,0.00000000000000e+00,0.00000000000000e+00,5.99730335651684e-01
6.50000000000000e-08,0.00000000000000e+00,0.00000000000000e+00,6.00069073489796e-01
6.50100000000000e-08,5.99999999999886e-02,0.00000000000000e+00,6.00114804151632e-01
6.50300000000000e-08,1.79999999999966e-01,0.00000000000000e+00,6.00171077744995e-01
6.50700000000000e-08,4.19999999999920e-01,0.00000000000000e+00,6.00147397501650e-01
6.51000000000000e-08,5.99999999999966e-01,0.00000000000000e+00,6.00018914193222e-01
6.51080000000000e-08,6.00000000000000e-01,0.00000000000000e+00,5.99945883848987e-01
6.51240000000000e-08,6.00000000000000e-01,0.00000000000000e+00,5.99830003143617e-01
6.51560000000000e-08,6.00000000000000e-01,0.00000000000000e+00,5.99718617578477e-01
6.52200000000000e-08,6.00000000000000e-01,0.00000000000000e+00,5.99691502736897e-01
6.53480000000000e-08,6.00000000000000e-01,0.00000000000000e+00,5.99774360213608e-01
6.56040000000000e-08,6.00000000000000e-01,0.00000000000000e+00,6.02636216907395e-01
6.61159999999999e-08,6.00000000000000e-01,0.00000000000000e+00,3.41838748334476e-01
6.71399999999999e-08,6.00000000000000e-01,0.00000000000000e+00,-4.38601236213851e-02
6.81482611789852e-08,6.00000000000000e-01,0.00000000000000e+00,3.61006801025128e-02
7.01647835369558e-08,6.00000000000000e-01,0.00000000000000e+00,-2.38496566925799e-02
7.23753604368581e-08,6.00000000000000e-01,0.00000000000000e+00,2.30841565146049e-02
7.51000000000000e-08,6.00000000000000e-01,0.00000000000000e+00,-1.67354321304317e-02
7.51100000000000e-08,5.40000000000061e-01,0.00000000000000e+00,-1.61073571176417e-02
7.51300000000000e-08,4.20000000000084e-01,0.00000000000000e+00,-1.41764536964673e-02
7.51700000000000e-08,1.80000000000129e-01,0.00000000000000e+00,-9.93307414371995e-03
7.52000000000000e-08,8.40438829641244e-14,0.00000000000000e+00,-7.19471499915608e-03
7.52080000000000e-08,0.00000000000000e+00,0.00000000000000e+00,-6.51679341429798e-03
7.52240000000000e-08,0.00000000000000e+00,0.00000000000000e+00,-5.28608821265373e-03
7.52560000000000e-08,0.00000000000000e+00,0.00000000000000e+00,-3.49649818052693e-03
7.53200000000000e-08,0.00000000000000e+00,0.00000000000000e+00,-1.56844895541031e-03
7.54480000000000e-08,0.00000000000000e+00,0.00000000000000e+00,-7.84742910322767e-04
7.57040000000000e-08,0.00000000000000e+00,0.00000000000000e+00,-5.20584612718797e-04
7.62159999999999e-08,0.00000000000000e+00,0.00000000000000e+00,2.36607925464646e-04
7.70609730310606e-08,0.00000000000000e+00,0.00000000000000e+00,-1.48755167214925e-04
7.83770970037631e-08,0.00000000000000e+00,0.00000000000000e+00,1.15428011648098e-04
8.10093449491681e-08,0.00000000000000e+00,0.00000000000000e+00,-9.85466198083493e-05
8.48093449491681e-08,0.00000000000000e+00,0.00000000000000e+00,9.26415622779222e-05
8.50000000000000e-08,0.00000000000000e+00,0.00000000000000e+00,-1.21115253032197e-05
8.50100000000000e-08,5.99999999999886e-02,0.00000000000000e+00,1.00652317212867e-04
8.50300000000000e-08,1.79999999999966e-01,0.00000000000000e+00,2.67919993781472e-04
8.50700000000000e-08,4.19999999999920e-01,0.00000000000000e+00,3.58039019601013e-04
8.51000000000000e-08,5.99999999999966e-01,0.00000000000000e+00,2.32903075546353e-04
8.51080000000000e-08,6.00000000000000e-01,0.00000000000000e+00,1.37874251436687e-04
8.51240000000000e-08,6.00000000000000e-01,0.00000000000000e+00,-2.42624301755243e-05
8.51560000000000e-08,6.00000000000000e-01,0.00000000000000e+00,-2.04696003622967e-04
8.52200000000000e-08,6.00000000000000e-01,0.00000000000000e+00,-2.78625526197611e-04
8.53480000000000e-08,6.00000000000000e-01,0.00000000000000e+00,-1.53922066364956e-04
8.56040000000000e-08,6.00000000000000e-01,0.00000000000000e+00,1.63294643259725e-05
8.61159999999999e-08,6.00000000000000e-01,0.00000000000000e+00,5.73475323698020e-05
8.71399999999999e-08,6.00000000000000e-01,0.00000000000000e+00,-2.13539586729102e-05
8.90563631758966e-08,6.00000000000000e-01,0.00000000000000e+00,2.21810953423022e-05
9.00000000000000e-08,6.00000000000000e-01,0.00000000000000e+00,-3.85906638993190e-06
9.00100000000000e-08,6.00000000000000e-01,5.99999999999886e-02,-3.04275155322414e-06
9.00300000000000e-08,6.00000000000000e-01,1.79999999999966e-01,-1.94636370164786e-06
9.00700000000000e-08,6.00000000000000e-01,4.19999999999920e-01,-2.05028158050541e-06
9.01000000000000e-08,6.00000000000000e-01,5.99999999999966e-01,-4.67691163541506e-06
9.01080000000000e-08,6.00000000000000e-01,6.00000000000000e-01,-5.06519179169218e-06
9.01240000000000e-08,6.00000000000000e-01,6.00000000000000e-01,-6.16399942736379e-06
9.01560000000000e-08,6.00000000000000e-01,6.00000000000000e-01,-4.37061491360274e-06
9.02200000000000e-08,6.00000000000000e-01,6.00000000000000e-01,7.19195022105823e-07
9.03480000000000e-08,6.00000000000000e-01,6.00000000000000e-01,6.11699014003986e-06
9.06040000000000e-08,6.00000000000000e-01,6.00000000000000e-01,3.33020195737721e-06
9.11159999999999e-08,6.00000000000000e-01,6.00000000000000e-01,3.31437412533046e-06
9.21210765796123e-08,6.00000000000000e-01,6.00000000000000e-01,3.93512039430569e-06
9.41312297388370e-08,6.00000000000000e-01,6.00000000000000e-01,2.90288697050393e-06
9.51000000000000e-08,6.00000000000000e-01,6.00000000000000e-01,3.43692158777560e-06
9.51100000000000e-08,5.40000000000061e-01,6.00000000000000e-01,-6.15937587353857e-05
9.51300000000000e-08,4.20000000000084e-01,6.00000000000000e-01,-1.75403195813557e-04
9.51700000000000e-08,1.80000000000129e-01,6.00000000000000e-01,-2.84849947138871e-04
9.52000000000000e-08,8.40438829641244e-14,6.00000000000000e-01,-1.39851865201379e-04
9.52080000000000e-08,0.00000000000000e+00,6.00000000000000e-01,-9.10059462719270e-07
9.52240000000000e-08,0.00000000000000e+00,6.00000000000000e-01,2.14506646096652e-04
9.52560000000000e-08,0.00000000000000e+00,6.00000000000000e-01,3.94769619608430e-04
9.53200000000000e-08,0.00000000000000e+00,6.00000000000000e-01,3.67811554963557e-04
9.54480000000000e-08,0.00000000000000e+00,6.00000000000000e-01,2.43404991062610e-05
9.57040000000000e-08,0.00000000000000e+00,6.00000000000000e-01,-2.28917036882773e-04
9.62159999999999e-08,0.00000000000000e+00,6.00000000000000e-01,-3.35205015777156e-05
9.70691641628524e-08,0.00000000000000e+00,6.00000000000000e-01,1.15189422174988e-05
9.81701638056153e-08,0.00000000000000e+00,6.00000000000000e-01,1.12466209192566e-04
1.00372163091141e-07,0.00000000000000e+00,6.00000000000000e-01,-1.48838192372612e-04
1.02855386997602e-07,0.00000000000000e+00,6.00000000000000e-01,1.59494430886744e-04
1.05000000000000e-07,0.00000000000000e+00,6.00000000000000e-01,-1.58685655673098e-04
1.05010000000000e-07,5.99999999999886e-02,6.00000000000000e-01,-3.21774169172451e-05
1.05030000000000e-07,1.79999999999966e-01,6.00000000000000e-01,1.86821291523268e-04
1.05070000000000e-07,4.19999999999920e-01,6.00000000000000e-01,4.48222639026052e-04
1.05100000000000e-07,5.99999999999966e-01,6.00000000000000e-01,4.19908268482150e-04
1.05108000000000e-07,6.00000000000000e-01,6.00000000000000e-01,3.00521847121989e-04
1.05124000000000e-07,6.00000000000000e-01,6.00000000000000e-01,-4.58337723552305e-06
1.05156000000000e-07,6.00000000000000e-01,6.00000000000000e-01,-9.30777566738997e-04
1.05220000000000e-07,6.00000000000000e-01,6.00000000000000e-01,-2.97020020085520e-03
1.05348000000000e-07,6.00000000000000e-01,6.00000000000000e-01,-5.33187420983255e-03
1.05604000000000e-07,6.00000000000000e-01,6.00000000000000e-01,6.95655277319501e-02
1.06116000000000e-07,6.00000000000000e-01,6.00000000000000e-01,5.18207608323109e-01
1.07140000000000e-07,6.00000000000000e-01,6.00000000000000e-01,6.21690524333273e-01
1.08274138552098e-07,6.00000000000000e-01,6.00000000000000e-01,5.77999077388038e-01
1.10542415656294e-07,6.00000000000000e-01,6.00000000000000e-01,6.18786280613142e-01
1.13545864317792e-07,6.00000000000000e-01,6.00000000000000e-01,5.80260340916420e-01
1.15100000000000e-07,6.00000000000000e-01,6.00000000000000e-01,6.16794673851260e-01
1.15110000000000e-07,5.40000000000061e-01,6.00000000000000e-01,6.12374656274178e-01
1.15130000000000e-07,4.20000000000084e-01,6.00000000000000e-01,6.05798940345828e-01
1.15170000000000e-07,1.80000000000129e-01,6.00000000000000e-01,6.01189577350268e-01
1.15200000000000e-07,8.40438829641244e-14,6.00000000000000e-01,6.01696827287618e-01
1.15208000000000e-07,0.00000000000000e+00,6.00000000000000e-01,6.02051036093218e-01
1.15224000000000e-07,0.00000000000000e+00,6.00000000000000e-01,6.02575957803613e-01
1.15256000000000e-07,0.00000000000000e+00,6.00000000000000e-01,6.02962017613886e-01
1.15320000000000e-07,0.00000000000000e+00,6.00000000000000e-01,6.01787447612679e-01
1.15448000000000e-07,0.00000000000000e+00,6.00000000000000e-01,5.87939643032864e-01
1.15704000000000e-07,0.00000000000000e+00,6.00000000000000e-01,5.78359504471844e-01
1.16216000000000e-07,0.00000000000000e+00,6.00000000000000e-01,6.01004222788517e-01
1.17155147217403e-07,0.00000000000000e+00,6.00000000000000e-01,5.98215337063820e-01
1.18442069343639e-07,0.00000000000000e+00,6.00000000000000e-01,6.00915528980784e-01
1.21015913596110e-07,0.00000000000000e+00,6.00000000000000e-01,5.98721947460269e-01
1.24815913596110e-07,0.00000000000000e+00,6.00000000000000e-01,6.00937879276003e-01
1.25000000000000e-07,0.00000000000000e+00,6.00000000000000e-01,5.99584687291582e-01
1.25010000000000e-07,5.99999999999092e-02,6.00000000000000e-01,5.99710342940538e-01
1.25030000000000e-07,1.79999999999886e-01,6.00000000000000e-01,5.99912982786500e-01
1.25070000000000e-07,4.19999999999841e-01,6.00000000000000e-01,6.00115723901033e-01
1.25100000000000e-07,5.99999999999886e-01,6.00000000000000e-01,6.00090145227333e-01
1.25108000000000e-07,6.00000000000000e-01,5.51999999999946e-01,6.00003571618287e-01
1.25124000000000e-07,6.00000000000000e-01,4.55999999999996e-01,5.99798311970498e-01
1.25156000000000e-07,6.00000000000000e-01,2.63999999999937e-01,5.99247523664773e-01
1.25200000000000e-07,6.00000000000000e-01,0.00000000000000e+00,5.98532546889901e-01
1.25206400000000e-07,6.00000000000000e-01,0.00000000000000e+00,5.98457085743378e-01
1.25219200000000e-07,6.00000000000000e-01,0.00000000000000e+00,5.98313702394013e-01
1.25244800000000e-07,6.00000000000000e-01,0.00000000000000e+00,5.98078296639036e-01
1.25296000000000e-07,6.00000000000000e-01,0.00000000000000e+00,5.97777065368124e-01
1.25398400000000e-07,6.00000000000000e-01,0.00000000000000e+00,5.97623505853108e-01
1.25603200000000e-07,6.00000000000000e-01,0.00000000000000e+00,5.98288181974063e-01
1.26012800000000e-07,6.00000000000000e-01,0.00000000000000e+00,5.99373754116432e-01
1.26538129191295e-07,6.00000000000000e-01,0.00000000000000e+00,5.99947062513498e-01
1.27588787573885e-07,6.00000000000000e-01,0.00000000000000e+00,6.00023071020513e-01
1.28817038370060e-07,6.00000000000000e-01,0.00000000000000e+00,5.99986996887971e-01
1.31273539962410e-07,6.00000000000000e-01,0.00000000000000e+00,6.00010249213804e-01
1.35073539962410e-07,6.00000000000000e-01,0.00000000000000e+00,5.99990936815827e-01
1.35100000000000e-07,5.99999999999891e-01,0.00000000000000e+00,6.00013190191528e-01
1.35110000000000e-07,5.39999999999823e-01,0.00000000000000e+00,5.99934965111749e-01
1.35130000000000e-07,4.19999999999845e-01,0.00000000000000e+00,5.99828872620171e-01
1.35170000000000e-07,1.79999999999891e-01,0.00000000000000e+00,6.00129118577495e-01
1.35200000000000e-07,0.00000000000000e+00,0.00000000000000e+00,6.01375109527329e-01
1.35208000000000e-07,0.00000000000000e+00,0.00000000000000e+00,6.01806013464034e-01
1.35224000000000e-07,0.00000000000000e+00,0.00000000000000e+00,6.02470363342847e-01
1.35256000000000e-07,0.00000000000000e+00,0.00000000000000e+00,6.03125787027632e-01
1.35320000000000e-07,0.00000000000000e+00,0.00000000000000e+00,6.03767922698802e-01
