Time,v(clk),v(data),v(out)
1.00000000000000e-08,6.00000000000000e-01,0.00000000000000e+00,1.06568423615247e-05
1.00100000000000e-08,6.00000000000000e-01,5.99999999999985e-02,1.28382029922353e-05
1.00300000000000e-08,6.00000000000000e-01,1.79999999999996e-01,1.29656062141520e-05
1.00700000000000e-08,6.00000000000000e-01,4.19999999999990e-01,6.69785291772251e-06
1.01000000000000e-08,6.00000000000000e-01,5.99999999999995e-01,2.93775407348568e-06
1.01080000000000e-08,6.00000000000000e-01,6.00000000000000e-01,2.37558259186949e-06
1.01240000000000e-08,6.00000000000000e-01,6.00000000000000e-01,2.69563044770493e-06
1.01560000000000e-08,6.00000000000000e-01,6.00000000000000e-01,4.93967286856883e-06
1.02200000000000e-08,6.00000000000000e-01,6.00000000000000e-01,6.48822747501693e-06
1.03480000000000e-08,6.00000000000000e-01,6.00000000000000e-01,1.53549719009854e-06
1.06040000000000e-08,6.00000000000000e-01,6.00000000000000e-01,1.20279659950734e-06
1.11160000000000e-08,6.00000000000000e-01,6.00000000000000e-01,2.18325633154562e-06
1.21400000000000e-08,6.00000000000000e-01,6.00000000000000e-01,1.10684268729132e-06
1.41880000000000e-08,6.00000000000000e-01,6.00000000000000e-01,1.85113896504670e-06
1.51000000000000e-08,6.00000000000000e-01,6.00000000000000e-01,9.41235456213517e-07
1.51100000000000e-08,5.39999999999991e-01,6.00000000000000e-01,-5.64005835191408e-05
1.51300000000000e-08,4.19999999999994e-01,6.00000000000000e-01,-1.40754206782084e-04
1.51700000000000e-08,1.80000000000000e-01,6.00000000000000e-01,-1.45983529504817e-04
1.52000000000000e-08,0.00000000000000e+00,6.00000000000000e-01,7.35222754193118e-05
1.52080000000000e-08,0.00000000000000e+00,6.00000000000000e-01,2.01318377482045e-04
1.52240000000000e-08,0.00000000000000e+00,6.00000000000000e-01,3.56677969631854e-04
1.52560000000000e-08,0.00000000000000e+00,6.00000000000000e-01,3.50953400868194e-04
1.53200000000000e-08,0.00000000000000e+00,6.00000000000000e-01,6.86643253233338e-05
1.54480000000000e-08,0.00000000000000e+00,6.00000000000000e-01,-2.15683476479489e-04
1.57040000000000e-08,0.00000000000000e+00,6.00000000000000e-01,-2.11534353509370e-05
1.62160000000000e-08,0.00000000000000e+00,6.00000000000000e-01,-3.88935164149246e-05
1.68483869295511e-08,0.00000000000000e+00,6.00000000000000e-01,1.20404508993237e-04
1.81131607886534e-08,0.00000000000000e+00,6.00000000000000e-01,-1.15127741997342e-04
1.95303643910480e-08,0.00000000000000e+00,6.00000000000000e-01,1.09414951005039e-04
2.23647715958374e-08,0.00000000000000e+00,6.00000000000000e-01,-1.04841528646815e-04
2.50000000000000e-08,0.00000000000000e+00,6.00000000000000e-01,1.01149797622654e-04
2.50100000000000e-08,5.99999999999886e-02,6.00000000000000e-01,1.96089835693532e-04
2.50300000000000e-08,1.80000000000006e-01,6.00000000000000e-01,3.39413702135312e-04
2.50700000000000e-08,4.20000000000000e-01,6.00000000000000e-01,4.35614551526291e-04
2.51000000000000e-08,6.00000000000000e-01,6.00000000000000e-01,-4.86918803406719e-05
2.51080000000000e-08,6.00000000000000e-01,6.00000000000000e-01,-4.56037466149736e-04
2.51240000000000e-08,6.00000000000000e-01,6.00000000000000e-01,-1.39521380063913e-03
2.51560000000000e-08,6.00000000000000e-01,6.00000000000000e-01,-3.27101641774709e-03
2.52200000000000e-08,6.00000000000000e-01,6.00000000000000e-01,-5.50613575089286e-03
2.53480000000000e-08,6.00000000000000e-01,6.00000000000000e-01,4.54602272186111e-02
2.56040000000000e-08,6.00000000000000e-01,6.00000000000000e-01,4.76578357812683e-01
2.61160000000000e-08,6.00000000000000e-01,6.00000000000000e-01,6.25982670293136e-01
2.66922041339100e-08,6.00000000000000e-01,6.00000000000000e-01,5.75096084364665e-01
2.78446124017301e-08,6.00000000000000e-01,6.00000000000000e-01,6.21745046747473e-01
2.95061541189108e-08,6.00000000000000e-01,6.00000000000000e-01,5.77584028798361e-01
3.01000000000000e-08,6.00000000000000e-01,6.00000000000000e-01,6.18578924861521e-01
3.01100000000000e-08,6.00000000000000e-01,5.40000000000031e-01,6.11564201155538e-01
3.01300000000000e-08,6.00000000000000e-01,4.20000000000014e-01,6.02834776175111e-01
3.01700000000000e-08,6.00000000000000e-01,1.80000000000020e-01,5.99710362576064e-01
3.02000000000000e-08,6.00000000000000e-01,1.44328993201270e-14,5.99946222009625e-01
3.02080000000000e-08,6.00000000000000e-01,0.00000000000000e+00,5.99947140073571e-01
3.02240000000000e-08,6.00000000000000e-01,0.00000000000000e+00,5.99959350802001e-01
3.02560000000000e-08,6.00000000000000e-01,0.00000000000000e+00,5.99966689537695e-01
3.03200000000000e-08,6.00000000000000e-01,0.00000000000000e+00,5.99963426991663e-01
3.04480000000000e-08,6.00000000000000e-01,0.00000000000000e+00,5.99980387638807e-01
3.07040000000000e-08,6.00000000000000e-01,0.00000000000000e+00,5.99989912928532e-01
3.10882286953733e-08,6.00000000000000e-01,0.00000000000000e+00,5.99971097489655e-01
3.17882708768156e-08,6.00000000000000e-01,0.00000000000000e+00,5.99990329553407e-01
3.28952153880359e-08,6.00000000000000e-01,0.00000000000000e+00,5.99976381131167e-01
3.51000000000000e-08,5.99999999999970e-01,0.00000000000000e+00,5.99991830889463e-01
3.51100000000000e-08,5.39999999999982e-01,0.00000000000000e+00,5.99932146226708e-01
3.51300000000000e-08,4.19999999999965e-01,0.00000000000000e+00,5.99855792516520e-01
3.51700000000000e-08,1.79999999999970e-01,0.00000000000000e+00,6.00296371308519e-01
3.52000000000000e-08,0.00000000000000e+00,0.00000000000000e+00,6.01775861853078e-01
3.52080000000000e-08,0.00000000000000e+00,0.00000000000000e+00,6.02197991349538e-01
3.52240000000000e-08,0.00000000000000e+00,0.00000000000000e+00,6.02725463869673e-01
3.52560000000000e-08,0.00000000000000e+00,0.00000000000000e+00,6.02287966218050e-01
3.53200000000000e-08,0.00000000000000e+00,0.00000000000000e+00,5.93114372916193e-01
3.54480000000000e-08,0.00000000000000e+00,0.00000000000000e+00,5.77772033480516e-01
3.57040000000000e-08,0.00000000000000e+00,0.00000000000000e+00,5.95337644882215e-01
3.60654563062668e-08,0.00000000000000e+00,0.00000000000000e+00,6.01966340688766e-01
3.67404188019673e-08,0.00000000000000e+00,0.00000000000000e+00,5.97720190407487e-01
3.74808890883727e-08,0.00000000000000e+00,0.00000000000000e+00,6.01392248286237e-01
3.89618296611833e-08,0.00000000000000e+00,0.00000000000000e+00,5.98407927273468e-01
3.91000000000000e-08,0.00000000000000e+00,0.00000000000000e+00,6.00312671299601e-01
3.93763406776334e-08,0.00000000000000e+00,0.00000000000000e+00,5.99927716761284e-01
3.99290220329003e-08,0.00000000000000e+00,0.00000000000000e+00,5.99847257185643e-01
4.10343847434341e-08,0.00000000000000e+00,0.00000000000000e+00,5.99941135241228e-01
4.32451101645016e-08,0.00000000000000e+00,0.00000000000000e+00,5.99894156398906e-01
4.50000000000000e-08,0.00000000000000e+00,0.00000000000000e+00,5.99967260915207e-01
4.50100000000000e-08,5.99999999999886e-02,0.00000000000000e+00,6.00026735011815e-01
4.50300000000000e-08,1.80000000000006e-01,0.00000000000000e+00,6.00087910147535e-01
4.50700000000000e-08,4.20000000000000e-01,0.00000000000000e+00,6.00025827425815e-01
4.51000000000000e-08,6.00000000000000e-01,0.00000000000000e+00,5.99871800824554e-01
4.51080000000000e-08,6.00000000000000e-01,0.00000000000000e+00,5.99814741982909e-01
4.51240000000000e-08,6.00000000000000e-01,0.00000000000000e+00,5.99737940188044e-01
4.51560000000000e-08,6.00000000000000e-01,0.00000000000000e+00,5.99679046269028e-01
4.52200000000000e-08,6.00000000000000e-01,0.00000000000000e+00,5.99756512075705e-01
4.53480000000000e-08,6.00000000000000e-01,0.00000000000000e+00,6.02222841624129e-01
4.56040000000000e-08,6.00000000000000e-01,0.00000000000000e+00,4.50496834743794e-01
4.61160000000000e-08,6.00000000000000e-01,0.00000000000000e+00,1.14066009583821e-03
4.66891036884669e-08,6.00000000000000e-01,0.00000000000000e+00,-1.35561965733230e-03
4.78353110654006e-08,6.00000000000000e-01,0.00000000000000e+00,2.36214465369540e-03
4.91122113858886e-08,6.00000000000000e-01,0.00000000000000e+00,-2.01404678127324e-03
5.00000000000000e-08,6.00000000000000e-01,0.00000000000000e+00,2.76461570906882e-03
5.00100000000000e-08,6.00000000000000e-01,5.99999999999886e-02,9.91338954597576e-04
5.00300000000000e-08,6.00000000000000e-01,1.79999999999966e-01,-5.94310800494220e-04
5.00700000000000e-08,6.00000000000000e-01,4.20000000000000e-01,-3.52808567369141e-04
5.01000000000000e-08,6.00000000000000e-01,6.00000000000000e-01,-2.88485658336106e-04
5.01080000000000e-08,6.00000000000000e-01,6.00000000000000e-01,-2.26725422355016e-04
5.01240000000000e-08,6.00000000000000e-01,6.00000000000000e-01,-1.47258995630707e-04
5.01560000000000e-08,6.00000000000000e-01,6.00000000000000e-01,-7.66755194179444e-05
5.02200000000000e-08,6.00000000000000e-01,6.00000000000000e-01,-7.48516931824150e-06
5.03480000000000e-08,6.00000000000000e-01,6.00000000000000e-01,6.14416742808488e-06
5.06040000000000e-08,6.00000000000000e-01,6.00000000000000e-01,-3.61240815094192e-06
5.11160000000001e-08,6.00000000000000e-01,6.00000000000000e-01,2.50812831709309e-06
5.21400000000002e-08,6.00000000000000e-01,6.00000000000000e-01,-2.23118097562435e-06
5.41880000000003e-08,6.00000000000000e-01,6.00000000000000e-01,1.94695169001375e-06
5.51000000000000e-08,6.00000000000000e-01,6.00000000000000e-01,-1.63886699129732e-06
5.51100000000000e-08,5.40000000000021e-01,6.00000000000000e-01,-5.80454611275733e-05
5.51300000000000e-08,4.20000000000004e-01,6.00000000000000e-01,-1.39543079381542e-04
5.51700000000000e-08,1.80000000000010e-01,6.00000000000000e-01,-1.40224677045733e-04
5.52000000000000e-08,0.00000000000000e+00,6.00000000000000e-01,7.08545658415147e-05
5.52080000000000e-08,0.00000000000000e+00,6.00000000000000e-01,1.97470715125762e-04
5.52240000000000e-08,0.00000000000000e+00,6.00000000000000e-01,3.46791599304480e-04
5.52560000000000e-08,0.00000000000000e+00,6.00000000000000e-01,3.11580649118105e-04
5.53200000000000e-08,0.00000000000000e+00,6.00000000000000e-01,-3.61304086867451e-04
5.54480000000000e-08,0.00000000000000e+00,6.00000000000000e-01,-9.66108505408521e-04
5.57040000000000e-08,0.00000000000000e+00,6.00000000000000e-01,1.72028639810142e-04
5.62085622003215e-08,0.00000000000000e+00,6.00000000000000e-01,-1.19361660617533e-04
5.68434950478245e-08,0.00000000000000e+00,6.00000000000000e-01,1.41934261248341e-04
5.81133607428305e-08,0.00000000000000e+00,6.00000000000000e-01,-1.16433311937059e-04
5.95228681425747e-08,0.00000000000000e+00,6.00000000000000e-01,9.61583742387306e-05
6.23418829420630e-08,0.00000000000000e+00,6.00000000000000e-01,-8.55941798015773e-05
6.50000000000000e-08,0.00000000000000e+00,6.00000000000000e-01,7.62880265327399e-05
6.50100000000000e-08,5.99999999999886e-02,6.00000000000000e-01,1.96845820286458e-04
6.50300000000000e-08,1.79999999999966e-01,6.00000000000000e-01,3.69293592729907e-04
6.50700000000000e-08,4.19999999999920e-01,6.00000000000000e-01,4.66094152927657e-04
6.51000000000000e-08,5.99999999999966e-01,6.00000000000000e-01,-2.64363010417656e-05
6.51080000000000e-08,6.00000000000000e-01,6.00000000000000e-01,-4.35256439259554e-04
6.51240000000000e-08,6.00000000000000e-01,6.00000000000000e-01,-1.37775164785357e-03
6.51560000000000e-08,6.00000000000000e-01,6.00000000000000e-01,-3.25992036299179e-03
6.52200000000000e-08,6.00000000000000e-01,6.00000000000000e-01,-5.50295217682262e-03
6.53480000000000e-08,6.00000000000000e-01,6.00000000000000e-01,4.53992549457436e-02
6.56040000000000e-08,6.00000000000000e-01,6.00000000000000e-01,4.76501691144091e-01
6.61159999999999e-08,6.00000000000000e-01,6.00000000000000e-01,6.25989439017104e-01
6.66921733980969e-08,6.00000000000000e-01,6.00000000000000e-01,5.75090857666844e-01
6.78445201942908e-08,6.00000000000000e-01,6.00000000000000e-01,6.21750407069747e-01
6.95062241567475e-08,6.00000000000000e-01,6.00000000000000e-01,5.77578897538253e-01
7.01000000000000e-08,6.00000000000000e-01,6.00000000000000e-01,6.18583286105461e-01
7.01100000000000e-08,6.00000000000000e-01,5.40000000000011e-01,6.11566811553308e-01
7.01300000000000e-08,6.00000000000000e-01,4.20000000000034e-01,6.02835399846599e-01
7.01700000000000e-08,6.00000000000000e-01,1.80000000000080e-01,5.99710353463023e-01
7.02000000000000e-08,6.00000000000000e-01,3.44169137633799e-14,5.99946109282555e-01
7.02080000000000e-08,6.00000000000000e-01,0.00000000000000e+00,5.99947041570573e-01
7.02240000000000e-08,6.00000000000000e-01,0.00000000000000e+00,5.99959289638673e-01
7.02560000000000e-08,6.00000000000000e-01,0.00000000000000e+00,5.99966646987486e-01
7.03200000000000e-08,6.00000000000000e-01,0.00000000000000e+00,5.99963392169612e-01
7.04480000000000e-08,6.00000000000000e-01,0.00000000000000e+00,5.99980382257871e-01
7.07040000000000e-08,6.00000000000000e-01,0.00000000000000e+00,5.99989889188693e-01
7.10882617419719e-08,6.00000000000000e-01,0.00000000000000e+00,5.99971111941359e-01
7.17883530189039e-08,6.00000000000000e-01,0.00000000000000e+00,5.99990307025825e-01
7.28955157914635e-08,6.00000000000000e-01,0.00000000000000e+00,5.99976392895774e-01
7.51000000000000e-08,6.00000000000000e-01,0.00000000000000e+00,5.99991812201360e-01
7.51100000000000e-08,5.40000000000061e-01,0.00000000000000e+00,5.99932129236343e-01
7.51300000000000e-08,4.20000000000084e-01,0.00000000000000e+00,5.99855776410026e-01
7.51700000000000e-08,1.80000000000129e-01,0.00000000000000e+00,6.00296357386672e-01
7.52000000000000e-08,8.40438829641244e-14,0.00000000000000e+00,6.01775843285889e-01
7.52080000000000e-08,0.00000000000000e+00,0.00000000000000e+00,6.02197962888950e-01
7.52240000000000e-08,0.00000000000000e+00,0.00000000000000e+00,6.02725406596318e-01
7.52560000000000e-08,0.00000000000000e+00,0.00000000000000e+00,6.02287736088534e-01
7.53200000000000e-08,0.00000000000000e+00,0.00000000000000e+00,5.93113564011354e-01
7.54480000000000e-08,0.00000000000000e+00,0.00000000000000e+00,5.77771651177235e-01
7.57040000000000e-08,0.00000000000000e+00,0.00000000000000e+00,5.95338017995452e-01
7.60654565063239e-08,0.00000000000000e+00,0.00000000000000e+00,6.01966080838783e-01
7.67404188584901e-08,0.00000000000000e+00,0.00000000000000e+00,5.97720398682885e-01
7.74808894382078e-08,0.00000000000000e+00,0.00000000000000e+00,6.01392073112419e-01
7.81000000000000e-08,0.00000000000000e+00,0.00000000000000e+00,5.98555721967622e-01
7.82480941159436e-08,0.00000000000000e+00,0.00000000000000e+00,5.99582087502968e-01
7.85442823478307e-08,0.00000000000000e+00,0.00000000000000e+00,6.00002168062501e-01
7.91366588116048e-08,0.00000000000000e+00,0.00000000000000e+00,5.99746917464148e-01
8.03214117391532e-08,0.00000000000000e+00,0.00000000000000e+00,6.00001752805991e-01
8.26909175942500e-08,0.00000000000000e+00,0.00000000000000e+00,5.99822704058969e-01
8.50000000000000e-08,0.00000000000000e+00,0.00000000000000e+00,6.00031326714997e-01
8.50100000000000e-08,5.99999999999886e-02,0.00000000000000e+00,6.00077376038976e-01
8.50300000000000e-08,1.79999999999966e-01,0.00000000000000e+00,6.00115805632954e-01
8.50700000000000e-08,4.19999999999920e-01,0.00000000000000e+00,6.00033099113498e-01
8.51000000000000e-08,5.99999999999966e-01,0.00000000000000e+00,5.99874675259126e-01
8.51080000000000e-08,6.00000000000000e-01,0.00000000000000e+00,5.99817130093121e-01
8.51240000000000e-08,6.00000000000000e-01,0.00000000000000e+00,5.99739524828465e-01
8.51560000000000e-08,6.00000000000000e-01,0.00000000000000e+00,5.99679753198441e-01
8.52200000000000e-08,6.00000000000000e-01,0.00000000000000e+00,5.99756641285338e-01
8.53480000000000e-08,6.00000000000000e-01,0.00000000000000e+00,6.02222053337862e-01
8.56040000000000e-08,6.00000000000000e-01,0.00000000000000e+00,4.50572870473154e-01
8.61159999999999e-08,6.00000000000000e-01,0.00000000000000e+00,1.17214961004771e-03
8.66890780783490e-08,6.00000000000000e-01,0.00000000000000e+00,-1.37971925081493e-03
8.78352342350471e-08,6.00000000000000e-01,0.00000000000000e+00,2.38148107282458e-03
8.91122056483525e-08,6.00000000000000e-01,0.00000000000000e+00,-2.03139814857829e-03
9.00000000000000e-08,6.00000000000000e-01,0.00000000000000e+00,2.77808043484155e-03
9.00100000000000e-08,6.00000000000000e-01,5.99999999999886e-02,1.00232829375381e-03
9.00300000000000e-08,6.00000000000000e-01,1.79999999999966e-01,-5.87284702352017e-04
9.00700000000000e-08,6.00000000000000e-01,4.19999999999920e-01,-3.49938855526269e-04
9.01000000000000e-08,6.00000000000000e-01,5.99999999999966e-01,-2.86981736648213e-04
9.01080000000000e-08,6.00000000000000e-01,6.00000000000000e-01,-2.25436445202877e-04
9.01240000000000e-08,6.00000000000000e-01,6.00000000000000e-01,-1.46347628366149e-04
9.01560000000000e-08,6.00000000000000e-01,6.00000000000000e-01,-7.62649049839345e-05
9.02200000000000e-08,6.00000000000000e-01,6.00000000000000e-01,-7.40373760986512e-06
9.03480000000000e-08,6.00000000000000e-01,6.00000000000000e-01,6.14389872762716e-06
9.06040000000000e-08,6.00000000000000e-01,6.00000000000000e-01,-3.61230959051127e-06
9.11159999999999e-08,6.00000000000000e-01,6.00000000000000e-01,2.50822961307511e-06
9.21399999999999e-08,6.00000000000000e-01,6.00000000000000e-01,-2.23156404610941e-06
9.41879999999998e-08,6.00000000000000e-01,6.00000000000000e-01,1.94681895345329e-06
9.51000000000000e-08,6.00000000000000e-01,6.00000000000000e-01,-1.63907200266891e-06
9.51100000000000e-08,5.40000000000061e-01,6.00000000000000e-01,-5.80460928229776e-05
9.51300000000000e-08,4.20000000000084e-01,6.00000000000000e-01,-1.39544253620477e-04
9.51700000000000e-08,1.80000000000129e-01,6.00000000000000e-01,-1.40225711753698e-04
9.52000000000000e-08,8.40438829641244e-14,6.00000000000000e-01,7.08537327949663e-05
9.52080000000000e-08,0.00000000000000e+00,6.00000000000000e-01,1.97469571501858e-04
9.52240000000000e-08,0.00000000000000e+00,6.00000000000000e-01,3.46788964595723e-04
9.52560000000000e-08,0.00000000000000e+00,6.00000000000000e-01,3.11563869026345e-04
9.53200000000000e-08,0.00000000000000e+00,6.00000000000000e-01,-3.61414363544053e-04
9.54480000000000e-08,0.00000000000000e+00,6.00000000000000e-01,-9.66486124877913e-04
9.57040000000000e-08,0.00000000000000e+00,6.00000000000000e-01,1.72081740471716e-04
9.62084433561544e-08,0.00000000000000e+00,6.00000000000000e-01,-1.19361351546223e-04
9.68434090711518e-08,0.00000000000000e+00,6.00000000000000e-01,1.41910606825107e-04
9.81133405011466e-08,0.00000000000000e+00,6.00000000000000e-01,-1.16392895934928e-04
9.95227122107823e-08,0.00000000000000e+00,6.00000000000000e-01,9.61040592168004e-05
1.02341455630054e-07,0.00000000000000e+00,6.00000000000000e-01,-8.55342853497650e-05
1.05000000000000e-07,0.00000000000000e+00,6.00000000000000e-01,7.62262044858816e-05
1.05010000000000e-07,5.99999999999886e-02,6.00000000000000e-01,1.96817384469507e-04
1.05030000000000e-07,1.79999999999966e-01,6.00000000000000e-01,3.69300660339043e-04
1.05070000000000e-07,4.19999999999920e-01,6.00000000000000e-01,4.66111094153877e-04
1.05100000000000e-07,5.99999999999966e-01,6.00000000000000e-01,-2.63765064924468e-05
1.05108000000000e-07,6.00000000000000e-01,6.00000000000000e-01,-4.35179151463919e-04
1.05124000000000e-07,6.00000000000000e-01,6.00000000000000e-01,-1.37765578145240e-03
1.05156000000000e-07,6.00000000000000e-01,6.00000000000000e-01,-3.25984082353298e-03
1.05220000000000e-07,6.00000000000000e-01,6.00000000000000e-01,-5.50293188262242e-03
1.05348000000000e-07,6.00000000000000e-01,6.00000000000000e-01,4.53978575742456e-02
1.05604000000000e-07,6.00000000000000e-01,6.00000000000000e-01,4.76499936573136e-01
1.06116000000000e-07,6.00000000000000e-01,6.00000000000000e-01,6.25989593952561e-01
1.06692172749012e-07,6.00000000000000e-01,6.00000000000000e-01,5.75090737904207e-01
1.07844518247036e-07,6.00000000000000e-01,6.00000000000000e-01,6.21750529939787e-01
1.09506225927452e-07,6.00000000000000e-01,6.00000000000000e-01,5.77578779877582e-01
1.10100000000000e-07,6.00000000000000e-01,6.00000000000000e-01,6.18583385428611e-01
1.10110000000000e-07,6.00000000000000e-01,5.40000000000091e-01,6.11566871541601e-01
1.10130000000000e-07,6.00000000000000e-01,4.20000000000114e-01,6.02835413700820e-01
1.10170000000000e-07,6.00000000000000e-01,1.80000000000159e-01,5.99710352790089e-01
