Time,v(clk),v(data),v(out),v(reset)
1.00000000000000e-08,6.50000000000000e-01,0.00000000000000e+00,-2.16881349877083e-06,0.00000000000000e+00
1.00100000000000e-08,6.50000000000000e-01,6.49999999999984e-02,-3.00268787591790e-06,0.00000000000000e+00
1.00300000000000e-08,6.50000000000000e-01,1.94999999999995e-01,-2.86257440167137e-06,0.00000000000000e+00
1.00700000000000e-08,6.50000000000000e-01,4.54999999999989e-01,-2.99962314126434e-07,0.00000000000000e+00
1.01000000000000e-08,6.50000000000000e-01,6.49999999999995e-01,8.40211745942177e-08,0.00000000000000e+00
1.01080000000000e-08,6.50000000000000e-01,6.50000000000000e-01,5.91175381488285e-07,0.00000000000000e+00
1.01240000000000e-08,6.50000000000000e-01,6.50000000000000e-01,1.61238605627528e-06,0.00000000000000e+00
1.01560000000000e-08,6.50000000000000e-01,6.50000000000000e-01,2.14695687972971e-06,0.00000000000000e+00
1.02200000000000e-08,6.50000000000000e-01,6.50000000000000e-01,2.15689439182765e-06,0.00000000000000e+00
1.03480000000000e-08,6.50000000000000e-01,6.50000000000000e-01,1.12115767445659e-06,0.00000000000000e+00
1.06040000000000e-08,6.50000000000000e-01,6.50000000000000e-01,2.21320494449805e-06,0.00000000000000e+00
1.11160000000000e-08,6.50000000000000e-01,6.50000000000000e-01,1.48048648253296e-06,0.00000000000000e+00
1.21400000000000e-08,6.50000000000000e-01,6.50000000000000e-01,1.75210202216485e-06,0.00000000000000e+00
1.41880000000000e-08,6.50000000000000e-01,6.50000000000000e-01,1.15398239149351e-06,0.00000000000000e+00
1.51000000000000e-08,6.50000000000000e-01,6.50000000000000e-01,1.36471692029896e-06,0.00000000000000e+00
1.51100000000000e-08,5.84999999999991e-01,6.50000000000000e-01,1.37816872978196e-04,6.50000000000092e-02
1.51300000000000e-08,4.54999999999994e-01,6.50000000000000e-01,2.17404835819834e-04,1.95000000000006e-01
1.51700000000000e-08,1.95000000000000e-01,6.50000000000000e-01,6.51765954818723e-05,4.55000000000000e-01
1.52000000000000e-08,0.00000000000000e+00,6.50000000000000e-01,9.28483929106133e-05,6.50000000000000e-01
1.52080000000000e-08,0.00000000000000e+00,6.50000000000000e-01,9.60593171158847e-05,6.50000000000000e-01
1.52240000000000e-08,0.00000000000000e+00,6.50000000000000e-01,8.86000606898432e-05,6.50000000000000e-01
1.52560000000000e-08,0.00000000000000e+00,6.50000000000000e-01,-1.16116088091922e-07,6.50000000000000e-01
1.53200000000000e-08,0.00000000000000e+00,6.50000000000000e-01,-1.93756004510402e-04,6.50000000000000e-01
1.54480000000000e-08,0.00000000000000e+00,6.50000000000000e-01,-3.03660614285398e-05,6.50000000000000e-01
1.56842519434214e-08,0.00000000000000e+00,6.50000000000000e-01,-1.70579685247080e-04,6.50000000000000e-01
1.60335396333089e-08,0.00000000000000e+00,6.50000000000000e-01,1.90687842224939e-04,6.50000000000000e-01
1.66998949442058e-08,0.00000000000000e+00,6.50000000000000e-01,-9.60498482752477e-05,6.50000000000000e-01
1.74177495393886e-08,0.00000000000000e+00,6.50000000000000e-01,3.58125951899135e-05,6.50000000000000e-01
1.88534587297542e-08,0.00000000000000e+00,6.50000000000000e-01,-1.07140615642288e-05,6.50000000000000e-01
2.17248771104854e-08,0.00000000000000e+00,6.50000000000000e-01,1.02424713972131e-06,6.50000000000000e-01
2.50000000000000e-08,0.00000000000000e+00,6.50000000000000e-01,8.38598343439584e-06,6.50000000000000e-01
2.50100000000000e-08,6.49999999999877e-02,6.50000000000000e-01,7.31231254397155e-05,6.50000000000000e-01
2.50300000000000e-08,1.95000000000006e-01,6.50000000000000e-01,1.69026930361901e-04,6.50000000000000e-01
2.50700000000000e-08,4.55000000000000e-01,6.50000000000000e-01,2.33907817924400e-04,6.50000000000000e-01
2.51000000000000e-08,6.50000000000000e-01,6.50000000000000e-01,-1.14864825910881e-03,6.50000000000000e-01
2.51080000000000e-08,6.50000000000000e-01,6.50000000000000e-01,-1.98133690961189e-03,6.50000000000000e-01
2.51240000000000e-08,6.50000000000000e-01,6.50000000000000e-01,-3.56488494849993e-03,6.50000000000000e-01
2.51560000000000e-08,6.50000000000000e-01,6.50000000000000e-01,-5.62380797053731e-03,6.50000000000000e-01
2.52200000000000e-08,6.50000000000000e-01,6.50000000000000e-01,2.29625220516038e-02,6.50000000000000e-01
2.53480000000000e-08,6.50000000000000e-01,6.50000000000000e-01,4.09530546411295e-01,6.50000000000000e-01
2.56040000000000e-08,6.50000000000000e-01,6.50000000000000e-01,6.75657027206397e-01,6.50000000000000e-01
2.59175118940250e-08,6.50000000000000e-01,6.50000000000000e-01,6.28695498540838e-01,6.50000000000000e-01
2.65445356820749e-08,6.50000000000000e-01,6.50000000000000e-01,6.70128305674732e-01,6.50000000000000e-01
2.73220411302983e-08,6.50000000000000e-01,6.50000000000000e-01,6.30695291161421e-01,6.50000000000000e-01
2.87519581336155e-08,6.50000000000000e-01,6.50000000000000e-01,6.68466500982259e-01,6.50000000000000e-01
3.16117921402500e-08,6.50000000000000e-01,6.50000000000000e-01,6.31462861667578e-01,6.50000000000000e-01
3.51000000000000e-08,6.49999999999968e-01,6.50000000000000e-01,6.67978488146864e-01,6.50000000000000e-01
3.51100000000000e-08,5.84999999999980e-01,6.50000000000000e-01,6.58972531457069e-01,6.50000000000000e-01
3.51300000000000e-08,4.54999999999962e-01,6.50000000000000e-01,6.49874302309855e-01,6.50000000000000e-01
3.51700000000000e-08,1.94999999999968e-01,6.50000000000000e-01,6.50477912570739e-01,6.50000000000000e-01
3.52000000000000e-08,0.00000000000000e+00,6.50000000000000e-01,6.52261162921583e-01,6.50000000000000e-01
3.52080000000000e-08,0.00000000000000e+00,6.50000000000000e-01,6.52560969505373e-01,6.50000000000000e-01
3.52240000000000e-08,0.00000000000000e+00,6.50000000000000e-01,6.52224821585592e-01,6.50000000000000e-01
3.52560000000000e-08,0.00000000000000e+00,6.50000000000000e-01,6.44941534021908e-01,6.50000000000000e-01
3.53200000000000e-08,0.00000000000000e+00,6.50000000000000e-01,6.26838877500422e-01,6.50000000000000e-01
3.54480000000000e-08,0.00000000000000e+00,6.50000000000000e-01,6.39142340206778e-01,6.50000000000000e-01
3.57040000000000e-08,0.00000000000000e+00,6.50000000000000e-01,6.54463319597273e-01,6.50000000000000e-01
3.60587339877476e-08,0.00000000000000e+00,6.50000000000000e-01,6.45736576523593e-01,6.50000000000000e-01
3.67433508568875e-08,0.00000000000000e+00,6.50000000000000e-01,6.53175921717735e-01,6.50000000000000e-01
3.81125845951674e-08,0.00000000000000e+00,6.50000000000000e-01,6.46711832961193e-01,6.50000000000000e-01
4.08510520717270e-08,0.00000000000000e+00,6.50000000000000e-01,6.52981062973541e-01,6.50000000000000e-01
4.46510520717270e-08,0.00000000000000e+00,6.50000000000000e-01,6.46954109248639e-01,6.50000000000000e-01
4.50000000000000e-08,0.00000000000000e+00,6.50000000000000e-01,6.52274480447737e-01,6.50000000000000e-01
4.50100000000000e-08,6.49999999999877e-02,6.50000000000000e-01,6.51410926289052e-01,5.85000000000012e-01
4.50300000000000e-08,1.95000000000006e-01,6.50000000000000e-01,6.50281430116780e-01,4.54999999999994e-01
4.50700000000000e-08,4.55000000000000e-01,6.50000000000000e-01,6.51780615681258e-01,1.95000000000000e-01
4.51000000000000e-08,6.50000000000000e-01,6.50000000000000e-01,6.57777712581057e-01,0.00000000000000e+00
4.51080000000000e-08,6.50000000000000e-01,6.50000000000000e-01,6.59871954157704e-01,0.00000000000000e+00
4.51240000000000e-08,6.50000000000000e-01,6.50000000000000e-01,6.63857507822364e-01,0.00000000000000e+00
4.51560000000000e-08,6.50000000000000e-01,6.50000000000000e-01,6.73059132630050e-01,0.00000000000000e+00
4.52200000000000e-08,6.50000000000000e-01,6.50000000000000e-01,5.31566679458468e-01,0.00000000000000e+00
4.53480000000000e-08,6.50000000000000e-01,6.50000000000000e-01,5.96760997981260e-02,0.00000000000000e+00
4.55377602351847e-08,6.50000000000000e-01,6.50000000000000e-01,-2.80714929985868e-02,0.00000000000000e+00
4.58643567327478e-08,6.50000000000000e-01,6.50000000000000e-01,2.13509627908898e-02,0.00000000000000e+00
4.62843336484940e-08,6.50000000000000e-01,6.50000000000000e-01,-1.59460493812584e-02,0.00000000000000e+00
4.70881294984622e-08,6.50000000000000e-01,6.50000000000000e-01,1.45722968872018e-02,0.00000000000000e+00
4.86957211983984e-08,6.50000000000000e-01,6.50000000000000e-01,-1.32601632865133e-02,0.00000000000000e+00
5.01000000000000e-08,6.50000000000000e-01,6.49999999999963e-01,1.27504640906113e-02,0.00000000000000e+00
5.04005587738597e-08,6.50000000000000e-01,6.50000000000000e-01,9.41065552885501e-04,0.00000000000000e+00
5.10016763215792e-08,6.50000000000000e-01,6.50000000000000e-01,-7.79879529756823e-04,0.00000000000000e+00
5.22039114170182e-08,6.50000000000000e-01,6.50000000000000e-01,7.14425277809680e-04,0.00000000000000e+00
5.46083816078961e-08,6.50000000000000e-01,6.50000000000000e-01,-6.80760600136921e-04,0.00000000000000e+00
5.51000000000000e-08,6.50000000000000e-01,6.50000000000000e-01,5.46488200036409e-04,0.00000000000000e+00
5.51100000000000e-08,5.85000000000023e-01,6.50000000000000e-01,5.29602353587705e-04,6.49999999999769e-02
5.51300000000000e-08,4.55000000000005e-01,6.50000000000000e-01,3.97488053434127e-04,1.94999999999995e-01
5.51700000000000e-08,1.95000000000011e-01,6.50000000000000e-01,9.52077957332709e-05,4.54999999999989e-01
5.52000000000000e-08,0.00000000000000e+00,6.50000000000000e-01,9.57232214072248e-05,6.50000000000000e-01
5.52080000000000e-08,0.00000000000000e+00,6.50000000000000e-01,9.44418884920167e-05,6.50000000000000e-01
5.52240000000000e-08,0.00000000000000e+00,6.50000000000000e-01,6.15505847781778e-05,6.50000000000000e-01
5.52560000000000e-08,0.00000000000000e+00,6.50000000000000e-01,-3.12003224923647e-04,6.50000000000000e-01
5.53200000000000e-08,0.00000000000000e+00,6.50000000000000e-01,-9.02593966532576e-04,6.50000000000000e-01
5.54480000000000e-08,0.00000000000000e+00,6.50000000000000e-01,5.45261169572903e-05,6.50000000000000e-01
5.56574483179502e-08,0.00000000000000e+00,6.50000000000000e-01,4.33741995359456e-06,6.50000000000000e-01
5.60192094138943e-08,0.00000000000000e+00,6.50000000000000e-01,-6.50687720989297e-05,6.50000000000000e-01
5.65998366249272e-08,0.00000000000000e+00,6.50000000000000e-01,1.06855047916884e-04,6.50000000000000e-01
5.73139151778761e-08,0.00000000000000e+00,6.50000000000000e-01,-1.27102958487763e-04,6.50000000000000e-01
5.87420722837740e-08,0.00000000000000e+00,6.50000000000000e-01,1.34855610567087e-04,6.50000000000000e-01
6.15983864955696e-08,0.00000000000000e+00,6.50000000000000e-01,-1.36866536302495e-04,6.50000000000000e-01
6.50000000000000e-08,0.00000000000000e+00,6.50000000000000e-01,1.39499274518119e-04,6.50000000000000e-01
6.50100000000000e-08,6.49999999999877e-02,6.50000000000000e-01,1.67854128936960e-04,6.50000000000000e-01
6.50300000000000e-08,1.94999999999963e-01,6.50000000000000e-01,2.18472081559694e-04,6.50000000000000e-01
6.50700000000000e-08,4.54999999999914e-01,6.50000000000000e-01,1.33698367067482e-04,6.50000000000000e-01
6.51000000000000e-08,6.49999999999963e-01,6.50000000000000e-01,-1.56875823142354e-03,6.50000000000000e-01
6.51080000000000e-08,6.50000000000000e-01,6.50000000000000e-01,-2.43065316361807e-03,6.50000000000000e-01
6.51240000000000e-08,6.50000000000000e-01,6.50000000000000e-01,-3.97742270605290e-03,6.50000000000000e-01
6.51560000000000e-08,6.50000000000000e-01,6.50000000000000e-01,-5.71751190959638e-03,6.50000000000000e-01
6.52200000000000e-08,6.50000000000000e-01,6.50000000000000e-01,3.10862174610563e-02,6.50000000000000e-01
6.53480000000000e-08,6.50000000000000e-01,6.50000000000000e-01,4.30939004226113e-01,6.50000000000000e-01
6.56040000000000e-08,6.50000000000000e-01,6.50000000000000e-01,6.76471313449554e-01,6.50000000000000e-01
6.59128432651873e-08,6.50000000000000e-01,6.50000000000000e-01,6.27635414836064e-01,6.50000000000000e-01
6.65305297955620e-08,6.50000000000000e-01,6.50000000000000e-01,6.70836618434845e-01,6.50000000000000e-01
6.73197772801849e-08,6.50000000000000e-01,6.50000000000000e-01,6.29842661316014e-01,6.50000000000000e-01
6.87992500833896e-08,6.50000000000000e-01,6.50000000000000e-01,6.69146828972144e-01,6.50000000000000e-01
7.17581956897990e-08,6.50000000000000e-01,6.50000000000000e-01,6.30641475575793e-01,6.50000000000000e-01
7.51000000000000e-08,6.50000000000000e-01,6.50000000000000e-01,6.68637101751537e-01,6.50000000000000e-01
7.51100000000000e-08,5.85000000000066e-01,6.50000000000000e-01,6.59321502772015e-01,6.50000000000000e-01
7.51300000000000e-08,4.55000000000091e-01,6.50000000000000e-01,6.49894509811576e-01,6.50000000000000e-01
7.51700000000000e-08,1.95000000000140e-01,6.50000000000000e-01,6.50482137151234e-01,6.50000000000000e-01
7.52000000000000e-08,9.09272657168003e-14,6.50000000000000e-01,6.52270943493996e-01,6.50000000000000e-01
7.52080000000000e-08,0.00000000000000e+00,6.50000000000000e-01,6.52570994110706e-01,6.50000000000000e-01
7.52240000000000e-08,0.00000000000000e+00,6.50000000000000e-01,6.52241398863213e-01,6.50000000000000e-01
7.52560000000000e-08,0.00000000000000e+00,6.50000000000000e-01,6.44982027747626e-01,6.50000000000000e-01
7.53200000000000e-08,0.00000000000000e+00,6.50000000000000e-01,6.26865490447419e-01,6.50000000000000e-01
7.54480000000000e-08,0.00000000000000e+00,6.50000000000000e-01,6.39145863295975e-01,6.50000000000000e-01
7.57040000000000e-08,0.00000000000000e+00,6.50000000000000e-01,6.54459763006819e-01,6.50000000000000e-01
7.60587838584154e-08,0.00000000000000e+00,6.50000000000000e-01,6.45739614733036e-01,6.50000000000000e-01
7.67432890290094e-08,0.00000000000000e+00,6.50000000000000e-01,6.53173076904836e-01,6.50000000000000e-01
7.81122993701975e-08,0.00000000000000e+00,6.50000000000000e-01,6.46714512223638e-01,6.50000000000000e-01
8.08503200525736e-08,0.00000000000000e+00,6.50000000000000e-01,6.52978334219299e-01,6.50000000000000e-01
8.46503200525736e-08,0.00000000000000e+00,6.50000000000000e-01,6.46956725963060e-01,6.50000000000000e-01
8.50000000000000e-08,0.00000000000000e+00,6.50000000000000e-01,6.52273446976976e-01,6.50000000000000e-01
8.50100000000000e-08,6.49999999999877e-02,6.50000000000000e-01,6.51410526491546e-01,5.85000000000012e-01
8.50300000000000e-08,1.94999999999963e-01,6.50000000000000e-01,6.50282056411952e-01,4.55000000000037e-01
8.50700000000000e-08,4.54999999999914e-01,6.50000000000000e-01,6.51780604650348e-01,1.95000000000086e-01
8.51000000000000e-08,6.49999999999963e-01,6.50000000000000e-01,6.57777538761619e-01,3.71924713249427e-14
8.51080000000000e-08,6.50000000000000e-01,6.50000000000000e-01,6.59871768851763e-01,0.00000000000000e+00
8.51240000000000e-08,6.50000000000000e-01,6.50000000000000e-01,6.63857349182771e-01,0.00000000000000e+00
8.51560000000000e-08,6.50000000000000e-01,6.50000000000000e-01,6.73059471381714e-01,0.00000000000000e+00
8.52200000000000e-08,6.50000000000000e-01,6.50000000000000e-01,5.31575725781258e-01,0.00000000000000e+00
8.53480000000000e-08,6.50000000000000e-01,6.50000000000000e-01,5.96843804511314e-02,0.00000000000000e+00
8.55384579221126e-08,6.50000000000000e-01,6.50000000000000e-01,-2.81430067033978e-02,0.00000000000000e+00
8.58648979753356e-08,6.50000000000000e-01,6.50000000000000e-01,2.14026703554924e-02,0.00000000000000e+00
8.62855071782933e-08,6.50000000000000e-01,6.50000000000000e-01,-1.59878058364570e-02,0.00000000000000e+00
8.70886434520858e-08,6.50000000000000e-01,6.50000000000000e-01,1.46093248396195e-02,0.00000000000000e+00
8.86949159996708e-08,6.50000000000000e-01,6.50000000000000e-01,-1.32920890299572e-02,0.00000000000000e+00
9.01000000000000e-08,6.50000000000000e-01,6.49999999999963e-01,1.27819821238987e-02,0.00000000000000e+00
9.04020056725578e-08,6.50000000000000e-01,6.50000000000000e-01,9.39564999782786e-04,0.00000000000000e+00
9.10060170176733e-08,6.50000000000000e-01,6.50000000000000e-01,-7.79311405447069e-04,0.00000000000000e+00
9.22140397079044e-08,6.50000000000000e-01,6.50000000000000e-01,7.14207172967814e-04,0.00000000000000e+00
9.46300850883666e-08,6.50000000000000e-01,6.50000000000000e-01,-6.80695555987250e-04,0.00000000000000e+00
9.51000000000000e-08,6.50000000000000e-01,6.50000000000000e-01,5.40805338728830e-04,0.00000000000000e+00
9.51100000000000e-08,5.85000000000066e-01,6.50000000000000e-01,5.25477450055434e-04,6.49999999999339e-02
9.51300000000000e-08,4.55000000000091e-01,6.50000000000000e-01,3.95553398605544e-04,1.94999999999909e-01
9.51700000000000e-08,1.95000000000140e-01,6.50000000000000e-01,9.48508181277258e-05,4.54999999999860e-01
9.52000000000000e-08,9.09272657168003e-14,6.50000000000000e-01,9.56214625391291e-05,6.49999999999909e-01
9.52080000000000e-08,0.00000000000000e+00,6.50000000000000e-01,9.43607886534775e-05,6.50000000000000e-01
9.52240000000000e-08,0.00000000000000e+00,6.50000000000000e-01,6.14984132222621e-05,6.50000000000000e-01
9.52560000000000e-08,0.00000000000000e+00,6.50000000000000e-01,-3.12066360880048e-04,6.50000000000000e-01
9.53200000000000e-08,0.00000000000000e+00,6.50000000000000e-01,-9.02791920308482e-04,6.50000000000000e-01
9.54480000000000e-08,0.00000000000000e+00,6.50000000000000e-01,5.45269775520593e-05,6.50000000000000e-01
9.56575723386028e-08,0.00000000000000e+00,6.50000000000000e-01,4.29143418127949e-06,6.50000000000000e-01
9.60192677216392e-08,0.00000000000000e+00,6.50000000000000e-01,-6.50164865448107e-05,6.50000000000000e-01
9.66002731992725e-08,0.00000000000000e+00,6.50000000000000e-01,1.06781439787301e-04,6.50000000000000e-01
9.73143631544491e-08,0.00000000000000e+00,6.50000000000000e-01,-1.27043521258382e-04,6.50000000000000e-01
9.87425430648023e-08,0.00000000000000e+00,6.50000000000000e-01,1.34803818517839e-04,6.50000000000000e-01
1.01598902885509e-07,0.00000000000000e+00,6.50000000000000e-01,-1.36818157908637e-04,6.50000000000000e-01
1.05000000000000e-07,0.00000000000000e+00,6.50000000000000e-01,1.39454457340735e-04,6.50000000000000e-01
1.05010000000000e-07,6.49999999999877e-02,6.50000000000000e-01,1.67794010148332e-04,6.50000000000000e-01
1.05030000000000e-07,1.94999999999963e-01,6.50000000000000e-01,2.18413159243487e-04,6.50000000000000e-01
1.05070000000000e-07,4.54999999999914e-01,6.50000000000000e-01,1.33676282214425e-04,6.50000000000000e-01
1.05100000000000e-07,6.49999999999963e-01,6.50000000000000e-01,-1.56877629327805e-03,6.50000000000000e-01
1.05108000000000e-07,6.50000000000000e-01,6.50000000000000e-01,-2.43066965783635e-03,6.50000000000000e-01
1.05124000000000e-07,6.50000000000000e-01,6.50000000000000e-01,-3.97743584495452e-03,6.50000000000000e-01
1.05156000000000e-07,6.50000000000000e-01,6.50000000000000e-01,-5.71750996207863e-03,6.50000000000000e-01
1.05220000000000e-07,6.50000000000000e-01,6.50000000000000e-01,3.10867731964473e-02,6.50000000000000e-01
1.05348000000000e-07,6.50000000000000e-01,6.50000000000000e-01,4.30940379193901e-01,6.50000000000000e-01
1.05604000000000e-07,6.50000000000000e-01,6.50000000000000e-01,6.76471355908159e-01,6.50000000000000e-01
1.05912843003072e-07,6.50000000000000e-01,6.50000000000000e-01,6.27635355988882e-01,6.50000000000000e-01
1.06530529009215e-07,6.50000000000000e-01,6.50000000000000e-01,6.70836656703470e-01,6.50000000000000e-01
1.07319777364870e-07,6.50000000000000e-01,6.50000000000000e-01,6.29842614060389e-01,6.50000000000000e-01
1.08799253755085e-07,6.50000000000000e-01,6.50000000000000e-01,6.69146866372609e-01,6.50000000000000e-01
1.11758206535516e-07,6.50000000000000e-01,6.50000000000000e-01,6.30641429619196e-01,6.50000000000000e-01
1.15100000000000e-07,6.50000000000000e-01,6.50000000000000e-01,6.68637137834424e-01,6.50000000000000e-01
1.15110000000000e-07,5.85000000000066e-01,6.50000000000000e-01,6.59321521976036e-01,6.50000000000000e-01
1.15130000000000e-07,4.55000000000091e-01,6.50000000000000e-01,6.49894511330941e-01,6.50000000000000e-01
1.15170000000000e-07,1.95000000000140e-01,6.50000000000000e-01,6.50482137846547e-01,6.50000000000000e-01
1.15200000000000e-07,9.09272657168003e-14,6.50000000000000e-01,6.52270944023961e-01,6.50000000000000e-01
1.15208000000000e-07,0.00000000000000e+00,6.50000000000000e-01,6.52570994720575e-01,6.50000000000000e-01
1.15224000000000e-07,0.00000000000000e+00,6.50000000000000e-01,6.52241400037905e-01,6.50000000000000e-01
