Time,v(clk),v(data),v(out)
1.00000000000000e-08,6.50000000000000e-01,0.00000000000000e+00,1.13504682076990e-06
1.00100000000000e-08,6.50000000000000e-01,6.49999999999984e-02,-2.01631063112551e-06
1.00300000000000e-08,6.50000000000000e-01,1.94999999999995e-01,-4.47232095514977e-06
1.00700000000000e-08,6.50000000000000e-01,4.54999999999989e-01,-3.65302764158276e-06
1.01000000000000e-08,6.50000000000000e-01,6.49999999999995e-01,-3.79641464298003e-06
1.01080000000000e-08,6.50000000000000e-01,6.50000000000000e-01,-2.75282148672062e-06
1.01240000000000e-08,6.50000000000000e-01,6.50000000000000e-01,-3.93202435798601e-07
1.01560000000000e-08,6.50000000000000e-01,6.50000000000000e-01,3.55845830578294e-06
1.02200000000000e-08,6.50000000000000e-01,6.50000000000000e-01,2.77140180759278e-06
1.03480000000000e-08,6.50000000000000e-01,6.50000000000000e-01,6.34008324937319e-08
1.06040000000000e-08,6.50000000000000e-01,6.50000000000000e-01,2.61257297321654e-06
1.11160000000000e-08,6.50000000000000e-01,6.50000000000000e-01,5.88453365714912e-07
1.21400000000000e-08,6.50000000000000e-01,6.50000000000000e-01,2.18753812766771e-06
1.41880000000000e-08,6.50000000000000e-01,6.50000000000000e-01,4.08695576957279e-07
1.51000000000000e-08,6.50000000000000e-01,6.50000000000000e-01,1.85366338634804e-06
1.51100000000000e-08,5.84999999999991e-01,6.50000000000000e-01,-5.02492014232206e-05
1.51300000000000e-08,4.54999999999994e-01,6.50000000000000e-01,-1.11722346745440e-04
1.51700000000000e-08,1.95000000000000e-01,6.50000000000000e-01,-3.41020611169876e-05
1.52000000000000e-08,0.00000000000000e+00,6.50000000000000e-01,1.97568814789384e-04
1.52080000000000e-08,0.00000000000000e+00,6.50000000000000e-01,2.88411949151982e-04
1.52240000000000e-08,0.00000000000000e+00,6.50000000000000e-01,3.45003695608186e-04
1.52560000000000e-08,0.00000000000000e+00,6.50000000000000e-01,1.12472029199021e-04
1.53200000000000e-08,0.00000000000000e+00,6.50000000000000e-01,-2.22339770616121e-04
1.54480000000000e-08,0.00000000000000e+00,6.50000000000000e-01,-4.96595033525997e-05
1.57040000000000e-08,0.00000000000000e+00,6.50000000000000e-01,-1.26715001804377e-04
1.60455029103959e-08,0.00000000000000e+00,6.50000000000000e-01,1.74924296971798e-04
1.67285087311878e-08,0.00000000000000e+00,6.50000000000000e-01,-1.00835240913422e-04
1.74605664242124e-08,0.00000000000000e+00,6.50000000000000e-01,5.18585423898710e-05
1.89246818102618e-08,0.00000000000000e+00,6.50000000000000e-01,-3.08349220822083e-05
2.18529125823605e-08,0.00000000000000e+00,6.50000000000000e-01,2.29292242775688e-05
2.50000000000000e-08,0.00000000000000e+00,6.50000000000000e-01,-1.42813260163776e-05
2.50100000000000e-08,6.49999999999877e-02,6.50000000000000e-01,6.29023706438109e-05
2.50300000000000e-08,1.95000000000006e-01,6.50000000000000e-01,1.73285469244375e-04
2.50700000000000e-08,4.55000000000000e-01,6.50000000000000e-01,2.18951419629070e-04
2.51000000000000e-08,6.50000000000000e-01,6.50000000000000e-01,-1.26815845865975e-03
2.51080000000000e-08,6.50000000000000e-01,6.50000000000000e-01,-2.11681126107900e-03
2.51240000000000e-08,6.50000000000000e-01,6.50000000000000e-01,-3.69591979074089e-03
2.51560000000000e-08,6.50000000000000e-01,6.50000000000000e-01,-5.66273308417201e-03
2.52200000000000e-08,6.50000000000000e-01,6.50000000000000e-01,2.53930191965265e-02
2.53480000000000e-08,6.50000000000000e-01,6.50000000000000e-01,4.16348417771299e-01
2.56040000000000e-08,6.50000000000000e-01,6.50000000000000e-01,6.75968596836655e-01
2.59158405702847e-08,6.50000000000000e-01,6.50000000000000e-01,6.28316944231523e-01
2.65395217108542e-08,6.50000000000000e-01,6.50000000000000e-01,6.70391930767537e-01
2.73203541688618e-08,6.50000000000000e-01,6.50000000000000e-01,6.30387542590649e-01
2.87644328858199e-08,6.50000000000000e-01,6.50000000000000e-01,6.68716524953345e-01
3.01000000000000e-08,6.50000000000000e-01,6.50000000000000e-01,6.31464911318118e-01
3.01100000000000e-08,6.50000000000000e-01,5.85000000000034e-01,6.40322975522820e-01
3.01300000000000e-08,6.50000000000000e-01,4.55000000000016e-01,6.49588967043686e-01
3.01700000000000e-08,6.50000000000000e-01,1.95000000000022e-01,6.50215631541057e-01
3.02000000000000e-08,6.50000000000000e-01,1.57651669496772e-14,6.50017260032220e-01
3.02080000000000e-08,6.50000000000000e-01,0.00000000000000e+00,6.50016015177521e-01
3.02240000000000e-08,6.50000000000000e-01,0.00000000000000e+00,6.50011199583922e-01
3.02560000000000e-08,6.50000000000000e-01,0.00000000000000e+00,6.49992745602168e-01
3.03200000000000e-08,6.50000000000000e-01,0.00000000000000e+00,6.49970803755100e-01
3.04480000000000e-08,6.50000000000000e-01,0.00000000000000e+00,6.50000577305557e-01
3.06343884863885e-08,6.50000000000000e-01,0.00000000000000e+00,6.49964569512731e-01
3.10071654591655e-08,6.50000000000000e-01,0.00000000000000e+00,6.49989885644303e-01
3.14715387814395e-08,6.50000000000000e-01,0.00000000000000e+00,6.49976157558946e-01
3.24002854259873e-08,6.50000000000000e-01,0.00000000000000e+00,6.49987700112197e-01
3.42577787150830e-08,6.50000000000000e-01,0.00000000000000e+00,6.49982571447267e-01
3.51000000000000e-08,6.49999999999968e-01,0.00000000000000e+00,6.49989299152539e-01
3.51100000000000e-08,5.84999999999980e-01,0.00000000000000e+00,6.49940376707615e-01
3.51300000000000e-08,4.54999999999962e-01,0.00000000000000e+00,6.49892750805592e-01
3.51700000000000e-08,1.94999999999968e-01,0.00000000000000e+00,6.50591335376660e-01
3.52000000000000e-08,0.00000000000000e+00,0.00000000000000e+00,6.52307691852333e-01
3.52080000000000e-08,0.00000000000000e+00,0.00000000000000e+00,6.52595821243488e-01
3.52240000000000e-08,0.00000000000000e+00,0.00000000000000e+00,6.52234790905632e-01
3.52560000000000e-08,0.00000000000000e+00,0.00000000000000e+00,6.45046609925737e-01
3.53200000000000e-08,0.00000000000000e+00,0.00000000000000e+00,6.26970307516611e-01
3.54480000000000e-08,0.00000000000000e+00,0.00000000000000e+00,6.39203914072247e-01
3.56537952252850e-08,0.00000000000000e+00,0.00000000000000e+00,6.54014180567679e-01
3.59765965422316e-08,0.00000000000000e+00,0.00000000000000e+00,6.45833406098037e-01
3.64102459525868e-08,0.00000000000000e+00,0.00000000000000e+00,6.52729216501425e-01
3.72775447732972e-08,0.00000000000000e+00,0.00000000000000e+00,6.47115258024896e-01
3.74943694784748e-08,0.00000000000000e+00,0.00000000000000e+00,6.49607139738534e-01
3.79280188888301e-08,0.00000000000000e+00,0.00000000000000e+00,6.50079474099226e-01
3.87953177095405e-08,0.00000000000000e+00,0.00000000000000e+00,6.49718104723987e-01
3.91000000000000e-08,0.00000000000000e+00,0.00000000000000e+00,6.50046786451909e-01
3.92734597641421e-08,0.00000000000000e+00,0.00000000000000e+00,6.49926395387963e-01
3.96203792924263e-08,0.00000000000000e+00,0.00000000000000e+00,6.49905014061388e-01
4.03142183489946e-08,0.00000000000000e+00,0.00000000000000e+00,6.49935928286901e-01
4.17018964621314e-08,0.00000000000000e+00,0.00000000000000e+00,6.49927189047977e-01
4.44772526884048e-08,0.00000000000000e+00,0.00000000000000e+00,6.49958297120262e-01
4.50000000000000e-08,0.00000000000000e+00,0.00000000000000e+00,6.49941992286122e-01
4.50100000000000e-08,6.49999999999877e-02,0.00000000000000e+00,6.49993900163093e-01
4.50300000000000e-08,1.95000000000006e-01,0.00000000000000e+00,6.50033245775305e-01
4.50700000000000e-08,4.55000000000000e-01,0.00000000000000e+00,6.49950304731533e-01
4.51000000000000e-08,6.50000000000000e-01,0.00000000000000e+00,6.49780499480935e-01
4.51080000000000e-08,6.50000000000000e-01,0.00000000000000e+00,6.49731658513953e-01
4.51240000000000e-08,6.50000000000000e-01,0.00000000000000e+00,6.49697002595604e-01
4.51560000000000e-08,6.50000000000000e-01,0.00000000000000e+00,6.49765621202940e-01
4.52200000000000e-08,6.50000000000000e-01,0.00000000000000e+00,6.51906486172863e-01
4.53480000000000e-08,6.50000000000000e-01,0.00000000000000e+00,6.48022052136909e-01
4.56040000000000e-08,6.50000000000000e-01,0.00000000000000e+00,1.07954836042386e-01
4.58928614586530e-08,6.50000000000000e-01,0.00000000000000e+00,-5.65551774930144e-02
4.64075769357557e-08,6.50000000000000e-01,0.00000000000000e+00,5.02706314573630e-02
4.70756470642140e-08,6.50000000000000e-01,0.00000000000000e+00,-3.87028433078449e-02
4.81812367252317e-08,6.50000000000000e-01,0.00000000000000e+00,3.76848774462474e-02
5.00000000000000e-08,6.50000000000000e-01,0.00000000000000e+00,-3.30986974613642e-02
5.00100000000000e-08,6.50000000000000e-01,6.49999999999877e-02,-2.31466904599980e-02
5.00300000000000e-08,6.50000000000000e-01,1.94999999999963e-01,-1.01766175828697e-02
5.00700000000000e-08,6.50000000000000e-01,4.55000000000000e-01,-1.91551600121963e-03
5.01000000000000e-08,6.50000000000000e-01,6.50000000000000e-01,-4.41996738863970e-04
5.01080000000000e-08,6.50000000000000e-01,6.50000000000000e-01,-3.97014412341648e-04
5.01240000000000e-08,6.50000000000000e-01,6.50000000000000e-01,-2.54667960235273e-04
5.01560000000000e-08,6.50000000000000e-01,6.50000000000000e-01,-5.90357617576490e-05
5.02200000000000e-08,6.50000000000000e-01,6.50000000000000e-01,-2.75129539904079e-06
5.03480000000000e-08,6.50000000000000e-01,6.50000000000000e-01,1.27138079643943e-05
5.06040000000000e-08,6.50000000000000e-01,6.50000000000000e-01,-1.13766304720396e-05
5.11160000000001e-08,6.50000000000000e-01,6.50000000000000e-01,8.69997632090176e-06
5.21400000000002e-08,6.50000000000000e-01,6.50000000000000e-01,-1.01131321755964e-05
5.41880000000003e-08,6.50000000000000e-01,6.50000000000000e-01,8.34078256830347e-06
5.51000000000000e-08,6.50000000000000e-01,6.50000000000000e-01,-9.35668207554044e-06
5.51100000000000e-08,5.85000000000023e-01,6.50000000000000e-01,-5.13391010155753e-05
5.51300000000000e-08,4.55000000000005e-01,6.50000000000000e-01,-1.11469434092286e-04
5.51700000000000e-08,1.95000000000011e-01,6.50000000000000e-01,-3.39017204679729e-05
5.52000000000000e-08,0.00000000000000e+00,6.50000000000000e-01,1.84504102050273e-04
5.52080000000000e-08,0.00000000000000e+00,6.50000000000000e-01,2.63836081076600e-04
5.52240000000000e-08,0.00000000000000e+00,6.50000000000000e-01,2.59234319808690e-04
5.52560000000000e-08,0.00000000000000e+00,6.50000000000000e-01,-4.04901313883377e-04
5.53200000000000e-08,0.00000000000000e+00,6.50000000000000e-01,-1.70559018534489e-03
5.54480000000000e-08,0.00000000000000e+00,6.50000000000000e-01,-3.59530687937606e-05
5.56378049452675e-08,0.00000000000000e+00,6.50000000000000e-01,-1.88136264023739e-05
5.60109388138804e-08,0.00000000000000e+00,6.50000000000000e-01,3.91780987078587e-06
5.64803873448981e-08,0.00000000000000e+00,6.50000000000000e-01,1.49484462017120e-04
5.72102269364035e-08,0.00000000000000e+00,6.50000000000000e-01,-2.11159970203785e-04
5.84786015110665e-08,0.00000000000000e+00,6.50000000000000e-01,2.36454728129034e-04
6.10153506603926e-08,0.00000000000000e+00,6.50000000000000e-01,-2.47451609426953e-04
6.48153506603926e-08,0.00000000000000e+00,6.50000000000000e-01,2.53343818211497e-04
6.50000000000000e-08,0.00000000000000e+00,6.50000000000000e-01,-3.00625289022895e-04
6.50100000000000e-08,6.49999999999877e-02,6.50000000000000e-01,-5.95512339860646e-05
6.50300000000000e-08,1.94999999999963e-01,6.50000000000000e-01,2.14003042422674e-04
6.50700000000000e-08,4.54999999999914e-01,6.50000000000000e-01,2.97767650956272e-04
6.51000000000000e-08,6.49999999999963e-01,6.50000000000000e-01,-9.00707325343406e-04
6.51080000000000e-08,6.50000000000000e-01,6.50000000000000e-01,-1.69934243810548e-03
6.51240000000000e-08,6.50000000000000e-01,6.50000000000000e-01,-3.29047683690455e-03
6.51560000000000e-08,6.50000000000000e-01,6.50000000000000e-01,-5.51947441869129e-03
6.52200000000000e-08,6.50000000000000e-01,6.50000000000000e-01,1.99056757610013e-02
6.53480000000000e-08,6.50000000000000e-01,6.50000000000000e-01,4.00516414075315e-01
6.56040000000000e-08,6.50000000000000e-01,6.50000000000000e-01,6.75183862231990e-01
6.59198977647267e-08,6.50000000000000e-01,6.50000000000000e-01,6.29242447810382e-01
6.65516932941802e-08,6.50000000000000e-01,6.50000000000000e-01,6.69734958343855e-01
6.73252620839595e-08,6.50000000000000e-01,6.50000000000000e-01,6.31143366355932e-01
6.87382241268778e-08,6.50000000000000e-01,6.50000000000000e-01,6.68096880978412e-01
7.01000000000000e-08,6.50000000000000e-01,6.50000000000000e-01,6.32161622753226e-01
7.01100000000000e-08,6.50000000000000e-01,5.85000000000012e-01,6.40715798963437e-01
7.01300000000000e-08,6.50000000000000e-01,4.55000000000037e-01,6.49640983246063e-01
7.01700000000000e-08,6.50000000000000e-01,1.95000000000086e-01,6.50214309521033e-01
7.02000000000000e-08,6.50000000000000e-01,3.71924713249427e-14,6.50023657784837e-01
7.02080000000000e-08,6.50000000000000e-01,0.00000000000000e+00,6.50021071090007e-01
7.02240000000000e-08,6.50000000000000e-01,0.00000000000000e+00,6.50014723244738e-01
7.02560000000000e-08,6.50000000000000e-01,0.00000000000000e+00,6.49995078442848e-01
7.03200000000000e-08,6.50000000000000e-01,0.00000000000000e+00,6.49969803412391e-01
7.04480000000000e-08,6.50000000000000e-01,0.00000000000000e+00,6.50000510567005e-01
7.06336556260826e-08,6.50000000000000e-01,0.00000000000000e+00,6.49963459839894e-01
7.10049668782478e-08,6.50000000000000e-01,0.00000000000000e+00,6.49991725292262e-01
7.14664768222674e-08,6.50000000000000e-01,0.00000000000000e+00,6.49973248669598e-01
7.23894967103064e-08,6.50000000000000e-01,0.00000000000000e+00,6.49990442909977e-01
7.42355364863845e-08,6.50000000000000e-01,0.00000000000000e+00,6.49979579170870e-01
7.51000000000000e-08,6.50000000000000e-01,0.00000000000000e+00,6.49992070654945e-01
7.51100000000000e-08,5.85000000000066e-01,0.00000000000000e+00,6.49939091741395e-01
7.51300000000000e-08,4.55000000000091e-01,0.00000000000000e+00,6.49888892763246e-01
7.51700000000000e-08,1.95000000000140e-01,0.00000000000000e+00,6.50591391871409e-01
7.52000000000000e-08,9.09272657168003e-14,0.00000000000000e+00,6.52306789350144e-01
7.52080000000000e-08,0.00000000000000e+00,0.00000000000000e+00,6.52592705347412e-01
7.52240000000000e-08,0.00000000000000e+00,0.00000000000000e+00,6.52226781046834e-01
7.52560000000000e-08,0.00000000000000e+00,0.00000000000000e+00,6.45030111426783e-01
7.53200000000000e-08,0.00000000000000e+00,0.00000000000000e+00,6.26965581210432e-01
7.54480000000000e-08,0.00000000000000e+00,0.00000000000000e+00,6.39215990479081e-01
7.56537970359630e-08,0.00000000000000e+00,0.00000000000000e+00,6.54000102706194e-01
7.59766014869019e-08,0.00000000000000e+00,0.00000000000000e+00,6.45844778585314e-01
7.64102507412218e-08,0.00000000000000e+00,0.00000000000000e+00,6.52719326942670e-01
7.72775492498618e-08,0.00000000000000e+00,0.00000000000000e+00,6.47124336166062e-01
7.81000000000000e-08,0.00000000000000e+00,0.00000000000000e+00,6.52311772634251e-01
7.82734597017280e-08,0.00000000000000e+00,0.00000000000000e+00,6.50150008407284e-01
7.86203791051840e-08,0.00000000000000e+00,0.00000000000000e+00,6.49695589393418e-01
7.93142179120959e-08,0.00000000000000e+00,0.00000000000000e+00,6.50092319597162e-01
8.07018955259198e-08,0.00000000000000e+00,0.00000000000000e+00,6.49761498285624e-01
8.34772507535676e-08,0.00000000000000e+00,0.00000000000000e+00,6.50109097611357e-01
8.50000000000000e-08,0.00000000000000e+00,0.00000000000000e+00,6.49795883276376e-01
8.50100000000000e-08,6.49999999999877e-02,0.00000000000000e+00,6.49890675475244e-01
8.50300000000000e-08,1.94999999999963e-01,0.00000000000000e+00,6.49990265037354e-01
8.50700000000000e-08,4.54999999999914e-01,0.00000000000000e+00,6.49948929514226e-01
8.51000000000000e-08,6.49999999999963e-01,0.00000000000000e+00,6.49780668327111e-01
8.51080000000000e-08,6.50000000000000e-01,0.00000000000000e+00,6.49732826394454e-01
8.51240000000000e-08,6.50000000000000e-01,0.00000000000000e+00,6.49700085225799e-01
8.51560000000000e-08,6.50000000000000e-01,0.00000000000000e+00,6.49767426337364e-01
8.52200000000000e-08,6.50000000000000e-01,0.00000000000000e+00,6.51907277445109e-01
8.53480000000000e-08,6.50000000000000e-01,0.00000000000000e+00,6.48036306516061e-01
8.56040000000000e-08,6.50000000000000e-01,0.00000000000000e+00,1.07960144495976e-01
8.58928626033372e-08,6.50000000000000e-01,0.00000000000000e+00,-5.65575173071484e-02
8.64075860459153e-08,6.50000000000000e-01,0.00000000000000e+00,5.02732541781273e-02
8.70756583415257e-08,6.50000000000000e-01,0.00000000000000e+00,-3.87047349093676e-02
8.81812469536252e-08,6.50000000000000e-01,0.00000000000000e+00,3.76869402123122e-02
9.00000000000000e-08,6.50000000000000e-01,0.00000000000000e+00,-3.31003523711487e-02
9.00100000000000e-08,6.50000000000000e-01,6.49999999999877e-02,-2.31475975690913e-02
9.00300000000000e-08,6.50000000000000e-01,1.94999999999963e-01,-1.01768645247971e-02
9.00700000000000e-08,6.50000000000000e-01,4.54999999999914e-01,-1.91562250083342e-03
9.01000000000000e-08,6.50000000000000e-01,6.49999999999963e-01,-4.41981830286736e-04
9.01080000000000e-08,6.50000000000000e-01,6.50000000000000e-01,-3.97017059810580e-04
9.01240000000000e-08,6.50000000000000e-01,6.50000000000000e-01,-2.54680399757623e-04
9.01560000000000e-08,6.50000000000000e-01,6.50000000000000e-01,-5.90375625330944e-05
9.02200000000000e-08,6.50000000000000e-01,6.50000000000000e-01,-2.75677705525307e-06
9.03480000000000e-08,6.50000000000000e-01,6.50000000000000e-01,1.27119846920695e-05
9.06040000000000e-08,6.50000000000000e-01,6.50000000000000e-01,-1.13758957170189e-05
9.11159999999999e-08,6.50000000000000e-01,6.50000000000000e-01,8.69963047287620e-06
9.21399999999999e-08,6.50000000000000e-01,6.50000000000000e-01,-1.01129316313962e-05
9.41879999999998e-08,6.50000000000000e-01,6.50000000000000e-01,8.34065736067102e-06
9.51000000000000e-08,6.50000000000000e-01,6.50000000000000e-01,-9.35669824199230e-06
9.51100000000000e-08,5.85000000000066e-01,6.50000000000000e-01,-5.13384350893098e-05
9.51300000000000e-08,4.55000000000091e-01,6.50000000000000e-01,-1.11468761956869e-04
9.51700000000000e-08,1.95000000000140e-01,6.50000000000000e-01,-3.39018369419491e-05
9.52000000000000e-08,9.09272657168003e-14,6.50000000000000e-01,1.84504187254179e-04
9.52080000000000e-08,0.00000000000000e+00,6.50000000000000e-01,2.63836126651991e-04
9.52240000000000e-08,0.00000000000000e+00,6.50000000000000e-01,2.59234395692941e-04
9.52560000000000e-08,0.00000000000000e+00,6.50000000000000e-01,-4.04901013372795e-04
9.53200000000000e-08,0.00000000000000e+00,6.50000000000000e-01,-1.70558928140530e-03
9.54480000000000e-08,0.00000000000000e+00,6.50000000000000e-01,-3.59529732375588e-05
9.56378049944577e-08,0.00000000000000e+00,6.50000000000000e-01,-1.88137424392311e-05
9.60109388329520e-08,0.00000000000000e+00,6.50000000000000e-01,3.91794059158290e-06
9.64803875819305e-08,0.00000000000000e+00,6.50000000000000e-01,1.49484246579470e-04
9.72102271257728e-08,0.00000000000000e+00,6.50000000000000e-01,-2.11159764758456e-04
9.84786020739758e-08,0.00000000000000e+00,6.50000000000000e-01,2.36454522483766e-04
1.01015351970382e-07,0.00000000000000e+00,6.50000000000000e-01,-2.47451402882444e-04
1.04815351970382e-07,0.00000000000000e+00,6.50000000000000e-01,2.53343615867828e-04
1.05000000000000e-07,0.00000000000000e+00,6.50000000000000e-01,-3.00625138796118e-04
1.05010000000000e-07,6.49999999999877e-02,6.50000000000000e-01,-5.95513373443171e-05
1.05030000000000e-07,1.94999999999963e-01,6.50000000000000e-01,2.14002716175367e-04
1.05070000000000e-07,4.54999999999914e-01,6.50000000000000e-01,2.97767485195451e-04
1.05100000000000e-07,6.49999999999963e-01,6.50000000000000e-01,-9.00707696832863e-04
1.05108000000000e-07,6.50000000000000e-01,6.50000000000000e-01,-1.69934286081320e-03
1.05124000000000e-07,6.50000000000000e-01,6.50000000000000e-01,-3.29047724781339e-03
1.05156000000000e-07,6.50000000000000e-01,6.50000000000000e-01,-5.51947458491760e-03
1.05220000000000e-07,6.50000000000000e-01,6.50000000000000e-01,1.99056794458864e-02
1.05348000000000e-07,6.50000000000000e-01,6.50000000000000e-01,4.00516424950774e-01
1.05604000000000e-07,6.50000000000000e-01,6.50000000000000e-01,6.75183862808446e-01
