Time,v(clk),v(data),v(out)
1.00000000000000e-08,6.50000000000000e-01,0.00000000000000e+00,1.66929708568905e-05
1.00100000000000e-08,6.50000000000000e-01,6.49999999999984e-02,1.00736501316978e-05
1.00300000000000e-08,6.50000000000000e-01,1.94999999999995e-01,3.13927128893499e-06
1.00700000000000e-08,6.50000000000000e-01,4.54999999999989e-01,1.15402881695204e-09
1.01000000000000e-08,6.50000000000000e-01,6.49999999999995e-01,-1.80626132018774e-06
1.01080000000000e-08,6.50000000000000e-01,6.50000000000000e-01,-1.49925791297773e-06
1.01240000000000e-08,6.50000000000000e-01,6.50000000000000e-01,-2.48601373625812e-07
1.01560000000000e-08,6.50000000000000e-01,6.50000000000000e-01,2.20165718810977e-06
1.02200000000000e-08,6.50000000000000e-01,6.50000000000000e-01,6.55247417886279e-06
1.03480000000000e-08,6.50000000000000e-01,6.50000000000000e-01,6.27784544838389e-07
1.06040000000000e-08,6.50000000000000e-01,6.50000000000000e-01,4.83005964836344e-06
1.11160000000000e-08,6.50000000000000e-01,6.50000000000000e-01,1.69525001365682e-06
1.21400000000000e-08,6.50000000000000e-01,6.50000000000000e-01,4.11366738903686e-06
1.41880000000000e-08,6.50000000000000e-01,6.50000000000000e-01,1.41218504914322e-06
1.51000000000000e-08,6.50000000000000e-01,6.50000000000000e-01,3.59085197168714e-06
1.51100000000000e-08,5.84999999999991e-01,6.50000000000000e-01,-5.13289067672618e-05
1.51300000000000e-08,4.54999999999994e-01,6.50000000000000e-01,-1.23239654460240e-04
1.51700000000000e-08,1.95000000000000e-01,6.50000000000000e-01,-5.27277245293348e-05
1.52000000000000e-08,0.00000000000000e+00,6.50000000000000e-01,1.92863749887577e-04
1.52080000000000e-08,0.00000000000000e+00,6.50000000000000e-01,2.92778282265989e-04
1.52240000000000e-08,0.00000000000000e+00,6.50000000000000e-01,3.70974173563375e-04
1.52560000000000e-08,0.00000000000000e+00,6.50000000000000e-01,1.58374466765560e-04
1.53200000000000e-08,0.00000000000000e+00,6.50000000000000e-01,-2.33967355755253e-04
1.54480000000000e-08,0.00000000000000e+00,6.50000000000000e-01,-9.75106411188198e-05
1.57040000000000e-08,0.00000000000000e+00,6.50000000000000e-01,-1.37721156642012e-04
1.60557202823893e-08,0.00000000000000e+00,6.50000000000000e-01,1.59530899077959e-04
1.66700682549144e-08,0.00000000000000e+00,6.50000000000000e-01,-2.87766206215337e-05
1.74927672254143e-08,0.00000000000000e+00,6.50000000000000e-01,-2.99201531388958e-05
1.89290824226839e-08,0.00000000000000e+00,6.50000000000000e-01,5.89865763300059e-05
2.18017128172232e-08,0.00000000000000e+00,6.50000000000000e-01,-6.69975404425517e-05
2.50000000000000e-08,0.00000000000000e+00,6.50000000000000e-01,7.85888021531882e-05
2.50100000000000e-08,6.49999999999877e-02,6.50000000000000e-01,1.34526869740970e-04
2.50300000000000e-08,1.95000000000006e-01,6.50000000000000e-01,2.15308966039149e-04
2.50700000000000e-08,4.55000000000000e-01,6.50000000000000e-01,2.76543259653594e-04
2.51000000000000e-08,6.50000000000000e-01,6.50000000000000e-01,-8.99676920397538e-04
2.51080000000000e-08,6.50000000000000e-01,6.50000000000000e-01,-1.63931353015049e-03
2.51240000000000e-08,6.50000000000000e-01,6.50000000000000e-01,-3.09300885590467e-03
2.51560000000000e-08,6.50000000000000e-01,6.50000000000000e-01,-5.17969408554645e-03
2.52200000000000e-08,6.50000000000000e-01,6.50000000000000e-01,6.25466619973473e-03
2.53480000000000e-08,6.50000000000000e-01,6.50000000000000e-01,3.07450928997623e-01
2.56040000000000e-08,6.50000000000000e-01,6.50000000000000e-01,6.64423274072195e-01
2.59615566053697e-08,6.50000000000000e-01,6.50000000000000e-01,6.39290794973277e-01
2.65729929603523e-08,6.50000000000000e-01,6.50000000000000e-01,6.60873564647414e-01
2.73610853317085e-08,6.50000000000000e-01,6.50000000000000e-01,6.39953552088375e-01
2.85595458410955e-08,6.50000000000000e-01,6.50000000000000e-01,6.59944869715961e-01
3.09564668598696e-08,6.50000000000000e-01,6.50000000000000e-01,6.40371187342414e-01
3.47564668598696e-08,6.50000000000000e-01,6.50000000000000e-01,6.59662631315519e-01
3.51000000000000e-08,6.49999999999968e-01,6.50000000000000e-01,6.41483186927361e-01
3.51100000000000e-08,5.84999999999980e-01,6.50000000000000e-01,6.45364932188293e-01
3.51300000000000e-08,4.54999999999962e-01,6.50000000000000e-01,6.49549571135847e-01
3.51700000000000e-08,1.94999999999968e-01,6.50000000000000e-01,6.50743787833220e-01
3.52000000000000e-08,0.00000000000000e+00,6.50000000000000e-01,6.52361919721961e-01
3.52080000000000e-08,0.00000000000000e+00,6.50000000000000e-01,6.52692478147205e-01
3.52240000000000e-08,0.00000000000000e+00,6.50000000000000e-01,6.52650775918288e-01
3.52560000000000e-08,0.00000000000000e+00,6.50000000000000e-01,6.47212709529873e-01
3.53200000000000e-08,0.00000000000000e+00,6.50000000000000e-01,6.28982730381907e-01
3.54480000000000e-08,0.00000000000000e+00,6.50000000000000e-01,6.35760889601020e-01
3.57040000000000e-08,0.00000000000000e+00,6.50000000000000e-01,6.54789219209109e-01
3.60740056898778e-08,0.00000000000000e+00,6.50000000000000e-01,6.45326066729252e-01
3.67340286349004e-08,0.00000000000000e+00,6.50000000000000e-01,6.53373910313811e-01
3.80540745249455e-08,0.00000000000000e+00,6.50000000000000e-01,6.46460324952630e-01
4.06941663050357e-08,0.00000000000000e+00,6.50000000000000e-01,6.53151360886892e-01
4.44941663050357e-08,0.00000000000000e+00,6.50000000000000e-01,6.46738224015454e-01
4.50000000000000e-08,0.00000000000000e+00,6.50000000000000e-01,6.52560692487987e-01
4.50100000000000e-08,6.49999999999877e-02,6.50000000000000e-01,6.51799454789154e-01
4.50300000000000e-08,1.95000000000006e-01,6.50000000000000e-01,6.50741371202614e-01
4.50700000000000e-08,4.55000000000000e-01,6.50000000000000e-01,6.50063369875986e-01
4.51000000000000e-08,6.50000000000000e-01,6.50000000000000e-01,6.49300423078224e-01
4.51080000000000e-08,6.50000000000000e-01,5.98000000000027e-01,6.48901553351328e-01
4.51240000000000e-08,6.50000000000000e-01,4.93999999999995e-01,6.48188292254531e-01
4.51560000000000e-08,6.50000000000000e-01,2.86000000000017e-01,6.47323557335946e-01
4.52000000000000e-08,6.50000000000000e-01,3.71924713249427e-14,6.46846342633965e-01
4.52064000000000e-08,6.50000000000000e-01,0.00000000000000e+00,6.46847730298196e-01
4.52192000000000e-08,6.50000000000000e-01,0.00000000000000e+00,6.46883798478531e-01
4.52448000000000e-08,6.50000000000000e-01,0.00000000000000e+00,6.47206989139679e-01
4.52960000000000e-08,6.50000000000000e-01,0.00000000000000e+00,6.48205177825084e-01
4.53984000000000e-08,6.50000000000000e-01,0.00000000000000e+00,6.49472396071487e-01
4.55772006062253e-08,6.50000000000000e-01,0.00000000000000e+00,6.49965307186740e-01
4.59311417158184e-08,6.50000000000000e-01,0.00000000000000e+00,6.50015154123700e-01
4.62767441006361e-08,6.50000000000000e-01,0.00000000000000e+00,6.49992043129106e-01
4.69679488702714e-08,6.50000000000000e-01,0.00000000000000e+00,6.50006153529933e-01
4.83503584095420e-08,6.50000000000000e-01,0.00000000000000e+00,6.49994581856856e-01
5.11151774880832e-08,6.50000000000000e-01,0.00000000000000e+00,6.50005096421458e-01
5.49151774880832e-08,6.50000000000000e-01,0.00000000000000e+00,6.49995120264891e-01
5.51000000000000e-08,6.50000000000000e-01,0.00000000000000e+00,6.50001805759698e-01
5.51100000000000e-08,5.85000000000023e-01,0.00000000000000e+00,6.49943685857985e-01
5.51300000000000e-08,4.55000000000005e-01,0.00000000000000e+00,6.49887212238105e-01
5.51700000000000e-08,1.95000000000011e-01,0.00000000000000e+00,6.50623194960684e-01
5.52000000000000e-08,0.00000000000000e+00,0.00000000000000e+00,6.52465833102206e-01
5.52080000000000e-08,0.00000000000000e+00,0.00000000000000e+00,6.52921877671055e-01
5.52240000000000e-08,0.00000000000000e+00,0.00000000000000e+00,6.53580053531649e-01
5.52560000000000e-08,0.00000000000000e+00,0.00000000000000e+00,6.54246439999777e-01
5.53200000000000e-08,0.00000000000000e+00,0.00000000000000e+00,6.53548099638617e-01
5.54480000000000e-08,0.00000000000000e+00,0.00000000000000e+00,6.49369165771760e-01
5.56689288563491e-08,0.00000000000000e+00,0.00000000000000e+00,6.49755334385741e-01
5.59785294982990e-08,0.00000000000000e+00,0.00000000000000e+00,6.49734159521816e-01
5.64878056979266e-08,0.00000000000000e+00,0.00000000000000e+00,6.49772051724514e-01
5.72916293448257e-08,0.00000000000000e+00,0.00000000000000e+00,6.49892091511353e-01
5.88992766386239e-08,0.00000000000000e+00,0.00000000000000e+00,6.49836773233013e-01
6.19174681089652e-08,0.00000000000000e+00,0.00000000000000e+00,6.49977462773752e-01
6.50000000000000e-08,0.00000000000000e+00,0.00000000000000e+00,6.49864524796285e-01
6.50100000000000e-08,6.49999999999877e-02,0.00000000000000e+00,6.49964158601157e-01
6.50300000000000e-08,1.94999999999963e-01,0.00000000000000e+00,6.50051635453356e-01
6.50700000000000e-08,4.54999999999914e-01,0.00000000000000e+00,6.49951977827525e-01
6.51000000000000e-08,6.49999999999963e-01,0.00000000000000e+00,6.49784519651102e-01
6.51080000000000e-08,6.50000000000000e-01,0.00000000000000e+00,6.49739788594912e-01
6.51240000000000e-08,6.50000000000000e-01,0.00000000000000e+00,6.49680382376609e-01
6.51560000000000e-08,6.50000000000000e-01,0.00000000000000e+00,6.49719378091444e-01
6.52200000000000e-08,6.50000000000000e-01,0.00000000000000e+00,6.50837910620433e-01
6.53480000000000e-08,6.50000000000000e-01,0.00000000000000e+00,6.64151202827930e-01
6.56040000000000e-08,6.50000000000000e-01,0.00000000000000e+00,1.77983967098908e-01
6.59266279053201e-08,6.50000000000000e-01,0.00000000000000e+00,-7.14122081421446e-02
6.63802338171689e-08,6.50000000000000e-01,0.00000000000000e+00,6.01025997937077e-02
6.70856849215916e-08,6.50000000000000e-01,0.00000000000000e+00,-4.31817087890768e-02
6.79642921426180e-08,6.50000000000000e-01,0.00000000000000e+00,4.03682818568053e-02
6.96318872618889e-08,6.50000000000000e-01,0.00000000000000e+00,-3.40767512051405e-02
7.20785317081242e-08,6.50000000000000e-01,0.00000000000000e+00,3.47483751046827e-02
7.51000000000000e-08,6.50000000000000e-01,0.00000000000000e+00,-3.08208212868172e-02
7.51100000000000e-08,5.85000000000066e-01,0.00000000000000e+00,-2.36439114243799e-02
7.51300000000000e-08,4.55000000000091e-01,0.00000000000000e+00,-1.27302246139538e-02
7.51700000000000e-08,1.95000000000140e-01,0.00000000000000e+00,-3.30753952680635e-03
7.52000000000000e-08,9.09272657168003e-14,0.00000000000000e+00,-1.07605523101662e-03
7.52080000000000e-08,0.00000000000000e+00,0.00000000000000e+00,-7.50009097088111e-04
7.52240000000000e-08,0.00000000000000e+00,0.00000000000000e+00,-3.22919447620792e-04
7.52560000000000e-08,0.00000000000000e+00,0.00000000000000e+00,-4.37650667751158e-04
7.53200000000000e-08,0.00000000000000e+00,0.00000000000000e+00,-1.53887252218826e-03
7.54480000000000e-08,0.00000000000000e+00,0.00000000000000e+00,-3.46154972361332e-04
7.56538492171484e-08,0.00000000000000e+00,0.00000000000000e+00,3.70123842239006e-04
7.60290965990197e-08,0.00000000000000e+00,0.00000000000000e+00,-3.34159492958239e-04
7.65394397949100e-08,0.00000000000000e+00,0.00000000000000e+00,3.12292033294149e-04
7.75601261866907e-08,0.00000000000000e+00,0.00000000000000e+00,-2.93413436350225e-04
7.96014989702519e-08,0.00000000000000e+00,0.00000000000000e+00,2.89387431992647e-04
8.34014989702519e-08,0.00000000000000e+00,0.00000000000000e+00,-2.81653537079344e-04
8.50000000000000e-08,0.00000000000000e+00,0.00000000000000e+00,2.75469924183977e-04
8.50100000000000e-08,6.49999999999877e-02,0.00000000000000e+00,2.44226501840285e-04
8.50300000000000e-08,1.94999999999963e-01,0.00000000000000e+00,2.02356427522338e-04
8.50700000000000e-08,4.54999999999914e-01,0.00000000000000e+00,7.00492002541075e-05
8.51000000000000e-08,6.49999999999963e-01,0.00000000000000e+00,-1.51441666087881e-04
8.51080000000000e-08,6.50000000000000e-01,0.00000000000000e+00,-2.11058946239497e-04
8.51240000000000e-08,6.50000000000000e-01,0.00000000000000e+00,-2.67819041098752e-04
8.51560000000000e-08,6.50000000000000e-01,0.00000000000000e+00,-2.13157796055685e-04
8.52200000000000e-08,6.50000000000000e-01,0.00000000000000e+00,-6.39338366061268e-05
8.53480000000000e-08,6.50000000000000e-01,0.00000000000000e+00,8.70192246519470e-05
8.56040000000000e-08,6.50000000000000e-01,0.00000000000000e+00,1.03700622016041e-05
8.61159999999999e-08,6.50000000000000e-01,0.00000000000000e+00,-4.92066675576892e-06
8.68010997622186e-08,6.50000000000000e-01,0.00000000000000e+00,1.75610665764945e-05
8.81712992866559e-08,6.50000000000000e-01,0.00000000000000e+00,-9.01686322430468e-06
9.00000000000000e-08,6.50000000000000e-01,0.00000000000000e+00,1.64580769684616e-05
9.00100000000000e-08,6.50000000000000e-01,6.49999999999877e-02,9.91049978047581e-06
9.00300000000000e-08,6.50000000000000e-01,1.94999999999963e-01,3.08127044167106e-06
9.00700000000000e-08,6.50000000000000e-01,4.54999999999914e-01,3.72472159157478e-08
9.01000000000000e-08,6.50000000000000e-01,6.49999999999963e-01,-1.68383104655334e-06
9.01080000000000e-08,6.50000000000000e-01,6.50000000000000e-01,-1.37482553628360e-06
9.01240000000000e-08,6.50000000000000e-01,6.50000000000000e-01,-1.89836356745410e-07
9.01560000000000e-08,6.50000000000000e-01,6.50000000000000e-01,2.19133853727321e-06
9.02200000000000e-08,6.50000000000000e-01,6.50000000000000e-01,6.41121512131443e-06
9.03480000000000e-08,6.50000000000000e-01,6.50000000000000e-01,7.38025826344663e-07
9.06040000000000e-08,6.50000000000000e-01,6.50000000000000e-01,4.75626040400898e-06
9.11159999999999e-08,6.50000000000000e-01,6.50000000000000e-01,1.75386361326527e-06
9.21399999999999e-08,6.50000000000000e-01,6.50000000000000e-01,4.06347853425595e-06
9.41879999999998e-08,6.50000000000000e-01,6.50000000000000e-01,1.46077412329238e-06
9.51000000000000e-08,6.50000000000000e-01,6.50000000000000e-01,3.54897653925650e-06
9.51100000000000e-08,5.85000000000066e-01,6.50000000000000e-01,-5.13541762595660e-05
9.51300000000000e-08,4.55000000000091e-01,6.50000000000000e-01,-1.23251754552717e-04
9.51700000000000e-08,1.95000000000140e-01,6.50000000000000e-01,-5.27320068445802e-05
9.52000000000000e-08,9.09272657168003e-14,6.50000000000000e-01,1.92860117644210e-04
9.52080000000000e-08,0.00000000000000e+00,6.50000000000000e-01,2.92775949794349e-04
9.52240000000000e-08,0.00000000000000e+00,6.50000000000000e-01,3.70975635676306e-04
9.52560000000000e-08,0.00000000000000e+00,6.50000000000000e-01,1.58396922785346e-04
9.53200000000000e-08,0.00000000000000e+00,6.50000000000000e-01,-2.33931936920839e-04
9.54480000000000e-08,0.00000000000000e+00,6.50000000000000e-01,-9.75138021934024e-05
9.57040000000000e-08,0.00000000000000e+00,6.50000000000000e-01,-1.37721523530256e-04
9.60557202588860e-08,0.00000000000000e+00,6.50000000000000e-01,1.59532421309311e-04
9.66700683626208e-08,0.00000000000000e+00,6.50000000000000e-01,-2.87784875477037e-05
9.74927671563627e-08,0.00000000000000e+00,6.50000000000000e-01,-2.99181551981463e-05
9.89290826414854e-08,0.00000000000000e+00,6.50000000000000e-01,5.89845405016051e-05
1.01801713611731e-07,0.00000000000000e+00,6.50000000000000e-01,-6.69954812020017e-05
1.05000000000000e-07,0.00000000000000e+00,6.50000000000000e-01,7.85867447642783e-05
1.05010000000000e-07,6.49999999999877e-02,6.50000000000000e-01,1.34525737329631e-04
1.05030000000000e-07,1.94999999999963e-01,6.50000000000000e-01,2.15309067297977e-04
1.05070000000000e-07,4.54999999999914e-01,6.50000000000000e-01,2.76543913130964e-04
1.05100000000000e-07,6.49999999999963e-01,6.50000000000000e-01,-8.99676699443790e-04
1.05108000000000e-07,6.50000000000000e-01,6.50000000000000e-01,-1.63931335393145e-03
1.05124000000000e-07,6.50000000000000e-01,6.50000000000000e-01,-3.09300875339823e-03
1.05156000000000e-07,6.50000000000000e-01,6.50000000000000e-01,-5.17969404575554e-03
1.05220000000000e-07,6.50000000000000e-01,6.50000000000000e-01,6.25466672269888e-03
1.05348000000000e-07,6.50000000000000e-01,6.50000000000000e-01,3.07450931404077e-01
1.05604000000000e-07,6.50000000000000e-01,6.50000000000000e-01,6.64423274407436e-01
1.05961556604359e-07,6.50000000000000e-01,6.50000000000000e-01,6.39290794731859e-01
1.06572992960617e-07,6.50000000000000e-01,6.50000000000000e-01,6.60873564872228e-01
1.07361085331261e-07,6.50000000000000e-01,6.50000000000000e-01,6.39953551882971e-01
1.08559545843679e-07,6.50000000000000e-01,6.50000000000000e-01,6.59944869916136e-01
1.10956466868513e-07,6.50000000000000e-01,6.50000000000000e-01,6.40371187142387e-01
1.14756466868513e-07,6.50000000000000e-01,6.50000000000000e-01,6.59662631509230e-01
1.15100000000000e-07,6.50000000000000e-01,6.50000000000000e-01,6.41483186781686e-01
1.15110000000000e-07,5.85000000000066e-01,6.50000000000000e-01,6.45364932108200e-01
1.15130000000000e-07,4.55000000000091e-01,6.50000000000000e-01,6.49549571126201e-01
1.15170000000000e-07,1.95000000000140e-01,6.50000000000000e-01,6.50743787833842e-01
1.15200000000000e-07,9.09272657168003e-14,6.50000000000000e-01,6.52361919720674e-01
1.15208000000000e-07,0.00000000000000e+00,6.50000000000000e-01,6.52692478140212e-01
1.15224000000000e-07,0.00000000000000e+00,6.50000000000000e-01,6.52650775916549e-01
1.15256000000000e-07,0.00000000000000e+00,6.50000000000000e-01,6.47212709528344e-01
1.15320000000000e-07,0.00000000000000e+00,6.50000000000000e-01,6.28982730377870e-01
1.15448000000000e-07,0.00000000000000e+00,6.50000000000000e-01,6.35760889598892e-01
1.15704000000000e-07,0.00000000000000e+00,6.50000000000000e-01,6.54789219209009e-01
1.16074005689879e-07,0.00000000000000e+00,6.50000000000000e-01,6.45326066729463e-01
1.16734028634804e-07,0.00000000000000e+00,6.50000000000000e-01,6.53373910313468e-01
1.18054074524653e-07,0.00000000000000e+00,6.50000000000000e-01,6.46460324952824e-01
1.20694166304352e-07,0.00000000000000e+00,6.50000000000000e-01,6.53151360886641e-01
1.24494166304352e-07,0.00000000000000e+00,6.50000000000000e-01,6.46738224015701e-01
1.25000000000000e-07,0.00000000000000e+00,6.50000000000000e-01,6.52560692488425e-01
1.25010000000000e-07,6.49999999999017e-02,6.50000000000000e-01,6.51799454789458e-01
1.25030000000000e-07,1.94999999999877e-01,6.50000000000000e-01,6.50741371202710e-01
1.25070000000000e-07,4.54999999999828e-01,6.50000000000000e-01,6.50063369876056e-01
1.25100000000000e-07,6.49999999999877e-01,6.50000000000000e-01,6.49300423078205e-01
1.25108000000000e-07,6.50000000000000e-01,5.97999999999941e-01,6.48901553351277e-01
1.25124000000000e-07,6.50000000000000e-01,4.93999999999995e-01,6.48188292255015e-01
1.25156000000000e-07,6.50000000000000e-01,2.85999999999931e-01,6.47323557335923e-01
1.25200000000000e-07,6.50000000000000e-01,0.00000000000000e+00,6.46846342633404e-01
1.25206400000000e-07,6.50000000000000e-01,0.00000000000000e+00,6.46847730295685e-01
1.25219200000000e-07,6.50000000000000e-01,0.00000000000000e+00,6.46883798477245e-01
1.25244800000000e-07,6.50000000000000e-01,0.00000000000000e+00,6.47206989141069e-01
1.25296000000000e-07,6.50000000000000e-01,0.00000000000000e+00,6.48205177826174e-01
1.25398400000000e-07,6.50000000000000e-01,0.00000000000000e+00,6.49472396071036e-01
1.25577200605830e-07,6.50000000000000e-01,0.00000000000000e+00,6.49965307186437e-01
1.25931141716203e-07,6.50000000000000e-01,0.00000000000000e+00,6.50015154123579e-01
1.26276744100335e-07,6.50000000000000e-01,0.00000000000000e+00,6.49992043129381e-01
1.26967948868599e-07,6.50000000000000e-01,0.00000000000000e+00,6.50006153529702e-01
1.28350358405127e-07,6.50000000000000e-01,0.00000000000000e+00,6.49994581857127e-01
1.31115177478184e-07,6.50000000000000e-01,0.00000000000000e+00,6.50005096421155e-01
1.34915177478184e-07,6.50000000000000e-01,0.00000000000000e+00,6.49995120265124e-01
1.35100000000000e-07,6.49999999999882e-01,0.00000000000000e+00,6.50001805759503e-01
1.35110000000000e-07,5.84999999999808e-01,0.00000000000000e+00,6.49943685857973e-01
1.35130000000000e-07,4.54999999999833e-01,0.00000000000000e+00,6.49887212238068e-01
1.35170000000000e-07,1.94999999999882e-01,0.00000000000000e+00,6.50623194956278e-01
1.35200000000000e-07,0.00000000000000e+00,0.00000000000000e+00,6.52465833102567e-01
1.35208000000000e-07,0.00000000000000e+00,0.00000000000000e+00,6.52921877670840e-01
