Time,v(clk),v(data),v(out)
1.00000000000000e-08,5.75000000000000e-01,0.00000000000000e+00,1.47028825076712e-05
1.00100000000000e-08,5.75000000000000e-01,5.74999999999986e-02,1.94594982143650e-05
1.00300000000000e-08,5.75000000000000e-01,1.72499999999996e-01,2.17813046912985e-05
1.00700000000000e-08,5.75000000000000e-01,4.02499999999990e-01,1.63521665219601e-05
1.01000000000000e-08,5.75000000000000e-01,5.74999999999996e-01,1.39918009649728e-05
1.01080000000000e-08,5.75000000000000e-01,5.75000000000000e-01,1.31870602545145e-05
1.01240000000000e-08,5.75000000000000e-01,5.75000000000000e-01,1.37304428061702e-05
1.01560000000000e-08,5.75000000000000e-01,5.75000000000000e-01,1.65456366885836e-05
1.02200000000000e-08,5.75000000000000e-01,5.75000000000000e-01,1.68792399520001e-05
1.03480000000000e-08,5.75000000000000e-01,5.75000000000000e-01,1.34404719452849e-05
1.06040000000000e-08,5.75000000000000e-01,5.75000000000000e-01,1.29436312837281e-05
1.11160000000000e-08,5.75000000000000e-01,5.75000000000000e-01,1.40600322770766e-05
1.21400000000000e-08,5.75000000000000e-01,5.75000000000000e-01,1.23225944518414e-05
1.41880000000000e-08,5.75000000000000e-01,5.75000000000000e-01,1.31716152995121e-05
1.51000000000000e-08,5.75000000000000e-01,5.75000000000000e-01,1.16618448481676e-05
1.51100000000000e-08,5.17499999999992e-01,5.75000000000000e-01,-6.97086453595036e-05
1.51300000000000e-08,4.02499999999995e-01,5.75000000000000e-01,-1.83892122935646e-04
1.51700000000000e-08,1.72500000000000e-01,5.75000000000000e-01,-1.25984032403673e-04
1.52000000000000e-08,0.00000000000000e+00,5.75000000000000e-01,2.48871092624545e-04
1.52080000000000e-08,0.00000000000000e+00,5.75000000000000e-01,4.22086939275521e-04
1.52240000000000e-08,0.00000000000000e+00,5.75000000000000e-01,6.08094667638531e-04
1.52560000000000e-08,0.00000000000000e+00,5.75000000000000e-01,4.64041344361260e-04
1.53200000000000e-08,0.00000000000000e+00,5.75000000000000e-01,-1.96638182933327e-04
1.54480000000000e-08,0.00000000000000e+00,5.75000000000000e-01,-3.73671290659683e-04
1.57040000000000e-08,0.00000000000000e+00,5.75000000000000e-01,1.25543775625493e-04
1.60794015738500e-08,0.00000000000000e+00,5.75000000000000e-01,-1.36192739932584e-04
1.66342122442636e-08,0.00000000000000e+00,5.75000000000000e-01,2.52120818966937e-04
1.77438335850908e-08,0.00000000000000e+00,5.75000000000000e-01,-2.38435982190022e-04
1.88816703083255e-08,0.00000000000000e+00,5.75000000000000e-01,2.55618501188277e-04
2.11573437547950e-08,0.00000000000000e+00,5.75000000000000e-01,-2.28789350649889e-04
2.49573437547950e-08,0.00000000000000e+00,5.75000000000000e-01,2.46190364657853e-04
2.50000000000000e-08,0.00000000000000e+00,5.75000000000000e-01,8.73261740830106e-05
2.50100000000000e-08,5.74999999999891e-02,5.75000000000000e-01,2.06459908279860e-04
2.50300000000000e-08,1.72500000000005e-01,5.75000000000000e-01,3.91921572921700e-04
2.50700000000000e-08,4.02500000000000e-01,5.75000000000000e-01,5.82296401324907e-04
2.51000000000000e-08,5.75000000000000e-01,5.75000000000000e-01,2.12593342954565e-04
2.51080000000000e-08,5.75000000000000e-01,5.75000000000000e-01,-1.84430153822329e-04
2.51240000000000e-08,5.75000000000000e-01,5.75000000000000e-01,-1.08133254265488e-03
2.51560000000000e-08,5.75000000000000e-01,5.75000000000000e-01,-2.93399691951440e-03
2.52200000000000e-08,5.75000000000000e-01,5.75000000000000e-01,-5.13156193866831e-03
2.53480000000000e-08,5.75000000000000e-01,5.75000000000000e-01,2.50592927514494e-02
2.56040000000000e-08,5.75000000000000e-01,5.75000000000000e-01,4.56288479456781e-01
2.61160000000000e-08,5.75000000000000e-01,5.75000000000000e-01,5.96732271582725e-01
2.66451043504637e-08,5.75000000000000e-01,5.75000000000000e-01,5.54525076047962e-01
2.77033130513911e-08,5.75000000000000e-01,5.75000000000000e-01,5.93595221128867e-01
2.92888895253551e-08,5.75000000000000e-01,5.75000000000000e-01,5.55999346823383e-01
3.01000000000000e-08,5.75000000000000e-01,5.75000000000000e-01,5.91894561063074e-01
3.01100000000000e-08,5.75000000000000e-01,5.17500000000030e-01,5.84210461090877e-01
3.01300000000000e-08,5.75000000000000e-01,4.02500000000014e-01,5.75849055333972e-01
3.01700000000000e-08,5.75000000000000e-01,1.72500000000019e-01,5.74735033590154e-01
3.02000000000000e-08,5.75000000000000e-01,1.38777878078145e-14,5.74970709534500e-01
3.02080000000000e-08,5.75000000000000e-01,0.00000000000000e+00,5.74961231311497e-01
3.02240000000000e-08,5.75000000000000e-01,0.00000000000000e+00,5.74944010883010e-01
3.02560000000000e-08,5.75000000000000e-01,0.00000000000000e+00,5.74933928640958e-01
3.03200000000000e-08,5.75000000000000e-01,0.00000000000000e+00,5.74947807508007e-01
3.04480000000000e-08,5.75000000000000e-01,0.00000000000000e+00,5.74977243116675e-01
3.06870308494136e-08,5.75000000000000e-01,0.00000000000000e+00,5.74971556551525e-01
3.10686611996232e-08,5.75000000000000e-01,0.00000000000000e+00,5.74963768664720e-01
3.16122032831520e-08,5.75000000000000e-01,0.00000000000000e+00,5.74980637358349e-01
3.26992874502094e-08,5.75000000000000e-01,0.00000000000000e+00,5.74966449209004e-01
3.48734557843243e-08,5.75000000000000e-01,0.00000000000000e+00,5.74987729571882e-01
3.51000000000000e-08,5.74999999999972e-01,0.00000000000000e+00,5.74969796460729e-01
3.51100000000000e-08,5.17499999999982e-01,0.00000000000000e+00,5.74906577981121e-01
3.51300000000000e-08,4.02499999999966e-01,0.00000000000000e+00,5.74832110929540e-01
3.51700000000000e-08,1.72499999999972e-01,0.00000000000000e+00,5.75568608602540e-01
3.52000000000000e-08,0.00000000000000e+00,0.00000000000000e+00,5.77675209814979e-01
3.52080000000000e-08,0.00000000000000e+00,0.00000000000000e+00,5.78207540241815e-01
3.52240000000000e-08,0.00000000000000e+00,0.00000000000000e+00,5.78738282258298e-01
3.52560000000000e-08,0.00000000000000e+00,0.00000000000000e+00,5.76737873946338e-01
3.53200000000000e-08,0.00000000000000e+00,0.00000000000000e+00,5.64145241042832e-01
3.54480000000000e-08,0.00000000000000e+00,0.00000000000000e+00,5.62066665636986e-01
3.56849709190820e-08,0.00000000000000e+00,0.00000000000000e+00,5.77481568063779e-01
3.60201128168124e-08,0.00000000000000e+00,0.00000000000000e+00,5.71877551004014e-01
3.66852020861642e-08,0.00000000000000e+00,0.00000000000000e+00,5.76884430448167e-01
3.74559070258255e-08,0.00000000000000e+00,0.00000000000000e+00,5.72865049140571e-01
3.89973169051482e-08,0.00000000000000e+00,0.00000000000000e+00,5.76650964845326e-01
3.91000000000000e-08,0.00000000000000e+00,0.00000000000000e+00,5.74234740250056e-01
3.93053661897036e-08,0.00000000000000e+00,0.00000000000000e+00,5.74793635506637e-01
3.97160985691107e-08,0.00000000000000e+00,0.00000000000000e+00,5.74928334685144e-01
4.05375633279249e-08,0.00000000000000e+00,0.00000000000000e+00,5.74832795805541e-01
4.21804928455534e-08,0.00000000000000e+00,0.00000000000000e+00,5.74942365016326e-01
4.50000000000000e-08,0.00000000000000e+00,0.00000000000000e+00,5.74859766555789e-01
4.50100000000000e-08,5.74999999999891e-02,0.00000000000000e+00,5.74940074405468e-01
4.50300000000000e-08,1.72500000000005e-01,0.00000000000000e+00,5.75016547557607e-01
4.50700000000000e-08,4.02500000000000e-01,0.00000000000000e+00,5.74959843835986e-01
4.51000000000000e-08,5.75000000000000e-01,0.00000000000000e+00,5.74844262089195e-01
4.51080000000000e-08,5.75000000000000e-01,0.00000000000000e+00,5.74773134702463e-01
4.51240000000000e-08,5.75000000000000e-01,0.00000000000000e+00,5.74691699662921e-01
4.51560000000000e-08,5.75000000000000e-01,0.00000000000000e+00,5.74673061993079e-01
4.52200000000000e-08,5.75000000000000e-01,0.00000000000000e+00,5.74785761030090e-01
4.53480000000000e-08,5.75000000000000e-01,0.00000000000000e+00,5.76531900142647e-01
4.56040000000000e-08,5.75000000000000e-01,0.00000000000000e+00,4.33647251456297e-01
4.61160000000000e-08,5.75000000000000e-01,0.00000000000000e+00,-2.50720251521370e-03
4.66445155108071e-08,5.75000000000000e-01,0.00000000000000e+00,8.20652277002024e-04
4.77015465324212e-08,5.75000000000000e-01,0.00000000000000e+00,9.53831879707672e-04
4.89358670537696e-08,5.75000000000000e-01,0.00000000000000e+00,-8.42838809165179e-04
5.00000000000000e-08,5.75000000000000e-01,0.00000000000000e+00,2.04451009637410e-03
5.00100000000000e-08,5.75000000000000e-01,5.74999999999891e-02,9.24933054910759e-05
5.00300000000000e-08,5.75000000000000e-01,1.72499999999967e-01,-1.50561079441545e-03
5.00700000000000e-08,5.75000000000000e-01,4.02500000000000e-01,-7.38452276413594e-04
5.01000000000000e-08,5.75000000000000e-01,5.75000000000000e-01,-4.92633479748913e-04
5.01080000000000e-08,5.75000000000000e-01,5.75000000000000e-01,-4.12290821318440e-04
5.01240000000000e-08,5.75000000000000e-01,5.75000000000000e-01,-2.92036621567557e-04
5.01560000000000e-08,5.75000000000000e-01,5.75000000000000e-01,-1.57672220123507e-04
5.02200000000000e-08,5.75000000000000e-01,5.75000000000000e-01,-3.84769966505008e-05
5.03480000000000e-08,5.75000000000000e-01,5.75000000000000e-01,1.81894980487290e-05
5.06040000000000e-08,5.75000000000000e-01,5.75000000000000e-01,4.85037583814255e-06
5.11160000000001e-08,5.75000000000000e-01,5.75000000000000e-01,1.01729299514571e-05
5.21400000000002e-08,5.75000000000000e-01,5.75000000000000e-01,6.77677484753423e-06
5.41880000000003e-08,5.75000000000000e-01,5.75000000000000e-01,9.43492244256938e-06
5.51000000000000e-08,5.75000000000000e-01,5.75000000000000e-01,7.98007227283994e-06
5.51100000000000e-08,5.17500000000020e-01,5.75000000000000e-01,-7.31302234478204e-05
5.51300000000000e-08,4.02500000000004e-01,5.75000000000000e-01,-1.86855528260199e-04
5.51700000000000e-08,1.72500000000010e-01,5.75000000000000e-01,-1.17664504587223e-04
5.52000000000000e-08,0.00000000000000e+00,5.75000000000000e-01,2.44897043625666e-04
5.52080000000000e-08,0.00000000000000e+00,5.75000000000000e-01,4.14330808248722e-04
5.52240000000000e-08,0.00000000000000e+00,5.75000000000000e-01,5.81675549182883e-04
5.52560000000000e-08,0.00000000000000e+00,5.75000000000000e-01,3.23022650543139e-04
5.53200000000000e-08,0.00000000000000e+00,5.75000000000000e-01,-9.49833369901697e-04
5.54480000000000e-08,0.00000000000000e+00,5.75000000000000e-01,-9.15750994099372e-04
5.57040000000000e-08,0.00000000000000e+00,5.75000000000000e-01,3.96141862715051e-04
5.60783049738757e-08,0.00000000000000e+00,5.75000000000000e-01,-3.17451217013758e-04
5.66337206963874e-08,0.00000000000000e+00,5.75000000000000e-01,3.90429674114835e-04
5.77445521414107e-08,0.00000000000000e+00,5.75000000000000e-01,-3.62919913729957e-04
5.88812698463968e-08,0.00000000000000e+00,5.75000000000000e-01,3.66788619335220e-04
6.11547052563689e-08,0.00000000000000e+00,5.75000000000000e-01,-3.35652713769482e-04
6.49547052563689e-08,0.00000000000000e+00,5.75000000000000e-01,3.49024703919828e-04
6.50000000000000e-08,0.00000000000000e+00,5.75000000000000e-01,6.84417863303644e-05
6.50100000000000e-08,5.74999999999891e-02,5.75000000000000e-01,2.03450386918526e-04
6.50300000000000e-08,1.72499999999967e-01,5.75000000000000e-01,3.97630187500733e-04
6.50700000000000e-08,4.02499999999924e-01,5.75000000000000e-01,5.81111524030536e-04
6.51000000000000e-08,5.74999999999967e-01,5.75000000000000e-01,2.13437782721607e-04
6.51080000000000e-08,5.75000000000000e-01,5.75000000000000e-01,-1.84033061633809e-04
6.51240000000000e-08,5.75000000000000e-01,5.75000000000000e-01,-1.08129990407146e-03
6.51560000000000e-08,5.75000000000000e-01,5.75000000000000e-01,-2.93395692254231e-03
6.52200000000000e-08,5.75000000000000e-01,5.75000000000000e-01,-5.13127131953254e-03
6.53480000000000e-08,5.75000000000000e-01,5.75000000000000e-01,2.50917781511778e-02
6.56040000000000e-08,5.75000000000000e-01,5.75000000000000e-01,4.56336549134712e-01
6.61159999999999e-08,5.75000000000000e-01,5.75000000000000e-01,5.96730132679280e-01
6.66451085273678e-08,5.75000000000000e-01,5.75000000000000e-01,5.54526360831806e-01
6.77033255821034e-08,5.75000000000000e-01,5.75000000000000e-01,5.93593715749437e-01
6.92889938477018e-08,5.75000000000000e-01,5.75000000000000e-01,5.56000649325818e-01
7.01000000000000e-08,5.75000000000000e-01,5.75000000000000e-01,5.91893107570465e-01
7.01100000000000e-08,5.75000000000000e-01,5.17500000000011e-01,5.84209700252761e-01
7.01300000000000e-08,5.75000000000000e-01,4.02500000000033e-01,5.75849005024171e-01
7.01700000000000e-08,5.75000000000000e-01,1.72500000000076e-01,5.74735072560882e-01
7.02000000000000e-08,5.75000000000000e-01,3.28626015289046e-14,5.74970721640110e-01
7.02080000000000e-08,5.75000000000000e-01,0.00000000000000e+00,5.74961246079661e-01
7.02240000000000e-08,5.75000000000000e-01,0.00000000000000e+00,5.74944028451292e-01
7.02560000000000e-08,5.75000000000000e-01,0.00000000000000e+00,5.74933942464637e-01
7.03200000000000e-08,5.75000000000000e-01,0.00000000000000e+00,5.74947809630519e-01
7.04480000000000e-08,5.75000000000000e-01,0.00000000000000e+00,5.74977246973826e-01
7.06870390983416e-08,5.75000000000000e-01,0.00000000000000e+00,5.74971554908238e-01
7.10686657417876e-08,5.75000000000000e-01,0.00000000000000e+00,5.74963770695983e-01
7.16122439418668e-08,5.75000000000000e-01,0.00000000000000e+00,5.74980636753263e-01
7.26994003420253e-08,5.75000000000000e-01,0.00000000000000e+00,5.74966450856220e-01
7.48737131423422e-08,5.75000000000000e-01,0.00000000000000e+00,5.74987729127290e-01
7.51000000000000e-08,5.75000000000000e-01,0.00000000000000e+00,5.74969798837349e-01
7.51100000000000e-08,5.17500000000058e-01,0.00000000000000e+00,5.74906593727104e-01
7.51300000000000e-08,4.02500000000080e-01,0.00000000000000e+00,5.74832135910846e-01
7.51700000000000e-08,1.72500000000124e-01,0.00000000000000e+00,5.75568612711680e-01
7.52000000000000e-08,8.04911692853238e-14,0.00000000000000e+00,5.77675212917235e-01
7.52080000000000e-08,0.00000000000000e+00,0.00000000000000e+00,5.78207551766216e-01
7.52240000000000e-08,0.00000000000000e+00,0.00000000000000e+00,5.78738304669864e-01
7.52560000000000e-08,0.00000000000000e+00,0.00000000000000e+00,5.76737904181295e-01
7.53200000000000e-08,0.00000000000000e+00,0.00000000000000e+00,5.64145245406775e-01
7.54480000000000e-08,0.00000000000000e+00,0.00000000000000e+00,5.62066623914704e-01
7.56849708342754e-08,0.00000000000000e+00,0.00000000000000e+00,5.77481573291752e-01
7.60201127517745e-08,0.00000000000000e+00,0.00000000000000e+00,5.71877546513069e-01
7.66852018807870e-08,0.00000000000000e+00,0.00000000000000e+00,5.76884434142790e-01
7.74559067999030e-08,0.00000000000000e+00,0.00000000000000e+00,5.72865045759489e-01
7.81000000000000e-08,0.00000000000000e+00,0.00000000000000e+00,5.76464808006865e-01
7.82541409838232e-08,0.00000000000000e+00,0.00000000000000e+00,5.75055963754945e-01
7.85624229514696e-08,0.00000000000000e+00,0.00000000000000e+00,5.74684831385572e-01
7.91789868867624e-08,0.00000000000000e+00,0.00000000000000e+00,5.74994451094783e-01
8.04121147573480e-08,0.00000000000000e+00,0.00000000000000e+00,5.74756772735633e-01
8.28783704985191e-08,0.00000000000000e+00,0.00000000000000e+00,5.75016669524329e-01
8.50000000000000e-08,0.00000000000000e+00,0.00000000000000e+00,5.74792324381432e-01
8.50100000000000e-08,5.74999999999891e-02,0.00000000000000e+00,5.74893717941206e-01
8.50300000000000e-08,1.72499999999967e-01,0.00000000000000e+00,5.74998392605341e-01
8.50700000000000e-08,4.02499999999924e-01,0.00000000000000e+00,5.74958925349997e-01
8.51000000000000e-08,5.74999999999967e-01,0.00000000000000e+00,5.74841278455488e-01
8.51080000000000e-08,5.75000000000000e-01,0.00000000000000e+00,5.74779519427572e-01
8.51240000000000e-08,5.75000000000000e-01,0.00000000000000e+00,5.74684054882435e-01
8.51560000000000e-08,5.75000000000000e-01,0.00000000000000e+00,5.74670507741047e-01
8.52200000000000e-08,5.75000000000000e-01,0.00000000000000e+00,5.74790018882938e-01
8.53480000000000e-08,5.75000000000000e-01,0.00000000000000e+00,5.76524484366278e-01
8.56040000000000e-08,5.75000000000000e-01,0.00000000000000e+00,4.33561936162501e-01
8.61159999999999e-08,5.75000000000000e-01,0.00000000000000e+00,-2.55376487695140e-03
8.66444244223189e-08,5.75000000000000e-01,0.00000000000000e+00,8.52650008716658e-04
8.77012732669568e-08,5.75000000000000e-01,0.00000000000000e+00,9.28753691783891e-04
8.89354237189728e-08,5.75000000000000e-01,0.00000000000000e+00,-8.21349046246198e-04
9.00000000000000e-08,5.75000000000000e-01,0.00000000000000e+00,2.02684774481743e-03
9.00100000000000e-08,5.75000000000000e-01,5.74999999999891e-02,7.82426509670087e-05
9.00300000000000e-08,5.75000000000000e-01,1.72499999999967e-01,-1.51482135554944e-03
9.00700000000000e-08,5.75000000000000e-01,4.02499999999924e-01,-7.42809304456866e-04
9.01000000000000e-08,5.75000000000000e-01,5.74999999999967e-01,-4.95133845973071e-04
9.01080000000000e-08,5.75000000000000e-01,5.75000000000000e-01,-4.14490226784983e-04
9.01240000000000e-08,5.75000000000000e-01,5.75000000000000e-01,-2.93686747684263e-04
9.01560000000000e-08,5.75000000000000e-01,5.75000000000000e-01,-1.58561663251899e-04
9.02200000000000e-08,5.75000000000000e-01,5.75000000000000e-01,-3.87226460654283e-05
9.03480000000000e-08,5.75000000000000e-01,5.75000000000000e-01,1.81912967920431e-05
9.06040000000000e-08,5.75000000000000e-01,5.75000000000000e-01,4.84877999287064e-06
9.11159999999999e-08,5.75000000000000e-01,5.75000000000000e-01,1.01733229016729e-05
9.21399999999999e-08,5.75000000000000e-01,5.75000000000000e-01,6.77550657432555e-06
9.41879999999998e-08,5.75000000000000e-01,5.75000000000000e-01,9.43525379119457e-06
9.51000000000000e-08,5.75000000000000e-01,5.75000000000000e-01,7.97897922989559e-06
9.51100000000000e-08,5.17500000000058e-01,5.75000000000000e-01,-7.31305896782275e-05
9.51300000000000e-08,4.02500000000080e-01,5.75000000000000e-01,-1.86855153020644e-04
9.51700000000000e-08,1.72500000000124e-01,5.75000000000000e-01,-1.17664182496577e-04
9.52000000000000e-08,8.04911692853238e-14,5.75000000000000e-01,2.44896428151682e-04
9.52080000000000e-08,0.00000000000000e+00,5.75000000000000e-01,4.14329525461485e-04
9.52240000000000e-08,0.00000000000000e+00,5.75000000000000e-01,5.81671153993296e-04
9.52560000000000e-08,0.00000000000000e+00,5.75000000000000e-01,3.23002287663993e-04
9.53200000000000e-08,0.00000000000000e+00,5.75000000000000e-01,-9.49949594958463e-04
9.54480000000000e-08,0.00000000000000e+00,5.75000000000000e-01,-9.15856280254569e-04
9.57040000000000e-08,0.00000000000000e+00,5.75000000000000e-01,3.96179885948943e-04
9.60783047711579e-08,0.00000000000000e+00,5.75000000000000e-01,-3.17471355555411e-04
9.66337206014120e-08,0.00000000000000e+00,5.75000000000000e-01,3.90443141023928e-04
9.77445522619203e-08,0.00000000000000e+00,5.75000000000000e-01,-3.62931298513664e-04
9.88812697602109e-08,0.00000000000000e+00,5.75000000000000e-01,3.66798242297064e-04
1.01154704756792e-07,0.00000000000000e+00,5.75000000000000e-01,-3.35661690068018e-04
1.04954704756792e-07,0.00000000000000e+00,5.75000000000000e-01,3.49033254943278e-04
1.05000000000000e-07,0.00000000000000e+00,5.75000000000000e-01,6.84390162000170e-05
1.05010000000000e-07,5.74999999999891e-02,5.75000000000000e-01,2.03450089494933e-04
1.05030000000000e-07,1.72499999999967e-01,5.75000000000000e-01,3.97631405953475e-04
1.05070000000000e-07,4.02499999999924e-01,5.75000000000000e-01,5.81111817491986e-04
1.05100000000000e-07,5.74999999999967e-01,5.75000000000000e-01,2.13438255778284e-04
1.05108000000000e-07,5.75000000000000e-01,5.75000000000000e-01,-1.84032681399229e-04
1.05124000000000e-07,5.75000000000000e-01,5.75000000000000e-01,-1.08129963553601e-03
1.05156000000000e-07,5.75000000000000e-01,5.75000000000000e-01,-2.93395675411007e-03
1.05220000000000e-07,5.75000000000000e-01,5.75000000000000e-01,-5.13127120978778e-03
1.05348000000000e-07,5.75000000000000e-01,5.75000000000000e-01,2.50917841779987e-02
1.05604000000000e-07,5.75000000000000e-01,5.75000000000000e-01,4.56336559037664e-01
1.06116000000000e-07,5.75000000000000e-01,5.75000000000000e-01,5.96730132353342e-01
1.06645108527168e-07,5.75000000000000e-01,5.75000000000000e-01,5.54526360940450e-01
1.07703325581503e-07,5.75000000000000e-01,5.75000000000000e-01,5.93593715545835e-01
