Time,v(clk),v(data),v(out),v(reset)
1.67772160000000e-09,0.00000000000000e+00,0.00000000000000e+00,6.86654994956348e-05,6.00000000000000e-01
3.35544320000000e-09,0.00000000000000e+00,0.00000000000000e+00,6.87252364618904e-05,6.00000000000000e-01
5.00000000000000e-09,0.00000000000000e+00,0.00000000000000e+00,6.88592459680386e-05,6.00000000000000e-01
5.01000000000000e-09,5.99999999999986e-02,0.00000000000000e+00,1.21004696120211e-04,5.40000000000002e-01
5.03000000000000e-09,1.80000000000001e-01,0.00000000000000e+00,-5.03850926356450e-04,4.19999999999999e-01
5.07000000000000e-09,4.20000000000000e-01,0.00000000000000e+00,-3.54810281381457e-03,1.80000000000000e-01
5.10000000000000e-09,6.00000000000000e-01,0.00000000000000e+00,-5.93955394268814e-03,0.00000000000000e+00
5.10800000000000e-09,6.00000000000000e-01,0.00000000000000e+00,-5.44021241359520e-03,0.00000000000000e+00
5.12400000000000e-09,6.00000000000000e-01,0.00000000000000e+00,-4.50818699310866e-03,0.00000000000000e+00
5.15600000000000e-09,6.00000000000000e-01,0.00000000000000e+00,-3.12105273803640e-03,0.00000000000000e+00
5.22000000000000e-09,6.00000000000000e-01,0.00000000000000e+00,-1.43374803075517e-03,0.00000000000000e+00
5.34800000000000e-09,6.00000000000000e-01,0.00000000000000e+00,-1.75292885606443e-04,0.00000000000000e+00
5.60400000000000e-09,6.00000000000000e-01,0.00000000000000e+00,-5.84476270123646e-04,0.00000000000000e+00
6.11600000000000e-09,6.00000000000000e-01,0.00000000000000e+00,-1.62825528372007e-03,0.00000000000000e+00
7.02505926832382e-09,6.00000000000000e-01,0.00000000000000e+00,-1.62352529693474e-04,0.00000000000000e+00
8.84317780497147e-09,6.00000000000000e-01,0.00000000000000e+00,8.30302990199299e-04,0.00000000000000e+00
1.00000000000000e-08,6.00000000000000e-01,0.00000000000000e+00,1.59139798574397e-04,0.00000000000000e+00
1.00100000000000e-08,6.00000000000000e-01,5.99999999999986e-02,1.89285108081638e-04,0.00000000000000e+00
1.00300000000000e-08,6.00000000000000e-01,1.79999999999996e-01,2.28500293684861e-04,0.00000000000000e+00
1.00700000000000e-08,6.00000000000000e-01,4.19999999999990e-01,2.62054527760999e-04,0.00000000000000e+00
1.01000000000000e-08,6.00000000000000e-01,5.99999999999995e-01,2.27196494346174e-04,0.00000000000000e+00
1.01080000000000e-08,6.00000000000000e-01,6.00000000000000e-01,2.04963513840528e-04,0.00000000000000e+00
1.01240000000000e-08,6.00000000000000e-01,6.00000000000000e-01,1.72454096443272e-04,0.00000000000000e+00
1.01560000000000e-08,6.00000000000000e-01,6.00000000000000e-01,1.41733287522178e-04,0.00000000000000e+00
1.02200000000000e-08,6.00000000000000e-01,6.00000000000000e-01,1.57591665167600e-04,0.00000000000000e+00
1.03480000000000e-08,6.00000000000000e-01,6.00000000000000e-01,2.27224262815198e-04,0.00000000000000e+00
1.06040000000000e-08,6.00000000000000e-01,6.00000000000000e-01,2.60298882376761e-04,0.00000000000000e+00
1.11160000000000e-08,6.00000000000000e-01,6.00000000000000e-01,2.17209258435373e-04,0.00000000000000e+00
1.21400000000000e-08,6.00000000000000e-01,6.00000000000000e-01,1.84842643700375e-04,0.00000000000000e+00
1.41880000000000e-08,6.00000000000000e-01,6.00000000000000e-01,1.39965241134524e-04,0.00000000000000e+00
1.51000000000000e-08,6.00000000000000e-01,6.00000000000000e-01,1.33132723611852e-04,0.00000000000000e+00
1.51100000000000e-08,5.39999999999992e-01,6.00000000000000e-01,1.18108989688273e-03,6.00000000000085e-02
1.51300000000000e-08,4.19999999999994e-01,6.00000000000000e-01,2.66414470063095e-03,1.80000000000006e-01
1.51700000000000e-08,1.80000000000000e-01,6.00000000000000e-01,3.72579943820917e-03,4.20000000000000e-01
1.52000000000000e-08,0.00000000000000e+00,6.00000000000000e-01,3.08387335190045e-03,6.00000000000000e-01
1.52080000000000e-08,0.00000000000000e+00,6.00000000000000e-01,2.91213065760083e-03,6.00000000000000e-01
1.52240000000000e-08,0.00000000000000e+00,6.00000000000000e-01,2.64375527597827e-03,6.00000000000000e-01
1.52560000000000e-08,0.00000000000000e+00,6.00000000000000e-01,2.41893613619647e-03,6.00000000000000e-01
1.53200000000000e-08,0.00000000000000e+00,6.00000000000000e-01,2.44859767549296e-03,6.00000000000000e-01
1.54480000000000e-08,0.00000000000000e+00,6.00000000000000e-01,2.58988590761995e-03,6.00000000000000e-01
1.57040000000000e-08,0.00000000000000e+00,6.00000000000000e-01,7.82879684217516e-04,6.00000000000000e-01
1.62160000000000e-08,0.00000000000000e+00,6.00000000000000e-01,-1.37336427444964e-03,6.00000000000000e-01
1.69688005616600e-08,0.00000000000000e+00,6.00000000000000e-01,6.93012770445776e-04,6.00000000000000e-01
1.82342605229628e-08,0.00000000000000e+00,6.00000000000000e-01,-7.66805928456821e-04,6.00000000000000e-01
1.98316371116711e-08,0.00000000000000e+00,6.00000000000000e-01,7.37684113719887e-04,6.00000000000000e-01
2.24753065447840e-08,0.00000000000000e+00,6.00000000000000e-01,-3.01153939145433e-04,6.00000000000000e-01
2.50000000000000e-08,0.00000000000000e+00,6.00000000000000e-01,2.41028601941504e-04,6.00000000000000e-01
2.50100000000000e-08,5.99999999999886e-02,6.00000000000000e-01,1.02282740027801e-03,6.00000000000000e-01
2.50300000000000e-08,1.80000000000006e-01,6.00000000000000e-01,2.51488874137311e-03,6.00000000000000e-01
2.50700000000000e-08,4.20000000000000e-01,6.00000000000000e-01,4.99682128972025e-03,6.00000000000000e-01
2.51000000000000e-08,6.00000000000000e-01,6.00000000000000e-01,5.79707587586593e-03,6.00000000000000e-01
2.51080000000000e-08,6.00000000000000e-01,6.00000000000000e-01,5.46684267437797e-03,6.00000000000000e-01
2.51240000000000e-08,6.00000000000000e-01,6.00000000000000e-01,4.82455195160685e-03,6.00000000000000e-01
2.51560000000000e-08,6.00000000000000e-01,6.00000000000000e-01,3.63602727961922e-03,6.00000000000000e-01
2.52200000000000e-08,6.00000000000000e-01,6.00000000000000e-01,1.39796739640641e-03,6.00000000000000e-01
2.53480000000000e-08,6.00000000000000e-01,6.00000000000000e-01,-3.31333361817161e-03,6.00000000000000e-01
2.56040000000000e-08,6.00000000000000e-01,6.00000000000000e-01,-1.09512311156636e-02,6.00000000000000e-01
2.61160000000000e-08,6.00000000000000e-01,6.00000000000000e-01,1.93466145105420e-03,6.00000000000000e-01
2.70548116401360e-08,6.00000000000000e-01,6.00000000000000e-01,4.34795731228307e-01,6.00000000000000e-01
2.84963260845214e-08,6.00000000000000e-01,6.00000000000000e-01,6.19416177261480e-01,6.00000000000000e-01
2.99998809192462e-08,6.00000000000000e-01,6.00000000000000e-01,5.82986946567496e-01,6.00000000000000e-01
3.01000000000000e-08,6.00000000000000e-01,6.00000000000000e-01,5.98657124052312e-01,6.00000000000000e-01
3.01100000000000e-08,6.00000000000000e-01,5.40000000000031e-01,5.98861196577395e-01,6.00000000000000e-01
3.01300000000000e-08,6.00000000000000e-01,4.20000000000014e-01,5.99201547104903e-01,6.00000000000000e-01
3.01700000000000e-08,6.00000000000000e-01,1.80000000000020e-01,5.99719033514687e-01,6.00000000000000e-01
3.02000000000000e-08,6.00000000000000e-01,1.44328993201270e-14,6.00038884583621e-01,6.00000000000000e-01
3.02080000000000e-08,6.00000000000000e-01,0.00000000000000e+00,6.00127254491646e-01,6.00000000000000e-01
3.02240000000000e-08,6.00000000000000e-01,0.00000000000000e+00,6.00291942927529e-01,6.00000000000000e-01
3.02560000000000e-08,6.00000000000000e-01,0.00000000000000e+00,6.00433478989429e-01,6.00000000000000e-01
3.03200000000000e-08,6.00000000000000e-01,0.00000000000000e+00,6.00428343284311e-01,6.00000000000000e-01
3.04480000000000e-08,6.00000000000000e-01,0.00000000000000e+00,6.00214780958099e-01,6.00000000000000e-01
3.07040000000000e-08,6.00000000000000e-01,0.00000000000000e+00,5.99912403372207e-01,6.00000000000000e-01
3.12160000000000e-08,6.00000000000000e-01,0.00000000000000e+00,5.99981923350019e-01,6.00000000000000e-01
3.21116278999005e-08,6.00000000000000e-01,0.00000000000000e+00,6.00063737884414e-01,6.00000000000000e-01
3.32960053487743e-08,6.00000000000000e-01,0.00000000000000e+00,5.99892163052344e-01,6.00000000000000e-01
3.50529992204525e-08,6.00000000000000e-01,0.00000000000000e+00,6.00052363939650e-01,6.00000000000000e-01
3.51000000000000e-08,5.99999999999970e-01,0.00000000000000e+00,6.00014583851947e-01,6.00000000000000e-01
3.51100000000000e-08,5.39999999999982e-01,0.00000000000000e+00,5.99727803051301e-01,6.00000000000000e-01
3.51300000000000e-08,4.19999999999965e-01,0.00000000000000e+00,5.99169395716229e-01,6.00000000000000e-01
3.51700000000000e-08,1.79999999999970e-01,0.00000000000000e+00,5.98904243112663e-01,6.00000000000000e-01
3.52000000000000e-08,0.00000000000000e+00,0.00000000000000e+00,6.00292795245331e-01,6.00000000000000e-01
3.52080000000000e-08,0.00000000000000e+00,0.00000000000000e+00,6.01184572854185e-01,6.00000000000000e-01
3.52240000000000e-08,0.00000000000000e+00,0.00000000000000e+00,6.02705732816434e-01,6.00000000000000e-01
3.52560000000000e-08,0.00000000000000e+00,0.00000000000000e+00,6.04600770153275e-01,6.00000000000000e-01
3.53200000000000e-08,0.00000000000000e+00,0.00000000000000e+00,6.06309356951266e-01,6.00000000000000e-01
3.54480000000000e-08,0.00000000000000e+00,0.00000000000000e+00,6.06547506366423e-01,6.00000000000000e-01
3.57040000000000e-08,0.00000000000000e+00,0.00000000000000e+00,6.00430781270835e-01,6.00000000000000e-01
3.62160000000000e-08,0.00000000000000e+00,0.00000000000000e+00,5.89446731725378e-01,6.00000000000000e-01
3.71824027311788e-08,0.00000000000000e+00,0.00000000000000e+00,6.00108587257714e-01,6.00000000000000e-01
3.83773498884934e-08,0.00000000000000e+00,0.00000000000000e+00,5.99120126522282e-01,6.00000000000000e-01
4.01624786597675e-08,0.00000000000000e+00,0.00000000000000e+00,6.00186727109788e-01,6.00000000000000e-01
4.24849719206578e-08,0.00000000000000e+00,0.00000000000000e+00,5.99526707104215e-01,6.00000000000000e-01
4.50000000000000e-08,0.00000000000000e+00,0.00000000000000e+00,6.00156030004953e-01,6.00000000000000e-01
4.50100000000000e-08,5.99999999999886e-02,0.00000000000000e+00,5.99796102873402e-01,5.40000000000011e-01
4.50300000000000e-08,1.80000000000006e-01,0.00000000000000e+00,5.99020914554170e-01,4.19999999999994e-01
4.50700000000000e-08,4.20000000000000e-01,0.00000000000000e+00,5.99443423364935e-01,1.80000000000000e-01
4.51000000000000e-08,6.00000000000000e-01,0.00000000000000e+00,6.04779171569527e-01,0.00000000000000e+00
4.51080000000000e-08,6.00000000000000e-01,0.00000000000000e+00,6.07357534851762e-01,0.00000000000000e+00
4.51240000000000e-08,6.00000000000000e-01,0.00000000000000e+00,6.12162705503601e-01,0.00000000000000e+00
4.51560000000000e-08,6.00000000000000e-01,0.00000000000000e+00,6.20028818461556e-01,0.00000000000000e+00
4.52200000000000e-08,6.00000000000000e-01,0.00000000000000e+00,6.31533391327374e-01,0.00000000000000e+00
4.53480000000000e-08,6.00000000000000e-01,0.00000000000000e+00,6.49507419577601e-01,0.00000000000000e+00
4.56040000000000e-08,6.00000000000000e-01,0.00000000000000e+00,6.32319443776407e-01,0.00000000000000e+00
4.61160000000000e-08,6.00000000000000e-01,0.00000000000000e+00,2.59016318576816e-01,0.00000000000000e+00
4.69307801258541e-08,6.00000000000000e-01,0.00000000000000e+00,-1.62259634782522e-02,0.00000000000000e+00
4.81097396955991e-08,6.00000000000000e-01,0.00000000000000e+00,1.03269732062832e-02,0.00000000000000e+00
5.00000000000000e-08,6.00000000000000e-01,0.00000000000000e+00,-7.74539369192400e-03,0.00000000000000e+00
5.00100000000000e-08,6.00000000000000e-01,5.99999999999886e-02,-6.44521868599228e-03,0.00000000000000e+00
5.00300000000000e-08,6.00000000000000e-01,1.79999999999966e-01,-4.31859614015635e-03,0.00000000000000e+00
5.00700000000000e-08,6.00000000000000e-01,4.20000000000000e-01,-2.04910688710726e-03,0.00000000000000e+00
5.01000000000000e-08,6.00000000000000e-01,6.00000000000000e-01,-1.35319611573022e-03,0.00000000000000e+00
5.01080000000000e-08,6.00000000000000e-01,6.00000000000000e-01,-1.24393695693974e-03,0.00000000000000e+00
5.01240000000000e-08,6.00000000000000e-01,6.00000000000000e-01,-1.03247554643338e-03,0.00000000000000e+00
5.01560000000000e-08,6.00000000000000e-01,6.00000000000000e-01,-7.88952649276670e-04,0.00000000000000e+00
5.02200000000000e-08,6.00000000000000e-01,6.00000000000000e-01,-4.87464052973743e-04,0.00000000000000e+00
5.03480000000000e-08,6.00000000000000e-01,6.00000000000000e-01,-1.77552125531041e-04,0.00000000000000e+00
5.06040000000000e-08,6.00000000000000e-01,6.00000000000000e-01,2.01861449733998e-05,0.00000000000000e+00
5.11160000000001e-08,6.00000000000000e-01,6.00000000000000e-01,6.31863298584459e-05,0.00000000000000e+00
5.21400000000002e-08,6.00000000000000e-01,6.00000000000000e-01,7.09684669689264e-05,0.00000000000000e+00
5.41880000000003e-08,6.00000000000000e-01,6.00000000000000e-01,6.99679210931364e-05,0.00000000000000e+00
5.51000000000000e-08,6.00000000000000e-01,6.00000000000000e-01,7.01317356193512e-05,0.00000000000000e+00
5.51100000000000e-08,5.40000000000021e-01,6.00000000000000e-01,1.09865526749844e-03,5.99999999999787e-02
5.51300000000000e-08,4.20000000000004e-01,6.00000000000000e-01,2.59484569428919e-03,1.79999999999996e-01
5.51700000000000e-08,1.80000000000010e-01,6.00000000000000e-01,3.65495161600926e-03,4.19999999999990e-01
5.52000000000000e-08,0.00000000000000e+00,6.00000000000000e-01,2.88537294541276e-03,6.00000000000000e-01
5.52080000000000e-08,0.00000000000000e+00,6.00000000000000e-01,2.65693350065072e-03,6.00000000000000e-01
5.52240000000000e-08,0.00000000000000e+00,6.00000000000000e-01,2.27354984469653e-03,6.00000000000000e-01
5.52560000000000e-08,0.00000000000000e+00,6.00000000000000e-01,1.83914902570315e-03,6.00000000000000e-01
5.53200000000000e-08,0.00000000000000e+00,6.00000000000000e-01,1.45021713601451e-03,6.00000000000000e-01
5.54480000000000e-08,0.00000000000000e+00,6.00000000000000e-01,8.60259916620906e-04,6.00000000000000e-01
5.57040000000000e-08,0.00000000000000e+00,6.00000000000000e-01,-1.97199174178123e-03,6.00000000000000e-01
5.62160000000000e-08,0.00000000000000e+00,6.00000000000000e-01,-2.28631051337574e-03,6.00000000000000e-01
5.69868960373023e-08,0.00000000000000e+00,6.00000000000000e-01,1.17007998824215e-03,6.00000000000000e-01
5.82357604984057e-08,0.00000000000000e+00,6.00000000000000e-01,-1.10017062041767e-03,6.00000000000000e-01
5.98489302053174e-08,0.00000000000000e+00,6.00000000000000e-01,9.11517507687004e-04,6.00000000000000e-01
6.25321108098192e-08,0.00000000000000e+00,6.00000000000000e-01,-4.48626361629428e-04,6.00000000000000e-01
6.50000000000000e-08,0.00000000000000e+00,6.00000000000000e-01,3.63183118196369e-04,6.00000000000000e-01
6.50100000000000e-08,5.99999999999886e-02,6.00000000000000e-01,1.12294956948418e-03,6.00000000000000e-01
6.50300000000000e-08,1.79999999999966e-01,6.00000000000000e-01,2.58398406482208e-03,6.00000000000000e-01
6.50700000000000e-08,4.19999999999920e-01,6.00000000000000e-01,5.03496612108784e-03,6.00000000000000e-01
6.51000000000000e-08,5.99999999999966e-01,6.00000000000000e-01,5.82271312667693e-03,6.00000000000000e-01
6.51080000000000e-08,6.00000000000000e-01,6.00000000000000e-01,5.48948972654666e-03,6.00000000000000e-01
6.51240000000000e-08,6.00000000000000e-01,6.00000000000000e-01,4.83601973539294e-03,6.00000000000000e-01
6.51560000000000e-08,6.00000000000000e-01,6.00000000000000e-01,3.63403284741348e-03,6.00000000000000e-01
6.52200000000000e-08,6.00000000000000e-01,6.00000000000000e-01,1.34996117955836e-03,6.00000000000000e-01
6.53480000000000e-08,6.00000000000000e-01,6.00000000000000e-01,-3.41379442059353e-03,6.00000000000000e-01
6.56040000000000e-08,6.00000000000000e-01,6.00000000000000e-01,-1.10103116537768e-02,6.00000000000000e-01
6.61159999999999e-08,6.00000000000000e-01,6.00000000000000e-01,2.26989562533983e-03,6.00000000000000e-01
6.70693070757780e-08,6.00000000000000e-01,6.00000000000000e-01,4.41098180885289e-01,6.00000000000000e-01
6.73076338447225e-08,6.00000000000000e-01,6.00000000000000e-01,5.42063667470177e-01,6.00000000000000e-01
6.77842873826115e-08,6.00000000000000e-01,6.00000000000000e-01,5.98287195214462e-01,6.00000000000000e-01
6.87375944583895e-08,6.00000000000000e-01,6.00000000000000e-01,5.94802660928169e-01,6.00000000000000e-01
7.01000000000000e-08,6.00000000000000e-01,6.00000000000000e-01,6.03128289853140e-01,6.00000000000000e-01
7.01100000000000e-08,6.00000000000000e-01,5.40000000000011e-01,6.02602371459795e-01,6.00000000000000e-01
7.01300000000000e-08,6.00000000000000e-01,4.20000000000034e-01,6.01754068819710e-01,6.00000000000000e-01
7.01700000000000e-08,6.00000000000000e-01,1.80000000000080e-01,6.00837307711399e-01,6.00000000000000e-01
7.02000000000000e-08,6.00000000000000e-01,3.44169137633799e-14,6.00620514963297e-01,6.00000000000000e-01
7.02080000000000e-08,6.00000000000000e-01,0.00000000000000e+00,6.00615333015496e-01,6.00000000000000e-01
7.02240000000000e-08,6.00000000000000e-01,0.00000000000000e+00,6.00582031910575e-01,6.00000000000000e-01
7.02560000000000e-08,6.00000000000000e-01,0.00000000000000e+00,6.00515562573833e-01,6.00000000000000e-01
7.03200000000000e-08,6.00000000000000e-01,0.00000000000000e+00,6.00329832784857e-01,6.00000000000000e-01
7.04480000000000e-08,6.00000000000000e-01,0.00000000000000e+00,6.00098805963665e-01,6.00000000000000e-01
7.07040000000000e-08,6.00000000000000e-01,0.00000000000000e+00,5.99844639888959e-01,6.00000000000000e-01
7.12159999999999e-08,6.00000000000000e-01,0.00000000000000e+00,5.99981078130272e-01,6.00000000000000e-01
7.21119687162891e-08,6.00000000000000e-01,0.00000000000000e+00,6.00056050410023e-01,6.00000000000000e-01
7.32956417937425e-08,6.00000000000000e-01,0.00000000000000e+00,5.99907043123834e-01,6.00000000000000e-01
7.50526146557015e-08,6.00000000000000e-01,0.00000000000000e+00,6.00047229184360e-01,6.00000000000000e-01
7.51000000000000e-08,6.00000000000000e-01,0.00000000000000e+00,6.00016095788660e-01,6.00000000000000e-01
7.51100000000000e-08,5.40000000000061e-01,0.00000000000000e+00,5.99730087367807e-01,6.00000000000000e-01
7.51300000000000e-08,4.20000000000084e-01,0.00000000000000e+00,5.99173211415298e-01,6.00000000000000e-01
7.51700000000000e-08,1.80000000000129e-01,0.00000000000000e+00,5.98907156807728e-01,6.00000000000000e-01
7.52000000000000e-08,8.40438829641244e-14,0.00000000000000e+00,6.00317748853495e-01,6.00000000000000e-01
7.52080000000000e-08,0.00000000000000e+00,0.00000000000000e+00,6.01192858989185e-01,6.00000000000000e-01
7.52240000000000e-08,0.00000000000000e+00,0.00000000000000e+00,6.02724212637239e-01,6.00000000000000e-01
7.52560000000000e-08,0.00000000000000e+00,0.00000000000000e+00,6.04656125705891e-01,6.00000000000000e-01
7.53200000000000e-08,0.00000000000000e+00,0.00000000000000e+00,6.06354441844497e-01,6.00000000000000e-01
7.54480000000000e-08,0.00000000000000e+00,0.00000000000000e+00,6.06639957351806e-01,6.00000000000000e-01
7.57040000000000e-08,0.00000000000000e+00,0.00000000000000e+00,6.00747749481530e-01,6.00000000000000e-01
7.62159999999999e-08,0.00000000000000e+00,0.00000000000000e+00,5.89549242142424e-01,6.00000000000000e-01
7.71824592692083e-08,0.00000000000000e+00,0.00000000000000e+00,6.00006652053231e-01,6.00000000000000e-01
7.83774792958193e-08,0.00000000000000e+00,0.00000000000000e+00,5.99197543736081e-01,6.00000000000000e-01
8.01636765876181e-08,0.00000000000000e+00,0.00000000000000e+00,6.00126982849070e-01,6.00000000000000e-01
8.24860647864911e-08,0.00000000000000e+00,0.00000000000000e+00,5.99578327753846e-01,6.00000000000000e-01
8.50000000000000e-08,0.00000000000000e+00,0.00000000000000e+00,6.00112276863077e-01,6.00000000000000e-01
8.50100000000000e-08,5.99999999999886e-02,0.00000000000000e+00,5.99762158697545e-01,5.40000000000011e-01
8.50300000000000e-08,1.79999999999966e-01,0.00000000000000e+00,5.98992880172230e-01,4.20000000000034e-01
8.50700000000000e-08,4.19999999999920e-01,0.00000000000000e+00,5.99424595476665e-01,1.80000000000080e-01
8.51000000000000e-08,5.99999999999966e-01,0.00000000000000e+00,6.04763515923807e-01,3.44169137633799e-14
8.51080000000000e-08,6.00000000000000e-01,0.00000000000000e+00,6.07343042217117e-01,0.00000000000000e+00
