Time,v(clk),v(data),v(out)
1.00000000000000e-08,6.00000000000000e-01,0.00000000000000e+00,2.83313790917373e-05
1.00100000000000e-08,6.00000000000000e-01,5.99999999999985e-02,2.30297379684857e-05
1.00300000000000e-08,6.00000000000000e-01,1.79999999999996e-01,1.44573565502189e-05
1.00700000000000e-08,6.00000000000000e-01,4.19999999999990e-01,5.31731176594760e-06
1.01000000000000e-08,6.00000000000000e-01,5.99999999999995e-01,1.58522311705100e-06
1.01080000000000e-08,6.00000000000000e-01,6.00000000000000e-01,1.43070116214242e-06
1.01240000000000e-08,6.00000000000000e-01,6.00000000000000e-01,1.42583450340669e-06
1.01560000000000e-08,6.00000000000000e-01,6.00000000000000e-01,3.42705661359952e-06
1.02200000000000e-08,6.00000000000000e-01,6.00000000000000e-01,3.16965277256248e-06
1.03480000000000e-08,6.00000000000000e-01,6.00000000000000e-01,1.03602354884630e-06
1.06040000000000e-08,6.00000000000000e-01,6.00000000000000e-01,9.09732592979662e-07
1.11160000000000e-08,6.00000000000000e-01,6.00000000000000e-01,1.41997642042185e-06
1.21400000000000e-08,6.00000000000000e-01,6.00000000000000e-01,7.73245577562545e-07
1.41880000000000e-08,6.00000000000000e-01,6.00000000000000e-01,1.11043141856550e-06
1.51000000000000e-08,6.00000000000000e-01,6.00000000000000e-01,5.67076620120767e-07
1.51100000000000e-08,5.39999999999991e-01,6.00000000000000e-01,-2.56131877889865e-05
1.51300000000000e-08,4.19999999999994e-01,6.00000000000000e-01,-6.60014480719680e-05
1.51700000000000e-08,1.80000000000000e-01,6.00000000000000e-01,-9.61453505346488e-05
1.52000000000000e-08,0.00000000000000e+00,6.00000000000000e-01,-4.33399925138279e-05
1.52080000000000e-08,0.00000000000000e+00,6.00000000000000e-01,1.10932951357667e-05
1.52240000000000e-08,0.00000000000000e+00,6.00000000000000e-01,8.84482620328586e-05
1.52560000000000e-08,0.00000000000000e+00,6.00000000000000e-01,1.25142958334136e-04
1.53200000000000e-08,0.00000000000000e+00,6.00000000000000e-01,7.26680421641208e-05
1.54480000000000e-08,0.00000000000000e+00,6.00000000000000e-01,-2.83070036129346e-05
1.57040000000000e-08,0.00000000000000e+00,6.00000000000000e-01,-3.74896333167349e-05
1.62160000000000e-08,0.00000000000000e+00,6.00000000000000e-01,-1.05569533844785e-04
1.69603291737334e-08,0.00000000000000e+00,6.00000000000000e-01,9.38833836892218e-05
1.81874785883619e-08,0.00000000000000e+00,6.00000000000000e-01,-1.42273438052728e-05
1.98678841587489e-08,0.00000000000000e+00,6.00000000000000e-01,-1.78622792144833e-05
2.25138656429424e-08,0.00000000000000e+00,6.00000000000000e-01,3.02259270188311e-05
2.50000000000000e-08,0.00000000000000e+00,6.00000000000000e-01,-3.94405310216060e-05
2.50100000000000e-08,5.99999999999886e-02,6.00000000000000e-01,2.15602279117766e-05
2.50300000000000e-08,1.80000000000006e-01,6.00000000000000e-01,1.05041195956945e-04
2.50700000000000e-08,4.20000000000000e-01,6.00000000000000e-01,7.31513652686630e-05
2.51000000000000e-08,6.00000000000000e-01,6.00000000000000e-01,-9.98369422711320e-04
2.51080000000000e-08,6.00000000000000e-01,6.00000000000000e-01,-1.60606493816422e-03
2.51240000000000e-08,6.00000000000000e-01,6.00000000000000e-01,-2.79474917175249e-03
2.51560000000000e-08,6.00000000000000e-01,6.00000000000000e-01,-4.58760197635730e-03
2.52200000000000e-08,6.00000000000000e-01,6.00000000000000e-01,-1.67219654884194e-03
2.53480000000000e-08,6.00000000000000e-01,6.00000000000000e-01,1.00320943531904e-01
2.56040000000000e-08,6.00000000000000e-01,6.00000000000000e-01,4.41920320632321e-01
2.61160000000000e-08,6.00000000000000e-01,6.00000000000000e-01,6.19926794878464e-01
2.67936619777800e-08,6.00000000000000e-01,6.00000000000000e-01,5.83494016978944e-01
2.81489859333401e-08,6.00000000000000e-01,6.00000000000000e-01,6.12821406147006e-01
2.96799913439739e-08,6.00000000000000e-01,6.00000000000000e-01,5.87800914396441e-01
3.27420021652414e-08,6.00000000000000e-01,6.00000000000000e-01,6.10553529839422e-01
3.51000000000000e-08,5.99999999999970e-01,6.00000000000000e-01,5.89606928684229e-01
3.51100000000000e-08,5.39999999999982e-01,6.00000000000000e-01,5.91230579321588e-01
3.51300000000000e-08,4.19999999999965e-01,6.00000000000000e-01,5.93967625342738e-01
3.51700000000000e-08,1.79999999999970e-01,6.00000000000000e-01,5.97345674874519e-01
3.52000000000000e-08,0.00000000000000e+00,6.00000000000000e-01,5.99009306080753e-01
3.52080000000000e-08,0.00000000000000e+00,6.00000000000000e-01,5.99383537746224e-01
3.52240000000000e-08,0.00000000000000e+00,6.00000000000000e-01,6.00009540919571e-01
3.52560000000000e-08,0.00000000000000e+00,6.00000000000000e-01,6.00813631347429e-01
3.53200000000000e-08,0.00000000000000e+00,6.00000000000000e-01,6.01101229762045e-01
3.54480000000000e-08,0.00000000000000e+00,6.00000000000000e-01,5.95361375750244e-01
3.57040000000000e-08,0.00000000000000e+00,6.00000000000000e-01,5.72094611928185e-01
3.62160000000000e-08,0.00000000000000e+00,6.00000000000000e-01,5.81544493950372e-01
3.72400000000000e-08,0.00000000000000e+00,6.00000000000000e-01,6.07265174594187e-01
3.87829954073447e-08,0.00000000000000e+00,6.00000000000000e-01,5.93097479655544e-01
4.14450906272100e-08,0.00000000000000e+00,6.00000000000000e-01,6.05118820835018e-01
4.50000000000000e-08,0.00000000000000e+00,6.00000000000000e-01,5.94803214069971e-01
4.50100000000000e-08,5.99999999999886e-02,6.00000000000000e-01,5.95308303609032e-01
4.50300000000000e-08,1.80000000000006e-01,6.00000000000000e-01,5.96218015279408e-01
4.50700000000000e-08,4.20000000000000e-01,6.00000000000000e-01,5.97502481594388e-01
4.51000000000000e-08,6.00000000000000e-01,6.00000000000000e-01,5.97464371714114e-01
4.51080000000000e-08,6.00000000000000e-01,5.52000000000025e-01,5.97164272453622e-01
4.51240000000000e-08,6.00000000000000e-01,4.55999999999996e-01,5.96493664464275e-01
4.51560000000000e-08,6.00000000000000e-01,2.64000000000016e-01,5.95136627805511e-01
4.52000000000000e-08,6.00000000000000e-01,3.44169137633799e-14,5.93651567182042e-01
4.52064000000000e-08,6.00000000000000e-01,0.00000000000000e+00,5.93510094327998e-01
4.52192000000000e-08,6.00000000000000e-01,0.00000000000000e+00,5.93286308316603e-01
4.52448000000000e-08,6.00000000000000e-01,0.00000000000000e+00,5.93288047356340e-01
4.52960000000000e-08,6.00000000000000e-01,0.00000000000000e+00,5.94636560486772e-01
4.53984000000000e-08,6.00000000000000e-01,0.00000000000000e+00,5.98037203251838e-01
4.56032000000000e-08,6.00000000000000e-01,0.00000000000000e+00,6.00285175621862e-01
4.60128000000000e-08,6.00000000000000e-01,0.00000000000000e+00,5.99871633953061e-01
4.64793308280826e-08,6.00000000000000e-01,0.00000000000000e+00,6.00064126776518e-01
4.74123924842479e-08,6.00000000000000e-01,0.00000000000000e+00,5.99952088075140e-01
4.86246635334287e-08,6.00000000000000e-01,0.00000000000000e+00,6.00038879776378e-01
5.10492056317905e-08,6.00000000000000e-01,0.00000000000000e+00,5.99964938918762e-01
5.48492056317905e-08,6.00000000000000e-01,0.00000000000000e+00,6.00032800796508e-01
5.51000000000000e-08,6.00000000000000e-01,0.00000000000000e+00,5.99987258581409e-01
5.51100000000000e-08,5.40000000000021e-01,0.00000000000000e+00,5.99964251041218e-01
5.51300000000000e-08,4.20000000000004e-01,0.00000000000000e+00,5.99902067385345e-01
5.51700000000000e-08,1.80000000000010e-01,0.00000000000000e+00,5.99997343785383e-01
5.52000000000000e-08,0.00000000000000e+00,0.00000000000000e+00,6.00518251051994e-01
5.52080000000000e-08,0.00000000000000e+00,0.00000000000000e+00,6.00718384407030e-01
5.52240000000000e-08,0.00000000000000e+00,0.00000000000000e+00,6.01055468525911e-01
5.52560000000000e-08,0.00000000000000e+00,0.00000000000000e+00,6.01520105747511e-01
5.53200000000000e-08,0.00000000000000e+00,0.00000000000000e+00,6.01922658792841e-01
5.54480000000000e-08,0.00000000000000e+00,0.00000000000000e+00,6.02341906558726e-01
5.57040000000000e-08,0.00000000000000e+00,0.00000000000000e+00,6.02553220719599e-01
5.62160000000000e-08,0.00000000000000e+00,0.00000000000000e+00,5.99338013805082e-01
5.66943255605020e-08,0.00000000000000e+00,0.00000000000000e+00,5.99147603433095e-01
5.76509766815060e-08,0.00000000000000e+00,0.00000000000000e+00,5.99862628653168e-01
5.88234750742476e-08,0.00000000000000e+00,0.00000000000000e+00,5.99359208316058e-01
6.10845364525242e-08,0.00000000000000e+00,0.00000000000000e+00,5.99978730555351e-01
6.46518950473263e-08,0.00000000000000e+00,0.00000000000000e+00,5.99521852555742e-01
6.50000000000000e-08,0.00000000000000e+00,0.00000000000000e+00,5.99889812538394e-01
6.50100000000000e-08,5.99999999999886e-02,0.00000000000000e+00,5.99908993504124e-01
6.50300000000000e-08,1.79999999999966e-01,0.00000000000000e+00,5.99933621289596e-01
6.50700000000000e-08,4.19999999999920e-01,0.00000000000000e+00,5.99890714959219e-01
6.51000000000000e-08,5.99999999999966e-01,0.00000000000000e+00,5.99713462384174e-01
6.51080000000000e-08,6.00000000000000e-01,0.00000000000000e+00,5.99656922195408e-01
6.51240000000000e-08,6.00000000000000e-01,0.00000000000000e+00,5.99554088006531e-01
6.51560000000000e-08,6.00000000000000e-01,0.00000000000000e+00,5.99427482509670e-01
6.52200000000000e-08,6.00000000000000e-01,0.00000000000000e+00,5.99754304877261e-01
6.53480000000000e-08,6.00000000000000e-01,0.00000000000000e+00,6.03785884357720e-01
6.56040000000000e-08,6.00000000000000e-01,0.00000000000000e+00,5.75767879523374e-01
6.61159999999999e-08,6.00000000000000e-01,0.00000000000000e+00,4.78326708767844e-02
6.67655772086569e-08,6.00000000000000e-01,0.00000000000000e+00,-3.35907779028876e-02
6.77428530576537e-08,6.00000000000000e-01,0.00000000000000e+00,3.32158990521361e-02
6.92279427473861e-08,6.00000000000000e-01,0.00000000000000e+00,-2.77607346824460e-02
7.21724785632103e-08,6.00000000000000e-01,0.00000000000000e+00,2.91377886189593e-02
7.51000000000000e-08,6.00000000000000e-01,0.00000000000000e+00,-2.57103494624029e-02
7.51100000000000e-08,5.40000000000061e-01,0.00000000000000e+00,-1.86291812030765e-02
7.51300000000000e-08,4.20000000000084e-01,0.00000000000000e+00,-8.72902362447065e-03
7.51700000000000e-08,1.80000000000129e-01,0.00000000000000e+00,-1.76154058907199e-03
7.52000000000000e-08,8.40438829641244e-14,0.00000000000000e+00,-5.63538974583718e-04
7.52080000000000e-08,0.00000000000000e+00,0.00000000000000e+00,-4.33136333813033e-04
7.52240000000000e-08,0.00000000000000e+00,0.00000000000000e+00,-1.81392199257613e-04
7.52560000000000e-08,0.00000000000000e+00,0.00000000000000e+00,3.34016978952786e-05
7.53200000000000e-08,0.00000000000000e+00,0.00000000000000e+00,3.97143084651455e-05
7.54480000000000e-08,0.00000000000000e+00,0.00000000000000e+00,-1.97093225797496e-04
7.57040000000000e-08,0.00000000000000e+00,0.00000000000000e+00,-5.51106550007369e-04
7.62159999999999e-08,0.00000000000000e+00,0.00000000000000e+00,3.45388039760705e-04
7.69123799483377e-08,0.00000000000000e+00,0.00000000000000e+00,-2.50237957161505e-04
7.81853517119373e-08,0.00000000000000e+00,0.00000000000000e+00,2.08715738979131e-04
8.05886942428271e-08,0.00000000000000e+00,0.00000000000000e+00,-1.88372451316215e-04
8.43886942428271e-08,0.00000000000000e+00,0.00000000000000e+00,1.76746067049419e-04
8.50000000000000e-08,0.00000000000000e+00,0.00000000000000e+00,-1.12423035806791e-04
8.50100000000000e-08,5.99999999999886e-02,0.00000000000000e+00,-8.63819087991852e-05
8.50300000000000e-08,1.79999999999966e-01,0.00000000000000e+00,-2.06199521740544e-05
8.50700000000000e-08,4.19999999999920e-01,0.00000000000000e+00,1.21369165960207e-05
8.51000000000000e-08,5.99999999999966e-01,0.00000000000000e+00,-1.30985140488322e-04
8.51080000000000e-08,6.00000000000000e-01,0.00000000000000e+00,-1.61400509008074e-04
8.51240000000000e-08,6.00000000000000e-01,0.00000000000000e+00,-1.87893512321815e-04
8.51560000000000e-08,6.00000000000000e-01,0.00000000000000e+00,-1.64179996183424e-04
8.52200000000000e-08,6.00000000000000e-01,0.00000000000000e+00,-1.15310710070655e-04
8.53480000000000e-08,6.00000000000000e-01,0.00000000000000e+00,2.71774921723651e-05
8.56040000000000e-08,6.00000000000000e-01,0.00000000000000e+00,7.01349972191002e-05
8.61159999999999e-08,6.00000000000000e-01,0.00000000000000e+00,-4.26125026481302e-05
8.67668189072519e-08,6.00000000000000e-01,0.00000000000000e+00,3.59938636876264e-05
8.80684567217558e-08,6.00000000000000e-01,0.00000000000000e+00,-2.78128176509720e-05
9.00000000000000e-08,6.00000000000000e-01,0.00000000000000e+00,2.82616072948226e-05
9.00100000000000e-08,6.00000000000000e-01,5.99999999999886e-02,2.29307667682262e-05
9.00300000000000e-08,6.00000000000000e-01,1.79999999999966e-01,1.43494996931171e-05
9.00700000000000e-08,6.00000000000000e-01,4.19999999999920e-01,5.26157864343124e-06
9.01000000000000e-08,6.00000000000000e-01,5.99999999999966e-01,1.67438848939355e-06
9.01080000000000e-08,6.00000000000000e-01,6.00000000000000e-01,1.52725477742949e-06
9.01240000000000e-08,6.00000000000000e-01,6.00000000000000e-01,1.48690396997025e-06
9.01560000000000e-08,6.00000000000000e-01,6.00000000000000e-01,3.32779563093702e-06
9.02200000000000e-08,6.00000000000000e-01,6.00000000000000e-01,3.05544469733632e-06
9.03480000000000e-08,6.00000000000000e-01,6.00000000000000e-01,1.05701530379171e-06
9.06040000000000e-08,6.00000000000000e-01,6.00000000000000e-01,9.16118254058566e-07
9.11159999999999e-08,6.00000000000000e-01,6.00000000000000e-01,1.42335884872414e-06
9.21399999999999e-08,6.00000000000000e-01,6.00000000000000e-01,7.68341886933643e-07
9.41879999999998e-08,6.00000000000000e-01,6.00000000000000e-01,1.11654223121306e-06
9.51000000000000e-08,6.00000000000000e-01,6.00000000000000e-01,5.62925115297694e-07
9.51100000000000e-08,5.40000000000061e-01,6.00000000000000e-01,-2.53944837254223e-05
9.51300000000000e-08,4.20000000000084e-01,6.00000000000000e-01,-6.60103036963684e-05
9.51700000000000e-08,1.80000000000129e-01,6.00000000000000e-01,-1.00008511538935e-04
9.52000000000000e-08,8.40438829641244e-14,6.00000000000000e-01,-4.43950297191464e-05
9.52080000000000e-08,0.00000000000000e+00,6.00000000000000e-01,1.02052824576017e-05
9.52240000000000e-08,0.00000000000000e+00,6.00000000000000e-01,8.78976273792319e-05
9.52560000000000e-08,0.00000000000000e+00,6.00000000000000e-01,1.24973928342462e-04
9.53200000000000e-08,0.00000000000000e+00,6.00000000000000e-01,7.26525436817171e-05
9.54480000000000e-08,0.00000000000000e+00,6.00000000000000e-01,-2.83176099172382e-05
9.57040000000000e-08,0.00000000000000e+00,6.00000000000000e-01,-3.74730750776903e-05
9.62159999999999e-08,0.00000000000000e+00,6.00000000000000e-01,-1.05594607866394e-04
9.69602777562266e-08,0.00000000000000e+00,6.00000000000000e-01,9.39098639865994e-05
9.81874389869070e-08,0.00000000000000e+00,6.00000000000000e-01,-1.42440031904245e-05
9.98677204491341e-08,0.00000000000000e+00,6.00000000000000e-01,-1.78561372439837e-05
1.02513759364842e-07,0.00000000000000e+00,6.00000000000000e-01,3.02226190559104e-05
1.05000000000000e-07,0.00000000000000e+00,6.00000000000000e-01,-3.94404221719300e-05
1.05010000000000e-07,5.99999999999886e-02,6.00000000000000e-01,2.15678865532996e-05
1.05030000000000e-07,1.79999999999966e-01,6.00000000000000e-01,1.05052423956066e-04
1.05070000000000e-07,4.19999999999920e-01,6.00000000000000e-01,7.31555083699174e-05
1.05100000000000e-07,5.99999999999966e-01,6.00000000000000e-01,-9.98364721549950e-04
1.05108000000000e-07,6.00000000000000e-01,6.00000000000000e-01,-1.60606000826154e-03
1.05124000000000e-07,6.00000000000000e-01,6.00000000000000e-01,-2.79474457588207e-03
1.05156000000000e-07,6.00000000000000e-01,6.00000000000000e-01,-4.58760009299250e-03
1.05220000000000e-07,6.00000000000000e-01,6.00000000000000e-01,-1.67215233169311e-03
1.05348000000000e-07,6.00000000000000e-01,6.00000000000000e-01,1.00321150073715e-01
1.05604000000000e-07,6.00000000000000e-01,6.00000000000000e-01,4.41920518297101e-01
1.06116000000000e-07,6.00000000000000e-01,6.00000000000000e-01,6.19926783706835e-01
1.06793662015086e-07,6.00000000000000e-01,6.00000000000000e-01,5.83494023787770e-01
1.08148986045257e-07,6.00000000000000e-01,6.00000000000000e-01,6.12821397241395e-01
1.09679990955424e-07,6.00000000000000e-01,6.00000000000000e-01,5.87800921953626e-01
1.12742000775759e-07,6.00000000000000e-01,6.00000000000000e-01,6.10553521215746e-01
1.15100000000000e-07,6.00000000000000e-01,6.00000000000000e-01,5.89606935616169e-01
1.15110000000000e-07,5.40000000000061e-01,6.00000000000000e-01,5.91230584609315e-01
1.15130000000000e-07,4.20000000000084e-01,6.00000000000000e-01,5.93967627989403e-01
1.15170000000000e-07,1.80000000000129e-01,6.00000000000000e-01,5.97345675177701e-01
1.15200000000000e-07,8.40438829641244e-14,6.00000000000000e-01,5.99009305919044e-01
1.15208000000000e-07,0.00000000000000e+00,6.00000000000000e-01,5.99383537498852e-01
1.15224000000000e-07,0.00000000000000e+00,6.00000000000000e-01,6.00009540528829e-01
1.15256000000000e-07,0.00000000000000e+00,6.00000000000000e-01,6.00813631038488e-01
1.15320000000000e-07,0.00000000000000e+00,6.00000000000000e-01,6.01101229659291e-01
1.15448000000000e-07,0.00000000000000e+00,6.00000000000000e-01,5.95361375699237e-01
1.15704000000000e-07,0.00000000000000e+00,6.00000000000000e-01,5.72094612596049e-01
1.16216000000000e-07,0.00000000000000e+00,6.00000000000000e-01,5.81544493821334e-01
1.17240000000000e-07,0.00000000000000e+00,6.00000000000000e-01,6.07265173972354e-01
1.18782995473853e-07,0.00000000000000e+00,6.00000000000000e-01,5.93097480302260e-01
1.21445090586246e-07,0.00000000000000e+00,6.00000000000000e-01,6.05118820322132e-01
1.25000000000000e-07,0.00000000000000e+00,6.00000000000000e-01,5.94803214587059e-01
1.25010000000000e-07,5.99999999999092e-02,6.00000000000000e-01,5.95308304089111e-01
1.25030000000000e-07,1.79999999999886e-01,6.00000000000000e-01,5.96218015675914e-01
1.25070000000000e-07,4.19999999999841e-01,6.00000000000000e-01,5.97502481821468e-01
1.25100000000000e-07,5.99999999999886e-01,6.00000000000000e-01,5.97464371762739e-01
1.25108000000000e-07,6.00000000000000e-01,5.51999999999946e-01,5.97164272464404e-01
1.25124000000000e-07,6.00000000000000e-01,4.55999999999996e-01,5.96493664422905e-01
1.25156000000000e-07,6.00000000000000e-01,2.63999999999937e-01,5.95136627758850e-01
1.25200000000000e-07,6.00000000000000e-01,0.00000000000000e+00,5.93651567180150e-01
1.25206400000000e-07,6.00000000000000e-01,0.00000000000000e+00,5.93510094339478e-01
1.25219200000000e-07,6.00000000000000e-01,0.00000000000000e+00,5.93286308353446e-01
1.25244800000000e-07,6.00000000000000e-01,0.00000000000000e+00,5.93288047433575e-01
1.25296000000000e-07,6.00000000000000e-01,0.00000000000000e+00,5.94636560592220e-01
1.25398400000000e-07,6.00000000000000e-01,0.00000000000000e+00,5.98037203313893e-01
1.25603200000000e-07,6.00000000000000e-01,0.00000000000000e+00,6.00285175632407e-01
1.26012800000000e-07,6.00000000000000e-01,0.00000000000000e+00,5.99871633931942e-01
1.26479331125934e-07,6.00000000000000e-01,0.00000000000000e+00,6.00064126826682e-01
1.27412393377800e-07,6.00000000000000e-01,0.00000000000000e+00,5.99952088030586e-01
1.28624665595812e-07,6.00000000000000e-01,0.00000000000000e+00,6.00038879818580e-01
1.31049210031835e-07,6.00000000000000e-01,0.00000000000000e+00,5.99964938878475e-01
1.34849210031835e-07,6.00000000000000e-01,0.00000000000000e+00,6.00032800833651e-01
1.35100000000000e-07,5.99999999999891e-01,0.00000000000000e+00,5.99987258796205e-01
1.35110000000000e-07,5.39999999999823e-01,0.00000000000000e+00,5.99964251173672e-01
1.35130000000000e-07,4.19999999999845e-01,0.00000000000000e+00,5.99902067476767e-01
1.35170000000000e-07,1.79999999999891e-01,0.00000000000000e+00,5.99997343786157e-01
1.35200000000000e-07,0.00000000000000e+00,0.00000000000000e+00,6.00518251057792e-01
1.35208000000000e-07,0.00000000000000e+00,0.00000000000000e+00,6.00718384410739e-01
1.35224000000000e-07,0.00000000000000e+00,0.00000000000000e+00,6.01055468529932e-01
1.35256000000000e-07,0.00000000000000e+00,0.00000000000000e+00,6.01520105748996e-01
1.35320000000000e-07,0.00000000000000e+00,0.00000000000000e+00,6.01922658787664e-01
1.35448000000000e-07,0.00000000000000e+00,0.00000000000000e+00,6.02341906543328e-01
