Time,v(clk),v(data),v(out),v(reset)
1.00000000000000e-08,6.00000000000000e-01,0.00000000000000e+00,-2.64374694339264e-06,0.00000000000000e+00
1.00100000000000e-08,6.00000000000000e-01,5.99999999999985e-02,-1.65676167948603e-06,0.00000000000000e+00
1.00300000000000e-08,6.00000000000000e-01,1.79999999999996e-01,9.57049104965968e-08,0.00000000000000e+00
1.00700000000000e-08,6.00000000000000e-01,4.19999999999990e-01,1.56215850785277e-06,0.00000000000000e+00
1.01000000000000e-08,6.00000000000000e-01,5.99999999999995e-01,1.88816882816523e-06,0.00000000000000e+00
1.01080000000000e-08,6.00000000000000e-01,6.00000000000000e-01,2.07562815551093e-06,0.00000000000000e+00
1.01240000000000e-08,6.00000000000000e-01,6.00000000000000e-01,2.61897232085861e-06,0.00000000000000e+00
1.01560000000000e-08,6.00000000000000e-01,6.00000000000000e-01,3.59727050888367e-06,0.00000000000000e+00
1.02200000000000e-08,6.00000000000000e-01,6.00000000000000e-01,4.52982547138533e-06,0.00000000000000e+00
1.03480000000000e-08,6.00000000000000e-01,6.00000000000000e-01,5.97496639760317e-06,0.00000000000000e+00
1.06040000000000e-08,6.00000000000000e-01,6.00000000000000e-01,6.15853804699328e-06,0.00000000000000e+00
1.11160000000000e-08,6.00000000000000e-01,6.00000000000000e-01,5.67315464320567e-06,0.00000000000000e+00
1.21400000000000e-08,6.00000000000000e-01,6.00000000000000e-01,5.22166439635534e-06,0.00000000000000e+00
1.41880000000000e-08,6.00000000000000e-01,6.00000000000000e-01,4.86977775798151e-06,0.00000000000000e+00
1.51000000000000e-08,6.00000000000000e-01,6.00000000000000e-01,4.65651984678846e-06,0.00000000000000e+00
1.51100000000000e-08,5.39999999999991e-01,6.00000000000000e-01,7.47266628561699e-05,6.00000000000085e-02
1.51300000000000e-08,4.19999999999994e-01,6.00000000000000e-01,1.60998191674804e-04,1.80000000000006e-01
1.51700000000000e-08,1.80000000000000e-01,6.00000000000000e-01,1.47434958186116e-04,4.20000000000000e-01
1.52000000000000e-08,0.00000000000000e+00,6.00000000000000e-01,1.04763382384500e-04,6.00000000000000e-01
1.52080000000000e-08,0.00000000000000e+00,6.00000000000000e-01,1.00317273873364e-04,6.00000000000000e-01
1.52240000000000e-08,0.00000000000000e+00,6.00000000000000e-01,9.35929895563500e-05,6.00000000000000e-01
1.52560000000000e-08,0.00000000000000e+00,6.00000000000000e-01,8.59590200473423e-05,6.00000000000000e-01
1.53200000000000e-08,0.00000000000000e+00,6.00000000000000e-01,6.86086667090191e-05,6.00000000000000e-01
1.54480000000000e-08,0.00000000000000e+00,6.00000000000000e-01,-2.55641266614613e-05,6.00000000000000e-01
1.57040000000000e-08,0.00000000000000e+00,6.00000000000000e-01,-8.95298926626206e-05,6.00000000000000e-01
1.61562587709180e-08,0.00000000000000e+00,6.00000000000000e-01,-9.83382976014330e-05,6.00000000000000e-01
1.69577757919506e-08,0.00000000000000e+00,6.00000000000000e-01,9.08987435117616e-05,6.00000000000000e-01
1.79683331285263e-08,0.00000000000000e+00,6.00000000000000e-01,2.79111171441635e-05,6.00000000000000e-01
1.99894478016776e-08,0.00000000000000e+00,6.00000000000000e-01,-5.43560450830516e-05,6.00000000000000e-01
2.26260413251843e-08,0.00000000000000e+00,6.00000000000000e-01,7.47209623193556e-05,6.00000000000000e-01
2.50000000000000e-08,0.00000000000000e+00,6.00000000000000e-01,-8.22032360314673e-05,6.00000000000000e-01
2.50100000000000e-08,5.99999999999886e-02,6.00000000000000e-01,-1.69093448472504e-05,6.00000000000000e-01
2.50300000000000e-08,1.80000000000006e-01,6.00000000000000e-01,6.27797261178939e-05,6.00000000000000e-01
2.50700000000000e-08,4.20000000000000e-01,6.00000000000000e-01,1.01864008515324e-04,6.00000000000000e-01
2.51000000000000e-08,6.00000000000000e-01,6.00000000000000e-01,7.96712445657877e-05,6.00000000000000e-01
2.51080000000000e-08,6.00000000000000e-01,6.00000000000000e-01,7.56820779289347e-06,6.00000000000000e-01
2.51240000000000e-08,6.00000000000000e-01,6.00000000000000e-01,-2.00978272853543e-04,6.00000000000000e-01
2.51560000000000e-08,6.00000000000000e-01,6.00000000000000e-01,-9.34555838474994e-04,6.00000000000000e-01
2.52200000000000e-08,6.00000000000000e-01,6.00000000000000e-01,-2.66850138812883e-03,6.00000000000000e-01
2.53480000000000e-08,6.00000000000000e-01,6.00000000000000e-01,-3.69822936689302e-03,6.00000000000000e-01
2.56040000000000e-08,6.00000000000000e-01,6.00000000000000e-01,1.45100117078647e-01,6.00000000000000e-01
2.61160000000000e-08,6.00000000000000e-01,6.00000000000000e-01,5.74422845774374e-01,6.00000000000000e-01
2.71400000000000e-08,6.00000000000000e-01,6.00000000000000e-01,6.09209787691929e-01,6.00000000000000e-01
2.84252733162286e-08,6.00000000000000e-01,6.00000000000000e-01,5.90235376392456e-01,6.00000000000000e-01
3.04884114853739e-08,6.00000000000000e-01,6.00000000000000e-01,6.08180018512712e-01,6.00000000000000e-01
3.33262696755402e-08,6.00000000000000e-01,6.00000000000000e-01,5.91351372611276e-01,6.00000000000000e-01
3.51000000000000e-08,5.99999999999970e-01,6.00000000000000e-01,6.07493086392561e-01,6.00000000000000e-01
3.51100000000000e-08,5.39999999999982e-01,6.00000000000000e-01,6.05256692387613e-01,6.00000000000000e-01
3.51300000000000e-08,4.19999999999965e-01,6.00000000000000e-01,6.02092506996467e-01,6.00000000000000e-01
3.51700000000000e-08,1.79999999999970e-01,6.00000000000000e-01,6.00430129498939e-01,6.00000000000000e-01
3.52000000000000e-08,0.00000000000000e+00,6.00000000000000e-01,6.01123474658189e-01,6.00000000000000e-01
3.52080000000000e-08,0.00000000000000e+00,6.00000000000000e-01,6.01356174773500e-01,6.00000000000000e-01
3.52240000000000e-08,0.00000000000000e+00,6.00000000000000e-01,6.01677832351626e-01,6.00000000000000e-01
3.52560000000000e-08,0.00000000000000e+00,6.00000000000000e-01,6.01744662913922e-01,6.00000000000000e-01
3.53200000000000e-08,0.00000000000000e+00,6.00000000000000e-01,5.99018225712788e-01,6.00000000000000e-01
3.54480000000000e-08,0.00000000000000e+00,6.00000000000000e-01,5.81385876008630e-01,6.00000000000000e-01
3.57040000000000e-08,0.00000000000000e+00,6.00000000000000e-01,5.81098262285457e-01,6.00000000000000e-01
3.62160000000000e-08,0.00000000000000e+00,6.00000000000000e-01,6.04478057984884e-01,6.00000000000000e-01
3.70197406103680e-08,0.00000000000000e+00,6.00000000000000e-01,5.95392796688908e-01,6.00000000000000e-01
3.84211795001893e-08,0.00000000000000e+00,6.00000000000000e-01,6.03281195825456e-01,6.00000000000000e-01
4.12240572798319e-08,0.00000000000000e+00,6.00000000000000e-01,5.96491561941183e-01,6.00000000000000e-01
4.50000000000000e-08,0.00000000000000e+00,6.00000000000000e-01,6.03047415298948e-01,6.00000000000000e-01
4.50100000000000e-08,5.99999999999886e-02,6.00000000000000e-01,6.02443467355548e-01,5.40000000000011e-01
4.50300000000000e-08,1.80000000000006e-01,6.00000000000000e-01,6.01443018001058e-01,4.19999999999994e-01
4.50700000000000e-08,4.20000000000000e-01,6.00000000000000e-01,6.01113739044989e-01,1.80000000000000e-01
4.51000000000000e-08,6.00000000000000e-01,6.00000000000000e-01,6.03097627739989e-01,0.00000000000000e+00
4.51080000000000e-08,6.00000000000000e-01,6.00000000000000e-01,6.03884641455335e-01,0.00000000000000e+00
4.51240000000000e-08,6.00000000000000e-01,6.00000000000000e-01,6.05258827685520e-01,0.00000000000000e+00
4.51560000000000e-08,6.00000000000000e-01,6.00000000000000e-01,6.07358569844369e-01,0.00000000000000e+00
4.52200000000000e-08,6.00000000000000e-01,6.00000000000000e-01,6.11598784454612e-01,0.00000000000000e+00
4.53480000000000e-08,6.00000000000000e-01,6.00000000000000e-01,5.97618255343818e-01,0.00000000000000e+00
4.56040000000000e-08,6.00000000000000e-01,6.00000000000000e-01,2.50822268740609e-01,0.00000000000000e+00
4.60694136574573e-08,6.00000000000000e-01,6.00000000000000e-01,-4.80506891418177e-02,0.00000000000000e+00
4.67226047429973e-08,6.00000000000000e-01,6.00000000000000e-01,3.35824904650089e-02,0.00000000000000e+00
4.80289869140773e-08,6.00000000000000e-01,6.00000000000000e-01,-2.46446250914578e-02,0.00000000000000e+00
4.94096768078856e-08,6.00000000000000e-01,6.00000000000000e-01,2.14866753518352e-02,0.00000000000000e+00
5.01000000000000e-08,6.00000000000000e-01,5.99999999999966e-01,-1.38697423822932e-02,0.00000000000000e+00
5.03761379787617e-08,6.00000000000000e-01,6.00000000000000e-01,-2.26731636417778e-03,0.00000000000000e+00
5.09284139362850e-08,6.00000000000000e-01,6.00000000000000e-01,1.27408945894563e-03,0.00000000000000e+00
5.20329658513316e-08,6.00000000000000e-01,6.00000000000000e-01,-9.63871899097562e-04,0.00000000000000e+00
5.42420696814249e-08,6.00000000000000e-01,6.00000000000000e-01,8.51476470782020e-04,0.00000000000000e+00
5.51000000000000e-08,6.00000000000000e-01,6.00000000000000e-01,-6.09481017095128e-04,0.00000000000000e+00
5.51100000000000e-08,5.40000000000021e-01,6.00000000000000e-01,-4.15719748230306e-04,5.99999999999787e-02
5.51300000000000e-08,4.20000000000004e-01,6.00000000000000e-01,-1.60874832998287e-04,1.79999999999996e-01
5.51700000000000e-08,1.80000000000010e-01,6.00000000000000e-01,-4.59443010246210e-05,4.19999999999990e-01
5.52000000000000e-08,0.00000000000000e+00,6.00000000000000e-01,-3.72158723001975e-05,6.00000000000000e-01
5.52080000000000e-08,0.00000000000000e+00,6.00000000000000e-01,-3.13105692608326e-05,6.00000000000000e-01
5.52240000000000e-08,0.00000000000000e+00,6.00000000000000e-01,-1.91304312356574e-05,6.00000000000000e-01
5.52560000000000e-08,0.00000000000000e+00,6.00000000000000e-01,1.35518131610946e-06,6.00000000000000e-01
5.53200000000000e-08,0.00000000000000e+00,6.00000000000000e-01,-6.87929492812003e-05,6.00000000000000e-01
5.54480000000000e-08,0.00000000000000e+00,6.00000000000000e-01,-8.52213025511792e-04,6.00000000000000e-01
5.57040000000000e-08,0.00000000000000e+00,6.00000000000000e-01,-5.57288914570908e-04,6.00000000000000e-01
5.61364809423605e-08,0.00000000000000e+00,6.00000000000000e-01,3.29755957614740e-04,6.00000000000000e-01
5.69478914109264e-08,0.00000000000000e+00,6.00000000000000e-01,-3.12354693409104e-04,6.00000000000000e-01
5.79233856474056e-08,0.00000000000000e+00,6.00000000000000e-01,2.81718536299051e-04,6.00000000000000e-01
5.98743741203642e-08,0.00000000000000e+00,6.00000000000000e-01,-2.41158166743854e-04,6.00000000000000e-01
6.24368194066990e-08,0.00000000000000e+00,6.00000000000000e-01,2.21646569115507e-04,6.00000000000000e-01
6.50000000000000e-08,0.00000000000000e+00,6.00000000000000e-01,-1.94071933448529e-04,6.00000000000000e-01
6.50100000000000e-08,5.99999999999886e-02,6.00000000000000e-01,-1.12529397458212e-04,6.00000000000000e-01
6.50300000000000e-08,1.79999999999966e-01,6.00000000000000e-01,1.28559929495967e-05,6.00000000000000e-01
6.50700000000000e-08,4.19999999999920e-01,6.00000000000000e-01,1.41838450430271e-04,6.00000000000000e-01
6.51000000000000e-08,5.99999999999966e-01,6.00000000000000e-01,1.03830051877519e-04,6.00000000000000e-01
6.51080000000000e-08,6.00000000000000e-01,6.00000000000000e-01,2.93833783449604e-05,6.00000000000000e-01
6.51240000000000e-08,6.00000000000000e-01,6.00000000000000e-01,-1.84282975320700e-04,6.00000000000000e-01
6.51560000000000e-08,6.00000000000000e-01,6.00000000000000e-01,-9.25713497858850e-04,6.00000000000000e-01
6.52200000000000e-08,6.00000000000000e-01,6.00000000000000e-01,-2.66612438484179e-03,6.00000000000000e-01
6.53480000000000e-08,6.00000000000000e-01,6.00000000000000e-01,-3.76155814926171e-03,6.00000000000000e-01
6.56040000000000e-08,6.00000000000000e-01,6.00000000000000e-01,1.43430704040882e-01,6.00000000000000e-01
6.61159999999999e-08,6.00000000000000e-01,6.00000000000000e-01,5.73713897424290e-01,6.00000000000000e-01
6.71399999999999e-08,6.00000000000000e-01,6.00000000000000e-01,6.09453338178385e-01,6.00000000000000e-01
6.84258484243428e-08,6.00000000000000e-01,6.00000000000000e-01,5.89967669649081e-01,6.00000000000000e-01
7.04898255180602e-08,6.00000000000000e-01,6.00000000000000e-01,6.08404289858483e-01,6.00000000000000e-01
7.33305542247232e-08,6.00000000000000e-01,6.00000000000000e-01,5.91109341643471e-01,6.00000000000000e-01
7.51000000000000e-08,6.00000000000000e-01,6.00000000000000e-01,6.07700417815496e-01,6.00000000000000e-01
7.51100000000000e-08,5.40000000000061e-01,6.00000000000000e-01,6.05400634253060e-01,6.00000000000000e-01
7.51300000000000e-08,4.20000000000084e-01,6.00000000000000e-01,6.02148073789139e-01,6.00000000000000e-01
7.51700000000000e-08,1.80000000000129e-01,6.00000000000000e-01,6.00433447646948e-01,6.00000000000000e-01
7.52000000000000e-08,8.40438829641244e-14,6.00000000000000e-01,6.01123868799078e-01,6.00000000000000e-01
7.52080000000000e-08,0.00000000000000e+00,6.00000000000000e-01,6.01356375889539e-01,6.00000000000000e-01
7.52240000000000e-08,0.00000000000000e+00,6.00000000000000e-01,6.01677703747874e-01,6.00000000000000e-01
7.52560000000000e-08,0.00000000000000e+00,6.00000000000000e-01,6.01743953186658e-01,6.00000000000000e-01
7.53200000000000e-08,0.00000000000000e+00,6.00000000000000e-01,5.99014667196469e-01,6.00000000000000e-01
7.54480000000000e-08,0.00000000000000e+00,6.00000000000000e-01,5.81378425807920e-01,6.00000000000000e-01
7.57040000000000e-08,0.00000000000000e+00,6.00000000000000e-01,5.81097794244765e-01,6.00000000000000e-01
7.62159999999999e-08,0.00000000000000e+00,6.00000000000000e-01,6.04479540651465e-01,6.00000000000000e-01
7.70197206096090e-08,0.00000000000000e+00,6.00000000000000e-01,5.95391433956961e-01,6.00000000000000e-01
7.84211792983863e-08,0.00000000000000e+00,6.00000000000000e-01,6.03282287610273e-01,6.00000000000000e-01
8.12240966759410e-08,0.00000000000000e+00,6.00000000000000e-01,5.96490498935494e-01,6.00000000000000e-01
8.50000000000000e-08,0.00000000000000e+00,6.00000000000000e-01,6.03048401174638e-01,6.00000000000000e-01
8.50100000000000e-08,5.99999999999886e-02,6.00000000000000e-01,6.02444258773478e-01,5.40000000000011e-01
8.50300000000000e-08,1.79999999999966e-01,6.00000000000000e-01,6.01443516033670e-01,4.20000000000034e-01
8.50700000000000e-08,4.19999999999920e-01,6.00000000000000e-01,6.01113947861619e-01,1.80000000000080e-01
8.51000000000000e-08,5.99999999999966e-01,6.00000000000000e-01,6.03097758339339e-01,3.44169137633799e-14
8.51080000000000e-08,6.00000000000000e-01,6.00000000000000e-01,6.03884764682569e-01,0.00000000000000e+00
8.51240000000000e-08,6.00000000000000e-01,6.00000000000000e-01,6.05258934636994e-01,0.00000000000000e+00
8.51560000000000e-08,6.00000000000000e-01,6.00000000000000e-01,6.07358640837827e-01,0.00000000000000e+00
8.52200000000000e-08,6.00000000000000e-01,6.00000000000000e-01,6.11598792884268e-01,0.00000000000000e+00
8.53480000000000e-08,6.00000000000000e-01,6.00000000000000e-01,5.97617885026179e-01,0.00000000000000e+00
8.56040000000000e-08,6.00000000000000e-01,6.00000000000000e-01,2.50822877475757e-01,0.00000000000000e+00
8.60694145773440e-08,6.00000000000000e-01,6.00000000000000e-01,-4.80502300762337e-02,0.00000000000000e+00
8.67226073753276e-08,6.00000000000000e-01,6.00000000000000e-01,3.35821732239929e-02,0.00000000000000e+00
8.80289929712948e-08,6.00000000000000e-01,6.00000000000000e-01,-2.46443886852896e-02,0.00000000000000e+00
8.94096881974086e-08,6.00000000000000e-01,6.00000000000000e-01,2.14864928782704e-02,0.00000000000000e+00
9.01000000000000e-08,6.00000000000000e-01,5.99999999999966e-01,-1.38695229500120e-02,0.00000000000000e+00
9.03761390452228e-08,6.00000000000000e-01,6.00000000000000e-01,-2.26727248074053e-03,0.00000000000000e+00
9.09284171356683e-08,6.00000000000000e-01,6.00000000000000e-01,1.27406711904513e-03,0.00000000000000e+00
9.20329733165594e-08,6.00000000000000e-01,6.00000000000000e-01,-9.63855680826958e-04,0.00000000000000e+00
9.42420856783415e-08,6.00000000000000e-01,6.00000000000000e-01,8.51462605351879e-04,0.00000000000000e+00
9.51000000000000e-08,6.00000000000000e-01,6.00000000000000e-01,-6.09467065489564e-04,0.00000000000000e+00
9.51100000000000e-08,5.40000000000061e-01,6.00000000000000e-01,-4.15709143177324e-04,5.99999999999390e-02
9.51300000000000e-08,4.20000000000084e-01,6.00000000000000e-01,-1.60867342160330e-04,1.79999999999916e-01
9.51700000000000e-08,1.80000000000129e-01,6.00000000000000e-01,-4.59397387891497e-05,4.19999999999871e-01
9.52000000000000e-08,8.40438829641244e-14,6.00000000000000e-01,-3.72127697690350e-05,5.99999999999916e-01
9.52080000000000e-08,0.00000000000000e+00,6.00000000000000e-01,-3.13077607947687e-05,6.00000000000000e-01
9.52240000000000e-08,0.00000000000000e+00,6.00000000000000e-01,-1.91281536752255e-05,6.00000000000000e-01
9.52560000000000e-08,0.00000000000000e+00,6.00000000000000e-01,1.35696457288087e-06,6.00000000000000e-01
9.53200000000000e-08,0.00000000000000e+00,6.00000000000000e-01,-6.87885430005440e-05,6.00000000000000e-01
9.54480000000000e-08,0.00000000000000e+00,6.00000000000000e-01,-8.52182572405654e-04,6.00000000000000e-01
9.57040000000000e-08,0.00000000000000e+00,6.00000000000000e-01,-5.57264984899481e-04,6.00000000000000e-01
9.61364655356654e-08,0.00000000000000e+00,6.00000000000000e-01,3.29746878807505e-04,6.00000000000000e-01
9.69478869715386e-08,0.00000000000000e+00,6.00000000000000e-01,-3.12351194598939e-04,6.00000000000000e-01
9.79233545786127e-08,0.00000000000000e+00,6.00000000000000e-01,2.81713822014655e-04,6.00000000000000e-01
9.98742897927609e-08,0.00000000000000e+00,6.00000000000000e-01,-2.41152314439755e-04,6.00000000000000e-01
1.02436676642797e-07,0.00000000000000e+00,6.00000000000000e-01,2.21640224559971e-04,6.00000000000000e-01
1.05000000000000e-07,0.00000000000000e+00,6.00000000000000e-01,-1.94066864361365e-04,6.00000000000000e-01
1.05010000000000e-07,5.99999999999886e-02,6.00000000000000e-01,-1.12525660762877e-04,6.00000000000000e-01
1.05030000000000e-07,1.79999999999966e-01,6.00000000000000e-01,1.28576684683829e-05,6.00000000000000e-01
1.05070000000000e-07,4.19999999999920e-01,6.00000000000000e-01,1.41839022424851e-04,6.00000000000000e-01
1.05100000000000e-07,5.99999999999966e-01,6.00000000000000e-01,1.03829294682847e-04,6.00000000000000e-01
1.05108000000000e-07,6.00000000000000e-01,6.00000000000000e-01,2.93816728961088e-05,6.00000000000000e-01
1.05124000000000e-07,6.00000000000000e-01,6.00000000000000e-01,-1.84287022398588e-04,6.00000000000000e-01
1.05156000000000e-07,6.00000000000000e-01,6.00000000000000e-01,-9.25721385796659e-04,6.00000000000000e-01
1.05220000000000e-07,6.00000000000000e-01,6.00000000000000e-01,-2.66613214562827e-03,6.00000000000000e-01
1.05348000000000e-07,6.00000000000000e-01,6.00000000000000e-01,-3.76155068689252e-03,6.00000000000000e-01
1.05604000000000e-07,6.00000000000000e-01,6.00000000000000e-01,1.43430957011349e-01,6.00000000000000e-01
1.06116000000000e-07,6.00000000000000e-01,6.00000000000000e-01,5.73714004867926e-01,6.00000000000000e-01
1.07140000000000e-07,6.00000000000000e-01,6.00000000000000e-01,6.09453301428574e-01,6.00000000000000e-01
1.08425848339778e-07,6.00000000000000e-01,6.00000000000000e-01,5.89967710062272e-01,6.00000000000000e-01
1.10489825307551e-07,6.00000000000000e-01,6.00000000000000e-01,6.08404256025265e-01,6.00000000000000e-01
1.13330553581556e-07,6.00000000000000e-01,6.00000000000000e-01,5.91109378192237e-01,6.00000000000000e-01
1.15100000000000e-07,6.00000000000000e-01,6.00000000000000e-01,6.07700386551443e-01,6.00000000000000e-01
1.15110000000000e-07,5.40000000000061e-01,6.00000000000000e-01,6.05400612553146e-01,6.00000000000000e-01
1.15130000000000e-07,4.20000000000084e-01,6.00000000000000e-01,6.02148065436747e-01,6.00000000000000e-01
1.15170000000000e-07,1.80000000000129e-01,6.00000000000000e-01,6.00433447162084e-01,6.00000000000000e-01
1.15200000000000e-07,8.40438829641244e-14,6.00000000000000e-01,6.01123868720840e-01,6.00000000000000e-01
1.15208000000000e-07,0.00000000000000e+00,6.00000000000000e-01,6.01356375850072e-01,6.00000000000000e-01
1.15224000000000e-07,0.00000000000000e+00,6.00000000000000e-01,6.01677703763043e-01,6.00000000000000e-01
1.15256000000000e-07,0.00000000000000e+00,6.00000000000000e-01,6.01743953269513e-01,6.00000000000000e-01
1.15320000000000e-07,0.00000000000000e+00,6.00000000000000e-01,5.99014667642738e-01,6.00000000000000e-01
