Time,v(clk),v(data),v(out)
1.00000000000000e-08,7.50000000000000e-01,0.00000000000000e+00,1.13463787843032e-05
1.00100000000000e-08,7.50000000000000e-01,7.49999999999982e-02,1.58935083671291e-05
1.00300000000000e-08,7.50000000000000e-01,2.24999999999995e-01,1.58565725578430e-05
1.00700000000000e-08,7.50000000000000e-01,5.24999999999987e-01,9.66471977968675e-06
1.01000000000000e-08,7.50000000000000e-01,7.49999999999994e-01,9.05870043296786e-06
1.01080000000000e-08,7.50000000000000e-01,7.50000000000000e-01,7.52366257122938e-06
1.01240000000000e-08,7.50000000000000e-01,7.50000000000000e-01,8.78653987634870e-06
1.01560000000000e-08,7.50000000000000e-01,7.50000000000000e-01,1.34825495960306e-05
1.02200000000000e-08,7.50000000000000e-01,7.50000000000000e-01,1.44259131585889e-05
1.03480000000000e-08,7.50000000000000e-01,7.50000000000000e-01,1.09197665179722e-05
1.06040000000000e-08,7.50000000000000e-01,7.50000000000000e-01,1.14760234276173e-05
1.10576281726238e-08,7.50000000000000e-01,7.50000000000000e-01,1.04174882094403e-05
1.19648845178714e-08,7.50000000000000e-01,7.50000000000000e-01,1.15381796961418e-05
1.37793972083666e-08,7.50000000000000e-01,7.50000000000000e-01,9.84349503416020e-06
1.51000000000000e-08,7.50000000000000e-01,7.50000000000000e-01,1.10810604111809e-05
1.51100000000000e-08,6.74999999999989e-01,7.50000000000000e-01,-1.11045929196349e-04
1.51300000000000e-08,5.24999999999993e-01,7.50000000000000e-01,-2.61208177196798e-04
1.51700000000000e-08,2.25000000000000e-01,7.50000000000000e-01,1.30373278347029e-04
1.52000000000000e-08,0.00000000000000e+00,7.50000000000000e-01,9.67559239816021e-04
1.52080000000000e-08,0.00000000000000e+00,7.50000000000000e-01,1.19920963235746e-03
1.52240000000000e-08,0.00000000000000e+00,7.50000000000000e-01,1.13099671951448e-03
1.52560000000000e-08,0.00000000000000e+00,7.50000000000000e-01,-1.19517023822430e-04
1.53200000000000e-08,0.00000000000000e+00,7.50000000000000e-01,-6.19411957333046e-04
1.54480000000000e-08,0.00000000000000e+00,7.50000000000000e-01,4.74621615697834e-05
1.56136054893948e-08,0.00000000000000e+00,7.50000000000000e-01,-1.71091130448865e-04
1.59448164681843e-08,0.00000000000000e+00,7.50000000000000e-01,-2.69002894051629e-06
1.62941964689700e-08,0.00000000000000e+00,7.50000000000000e-01,2.72455803449978e-04
1.69929564705416e-08,0.00000000000000e+00,7.50000000000000e-01,-2.82752902768840e-04
1.78322007147984e-08,0.00000000000000e+00,7.50000000000000e-01,3.00042320989173e-04
1.95106892033120e-08,0.00000000000000e+00,7.50000000000000e-01,-2.79896974601238e-04
2.21205525017852e-08,0.00000000000000e+00,7.50000000000000e-01,2.92424873586693e-04
2.50000000000000e-08,0.00000000000000e+00,7.50000000000000e-01,-2.72216300593451e-04
2.50100000000000e-08,7.49999999999858e-02,7.50000000000000e-01,1.33099980440671e-05
2.50300000000000e-08,2.25000000000007e-01,7.50000000000000e-01,4.43293836632885e-04
2.50700000000000e-08,5.25000000000000e-01,7.50000000000000e-01,1.02400138148144e-03
2.51000000000000e-08,7.50000000000000e-01,7.50000000000000e-01,7.86351717672093e-04
2.51080000000000e-08,7.50000000000000e-01,7.50000000000000e-01,2.99431881537596e-04
2.51240000000000e-08,7.50000000000000e-01,7.50000000000000e-01,-7.84517208387223e-04
2.51560000000000e-08,7.50000000000000e-01,7.50000000000000e-01,-3.08518563558460e-03
2.52200000000000e-08,7.50000000000000e-01,7.50000000000000e-01,-6.33362445448647e-03
2.53480000000000e-08,7.50000000000000e-01,7.50000000000000e-01,2.69415604533146e-02
2.56040000000000e-08,7.50000000000000e-01,7.50000000000000e-01,6.47354050285535e-01
2.60330450270508e-08,7.50000000000000e-01,7.50000000000000e-01,7.67700807509609e-01
2.64754686336706e-08,7.50000000000000e-01,7.50000000000000e-01,7.34532747040990e-01
2.73603158469103e-08,7.50000000000000e-01,7.50000000000000e-01,7.64750816356098e-01
2.86956172302418e-08,7.50000000000000e-01,7.50000000000000e-01,7.35132837699580e-01
3.01000000000000e-08,7.50000000000000e-01,7.50000000000000e-01,7.64206298523356e-01
3.01100000000000e-08,7.50000000000000e-01,6.75000000000039e-01,7.55165487707357e-01
3.01300000000000e-08,7.50000000000000e-01,5.25000000000018e-01,7.48690811909874e-01
3.01700000000000e-08,7.50000000000000e-01,2.25000000000025e-01,7.50696907609796e-01
3.02000000000000e-08,7.50000000000000e-01,1.80966353013901e-14,7.49694542688365e-01
3.02080000000000e-08,7.50000000000000e-01,0.00000000000000e+00,7.49851640628209e-01
3.02240000000000e-08,7.50000000000000e-01,0.00000000000000e+00,7.49969271355202e-01
3.02560000000000e-08,7.50000000000000e-01,0.00000000000000e+00,7.49948347892811e-01
3.03200000000000e-08,7.50000000000000e-01,0.00000000000000e+00,7.50017371147290e-01
3.04480000000000e-08,7.50000000000000e-01,0.00000000000000e+00,7.49971015508090e-01
3.06129113833339e-08,7.50000000000000e-01,0.00000000000000e+00,7.50006247362453e-01
3.09427341500018e-08,7.50000000000000e-01,0.00000000000000e+00,7.49979123658672e-01
3.15681235113511e-08,7.50000000000000e-01,0.00000000000000e+00,7.50003244811320e-01
3.28189022340497e-08,7.50000000000000e-01,0.00000000000000e+00,7.49982914332507e-01
3.51000000000000e-08,7.49999999999963e-01,0.00000000000000e+00,7.50004177986798e-01
3.51100000000000e-08,6.74999999999977e-01,0.00000000000000e+00,7.49909794101331e-01
3.51300000000000e-08,5.24999999999956e-01,0.00000000000000e+00,7.49871172916964e-01
3.51700000000000e-08,2.24999999999963e-01,0.00000000000000e+00,7.51885660498249e-01
3.52000000000000e-08,0.00000000000000e+00,0.00000000000000e+00,7.54847884882846e-01
3.52080000000000e-08,0.00000000000000e+00,0.00000000000000e+00,7.54095252217108e-01
3.52240000000000e-08,0.00000000000000e+00,0.00000000000000e+00,7.49001165322686e-01
3.52560000000000e-08,0.00000000000000e+00,0.00000000000000e+00,7.35695530446314e-01
3.53200000000000e-08,0.00000000000000e+00,0.00000000000000e+00,7.40098628150851e-01
3.54480000000000e-08,0.00000000000000e+00,0.00000000000000e+00,7.51555393947941e-01
3.56255054936856e-08,0.00000000000000e+00,0.00000000000000e+00,7.47795812697072e-01
3.59805164810569e-08,0.00000000000000e+00,0.00000000000000e+00,7.51300060224768e-01
3.65888465764219e-08,0.00000000000000e+00,0.00000000000000e+00,7.48481122665124e-01
3.73719335648376e-08,0.00000000000000e+00,0.00000000000000e+00,7.51243256617874e-01
3.89381075416690e-08,0.00000000000000e+00,0.00000000000000e+00,7.48677132059163e-01
3.91000000000000e-08,0.00000000000000e+00,0.00000000000000e+00,7.50910647412512e-01
3.94132347953663e-08,0.00000000000000e+00,0.00000000000000e+00,7.49993647762166e-01
4.00397043860988e-08,0.00000000000000e+00,0.00000000000000e+00,7.49934387985159e-01
4.12926435675640e-08,0.00000000000000e+00,0.00000000000000e+00,7.50000589978047e-01
4.37985219304942e-08,0.00000000000000e+00,0.00000000000000e+00,7.49948972212581e-01
4.50000000000000e-08,0.00000000000000e+00,0.00000000000000e+00,7.50007289090388e-01
4.50100000000000e-08,7.49999999999858e-02,0.00000000000000e+00,7.50078837133975e-01
4.50300000000000e-08,2.25000000000007e-01,0.00000000000000e+00,7.50077498051308e-01
4.50700000000000e-08,5.25000000000000e-01,0.00000000000000e+00,7.49989220152734e-01
4.51000000000000e-08,7.50000000000000e-01,0.00000000000000e+00,7.49909155328979e-01
4.51080000000000e-08,7.50000000000000e-01,0.00000000000000e+00,7.49839862482038e-01
4.51240000000000e-08,7.50000000000000e-01,0.00000000000000e+00,7.49806043893871e-01
4.51560000000000e-08,7.50000000000000e-01,0.00000000000000e+00,7.49886344204786e-01
4.52200000000000e-08,7.50000000000000e-01,0.00000000000000e+00,7.49886469641237e-01
4.53480000000000e-08,7.50000000000000e-01,0.00000000000000e+00,7.51469107963284e-01
4.56040000000000e-08,7.50000000000000e-01,0.00000000000000e+00,5.52008638981063e-01
4.60446184484471e-08,7.50000000000000e-01,0.00000000000000e+00,-8.76286353495265e-04
4.64934964548039e-08,7.50000000000000e-01,0.00000000000000e+00,-2.11200003645125e-03
4.73912524675174e-08,7.50000000000000e-01,0.00000000000000e+00,3.77870224680281e-03
4.83587082516947e-08,7.50000000000000e-01,0.00000000000000e+00,-3.72462858478222e-03
5.00000000000000e-08,7.50000000000000e-01,0.00000000000000e+00,4.55437376500443e-03
5.00100000000000e-08,7.50000000000000e-01,7.49999999999858e-02,1.37249041361261e-03
5.00300000000000e-08,7.50000000000000e-01,2.24999999999957e-01,-1.12115475088993e-03
5.00700000000000e-08,7.50000000000000e-01,5.25000000000000e-01,-2.80882006852723e-04
5.01000000000000e-08,7.50000000000000e-01,7.50000000000000e-01,-3.51659657854400e-04
5.01080000000000e-08,7.50000000000000e-01,7.50000000000000e-01,-2.96357645051357e-04
5.01240000000000e-08,7.50000000000000e-01,7.50000000000000e-01,-2.20809572056668e-04
5.01560000000000e-08,7.50000000000000e-01,7.50000000000000e-01,-1.33474627908400e-04
5.02200000000000e-08,7.50000000000000e-01,7.50000000000000e-01,-5.18964460916038e-05
5.03480000000000e-08,7.50000000000000e-01,7.50000000000000e-01,4.70195449676913e-06
5.06040000000000e-08,7.50000000000000e-01,7.50000000000000e-01,6.53546849323228e-06
5.10808269949026e-08,7.50000000000000e-01,7.50000000000000e-01,9.29522833848992e-06
5.20344809847079e-08,7.50000000000000e-01,7.50000000000000e-01,6.15930200051698e-06
5.39417889643183e-08,7.50000000000000e-01,7.50000000000000e-01,9.27751257559853e-06
5.51000000000000e-08,7.50000000000000e-01,7.50000000000000e-01,6.28886406104853e-06
5.51100000000000e-08,6.75000000000027e-01,7.50000000000000e-01,-1.13621159438679e-04
5.51300000000000e-08,5.25000000000005e-01,7.50000000000000e-01,-2.58840026729074e-04
5.51700000000000e-08,2.25000000000013e-01,7.50000000000000e-01,1.37734802530681e-04
5.52000000000000e-08,0.00000000000000e+00,7.50000000000000e-01,8.66339291866830e-04
5.52080000000000e-08,0.00000000000000e+00,7.50000000000000e-01,9.77475013228368e-04
5.52240000000000e-08,0.00000000000000e+00,7.50000000000000e-01,5.31879668677029e-04
5.52560000000000e-08,0.00000000000000e+00,7.50000000000000e-01,-1.52080567684927e-03
5.53200000000000e-08,0.00000000000000e+00,7.50000000000000e-01,-2.09043508650734e-03
5.54480000000000e-08,0.00000000000000e+00,7.50000000000000e-01,-3.78528357619409e-04
5.56130380528823e-08,0.00000000000000e+00,7.50000000000000e-01,-1.51441885561862e-04
5.59431141586469e-08,0.00000000000000e+00,7.50000000000000e-01,-1.25954804292699e-06
5.62921986471115e-08,0.00000000000000e+00,7.50000000000000e-01,2.60459243495693e-04
5.69903676240408e-08,0.00000000000000e+00,7.50000000000000e-01,-2.67785422736179e-04
5.78267114482264e-08,0.00000000000000e+00,7.50000000000000e-01,2.83514810341869e-04
5.94993990965976e-08,0.00000000000000e+00,7.50000000000000e-01,-2.62636257109728e-04
6.21056880954922e-08,0.00000000000000e+00,7.50000000000000e-01,2.74908498917386e-04
6.50000000000000e-08,0.00000000000000e+00,7.50000000000000e-01,-2.54362985123151e-04
6.50100000000000e-08,7.49999999999858e-02,7.50000000000000e-01,1.81112980506826e-05
6.50300000000000e-08,2.24999999999957e-01,7.50000000000000e-01,4.38092770762302e-04
6.50700000000000e-08,5.24999999999900e-01,7.50000000000000e-01,1.02262746697392e-03
6.51000000000000e-08,7.49999999999957e-01,7.50000000000000e-01,7.79485921859877e-04
6.51080000000000e-08,7.50000000000000e-01,7.50000000000000e-01,2.90799085213206e-04
6.51240000000000e-08,7.50000000000000e-01,7.50000000000000e-01,-7.95601684910885e-04
6.51560000000000e-08,7.50000000000000e-01,7.50000000000000e-01,-3.09647039371176e-03
6.52200000000000e-08,7.50000000000000e-01,7.50000000000000e-01,-6.33798120340516e-03
6.53480000000000e-08,7.50000000000000e-01,7.50000000000000e-01,2.70934697481020e-02
6.56040000000000e-08,7.50000000000000e-01,7.50000000000000e-01,6.47533898679682e-01
6.60330762935377e-08,7.50000000000000e-01,7.50000000000000e-01,7.67692513032749e-01
6.64755200991614e-08,7.50000000000000e-01,7.50000000000000e-01,7.34537543980198e-01
6.73604077104086e-08,7.50000000000000e-01,7.50000000000000e-01,7.64746196179638e-01
6.86963364735076e-08,7.50000000000000e-01,7.50000000000000e-01,7.35137325929010e-01
7.01000000000000e-08,7.50000000000000e-01,7.50000000000000e-01,7.64201842459650e-01
7.01100000000000e-08,7.50000000000000e-01,6.75000000000014e-01,7.55163951299973e-01
7.01300000000000e-08,7.50000000000000e-01,5.25000000000043e-01,7.48691248802906e-01
7.01700000000000e-08,7.50000000000000e-01,2.25000000000100e-01,7.50696612005703e-01
7.02000000000000e-08,7.50000000000000e-01,4.29656310529936e-14,7.49694636861450e-01
7.02080000000000e-08,7.50000000000000e-01,0.00000000000000e+00,7.49851652711914e-01
7.02240000000000e-08,7.50000000000000e-01,0.00000000000000e+00,7.49969220486217e-01
7.02560000000000e-08,7.50000000000000e-01,0.00000000000000e+00,7.49948342660662e-01
7.03200000000000e-08,7.50000000000000e-01,0.00000000000000e+00,7.50017370223951e-01
7.04480000000000e-08,7.50000000000000e-01,0.00000000000000e+00,7.49971025224868e-01
7.06129113799860e-08,7.50000000000000e-01,0.00000000000000e+00,7.50006230468587e-01
7.09427341399580e-08,7.50000000000000e-01,0.00000000000000e+00,7.49979125459392e-01
7.15682381755628e-08,7.50000000000000e-01,0.00000000000000e+00,7.50003225229212e-01
7.28192462467724e-08,7.50000000000000e-01,0.00000000000000e+00,7.49982920347248e-01
7.51000000000000e-08,7.50000000000000e-01,0.00000000000000e+00,7.50004161771797e-01
7.51100000000000e-08,6.75000000000076e-01,0.00000000000000e+00,7.49909629224995e-01
7.51300000000000e-08,5.25000000000105e-01,0.00000000000000e+00,7.49871233850764e-01
7.51700000000000e-08,2.25000000000162e-01,0.00000000000000e+00,7.51885845177919e-01
7.52000000000000e-08,1.05027098129540e-13,0.00000000000000e+00,7.54847146682393e-01
7.52080000000000e-08,0.00000000000000e+00,0.00000000000000e+00,7.54094157871118e-01
7.52240000000000e-08,0.00000000000000e+00,0.00000000000000e+00,7.48999605016133e-01
7.52560000000000e-08,0.00000000000000e+00,0.00000000000000e+00,7.35694216582490e-01
7.53200000000000e-08,0.00000000000000e+00,0.00000000000000e+00,7.40098842150304e-01
7.54480000000000e-08,0.00000000000000e+00,0.00000000000000e+00,7.51555308096179e-01
7.56255058847124e-08,0.00000000000000e+00,0.00000000000000e+00,7.47795873657851e-01
7.59805176541372e-08,0.00000000000000e+00,0.00000000000000e+00,7.51300006263219e-01
7.65888475208840e-08,0.00000000000000e+00,0.00000000000000e+00,7.48481173269991e-01
7.73719363880239e-08,0.00000000000000e+00,0.00000000000000e+00,7.51243209210950e-01
7.81000000000000e-08,0.00000000000000e+00,0.00000000000000e+00,7.48707534142782e-01
7.82566177734280e-08,0.00000000000000e+00,0.00000000000000e+00,7.49857915389151e-01
7.85698533202839e-08,0.00000000000000e+00,0.00000000000000e+00,7.50027120654611e-01
7.91963244139958e-08,0.00000000000000e+00,0.00000000000000e+00,7.49887534791667e-01
8.04492666014196e-08,0.00000000000000e+00,0.00000000000000e+00,7.50035364187432e-01
8.29551509762671e-08,0.00000000000000e+00,0.00000000000000e+00,7.49908889988057e-01
8.50000000000000e-08,0.00000000000000e+00,0.00000000000000e+00,7.50045380864308e-01
8.50100000000000e-08,7.49999999999858e-02,0.00000000000000e+00,7.50104168486103e-01
8.50300000000000e-08,2.24999999999957e-01,0.00000000000000e+00,7.50086700988962e-01
8.50700000000000e-08,5.24999999999900e-01,0.00000000000000e+00,7.49989558222186e-01
8.51000000000000e-08,7.49999999999957e-01,0.00000000000000e+00,7.49909378155927e-01
8.51080000000000e-08,7.50000000000000e-01,0.00000000000000e+00,7.49841778570458e-01
8.51240000000000e-08,7.50000000000000e-01,0.00000000000000e+00,7.49809163455289e-01
8.51560000000000e-08,7.50000000000000e-01,0.00000000000000e+00,7.49858747339361e-01
8.52200000000000e-08,7.50000000000000e-01,0.00000000000000e+00,7.49906037925545e-01
8.53480000000000e-08,7.50000000000000e-01,0.00000000000000e+00,7.51452344187049e-01
8.56040000000000e-08,7.50000000000000e-01,0.00000000000000e+00,5.52147753048023e-01
8.60446782860234e-08,7.50000000000000e-01,0.00000000000000e+00,-8.79866261330575e-04
8.64936136361934e-08,7.50000000000000e-01,0.00000000000000e+00,-2.10917316570678e-03
8.73914843365335e-08,7.50000000000000e-01,0.00000000000000e+00,3.77551305158556e-03
8.83589945944555e-08,7.50000000000000e-01,0.00000000000000e+00,-3.72198001443031e-03
9.00000000000000e-08,7.50000000000000e-01,0.00000000000000e+00,4.55148239785232e-03
9.00100000000000e-08,7.50000000000000e-01,7.49999999999858e-02,1.37116215397692e-03
9.00300000000000e-08,7.50000000000000e-01,2.24999999999957e-01,-1.12129438287185e-03
9.00700000000000e-08,7.50000000000000e-01,5.24999999999900e-01,-2.81128268970546e-04
9.01000000000000e-08,7.50000000000000e-01,7.49999999999957e-01,-3.51760582824434e-04
9.01080000000000e-08,7.50000000000000e-01,7.50000000000000e-01,-2.96459452903991e-04
9.01240000000000e-08,7.50000000000000e-01,7.50000000000000e-01,-2.20901269924509e-04
9.01560000000000e-08,7.50000000000000e-01,7.50000000000000e-01,-1.33540510768623e-04
9.02200000000000e-08,7.50000000000000e-01,7.50000000000000e-01,-5.19247029580200e-05
9.03480000000000e-08,7.50000000000000e-01,7.50000000000000e-01,4.69689579830901e-06
9.06040000000000e-08,7.50000000000000e-01,7.50000000000000e-01,6.53462540246147e-06
9.10810263538571e-08,7.50000000000000e-01,7.50000000000000e-01,9.29096019019332e-06
9.20350790615715e-08,7.50000000000000e-01,7.50000000000000e-01,6.15818421088529e-06
9.39431844770003e-08,7.50000000000000e-01,7.50000000000000e-01,9.27372710132421e-06
9.51000000000000e-08,7.50000000000000e-01,7.50000000000000e-01,6.28768737261434e-06
9.51100000000000e-08,6.75000000000076e-01,7.50000000000000e-01,-1.13624932300910e-04
9.51300000000000e-08,5.25000000000105e-01,7.50000000000000e-01,-2.58841545226610e-04
9.51700000000000e-08,2.25000000000162e-01,7.50000000000000e-01,1.37728322524525e-04
9.52000000000000e-08,1.05027098129540e-13,7.50000000000000e-01,8.66186522152687e-04
9.52080000000000e-08,0.00000000000000e+00,7.50000000000000e-01,9.77205748655313e-04
9.52240000000000e-08,0.00000000000000e+00,7.50000000000000e-01,5.31318580168513e-04
9.52560000000000e-08,0.00000000000000e+00,7.50000000000000e-01,-1.52272918354757e-03
9.53200000000000e-08,0.00000000000000e+00,7.50000000000000e-01,-2.09319118064073e-03
9.54480000000000e-08,0.00000000000000e+00,7.50000000000000e-01,-3.79580344424507e-04
9.56130361731773e-08,0.00000000000000e+00,7.50000000000000e-01,-1.51394013385431e-04
9.59431085195319e-08,0.00000000000000e+00,7.50000000000000e-01,-1.26049286404417e-06
9.62921921351975e-08,0.00000000000000e+00,7.50000000000000e-01,2.60436067554964e-04
9.69903593665289e-08,0.00000000000000e+00,7.50000000000000e-01,-2.67755210005587e-04
9.78266939788872e-08,0.00000000000000e+00,7.50000000000000e-01,2.83481113565156e-04
9.94993632036039e-08,0.00000000000000e+00,7.50000000000000e-01,-2.62600711352784e-04
1.02105642628866e-07,0.00000000000000e+00,7.50000000000000e-01,2.74872463192341e-04
1.05000000000000e-07,0.00000000000000e+00,7.50000000000000e-01,-2.54326077243067e-04
1.05010000000000e-07,7.49999999999858e-02,7.50000000000000e-01,1.81210320129299e-05
1.05030000000000e-07,2.24999999999957e-01,7.50000000000000e-01,4.38081779218502e-04
1.05070000000000e-07,5.24999999999900e-01,7.50000000000000e-01,1.02262389757472e-03
1.05100000000000e-07,7.49999999999957e-01,7.50000000000000e-01,7.79465469613411e-04
1.05108000000000e-07,7.50000000000000e-01,7.50000000000000e-01,2.90772658225066e-04
1.05124000000000e-07,7.50000000000000e-01,7.50000000000000e-01,-7.95636295705351e-04
1.05156000000000e-07,7.50000000000000e-01,7.50000000000000e-01,-3.09650618532673e-03
1.05220000000000e-07,7.50000000000000e-01,7.50000000000000e-01,-6.33799495655880e-03
1.05348000000000e-07,7.50000000000000e-01,7.50000000000000e-01,2.70939599446333e-02
1.05604000000000e-07,7.50000000000000e-01,7.50000000000000e-01,6.47534477472029e-01
1.06033076394957e-07,7.50000000000000e-01,7.50000000000000e-01,7.67692486220796e-01
1.06475520266249e-07,7.50000000000000e-01,7.50000000000000e-01,7.34537559509035e-01
1.07360408008833e-07,7.50000000000000e-01,7.50000000000000e-01,7.64746181224288e-01
1.08696338796679e-07,7.50000000000000e-01,7.50000000000000e-01,7.35137340471922e-01
1.10100000000000e-07,7.50000000000000e-01,7.50000000000000e-01,7.64201828035099e-01
