Time,v(clk),v(data),v(out),v(reset)
1.00000000000000e-08,7.00000000000000e-01,0.00000000000000e+00,-1.64775138774603e-05,0.00000000000000e+00
1.00100000000000e-08,7.00000000000000e-01,6.99999999999983e-02,-1.05734329538046e-05,0.00000000000000e+00
1.00300000000000e-08,7.00000000000000e-01,2.09999999999995e-01,-3.74295838769662e-06,0.00000000000000e+00
1.00700000000000e-08,7.00000000000000e-01,4.89999999999988e-01,-6.54221103749131e-07,0.00000000000000e+00
1.01000000000000e-08,7.00000000000000e-01,6.99999999999995e-01,1.39874890689451e-06,0.00000000000000e+00
1.01080000000000e-08,7.00000000000000e-01,7.00000000000000e-01,1.57600413555614e-06,0.00000000000000e+00
1.01240000000000e-08,7.00000000000000e-01,7.00000000000000e-01,2.37039630900104e-06,0.00000000000000e+00
1.01560000000000e-08,7.00000000000000e-01,7.00000000000000e-01,2.66945417329995e-06,0.00000000000000e+00
1.02200000000000e-08,7.00000000000000e-01,7.00000000000000e-01,3.10511744720104e-06,0.00000000000000e+00
1.03480000000000e-08,7.00000000000000e-01,7.00000000000000e-01,1.09391926999408e-06,0.00000000000000e+00
1.06040000000000e-08,7.00000000000000e-01,7.00000000000000e-01,2.79051514952625e-06,0.00000000000000e+00
1.11160000000000e-08,7.00000000000000e-01,7.00000000000000e-01,9.12120062775308e-07,0.00000000000000e+00
1.21400000000000e-08,7.00000000000000e-01,7.00000000000000e-01,2.31165580545254e-06,0.00000000000000e+00
1.41880000000000e-08,7.00000000000000e-01,7.00000000000000e-01,6.11114408786018e-07,0.00000000000000e+00
1.51000000000000e-08,7.00000000000000e-01,7.00000000000000e-01,1.91622613924126e-06,0.00000000000000e+00
1.51100000000000e-08,6.29999999999990e-01,7.00000000000000e-01,1.35978171209465e-04,7.00000000000099e-02
1.51300000000000e-08,4.89999999999994e-01,7.00000000000000e-01,1.98911354092578e-04,2.10000000000007e-01
1.51700000000000e-08,2.10000000000000e-01,7.00000000000000e-01,6.69370622318893e-05,4.90000000000000e-01
1.52000000000000e-08,0.00000000000000e+00,7.00000000000000e-01,1.14808638410450e-04,7.00000000000000e-01
1.52080000000000e-08,0.00000000000000e+00,7.00000000000000e-01,1.11659753830852e-04,7.00000000000000e-01
1.52240000000000e-08,0.00000000000000e+00,7.00000000000000e-01,8.01599896421701e-05,7.00000000000000e-01
1.52560000000000e-08,0.00000000000000e+00,7.00000000000000e-01,-5.55703202933105e-05,7.00000000000000e-01
1.53200000000000e-08,0.00000000000000e+00,7.00000000000000e-01,-2.40445230911206e-04,7.00000000000000e-01
1.54480000000000e-08,0.00000000000000e+00,7.00000000000000e-01,-3.18097450789645e-05,7.00000000000000e-01
1.57040000000000e-08,0.00000000000000e+00,7.00000000000000e-01,-7.98727187595119e-05,7.00000000000000e-01
1.60023123879459e-08,0.00000000000000e+00,7.00000000000000e-01,1.80318745006795e-04,7.00000000000000e-01
1.65989371638377e-08,0.00000000000000e+00,7.00000000000000e-01,-1.54838131880200e-04,7.00000000000000e-01
1.72316200971968e-08,0.00000000000000e+00,7.00000000000000e-01,1.34444927209575e-04,7.00000000000000e-01
1.84969859639150e-08,0.00000000000000e+00,7.00000000000000e-01,-1.22986780016154e-04,7.00000000000000e-01
2.07974784969876e-08,0.00000000000000e+00,7.00000000000000e-01,1.18524545259086e-04,7.00000000000000e-01
2.44241862184431e-08,0.00000000000000e+00,7.00000000000000e-01,-1.13990938475033e-04,7.00000000000000e-01
2.50000000000000e-08,0.00000000000000e+00,7.00000000000000e-01,9.41686382885092e-05,7.00000000000000e-01
2.50100000000000e-08,6.99999999999867e-02,7.00000000000000e-01,1.81616721239036e-04,7.00000000000000e-01
2.50300000000000e-08,2.10000000000007e-01,7.00000000000000e-01,2.71516820569404e-04,7.00000000000000e-01
2.50700000000000e-08,4.90000000000000e-01,7.00000000000000e-01,3.30130566561990e-05,7.00000000000000e-01
2.51000000000000e-08,7.00000000000000e-01,7.00000000000000e-01,-2.18278292010676e-03,7.00000000000000e-01
2.51080000000000e-08,7.00000000000000e-01,7.00000000000000e-01,-3.17796720181574e-03,7.00000000000000e-01
2.51240000000000e-08,7.00000000000000e-01,7.00000000000000e-01,-4.86816828065328e-03,7.00000000000000e-01
2.51560000000000e-08,7.00000000000000e-01,7.00000000000000e-01,-5.24456893676996e-03,7.00000000000000e-01
2.52200000000000e-08,7.00000000000000e-01,7.00000000000000e-01,9.14426243655033e-02,7.00000000000000e-01
2.53480000000000e-08,7.00000000000000e-01,7.00000000000000e-01,5.82950686120626e-01,7.00000000000000e-01
2.56040000000000e-08,7.00000000000000e-01,7.00000000000000e-01,7.25921012616084e-01,7.00000000000000e-01
2.58897451570033e-08,7.00000000000000e-01,7.00000000000000e-01,6.75815405499844e-01,7.00000000000000e-01
2.64586470092991e-08,7.00000000000000e-01,7.00000000000000e-01,7.21175234828965e-01,7.00000000000000e-01
2.72084167615257e-08,7.00000000000000e-01,7.00000000000000e-01,6.78740194564706e-01,7.00000000000000e-01
2.87079562659788e-08,7.00000000000000e-01,7.00000000000000e-01,7.19595848444416e-01,7.00000000000000e-01
3.17039659478593e-08,7.00000000000000e-01,7.00000000000000e-01,6.79611106083670e-01,7.00000000000000e-01
3.51000000000000e-08,6.99999999999965e-01,7.00000000000000e-01,7.19129596488766e-01,7.00000000000000e-01
3.51100000000000e-08,6.29999999999979e-01,7.00000000000000e-01,7.09147171369372e-01,7.00000000000000e-01
3.51300000000000e-08,4.89999999999959e-01,7.00000000000000e-01,6.99528051937408e-01,7.00000000000000e-01
3.51700000000000e-08,2.09999999999966e-01,7.00000000000000e-01,7.00916452067867e-01,7.00000000000000e-01
3.52000000000000e-08,0.00000000000000e+00,7.00000000000000e-01,7.02530434632544e-01,7.00000000000000e-01
3.52080000000000e-08,0.00000000000000e+00,7.00000000000000e-01,7.02636199153794e-01,7.00000000000000e-01
3.52240000000000e-08,0.00000000000000e+00,7.00000000000000e-01,7.01076725108420e-01,7.00000000000000e-01
3.52560000000000e-08,0.00000000000000e+00,7.00000000000000e-01,6.89221396501251e-01,7.00000000000000e-01
3.53200000000000e-08,0.00000000000000e+00,7.00000000000000e-01,6.73790868072274e-01,7.00000000000000e-01
3.54480000000000e-08,0.00000000000000e+00,7.00000000000000e-01,6.94621402876449e-01,7.00000000000000e-01
3.57040000000000e-08,0.00000000000000e+00,7.00000000000000e-01,7.02181670657211e-01,7.00000000000000e-01
3.60249317242970e-08,0.00000000000000e+00,7.00000000000000e-01,6.97718993950430e-01,7.00000000000000e-01
3.66667951728911e-08,0.00000000000000e+00,7.00000000000000e-01,7.01509052399154e-01,7.00000000000000e-01
3.79505220700793e-08,0.00000000000000e+00,7.00000000000000e-01,6.98324475360641e-01,7.00000000000000e-01
4.05179758644556e-08,0.00000000000000e+00,7.00000000000000e-01,7.01442526824358e-01,7.00000000000000e-01
4.43179758644556e-08,0.00000000000000e+00,7.00000000000000e-01,6.98476868895884e-01,7.00000000000000e-01
4.50000000000000e-08,0.00000000000000e+00,7.00000000000000e-01,7.01250433124198e-01,7.00000000000000e-01
4.50100000000000e-08,6.99999999999867e-02,7.00000000000000e-01,7.00712886290868e-01,6.30000000000013e-01
4.50300000000000e-08,2.10000000000007e-01,7.00000000000000e-01,7.00042791655113e-01,4.89999999999994e-01
4.50700000000000e-08,4.90000000000000e-01,7.00000000000000e-01,7.02393946968472e-01,2.10000000000000e-01
4.51000000000000e-08,7.00000000000000e-01,7.00000000000000e-01,7.09320788554643e-01,0.00000000000000e+00
4.51080000000000e-08,7.00000000000000e-01,7.00000000000000e-01,7.11707403043181e-01,0.00000000000000e+00
4.51240000000000e-08,7.00000000000000e-01,7.00000000000000e-01,7.16461227970401e-01,0.00000000000000e+00
4.51560000000000e-08,7.00000000000000e-01,7.00000000000000e-01,7.20618297408023e-01,0.00000000000000e+00
4.52200000000000e-08,7.00000000000000e-01,7.00000000000000e-01,4.71249683239420e-01,0.00000000000000e+00
4.53480000000000e-08,7.00000000000000e-01,7.00000000000000e-01,3.03712318961481e-03,0.00000000000000e+00
4.55405581418365e-08,7.00000000000000e-01,7.00000000000000e-01,-1.47490860380992e-03,0.00000000000000e+00
4.58676011764915e-08,7.00000000000000e-01,7.00000000000000e-01,7.12881656549767e-04,0.00000000000000e+00
4.62449636914299e-08,7.00000000000000e-01,7.00000000000000e-01,-4.11643358961976e-04,0.00000000000000e+00
4.69996887213068e-08,7.00000000000000e-01,7.00000000000000e-01,1.77482381248636e-04,0.00000000000000e+00
4.85091387810605e-08,7.00000000000000e-01,7.00000000000000e-01,-1.82470692254235e-04,0.00000000000000e+00
5.01000000000000e-08,7.00000000000000e-01,6.99999999999960e-01,4.97872619353514e-05,0.00000000000000e+00
5.04018900119507e-08,7.00000000000000e-01,7.00000000000000e-01,7.21929482393842e-05,0.00000000000000e+00
5.10056700358522e-08,7.00000000000000e-01,7.00000000000000e-01,-5.85920839612630e-05,0.00000000000000e+00
5.22132300836552e-08,7.00000000000000e-01,7.00000000000000e-01,5.45777821330650e-05,0.00000000000000e+00
5.46283501792612e-08,7.00000000000000e-01,7.00000000000000e-01,-5.10507126649331e-05,0.00000000000000e+00
5.51000000000000e-08,7.00000000000000e-01,7.00000000000000e-01,4.07633102982238e-05,0.00000000000000e+00
5.51100000000000e-08,6.30000000000025e-01,7.00000000000000e-01,1.67438161578076e-04,6.99999999999752e-02
5.51300000000000e-08,4.90000000000005e-01,7.00000000000000e-01,2.14576311464258e-04,2.09999999999995e-01
5.51700000000000e-08,2.10000000000012e-01,7.00000000000000e-01,6.38663795486522e-05,4.89999999999988e-01
5.52000000000000e-08,0.00000000000000e+00,7.00000000000000e-01,1.06391812607999e-04,7.00000000000000e-01
5.52080000000000e-08,0.00000000000000e+00,7.00000000000000e-01,9.32643546823417e-05,7.00000000000000e-01
5.52240000000000e-08,0.00000000000000e+00,7.00000000000000e-01,-9.61669318300107e-06,7.00000000000000e-01
5.52560000000000e-08,0.00000000000000e+00,7.00000000000000e-01,-6.68291806215769e-04,7.00000000000000e-01
5.53200000000000e-08,0.00000000000000e+00,7.00000000000000e-01,-9.13524291518614e-04,7.00000000000000e-01
5.54480000000000e-08,0.00000000000000e+00,7.00000000000000e-01,3.21999834914922e-04,7.00000000000000e-01
5.56741477520882e-08,0.00000000000000e+00,7.00000000000000e-01,-3.04938560832609e-04,7.00000000000000e-01
5.59819315265216e-08,0.00000000000000e+00,7.00000000000000e-01,2.32895903442469e-04,7.00000000000000e-01
5.65974990753883e-08,0.00000000000000e+00,7.00000000000000e-01,-1.65900349195113e-04,7.00000000000000e-01
5.72038433481334e-08,0.00000000000000e+00,7.00000000000000e-01,1.15142424842772e-04,7.00000000000000e-01
5.84165318936236e-08,0.00000000000000e+00,7.00000000000000e-01,-9.16583857567452e-05,7.00000000000000e-01
6.08419089846041e-08,0.00000000000000e+00,7.00000000000000e-01,8.28432522651736e-05,7.00000000000000e-01
6.45763128315881e-08,0.00000000000000e+00,7.00000000000000e-01,-7.53039521539510e-05,7.00000000000000e-01
6.50000000000000e-08,0.00000000000000e+00,7.00000000000000e-01,3.02542735807218e-05,7.00000000000000e-01
6.50100000000000e-08,6.99999999999867e-02,7.00000000000000e-01,1.50270458698282e-04,7.00000000000000e-01
6.50300000000000e-08,2.09999999999960e-01,7.00000000000000e-01,2.85791303335350e-04,7.00000000000000e-01
6.50700000000000e-08,4.89999999999907e-01,7.00000000000000e-01,3.53531542314975e-05,7.00000000000000e-01
6.51000000000000e-08,6.99999999999960e-01,7.00000000000000e-01,-2.20145286306508e-03,7.00000000000000e-01
6.51080000000000e-08,7.00000000000000e-01,7.00000000000000e-01,-3.19488561695908e-03,7.00000000000000e-01
6.51240000000000e-08,7.00000000000000e-01,7.00000000000000e-01,-4.88038884024401e-03,7.00000000000000e-01
6.51560000000000e-08,7.00000000000000e-01,7.00000000000000e-01,-5.19639193523612e-03,7.00000000000000e-01
6.52200000000000e-08,7.00000000000000e-01,7.00000000000000e-01,9.24031045585005e-02,7.00000000000000e-01
6.53480000000000e-08,7.00000000000000e-01,7.00000000000000e-01,5.83877194172610e-01,7.00000000000000e-01
6.56040000000000e-08,7.00000000000000e-01,7.00000000000000e-01,7.25799070550225e-01,7.00000000000000e-01
6.58900740501886e-08,7.00000000000000e-01,7.00000000000000e-01,6.75921333237657e-01,7.00000000000000e-01
6.64581251023169e-08,7.00000000000000e-01,7.00000000000000e-01,7.21077285122210e-01,7.00000000000000e-01
6.72078828165264e-08,7.00000000000000e-01,7.00000000000000e-01,6.78838493903578e-01,7.00000000000000e-01
6.87073982449456e-08,7.00000000000000e-01,7.00000000000000e-01,7.19505003337812e-01,7.00000000000000e-01
7.17064291017838e-08,7.00000000000000e-01,7.00000000000000e-01,6.79705561419787e-01,7.00000000000000e-01
7.51000000000000e-08,7.00000000000000e-01,7.00000000000000e-01,7.19040926869233e-01,7.00000000000000e-01
7.51100000000000e-08,6.30000000000071e-01,7.00000000000000e-01,7.09105903137212e-01,7.00000000000000e-01
7.51300000000000e-08,4.90000000000098e-01,7.00000000000000e-01,6.99531111686617e-01,7.00000000000000e-01
7.51700000000000e-08,2.10000000000151e-01,7.00000000000000e-01,7.00915720748260e-01,7.00000000000000e-01
7.52000000000000e-08,9.80326930744013e-14,7.00000000000000e-01,7.02531612589828e-01,7.00000000000000e-01
7.52080000000000e-08,0.00000000000000e+00,7.00000000000000e-01,7.02637872201161e-01,7.00000000000000e-01
7.52240000000000e-08,0.00000000000000e+00,7.00000000000000e-01,7.01080847821388e-01,7.00000000000000e-01
7.52560000000000e-08,0.00000000000000e+00,7.00000000000000e-01,6.89229557994427e-01,7.00000000000000e-01
7.53200000000000e-08,0.00000000000000e+00,7.00000000000000e-01,6.73793638863380e-01,7.00000000000000e-01
7.54480000000000e-08,0.00000000000000e+00,7.00000000000000e-01,6.94619322984510e-01,7.00000000000000e-01
7.57040000000000e-08,0.00000000000000e+00,7.00000000000000e-01,7.02183367983166e-01,7.00000000000000e-01
7.60249345015130e-08,0.00000000000000e+00,7.00000000000000e-01,6.97717648985943e-01,7.00000000000000e-01
7.66668035045390e-08,0.00000000000000e+00,7.00000000000000e-01,7.01510260683346e-01,7.00000000000000e-01
7.79505415105911e-08,0.00000000000000e+00,7.00000000000000e-01,6.98323328800034e-01,7.00000000000000e-01
8.05180175226952e-08,0.00000000000000e+00,7.00000000000000e-01,7.01443636576875e-01,7.00000000000000e-01
8.43180175226952e-08,0.00000000000000e+00,7.00000000000000e-01,6.98475773585778e-01,7.00000000000000e-01
8.50000000000000e-08,0.00000000000000e+00,7.00000000000000e-01,7.01251405707967e-01,7.00000000000000e-01
8.50100000000000e-08,6.99999999999867e-02,7.00000000000000e-01,7.00713522324266e-01,6.30000000000013e-01
8.50300000000000e-08,2.09999999999960e-01,7.00000000000000e-01,7.00041677305554e-01,4.90000000000040e-01
8.50700000000000e-08,4.89999999999907e-01,7.00000000000000e-01,7.02394026038266e-01,2.10000000000093e-01
8.51000000000000e-08,6.99999999999960e-01,7.00000000000000e-01,7.09320764764914e-01,4.00790511889682e-14
8.51080000000000e-08,7.00000000000000e-01,7.00000000000000e-01,7.11707409567684e-01,0.00000000000000e+00
8.51240000000000e-08,7.00000000000000e-01,7.00000000000000e-01,7.16461303111753e-01,0.00000000000000e+00
8.51560000000000e-08,7.00000000000000e-01,7.00000000000000e-01,7.20617894538269e-01,0.00000000000000e+00
8.52200000000000e-08,7.00000000000000e-01,7.00000000000000e-01,4.71246089493520e-01,0.00000000000000e+00
8.53480000000000e-08,7.00000000000000e-01,7.00000000000000e-01,3.03580455882502e-03,0.00000000000000e+00
8.55405566559359e-08,7.00000000000000e-01,7.00000000000000e-01,-1.47402612599008e-03,0.00000000000000e+00
8.58676081146195e-08,7.00000000000000e-01,7.00000000000000e-01,7.11078794773464e-04,0.00000000000000e+00
8.62449659790857e-08,7.00000000000000e-01,7.00000000000000e-01,-4.10231499609894e-04,0.00000000000000e+00
8.69996817080180e-08,7.00000000000000e-01,7.00000000000000e-01,1.76245595853021e-04,0.00000000000000e+00
8.85091131658826e-08,7.00000000000000e-01,7.00000000000000e-01,-1.81295995711732e-04,0.00000000000000e+00
9.01000000000000e-08,7.00000000000000e-01,6.99999999999960e-01,4.86893027159922e-05,0.00000000000000e+00
9.04018862915729e-08,7.00000000000000e-01,7.00000000000000e-01,7.21193279282165e-05,0.00000000000000e+00
9.10056588747188e-08,7.00000000000000e-01,7.00000000000000e-01,-5.85300668150485e-05,0.00000000000000e+00
9.22132040410105e-08,7.00000000000000e-01,7.00000000000000e-01,5.45206058251120e-05,0.00000000000000e+00
9.46282943735939e-08,7.00000000000000e-01,7.00000000000000e-01,-5.09956734176659e-05,0.00000000000000e+00
9.51000000000000e-08,7.00000000000000e-01,7.00000000000000e-01,4.07203684681563e-05,0.00000000000000e+00
9.51100000000000e-08,6.30000000000071e-01,7.00000000000000e-01,1.67410047230560e-04,6.99999999999288e-02
9.51300000000000e-08,4.90000000000098e-01,7.00000000000000e-01,2.14563635389332e-04,2.09999999999902e-01
9.51700000000000e-08,2.10000000000151e-01,7.00000000000000e-01,6.38644417464765e-05,4.89999999999849e-01
9.52000000000000e-08,9.80326930744013e-14,7.00000000000000e-01,1.06390885952219e-04,6.99999999999902e-01
9.52080000000000e-08,0.00000000000000e+00,7.00000000000000e-01,9.32626804378556e-05,7.00000000000000e-01
9.52240000000000e-08,0.00000000000000e+00,7.00000000000000e-01,-9.62139503440929e-06,7.00000000000000e-01
9.52560000000000e-08,0.00000000000000e+00,7.00000000000000e-01,-6.68310480542840e-04,7.00000000000000e-01
9.53200000000000e-08,0.00000000000000e+00,7.00000000000000e-01,-9.13561019507944e-04,7.00000000000000e-01
9.54480000000000e-08,0.00000000000000e+00,7.00000000000000e-01,3.22004817876431e-04,7.00000000000000e-01
9.56741597942707e-08,0.00000000000000e+00,7.00000000000000e-01,-3.04956234085997e-04,7.00000000000000e-01
9.59819389779438e-08,0.00000000000000e+00,7.00000000000000e-01,2.32915852336629e-04,7.00000000000000e-01
9.65974973452900e-08,0.00000000000000e+00,7.00000000000000e-01,-1.65912390945984e-04,7.00000000000000e-01
9.72038534650389e-08,0.00000000000000e+00,7.00000000000000e-01,1.15149970474299e-04,7.00000000000000e-01
9.84165657045367e-08,0.00000000000000e+00,7.00000000000000e-01,-9.16640018913946e-05,7.00000000000000e-01
1.00841990183532e-07,0.00000000000000e+00,7.00000000000000e-01,8.28480413741707e-05,7.00000000000000e-01
1.04576333301107e-07,0.00000000000000e+00,7.00000000000000e-01,-7.53079661561628e-05,7.00000000000000e-01
1.05000000000000e-07,0.00000000000000e+00,7.00000000000000e-01,3.02517378170681e-05,7.00000000000000e-01
1.05010000000000e-07,6.99999999999867e-02,7.00000000000000e-01,1.50272584641391e-04,7.00000000000000e-01
1.05030000000000e-07,2.09999999999960e-01,7.00000000000000e-01,2.85797107984563e-04,7.00000000000000e-01
1.05070000000000e-07,4.89999999999907e-01,7.00000000000000e-01,3.53626953752059e-05,7.00000000000000e-01
1.05100000000000e-07,6.99999999999960e-01,7.00000000000000e-01,-2.20143936839887e-03,7.00000000000000e-01
1.05108000000000e-07,7.00000000000000e-01,7.00000000000000e-01,-3.19487353525384e-03,7.00000000000000e-01
1.05124000000000e-07,7.00000000000000e-01,7.00000000000000e-01,-4.88038036801088e-03,7.00000000000000e-01
1.05156000000000e-07,7.00000000000000e-01,7.00000000000000e-01,-5.19640991895721e-03,7.00000000000000e-01
1.05220000000000e-07,7.00000000000000e-01,7.00000000000000e-01,9.24027284313027e-02,7.00000000000000e-01
1.05348000000000e-07,7.00000000000000e-01,7.00000000000000e-01,5.83876832983208e-01,7.00000000000000e-01
1.05604000000000e-07,7.00000000000000e-01,7.00000000000000e-01,7.25799118400233e-01,7.00000000000000e-01
1.05890073919806e-07,7.00000000000000e-01,7.00000000000000e-01,6.75921291666052e-01,7.00000000000000e-01
1.06458125303359e-07,7.00000000000000e-01,7.00000000000000e-01,7.21077323558968e-01,7.00000000000000e-01
1.07207883020622e-07,7.00000000000000e-01,7.00000000000000e-01,6.78838455328583e-01,7.00000000000000e-01
1.08707398455149e-07,7.00000000000000e-01,7.00000000000000e-01,7.19505038967430e-01,7.00000000000000e-01
1.11706429324203e-07,7.00000000000000e-01,7.00000000000000e-01,6.79705524249260e-01,7.00000000000000e-01
1.15100000000000e-07,7.00000000000000e-01,7.00000000000000e-01,7.19040961664037e-01,7.00000000000000e-01
1.15110000000000e-07,6.30000000000071e-01,7.00000000000000e-01,7.09105919308370e-01,7.00000000000000e-01
1.15130000000000e-07,4.90000000000098e-01,7.00000000000000e-01,6.99531110486865e-01,7.00000000000000e-01
1.15170000000000e-07,2.10000000000151e-01,7.00000000000000e-01,7.00915721027459e-01,7.00000000000000e-01
