Time,v(clk),v(data),v(out)
1.00000000000000e-08,6.00000000000000e-01,0.00000000000000e+00,3.03771570255747e-05
1.00100000000000e-08,6.00000000000000e-01,5.99999999999985e-02,1.98999297565117e-05
1.00300000000000e-08,6.00000000000000e-01,1.79999999999996e-01,5.83318598162963e-06
1.00700000000000e-08,6.00000000000000e-01,4.19999999999990e-01,2.79482113785257e-07
1.01000000000000e-08,6.00000000000000e-01,5.99999999999995e-01,-1.82995050888868e-06
1.01080000000000e-08,6.00000000000000e-01,6.00000000000000e-01,-1.83763628174016e-06
1.01240000000000e-08,6.00000000000000e-01,6.00000000000000e-01,1.97015106058462e-06
1.01560000000000e-08,6.00000000000000e-01,6.00000000000000e-01,6.91711634549785e-06
1.02200000000000e-08,6.00000000000000e-01,6.00000000000000e-01,4.50468021837014e-06
1.03480000000000e-08,6.00000000000000e-01,6.00000000000000e-01,-3.37003187092511e-07
1.06040000000000e-08,6.00000000000000e-01,6.00000000000000e-01,3.46186386373376e-06
1.11160000000000e-08,6.00000000000000e-01,6.00000000000000e-01,7.47821474827992e-07
1.21400000000000e-08,6.00000000000000e-01,6.00000000000000e-01,2.91122123086043e-06
1.41880000000000e-08,6.00000000000000e-01,6.00000000000000e-01,6.34931677700058e-07
1.51000000000000e-08,6.00000000000000e-01,6.00000000000000e-01,2.54200705238246e-06
1.51100000000000e-08,5.39999999999991e-01,6.00000000000000e-01,-1.12074378658775e-04
1.51300000000000e-08,4.19999999999994e-01,6.00000000000000e-01,-2.28934342433221e-04
1.51700000000000e-08,1.80000000000000e-01,6.00000000000000e-01,-4.05998755938219e-06
1.52000000000000e-08,0.00000000000000e+00,6.00000000000000e-01,6.63342648302340e-04
1.52080000000000e-08,0.00000000000000e+00,6.00000000000000e-01,8.85111422678067e-04
1.52240000000000e-08,0.00000000000000e+00,6.00000000000000e-01,9.59395586613190e-04
1.52560000000000e-08,0.00000000000000e+00,6.00000000000000e-01,6.93007598948775e-05
1.53200000000000e-08,0.00000000000000e+00,6.00000000000000e-01,-7.14975701601256e-04
1.54480000000000e-08,0.00000000000000e+00,6.00000000000000e-01,2.52830690789699e-04
1.56599282682286e-08,0.00000000000000e+00,6.00000000000000e-01,-2.95832537750593e-04
1.59662251078409e-08,0.00000000000000e+00,6.00000000000000e-01,1.95299716841117e-04
1.64624211889830e-08,0.00000000000000e+00,6.00000000000000e-01,-4.63502207837651e-05
1.71281319827404e-08,0.00000000000000e+00,6.00000000000000e-01,-2.28820346385075e-05
1.84176113652951e-08,0.00000000000000e+00,6.00000000000000e-01,5.12336631236501e-05
2.09965701304045e-08,0.00000000000000e+00,6.00000000000000e-01,-6.08914457555045e-05
2.47965701304045e-08,0.00000000000000e+00,6.00000000000000e-01,6.95135542407225e-05
2.50000000000000e-08,0.00000000000000e+00,6.00000000000000e-01,-1.32622850966699e-04
2.50100000000000e-08,5.99999999999886e-02,6.00000000000000e-01,1.31100340352741e-04
2.50300000000000e-08,1.80000000000006e-01,6.00000000000000e-01,4.95133479119392e-04
2.50700000000000e-08,4.20000000000000e-01,6.00000000000000e-01,7.86313297692506e-04
2.51000000000000e-08,6.00000000000000e-01,6.00000000000000e-01,-1.79404307097591e-04
2.51080000000000e-08,6.00000000000000e-01,6.00000000000000e-01,-9.81900990045095e-04
2.51240000000000e-08,6.00000000000000e-01,6.00000000000000e-01,-2.59636768324975e-03
2.51560000000000e-08,6.00000000000000e-01,6.00000000000000e-01,-5.12675818717064e-03
2.52200000000000e-08,6.00000000000000e-01,6.00000000000000e-01,-6.44164162910529e-03
2.53480000000000e-08,6.00000000000000e-01,6.00000000000000e-01,1.72963156591700e-01
2.56040000000000e-08,6.00000000000000e-01,6.00000000000000e-01,5.89738255584297e-01
2.60789404672107e-08,6.00000000000000e-01,6.00000000000000e-01,6.02641037785330e-01
2.66293800604284e-08,6.00000000000000e-01,6.00000000000000e-01,5.97453159655758e-01
2.74906973789446e-08,6.00000000000000e-01,6.00000000000000e-01,6.02067455677077e-01
2.87693285988181e-08,6.00000000000000e-01,6.00000000000000e-01,5.97881602556367e-01
3.01000000000000e-08,6.00000000000000e-01,6.00000000000000e-01,6.01883044844772e-01
3.01100000000000e-08,6.00000000000000e-01,5.40000000000031e-01,6.00943034497994e-01
3.01300000000000e-08,6.00000000000000e-01,4.20000000000014e-01,6.00046456661635e-01
3.01700000000000e-08,6.00000000000000e-01,1.80000000000020e-01,6.00103402505461e-01
3.02000000000000e-08,6.00000000000000e-01,1.44328993201270e-14,6.00068330539091e-01
3.02080000000000e-08,6.00000000000000e-01,0.00000000000000e+00,6.00062079876441e-01
3.02240000000000e-08,6.00000000000000e-01,0.00000000000000e+00,6.00034659250681e-01
3.02560000000000e-08,6.00000000000000e-01,0.00000000000000e+00,5.99963993997996e-01
3.03200000000000e-08,6.00000000000000e-01,0.00000000000000e+00,6.00018401536366e-01
3.04480000000000e-08,6.00000000000000e-01,0.00000000000000e+00,6.00002376714951e-01
3.06584204717653e-08,6.00000000000000e-01,0.00000000000000e+00,5.99984348984469e-01
3.09584049635938e-08,6.00000000000000e-01,0.00000000000000e+00,6.00003540811712e-01
3.15583739472508e-08,6.00000000000000e-01,0.00000000000000e+00,5.99985075246185e-01
3.27583119145647e-08,6.00000000000000e-01,0.00000000000000e+00,6.00003962590729e-01
3.51000000000000e-08,5.99999999999970e-01,0.00000000000000e+00,5.99986369546178e-01
3.51100000000000e-08,5.39999999999982e-01,0.00000000000000e+00,5.99896201828872e-01
3.51300000000000e-08,4.19999999999965e-01,0.00000000000000e+00,5.99836539949335e-01
3.51700000000000e-08,1.79999999999970e-01,0.00000000000000e+00,6.00905851388575e-01
3.52000000000000e-08,0.00000000000000e+00,0.00000000000000e+00,6.04169791217241e-01
3.52080000000000e-08,0.00000000000000e+00,0.00000000000000e+00,6.04837184570817e-01
3.52240000000000e-08,0.00000000000000e+00,0.00000000000000e+00,6.04165777263198e-01
3.52560000000000e-08,0.00000000000000e+00,0.00000000000000e+00,5.94195003122523e-01
3.53200000000000e-08,0.00000000000000e+00,0.00000000000000e+00,5.87833043053419e-01
3.54480000000000e-08,0.00000000000000e+00,0.00000000000000e+00,6.01028584551363e-01
3.56581535735452e-08,0.00000000000000e+00,0.00000000000000e+00,5.98479948742569e-01
3.59552543552241e-08,0.00000000000000e+00,0.00000000000000e+00,6.00815086791909e-01
3.64577604382519e-08,0.00000000000000e+00,0.00000000000000e+00,5.98975158786918e-01
3.74212291403609e-08,0.00000000000000e+00,0.00000000000000e+00,6.00791229014110e-01
3.91000000000000e-08,0.00000000000000e+00,0.00000000000000e+00,5.99125856757652e-01
3.92926937404218e-08,0.00000000000000e+00,0.00000000000000e+00,5.99906830523420e-01
3.96780812212654e-08,0.00000000000000e+00,0.00000000000000e+00,6.00009982882304e-01
4.04488561829526e-08,0.00000000000000e+00,0.00000000000000e+00,5.99923965630731e-01
4.19904061063270e-08,0.00000000000000e+00,0.00000000000000e+00,6.00014760982727e-01
4.50000000000000e-08,0.00000000000000e+00,0.00000000000000e+00,5.99936963317498e-01
4.50100000000000e-08,5.99999999999886e-02,0.00000000000000e+00,6.00052208438106e-01
4.50300000000000e-08,1.80000000000006e-01,0.00000000000000e+00,6.00111268891435e-01
4.50700000000000e-08,4.20000000000000e-01,0.00000000000000e+00,5.99977181015185e-01
4.51000000000000e-08,6.00000000000000e-01,0.00000000000000e+00,5.99821767999631e-01
4.51080000000000e-08,6.00000000000000e-01,0.00000000000000e+00,5.99735548351782e-01
4.51240000000000e-08,6.00000000000000e-01,0.00000000000000e+00,5.99684502187302e-01
4.51560000000000e-08,6.00000000000000e-01,0.00000000000000e+00,5.99751006375439e-01
4.52200000000000e-08,6.00000000000000e-01,0.00000000000000e+00,6.00080567344310e-01
4.53480000000000e-08,6.00000000000000e-01,0.00000000000000e+00,6.13049737254860e-01
4.56040000000000e-08,6.00000000000000e-01,0.00000000000000e+00,2.08181209006984e-01
4.59557275139149e-08,6.00000000000000e-01,0.00000000000000e+00,-6.47499203117540e-02
4.64154163019555e-08,6.00000000000000e-01,0.00000000000000e+00,5.25068549912641e-02
4.71577355809350e-08,6.00000000000000e-01,0.00000000000000e+00,-3.63922531174797e-02
4.80843551867939e-08,6.00000000000000e-01,0.00000000000000e+00,3.35262785349989e-02
4.99090926847905e-08,6.00000000000000e-01,0.00000000000000e+00,-2.79503090614199e-02
5.00000000000000e-08,6.00000000000000e-01,0.00000000000000e+00,1.85515989681076e-03
5.00100000000000e-08,6.00000000000000e-01,5.99999999999886e-02,1.75043407116875e-03
5.00300000000000e-08,6.00000000000000e-01,1.79999999999966e-01,1.18433682433233e-03
5.00700000000000e-08,6.00000000000000e-01,4.20000000000000e-01,3.15842152231058e-04
5.01000000000000e-08,6.00000000000000e-01,6.00000000000000e-01,1.83329283441613e-04
5.01080000000000e-08,6.00000000000000e-01,6.00000000000000e-01,1.39947659139397e-04
5.01240000000000e-08,6.00000000000000e-01,6.00000000000000e-01,8.76102571554238e-05
5.01560000000000e-08,6.00000000000000e-01,6.00000000000000e-01,4.45584929189419e-05
5.02200000000000e-08,6.00000000000000e-01,6.00000000000000e-01,1.97764215970758e-06
5.03480000000000e-08,6.00000000000000e-01,6.00000000000000e-01,-8.79126803925850e-06
5.06040000000000e-08,6.00000000000000e-01,6.00000000000000e-01,4.43172582798718e-06
5.11160000000001e-08,6.00000000000000e-01,6.00000000000000e-01,-2.87550172794505e-06
5.21400000000002e-08,6.00000000000000e-01,6.00000000000000e-01,2.70707665678358e-06
5.41880000000003e-08,6.00000000000000e-01,6.00000000000000e-01,-2.02736647308098e-06
5.51000000000000e-08,6.00000000000000e-01,6.00000000000000e-01,2.34166113955749e-06
5.51100000000000e-08,5.40000000000021e-01,6.00000000000000e-01,-1.08229371741889e-04
5.51300000000000e-08,4.20000000000004e-01,6.00000000000000e-01,-2.16231495988164e-04
5.51700000000000e-08,1.80000000000010e-01,6.00000000000000e-01,1.40801134509427e-05
5.52000000000000e-08,0.00000000000000e+00,6.00000000000000e-01,6.51813621767375e-04
5.52080000000000e-08,0.00000000000000e+00,6.00000000000000e-01,8.47214550856221e-04
5.52240000000000e-08,0.00000000000000e+00,6.00000000000000e-01,7.76425711676965e-04
5.52560000000000e-08,0.00000000000000e+00,6.00000000000000e-01,-8.62631883953857e-04
5.53200000000000e-08,0.00000000000000e+00,6.00000000000000e-01,-1.74835636490629e-03
5.54480000000000e-08,0.00000000000000e+00,6.00000000000000e-01,3.94582999206534e-04
5.56590283957953e-08,0.00000000000000e+00,6.00000000000000e-01,-3.27092342049747e-04
5.59674892888950e-08,0.00000000000000e+00,6.00000000000000e-01,1.98939510017097e-04
5.64608566201361e-08,0.00000000000000e+00,6.00000000000000e-01,-4.04019364980308e-05
5.71283837232691e-08,0.00000000000000e+00,6.00000000000000e-01,-3.09960800021804e-05
5.84135958504886e-08,0.00000000000000e+00,6.00000000000000e-01,6.02494034578939e-05
6.09840201049277e-08,0.00000000000000e+00,6.00000000000000e-01,-7.03050929872885e-05
6.47840201049277e-08,0.00000000000000e+00,6.00000000000000e-01,7.90550179801436e-05
6.50000000000000e-08,0.00000000000000e+00,6.00000000000000e-01,-1.39692892114646e-04
6.50100000000000e-08,5.99999999999886e-02,6.00000000000000e-01,1.20307465415234e-04
6.50300000000000e-08,1.79999999999966e-01,6.00000000000000e-01,4.91177887661690e-04
6.50700000000000e-08,4.19999999999920e-01,6.00000000000000e-01,7.92460658820604e-04
6.51000000000000e-08,5.99999999999966e-01,6.00000000000000e-01,-1.66988652164954e-04
6.51080000000000e-08,6.00000000000000e-01,6.00000000000000e-01,-9.66258316973653e-04
6.51240000000000e-08,6.00000000000000e-01,6.00000000000000e-01,-2.57884662600789e-03
6.51560000000000e-08,6.00000000000000e-01,6.00000000000000e-01,-5.11646296690269e-03
6.52200000000000e-08,6.00000000000000e-01,6.00000000000000e-01,-6.45198012384152e-03
6.53480000000000e-08,6.00000000000000e-01,6.00000000000000e-01,1.72520631253994e-01
6.56040000000000e-08,6.00000000000000e-01,6.00000000000000e-01,5.89636216621600e-01
6.60799114054991e-08,6.00000000000000e-01,6.00000000000000e-01,6.02681270204288e-01
6.66299372814675e-08,6.00000000000000e-01,6.00000000000000e-01,5.97408886497624e-01
6.74923695616273e-08,6.00000000000000e-01,6.00000000000000e-01,6.02105179571902e-01
6.87711586366494e-08,6.00000000000000e-01,6.00000000000000e-01,5.97841196613707e-01
7.01000000000000e-08,6.00000000000000e-01,6.00000000000000e-01,6.01919108291329e-01
7.01100000000000e-08,6.00000000000000e-01,5.40000000000011e-01,6.00957723698749e-01
7.01300000000000e-08,6.00000000000000e-01,4.20000000000034e-01,6.00043986182730e-01
7.01700000000000e-08,6.00000000000000e-01,1.80000000000080e-01,6.00105135338591e-01
7.02000000000000e-08,6.00000000000000e-01,3.44169137633799e-14,6.00067856688456e-01
7.02080000000000e-08,6.00000000000000e-01,0.00000000000000e+00,6.00062055491464e-01
7.02240000000000e-08,6.00000000000000e-01,0.00000000000000e+00,6.00034924060743e-01
7.02560000000000e-08,6.00000000000000e-01,0.00000000000000e+00,5.99964115720849e-01
7.03200000000000e-08,6.00000000000000e-01,0.00000000000000e+00,6.00018478320670e-01
7.04480000000000e-08,6.00000000000000e-01,0.00000000000000e+00,6.00002411835051e-01
7.06584203388189e-08,6.00000000000000e-01,0.00000000000000e+00,5.99984337883648e-01
7.09584026284045e-08,6.00000000000000e-01,0.00000000000000e+00,6.00003551656520e-01
7.15583672075757e-08,6.00000000000000e-01,0.00000000000000e+00,5.99985065893108e-01
7.27582963659182e-08,6.00000000000000e-01,0.00000000000000e+00,6.00003972421754e-01
7.51000000000000e-08,6.00000000000000e-01,0.00000000000000e+00,5.99986360550930e-01
7.51100000000000e-08,5.40000000000061e-01,0.00000000000000e+00,5.99896197597195e-01
7.51300000000000e-08,4.20000000000084e-01,0.00000000000000e+00,5.99836540292983e-01
7.51700000000000e-08,1.80000000000129e-01,0.00000000000000e+00,6.00905851497735e-01
7.52000000000000e-08,8.40438829641244e-14,0.00000000000000e+00,6.04169799831147e-01
7.52080000000000e-08,0.00000000000000e+00,0.00000000000000e+00,6.04837206147893e-01
7.52240000000000e-08,0.00000000000000e+00,0.00000000000000e+00,6.04165854586319e-01
7.52560000000000e-08,0.00000000000000e+00,0.00000000000000e+00,5.94195140139279e-01
7.53200000000000e-08,0.00000000000000e+00,0.00000000000000e+00,5.87833056882547e-01
7.54480000000000e-08,0.00000000000000e+00,0.00000000000000e+00,6.01028561283356e-01
7.56581535872124e-08,0.00000000000000e+00,0.00000000000000e+00,5.98479969158457e-01
7.59552543788516e-08,0.00000000000000e+00,0.00000000000000e+00,6.00815070499271e-01
7.64577604721751e-08,0.00000000000000e+00,0.00000000000000e+00,5.98975173915889e-01
7.74212291556893e-08,0.00000000000000e+00,0.00000000000000e+00,6.00791214820186e-01
7.81000000000000e-08,0.00000000000000e+00,0.00000000000000e+00,5.99150115590301e-01
7.82926937367029e-08,0.00000000000000e+00,0.00000000000000e+00,5.99898060767163e-01
7.86780812101086e-08,0.00000000000000e+00,0.00000000000000e+00,5.99998748491634e-01
7.94488561569200e-08,0.00000000000000e+00,0.00000000000000e+00,5.99919734493587e-01
8.09904060505428e-08,0.00000000000000e+00,0.00000000000000e+00,6.00009536170936e-01
8.40735058377885e-08,0.00000000000000e+00,0.00000000000000e+00,5.99937392603648e-01
8.50000000000000e-08,0.00000000000000e+00,0.00000000000000e+00,6.00015578535964e-01
8.50100000000000e-08,5.99999999999886e-02,0.00000000000000e+00,6.00101002892552e-01
8.50300000000000e-08,1.79999999999966e-01,0.00000000000000e+00,6.00119515349850e-01
8.50700000000000e-08,4.19999999999920e-01,0.00000000000000e+00,5.99977022417294e-01
8.51000000000000e-08,5.99999999999966e-01,0.00000000000000e+00,5.99808047961992e-01
8.51080000000000e-08,6.00000000000000e-01,0.00000000000000e+00,5.99736090289795e-01
8.51240000000000e-08,6.00000000000000e-01,0.00000000000000e+00,5.99663720293313e-01
8.51560000000000e-08,6.00000000000000e-01,0.00000000000000e+00,5.99759332405559e-01
8.52200000000000e-08,6.00000000000000e-01,0.00000000000000e+00,6.00071533879529e-01
8.53480000000000e-08,6.00000000000000e-01,0.00000000000000e+00,6.13064618093714e-01
8.56040000000000e-08,6.00000000000000e-01,0.00000000000000e+00,2.08160616168194e-01
8.59556309502093e-08,6.00000000000000e-01,0.00000000000000e+00,-6.47291709276986e-02
8.64153317556354e-08,6.00000000000000e-01,0.00000000000000e+00,5.24893825167347e-02
8.71571330735937e-08,6.00000000000000e-01,0.00000000000000e+00,-3.63743078319132e-02
8.80838215370780e-08,6.00000000000000e-01,0.00000000000000e+00,3.35093976634131e-02
8.99080377592054e-08,6.00000000000000e-01,0.00000000000000e+00,-2.79356404683777e-02
9.00000000000000e-08,6.00000000000000e-01,0.00000000000000e+00,2.01743387836408e-03
9.00100000000000e-08,6.00000000000000e-01,5.99999999999886e-02,1.88028955877978e-03
9.00300000000000e-08,6.00000000000000e-01,1.79999999999966e-01,1.26328857767710e-03
9.00700000000000e-08,6.00000000000000e-01,4.19999999999920e-01,3.41867350030167e-04
9.01000000000000e-08,6.00000000000000e-01,5.99999999999966e-01,1.95031306493301e-04
9.01080000000000e-08,6.00000000000000e-01,6.00000000000000e-01,1.49654102485408e-04
9.01240000000000e-08,6.00000000000000e-01,6.00000000000000e-01,9.39909845746462e-05
9.01560000000000e-08,6.00000000000000e-01,6.00000000000000e-01,4.73257598644083e-05
9.02200000000000e-08,6.00000000000000e-01,6.00000000000000e-01,1.69022290062715e-06
9.03480000000000e-08,6.00000000000000e-01,6.00000000000000e-01,-9.76987791390105e-06
9.06040000000000e-08,6.00000000000000e-01,6.00000000000000e-01,4.94921895246095e-06
9.11159999999999e-08,6.00000000000000e-01,6.00000000000000e-01,-3.26075414986381e-06
9.21399999999999e-08,6.00000000000000e-01,6.00000000000000e-01,3.05172561719524e-06
9.41879999999998e-08,6.00000000000000e-01,6.00000000000000e-01,-2.32946031476083e-06
9.51000000000000e-08,6.00000000000000e-01,6.00000000000000e-01,2.64610613487197e-06
9.51100000000000e-08,5.40000000000061e-01,6.00000000000000e-01,-1.06415142179656e-04
9.51300000000000e-08,4.20000000000084e-01,6.00000000000000e-01,-2.14370058261165e-04
9.51700000000000e-08,1.80000000000129e-01,6.00000000000000e-01,1.57475854667549e-05
9.52000000000000e-08,8.40438829641244e-14,6.00000000000000e-01,6.52554021402976e-04
9.52080000000000e-08,0.00000000000000e+00,6.00000000000000e-01,8.47775953190633e-04
9.52240000000000e-08,0.00000000000000e+00,6.00000000000000e-01,7.76592402567625e-04
9.52560000000000e-08,0.00000000000000e+00,6.00000000000000e-01,-8.63253838023659e-04
9.53200000000000e-08,0.00000000000000e+00,6.00000000000000e-01,-1.74993107365543e-03
9.54480000000000e-08,0.00000000000000e+00,6.00000000000000e-01,3.94415541922655e-04
9.56590282268511e-08,0.00000000000000e+00,6.00000000000000e-01,-3.26798320482585e-04
9.59674887052719e-08,0.00000000000000e+00,6.00000000000000e-01,1.98647159542719e-04
9.64608553314519e-08,0.00000000000000e+00,6.00000000000000e-01,-4.01269454445158e-05
9.71283826019642e-08,0.00000000000000e+00,6.00000000000000e-01,-3.12589203872813e-05
9.84135924439988e-08,0.00000000000000e+00,6.00000000000000e-01,6.05032517311897e-05
1.00984012128068e-07,0.00000000000000e+00,6.00000000000000e-01,-7.05561546250318e-05
1.04784012128068e-07,0.00000000000000e+00,6.00000000000000e-01,7.93021454644455e-05
1.05000000000000e-07,0.00000000000000e+00,6.00000000000000e-01,-1.39891380844252e-04
1.05010000000000e-07,5.99999999999886e-02,6.00000000000000e-01,1.20200806062190e-04
1.05030000000000e-07,1.79999999999966e-01,6.00000000000000e-01,4.91160383412764e-04
1.05070000000000e-07,4.19999999999920e-01,6.00000000000000e-01,7.92461016978177e-04
1.05100000000000e-07,5.99999999999966e-01,6.00000000000000e-01,-1.66984426834091e-04
1.05108000000000e-07,6.00000000000000e-01,6.00000000000000e-01,-9.66256748590050e-04
1.05124000000000e-07,6.00000000000000e-01,6.00000000000000e-01,-2.57884699303046e-03
1.05156000000000e-07,6.00000000000000e-01,6.00000000000000e-01,-5.11646285044925e-03
1.05220000000000e-07,6.00000000000000e-01,6.00000000000000e-01,-6.45197905620025e-03
1.05348000000000e-07,6.00000000000000e-01,6.00000000000000e-01,1.72520682960792e-01
1.05604000000000e-07,6.00000000000000e-01,6.00000000000000e-01,5.89636228370997e-01
1.06079911289678e-07,6.00000000000000e-01,6.00000000000000e-01,6.02681265726198e-01
1.06629937197981e-07,6.00000000000000e-01,6.00000000000000e-01,5.97408891433856e-01
1.07492369354240e-07,6.00000000000000e-01,6.00000000000000e-01,6.02105175374607e-01
1.08771158427653e-07,6.00000000000000e-01,6.00000000000000e-01,5.97841201088156e-01
