Time,v(clk),v(data),v(out)
1.00000000000000e-08,6.00000000000000e-01,0.00000000000000e+00,3.76525307110159e-06
1.00100000000000e-08,6.00000000000000e-01,5.99999999999985e-02,1.12286139032219e-05
1.00300000000000e-08,6.00000000000000e-01,1.79999999999996e-01,1.69109292999514e-05
1.00700000000000e-08,6.00000000000000e-01,4.19999999999990e-01,1.15132123074957e-05
1.01000000000000e-08,6.00000000000000e-01,5.99999999999995e-01,9.13101862440313e-06
1.01080000000000e-08,6.00000000000000e-01,6.00000000000000e-01,7.83992761607677e-06
1.01240000000000e-08,6.00000000000000e-01,6.00000000000000e-01,7.01102569880541e-06
1.01560000000000e-08,6.00000000000000e-01,6.00000000000000e-01,1.68632327300217e-05
1.02200000000000e-08,6.00000000000000e-01,6.00000000000000e-01,2.26293961676088e-05
1.03480000000000e-08,6.00000000000000e-01,6.00000000000000e-01,2.10478772839362e-05
1.06040000000000e-08,6.00000000000000e-01,6.00000000000000e-01,1.97893134410501e-05
1.11140362771337e-08,6.00000000000000e-01,6.00000000000000e-01,2.04559338964107e-05
1.21341088314011e-08,6.00000000000000e-01,6.00000000000000e-01,1.89364334112901e-05
1.41742539399359e-08,6.00000000000000e-01,6.00000000000000e-01,1.95013793321090e-05
1.51000000000000e-08,6.00000000000000e-01,6.00000000000000e-01,1.80427521761714e-05
1.51100000000000e-08,5.39999999999991e-01,6.00000000000000e-01,-1.28465886980095e-04
1.51300000000000e-08,4.19999999999994e-01,6.00000000000000e-01,-3.43436684389298e-04
1.51700000000000e-08,1.80000000000000e-01,6.00000000000000e-01,-2.41103120358882e-04
1.52000000000000e-08,0.00000000000000e+00,6.00000000000000e-01,4.74102349037539e-04
1.52080000000000e-08,0.00000000000000e+00,6.00000000000000e-01,8.01709592533797e-04
1.52240000000000e-08,0.00000000000000e+00,6.00000000000000e-01,1.19170890764073e-03
1.52560000000000e-08,0.00000000000000e+00,6.00000000000000e-01,1.09330015784961e-03
1.53200000000000e-08,0.00000000000000e+00,6.00000000000000e-01,-1.07706959060913e-04
1.54480000000000e-08,0.00000000000000e+00,6.00000000000000e-01,-6.97714631613160e-04
1.57040000000000e-08,0.00000000000000e+00,6.00000000000000e-01,2.99801246505575e-04
1.60606323977588e-08,0.00000000000000e+00,6.00000000000000e-01,-3.37589237133507e-04
1.67738971932762e-08,0.00000000000000e+00,6.00000000000000e-01,2.88320306573525e-04
1.76663663214817e-08,0.00000000000000e+00,6.00000000000000e-01,-9.06184976559553e-05
1.89459720173141e-08,0.00000000000000e+00,6.00000000000000e-01,5.27263657890634e-05
2.14842696559117e-08,0.00000000000000e+00,6.00000000000000e-01,7.17496591165490e-06
2.50000000000000e-08,0.00000000000000e+00,6.00000000000000e-01,9.99628285695137e-06
2.50100000000000e-08,5.99999999999886e-02,6.00000000000000e-01,2.79287144668197e-04
2.50300000000000e-08,1.80000000000006e-01,6.00000000000000e-01,7.11628814349302e-04
2.50700000000000e-08,4.20000000000000e-01,6.00000000000000e-01,1.23163071061347e-03
2.51000000000000e-08,6.00000000000000e-01,6.00000000000000e-01,1.31993099496674e-03
2.51080000000000e-08,6.00000000000000e-01,6.00000000000000e-01,1.10308901003538e-03
2.51240000000000e-08,6.00000000000000e-01,6.00000000000000e-01,5.89768252194783e-04
2.51560000000000e-08,6.00000000000000e-01,6.00000000000000e-01,-8.45299580463130e-04
2.52200000000000e-08,6.00000000000000e-01,6.00000000000000e-01,-3.77619533444790e-03
2.53480000000000e-08,6.00000000000000e-01,6.00000000000000e-01,-5.93275515297617e-03
2.56040000000000e-08,6.00000000000000e-01,6.00000000000000e-01,1.53489513967018e-01
2.61160000000000e-08,6.00000000000000e-01,6.00000000000000e-01,5.86227096917115e-01
2.71400000000000e-08,6.00000000000000e-01,6.00000000000000e-01,6.04026018532820e-01
2.82136128529919e-08,6.00000000000000e-01,6.00000000000000e-01,5.95797180199886e-01
2.99917097071012e-08,6.00000000000000e-01,6.00000000000000e-01,6.03566392743856e-01
3.01000000000000e-08,6.00000000000000e-01,6.00000000000000e-01,5.97985578247375e-01
3.01100000000000e-08,6.00000000000000e-01,5.40000000000031e-01,5.98847411891168e-01
3.01300000000000e-08,6.00000000000000e-01,4.20000000000014e-01,5.99829194741939e-01
3.01700000000000e-08,6.00000000000000e-01,1.80000000000020e-01,6.00085110368503e-01
3.02000000000000e-08,6.00000000000000e-01,1.44328993201270e-14,6.00098603038153e-01
3.02080000000000e-08,6.00000000000000e-01,0.00000000000000e+00,6.00093047957255e-01
3.02240000000000e-08,6.00000000000000e-01,0.00000000000000e+00,6.00071427864774e-01
3.02560000000000e-08,6.00000000000000e-01,0.00000000000000e+00,6.00016936769941e-01
3.03200000000000e-08,6.00000000000000e-01,0.00000000000000e+00,5.99963011998833e-01
3.04480000000000e-08,6.00000000000000e-01,0.00000000000000e+00,6.00011150740654e-01
3.07040000000000e-08,6.00000000000000e-01,0.00000000000000e+00,5.99983562891169e-01
3.10579025479956e-08,6.00000000000000e-01,0.00000000000000e+00,5.99975251630463e-01
3.16678624613942e-08,6.00000000000000e-01,0.00000000000000e+00,5.99987142560569e-01
3.28877822881915e-08,6.00000000000000e-01,0.00000000000000e+00,5.99977156846032e-01
3.51000000000000e-08,5.99999999999970e-01,0.00000000000000e+00,5.99992061493969e-01
3.51100000000000e-08,5.39999999999982e-01,0.00000000000000e+00,5.99863202503092e-01
3.51300000000000e-08,4.19999999999965e-01,0.00000000000000e+00,5.99738891132921e-01
3.51700000000000e-08,1.79999999999970e-01,0.00000000000000e+00,6.00835355785322e-01
3.52000000000000e-08,0.00000000000000e+00,0.00000000000000e+00,6.03881885224393e-01
3.52080000000000e-08,0.00000000000000e+00,0.00000000000000e+00,6.04692052158106e-01
3.52240000000000e-08,0.00000000000000e+00,0.00000000000000e+00,6.05617134046168e-01
3.52560000000000e-08,0.00000000000000e+00,0.00000000000000e+00,6.03642700858424e-01
3.53200000000000e-08,0.00000000000000e+00,0.00000000000000e+00,5.91186366291766e-01
3.54480000000000e-08,0.00000000000000e+00,0.00000000000000e+00,5.89455355080502e-01
3.56903928226774e-08,0.00000000000000e+00,0.00000000000000e+00,6.02488428135343e-01
3.60485649503559e-08,0.00000000000000e+00,0.00000000000000e+00,5.97049258406329e-01
3.66740068560855e-08,0.00000000000000e+00,0.00000000000000e+00,6.01854766827727e-01
3.75808849271467e-08,0.00000000000000e+00,0.00000000000000e+00,5.97944592876978e-01
3.91000000000000e-08,0.00000000000000e+00,0.00000000000000e+00,6.01661977922059e-01
3.92813756142122e-08,0.00000000000000e+00,0.00000000000000e+00,6.00100871709936e-01
3.96441268426367e-08,0.00000000000000e+00,0.00000000000000e+00,5.99752269855066e-01
4.03696292994856e-08,0.00000000000000e+00,0.00000000000000e+00,6.00046477678765e-01
4.18206342131834e-08,0.00000000000000e+00,0.00000000000000e+00,5.99803113558462e-01
4.47226440405790e-08,0.00000000000000e+00,0.00000000000000e+00,6.00058012243698e-01
4.50000000000000e-08,0.00000000000000e+00,0.00000000000000e+00,5.99856132166954e-01
4.50100000000000e-08,5.99999999999886e-02,0.00000000000000e+00,6.00010893504380e-01
4.50300000000000e-08,1.80000000000006e-01,0.00000000000000e+00,6.00162923265886e-01
4.50700000000000e-08,4.20000000000000e-01,0.00000000000000e+00,6.00070985899130e-01
4.51000000000000e-08,6.00000000000000e-01,0.00000000000000e+00,5.99924745180592e-01
4.51080000000000e-08,6.00000000000000e-01,0.00000000000000e+00,5.99815579259727e-01
4.51240000000000e-08,6.00000000000000e-01,0.00000000000000e+00,5.99663700772326e-01
4.51560000000000e-08,6.00000000000000e-01,0.00000000000000e+00,5.99645857161624e-01
4.52200000000000e-08,6.00000000000000e-01,0.00000000000000e+00,5.99768304690027e-01
4.53480000000000e-08,6.00000000000000e-01,0.00000000000000e+00,5.99978089273700e-01
4.56040000000000e-08,6.00000000000000e-01,0.00000000000000e+00,6.09407704333610e-01
4.61160000000000e-08,6.00000000000000e-01,0.00000000000000e+00,2.22780761678760e-01
4.68264934816865e-08,6.00000000000000e-01,0.00000000000000e+00,-6.57648959907563e-02
4.77478103594924e-08,6.00000000000000e-01,0.00000000000000e+00,5.16597707093871e-02
4.92142355192863e-08,6.00000000000000e-01,0.00000000000000e+00,-3.47863438764996e-02
5.00000000000000e-08,6.00000000000000e-01,0.00000000000000e+00,2.34447869963099e-02
5.00100000000000e-08,6.00000000000000e-01,5.99999999999886e-02,2.15317921866180e-02
5.00300000000000e-08,6.00000000000000e-01,1.79999999999966e-01,1.77355865079696e-02
5.00700000000000e-08,6.00000000000000e-01,4.20000000000000e-01,1.14324636970213e-02
5.01000000000000e-08,6.00000000000000e-01,6.00000000000000e-01,8.20952451302502e-03
5.01080000000000e-08,6.00000000000000e-01,6.00000000000000e-01,7.54566048719357e-03
5.01240000000000e-08,6.00000000000000e-01,6.00000000000000e-01,6.32287181234914e-03
5.01560000000000e-08,6.00000000000000e-01,6.00000000000000e-01,4.44312977790901e-03
5.02200000000000e-08,6.00000000000000e-01,6.00000000000000e-01,2.13249881637204e-03
5.03480000000000e-08,6.00000000000000e-01,6.00000000000000e-01,3.80505360293430e-04
5.06040000000000e-08,6.00000000000000e-01,6.00000000000000e-01,-5.15392302508216e-05
5.11160000000001e-08,6.00000000000000e-01,6.00000000000000e-01,4.30803104774745e-05
5.21400000000002e-08,6.00000000000000e-01,6.00000000000000e-01,-7.41771469403574e-06
5.41880000000003e-08,6.00000000000000e-01,6.00000000000000e-01,3.26379934079048e-05
5.51000000000000e-08,6.00000000000000e-01,6.00000000000000e-01,8.32385883112879e-07
5.51100000000000e-08,5.40000000000021e-01,6.00000000000000e-01,-1.45551384542919e-04
5.51300000000000e-08,4.20000000000004e-01,6.00000000000000e-01,-3.54417888663611e-04
5.51700000000000e-08,1.80000000000010e-01,6.00000000000000e-01,-2.38692851942696e-04
5.52000000000000e-08,0.00000000000000e+00,6.00000000000000e-01,4.62414554955409e-04
5.52080000000000e-08,0.00000000000000e+00,6.00000000000000e-01,7.85546177450414e-04
5.52240000000000e-08,0.00000000000000e+00,6.00000000000000e-01,1.15495383578437e-03
5.52560000000000e-08,0.00000000000000e+00,6.00000000000000e-01,8.77596530646674e-04
5.53200000000000e-08,0.00000000000000e+00,6.00000000000000e-01,-1.07932602344435e-03
5.54480000000000e-08,0.00000000000000e+00,6.00000000000000e-01,-1.68069017421325e-03
5.57040000000000e-08,0.00000000000000e+00,6.00000000000000e-01,4.40551114149645e-04
5.60596485863540e-08,0.00000000000000e+00,6.00000000000000e-01,-3.89216060590357e-04
5.67606803351638e-08,0.00000000000000e+00,6.00000000000000e-01,3.25014964418384e-04
5.76507310573875e-08,0.00000000000000e+00,6.00000000000000e-01,-1.21694577665633e-04
5.89196318255650e-08,0.00000000000000e+00,6.00000000000000e-01,8.19363750187655e-05
6.14426242411619e-08,0.00000000000000e+00,6.00000000000000e-01,-2.09512439484820e-05
6.50000000000000e-08,0.00000000000000e+00,6.00000000000000e-01,3.85158213743447e-05
6.50100000000000e-08,5.99999999999886e-02,6.00000000000000e-01,2.86284089131367e-04
6.50300000000000e-08,1.79999999999966e-01,6.00000000000000e-01,7.02798908567073e-04
6.50700000000000e-08,4.19999999999920e-01,6.00000000000000e-01,1.23147685076468e-03
6.51000000000000e-08,5.99999999999966e-01,6.00000000000000e-01,1.31584242315624e-03
6.51080000000000e-08,6.00000000000000e-01,6.00000000000000e-01,1.09576665116974e-03
6.51240000000000e-08,6.00000000000000e-01,6.00000000000000e-01,5.73234469883374e-04
6.51560000000000e-08,6.00000000000000e-01,6.00000000000000e-01,-8.76049677112925e-04
6.52200000000000e-08,6.00000000000000e-01,6.00000000000000e-01,-3.80293302862388e-03
6.53480000000000e-08,6.00000000000000e-01,6.00000000000000e-01,-5.91551063475147e-03
6.56040000000000e-08,6.00000000000000e-01,6.00000000000000e-01,1.54500787761745e-01
6.61159999999999e-08,6.00000000000000e-01,6.00000000000000e-01,5.86453682773335e-01
6.71399999999999e-08,6.00000000000000e-01,6.00000000000000e-01,6.03947638902088e-01
6.82144684090108e-08,6.00000000000000e-01,6.00000000000000e-01,5.95884718496520e-01
6.99920283817379e-08,6.00000000000000e-01,6.00000000000000e-01,6.03488975237794e-01
7.01000000000000e-08,6.00000000000000e-01,6.00000000000000e-01,5.98040267555345e-01
7.01100000000000e-08,6.00000000000000e-01,5.40000000000011e-01,5.98878295245013e-01
7.01300000000000e-08,6.00000000000000e-01,4.20000000000034e-01,5.99833717271548e-01
7.01700000000000e-08,6.00000000000000e-01,1.80000000000080e-01,6.00084545661271e-01
7.02000000000000e-08,6.00000000000000e-01,3.44169137633799e-14,6.00098872006575e-01
7.02080000000000e-08,6.00000000000000e-01,0.00000000000000e+00,6.00093394372973e-01
7.02240000000000e-08,6.00000000000000e-01,0.00000000000000e+00,6.00071884000533e-01
7.02560000000000e-08,6.00000000000000e-01,0.00000000000000e+00,6.00017274187699e-01
7.03200000000000e-08,6.00000000000000e-01,0.00000000000000e+00,5.99963246776039e-01
7.04480000000000e-08,6.00000000000000e-01,0.00000000000000e+00,6.00011145234701e-01
7.07040000000000e-08,6.00000000000000e-01,0.00000000000000e+00,5.99983660283227e-01
7.10578881188784e-08,6.00000000000000e-01,0.00000000000000e+00,5.99975248574048e-01
7.16679971304247e-08,6.00000000000000e-01,0.00000000000000e+00,5.99987206918837e-01
7.28882151535174e-08,6.00000000000000e-01,0.00000000000000e+00,5.99977147990777e-01
7.51000000000000e-08,6.00000000000000e-01,0.00000000000000e+00,5.99992108691826e-01
7.51100000000000e-08,5.40000000000061e-01,0.00000000000000e+00,5.99863232336985e-01
7.51300000000000e-08,4.20000000000084e-01,0.00000000000000e+00,5.99738902255837e-01
7.51700000000000e-08,1.80000000000129e-01,0.00000000000000e+00,6.00835370183042e-01
7.52000000000000e-08,8.40438829641244e-14,0.00000000000000e+00,6.03881957710524e-01
7.52080000000000e-08,0.00000000000000e+00,0.00000000000000e+00,6.04692182440005e-01
7.52240000000000e-08,0.00000000000000e+00,0.00000000000000e+00,6.05617535396303e-01
7.52560000000000e-08,0.00000000000000e+00,0.00000000000000e+00,6.03644649708319e-01
7.53200000000000e-08,0.00000000000000e+00,0.00000000000000e+00,5.91189307531806e-01
7.54480000000000e-08,0.00000000000000e+00,0.00000000000000e+00,5.89455292763002e-01
7.56903931425954e-08,0.00000000000000e+00,0.00000000000000e+00,6.02488239712647e-01
7.60485653600164e-08,0.00000000000000e+00,0.00000000000000e+00,5.97049421671922e-01
7.66740081280748e-08,0.00000000000000e+00,0.00000000000000e+00,6.01854632092746e-01
7.75808865808195e-08,0.00000000000000e+00,0.00000000000000e+00,5.97944717402382e-01
7.81000000000000e-08,0.00000000000000e+00,0.00000000000000e+00,6.01425302989557e-01
7.82813756905490e-08,0.00000000000000e+00,0.00000000000000e+00,6.00050007026211e-01
7.86441270716469e-08,0.00000000000000e+00,0.00000000000000e+00,5.99747855068806e-01
7.93696298338426e-08,0.00000000000000e+00,0.00000000000000e+00,6.00014505728601e-01
8.08206353582342e-08,0.00000000000000e+00,0.00000000000000e+00,5.99810034440205e-01
8.37226464070173e-08,0.00000000000000e+00,0.00000000000000e+00,6.00039825137605e-01
8.50000000000000e-08,0.00000000000000e+00,0.00000000000000e+00,5.99843041936831e-01
8.50100000000000e-08,5.99999999999886e-02,0.00000000000000e+00,5.99994593086306e-01
8.50300000000000e-08,1.79999999999966e-01,0.00000000000000e+00,6.00172286734647e-01
8.50700000000000e-08,4.19999999999920e-01,0.00000000000000e+00,6.00094057297595e-01
8.51000000000000e-08,5.99999999999966e-01,0.00000000000000e+00,5.99926110112467e-01
8.51080000000000e-08,6.00000000000000e-01,0.00000000000000e+00,5.99816021501977e-01
8.51240000000000e-08,6.00000000000000e-01,0.00000000000000e+00,5.99659969529682e-01
8.51560000000000e-08,6.00000000000000e-01,0.00000000000000e+00,5.99640365998398e-01
8.52200000000000e-08,6.00000000000000e-01,0.00000000000000e+00,5.99763425910450e-01
8.53480000000000e-08,6.00000000000000e-01,0.00000000000000e+00,5.99976862140455e-01
8.56040000000000e-08,6.00000000000000e-01,0.00000000000000e+00,6.09413866024350e-01
8.61159999999999e-08,6.00000000000000e-01,0.00000000000000e+00,2.22746237752356e-01
8.68262011908392e-08,6.00000000000000e-01,0.00000000000000e+00,-6.57453858610542e-02
8.77477056527436e-08,6.00000000000000e-01,0.00000000000000e+00,5.16461006575046e-02
8.92137881783121e-08,6.00000000000000e-01,0.00000000000000e+00,-3.47777243685533e-02
9.00000000000000e-08,6.00000000000000e-01,0.00000000000000e+00,2.34457041849374e-02
9.00100000000000e-08,6.00000000000000e-01,5.99999999999886e-02,2.15317286315225e-02
9.00300000000000e-08,6.00000000000000e-01,1.79999999999966e-01,1.77345056978054e-02
9.00700000000000e-08,6.00000000000000e-01,4.19999999999920e-01,1.14316440317321e-02
9.01000000000000e-08,6.00000000000000e-01,5.99999999999966e-01,8.20894646894967e-03
9.01080000000000e-08,6.00000000000000e-01,6.00000000000000e-01,7.54512897757519e-03
9.01240000000000e-08,6.00000000000000e-01,6.00000000000000e-01,6.32242643511544e-03
9.01560000000000e-08,6.00000000000000e-01,6.00000000000000e-01,4.44281583137104e-03
9.02200000000000e-08,6.00000000000000e-01,6.00000000000000e-01,2.13234784023246e-03
9.03480000000000e-08,6.00000000000000e-01,6.00000000000000e-01,3.80478958155260e-04
9.06040000000000e-08,6.00000000000000e-01,6.00000000000000e-01,-5.15362990786139e-05
9.11159999999999e-08,6.00000000000000e-01,6.00000000000000e-01,4.30776812337941e-05
9.21399999999999e-08,6.00000000000000e-01,6.00000000000000e-01,-7.41787690082367e-06
9.41879999999998e-08,6.00000000000000e-01,6.00000000000000e-01,3.26361101906942e-05
9.51000000000000e-08,6.00000000000000e-01,6.00000000000000e-01,8.31767843465642e-07
9.51100000000000e-08,5.40000000000061e-01,6.00000000000000e-01,-1.45551452028186e-04
9.51300000000000e-08,4.20000000000084e-01,6.00000000000000e-01,-3.54417785273023e-04
9.51700000000000e-08,1.80000000000129e-01,6.00000000000000e-01,-2.38693070839985e-04
9.52000000000000e-08,8.40438829641244e-14,6.00000000000000e-01,4.62412565094439e-04
9.52080000000000e-08,0.00000000000000e+00,6.00000000000000e-01,7.85542559633839e-04
9.52240000000000e-08,0.00000000000000e+00,6.00000000000000e-01,1.15494324327638e-03
9.52560000000000e-08,0.00000000000000e+00,6.00000000000000e-01,8.77547189541292e-04
9.53200000000000e-08,0.00000000000000e+00,6.00000000000000e-01,-1.07956080397850e-03
9.54480000000000e-08,0.00000000000000e+00,6.00000000000000e-01,-1.68099677124822e-03
9.57040000000000e-08,0.00000000000000e+00,6.00000000000000e-01,4.40538187618987e-04
9.60596483401650e-08,0.00000000000000e+00,6.00000000000000e-01,-3.89188450541957e-04
9.67605989434734e-08,0.00000000000000e+00,6.00000000000000e-01,3.24981161531724e-04
9.76506538031493e-08,0.00000000000000e+00,6.00000000000000e-01,-1.21667726750659e-04
9.89194843537733e-08,0.00000000000000e+00,6.00000000000000e-01,8.19095822015090e-05
1.01442423335265e-07,0.00000000000000e+00,6.00000000000000e-01,-2.09264008625594e-05
1.05000000000000e-07,0.00000000000000e+00,6.00000000000000e-01,3.84933077285463e-05
1.05010000000000e-07,5.99999999999886e-02,6.00000000000000e-01,2.86263946292747e-04
1.05030000000000e-07,1.79999999999966e-01,6.00000000000000e-01,7.02784427631706e-04
1.05070000000000e-07,4.19999999999920e-01,6.00000000000000e-01,1.23147026630087e-03
1.05100000000000e-07,5.99999999999966e-01,6.00000000000000e-01,1.31581076007126e-03
1.05108000000000e-07,6.00000000000000e-01,6.00000000000000e-01,1.09570808109033e-03
1.05124000000000e-07,6.00000000000000e-01,6.00000000000000e-01,5.73104488607770e-04
1.05156000000000e-07,6.00000000000000e-01,6.00000000000000e-01,-8.76284296433563e-04
1.05220000000000e-07,6.00000000000000e-01,6.00000000000000e-01,-3.80313493977151e-03
1.05348000000000e-07,6.00000000000000e-01,6.00000000000000e-01,-5.91538465702408e-03
1.05604000000000e-07,6.00000000000000e-01,6.00000000000000e-01,1.54508201939129e-01
1.06116000000000e-07,6.00000000000000e-01,6.00000000000000e-01,5.86455340810522e-01
1.07140000000000e-07,6.00000000000000e-01,6.00000000000000e-01,6.03947064344806e-01
1.08214474698864e-07,6.00000000000000e-01,6.00000000000000e-01,5.95885360142136e-01
1.09992030750181e-07,6.00000000000000e-01,6.00000000000000e-01,6.03488407764696e-01
1.10100000000000e-07,6.00000000000000e-01,6.00000000000000e-01,5.98040668291675e-01
1.10110000000000e-07,6.00000000000000e-01,5.40000000000091e-01,5.98878521628193e-01
1.10130000000000e-07,6.00000000000000e-01,4.20000000000114e-01,5.99833750201454e-01
1.10170000000000e-07,6.00000000000000e-01,1.80000000000159e-01,6.00084541091830e-01
