Time,v(clk),v(data),v(out),v(reset)
1.00000000000000e-08,6.50000000000000e-01,0.00000000000000e+00,1.56921604473046e-05,0.00000000000000e+00
1.00100000000000e-08,6.50000000000000e-01,6.49999999999984e-02,1.04214206724032e-05,0.00000000000000e+00
1.00300000000000e-08,6.50000000000000e-01,1.94999999999995e-01,4.61641898214654e-06,0.00000000000000e+00
1.00700000000000e-08,6.50000000000000e-01,4.54999999999989e-01,2.54837671481017e-06,0.00000000000000e+00
1.01000000000000e-08,6.50000000000000e-01,6.49999999999995e-01,1.81759100396917e-06,0.00000000000000e+00
1.01080000000000e-08,6.50000000000000e-01,6.50000000000000e-01,2.53538618114058e-06,0.00000000000000e+00
1.01240000000000e-08,6.50000000000000e-01,6.50000000000000e-01,3.78333999367236e-06,0.00000000000000e+00
1.01560000000000e-08,6.50000000000000e-01,6.50000000000000e-01,4.33891649610080e-06,0.00000000000000e+00
1.02200000000000e-08,6.50000000000000e-01,6.50000000000000e-01,4.09195145615465e-06,0.00000000000000e+00
1.03480000000000e-08,6.50000000000000e-01,6.50000000000000e-01,3.27407138225183e-06,0.00000000000000e+00
1.06040000000000e-08,6.50000000000000e-01,6.50000000000000e-01,3.73155905863780e-06,0.00000000000000e+00
1.11160000000000e-08,6.50000000000000e-01,6.50000000000000e-01,3.16389715767501e-06,0.00000000000000e+00
1.21400000000000e-08,6.50000000000000e-01,6.50000000000000e-01,3.28624052332947e-06,0.00000000000000e+00
1.41880000000000e-08,6.50000000000000e-01,6.50000000000000e-01,2.61370401279711e-06,0.00000000000000e+00
1.51000000000000e-08,6.50000000000000e-01,6.50000000000000e-01,2.83303459822169e-06,0.00000000000000e+00
1.51100000000000e-08,5.84999999999991e-01,6.50000000000000e-01,1.46021520459443e-04,6.50000000000092e-02
1.51300000000000e-08,4.54999999999994e-01,6.50000000000000e-01,2.40409528002118e-04,1.95000000000006e-01
1.51700000000000e-08,1.95000000000000e-01,6.50000000000000e-01,1.05771776431077e-04,4.55000000000000e-01
1.52000000000000e-08,0.00000000000000e+00,6.50000000000000e-01,1.16712094318162e-04,6.50000000000000e-01
1.52080000000000e-08,0.00000000000000e+00,6.50000000000000e-01,1.10618389132143e-04,6.50000000000000e-01
1.52240000000000e-08,0.00000000000000e+00,6.50000000000000e-01,9.17546355155632e-05,6.50000000000000e-01
1.52560000000000e-08,0.00000000000000e+00,6.50000000000000e-01,-6.85925141675342e-06,6.50000000000000e-01
1.53200000000000e-08,0.00000000000000e+00,6.50000000000000e-01,-2.19586829052938e-04,6.50000000000000e-01
1.54480000000000e-08,0.00000000000000e+00,6.50000000000000e-01,-8.45975881320973e-05,6.50000000000000e-01
1.56764905037870e-08,0.00000000000000e+00,6.50000000000000e-01,-1.55393311023900e-04,6.50000000000000e-01
1.60405871349694e-08,0.00000000000000e+00,6.50000000000000e-01,1.47381133399313e-04,6.50000000000000e-01
1.65821615804804e-08,0.00000000000000e+00,6.50000000000000e-01,9.98649412355113e-06,6.50000000000000e-01
1.74127648340145e-08,0.00000000000000e+00,6.50000000000000e-01,-6.56434821187614e-05,6.50000000000000e-01
1.87702528878175e-08,0.00000000000000e+00,6.50000000000000e-01,9.39456240824574e-05,6.50000000000000e-01
2.14852289954233e-08,0.00000000000000e+00,6.50000000000000e-01,-1.01577650464288e-04,6.50000000000000e-01
2.50000000000000e-08,0.00000000000000e+00,6.50000000000000e-01,1.11239659204519e-04,6.50000000000000e-01
2.50100000000000e-08,6.49999999999877e-02,6.50000000000000e-01,1.61952255150054e-04,6.50000000000000e-01
2.50300000000000e-08,1.95000000000006e-01,6.50000000000000e-01,2.31751045372694e-04,6.50000000000000e-01
2.50700000000000e-08,4.55000000000000e-01,6.50000000000000e-01,2.70107023698785e-04,6.50000000000000e-01
2.51000000000000e-08,6.50000000000000e-01,6.50000000000000e-01,-8.88864308577285e-04,6.50000000000000e-01
2.51080000000000e-08,6.50000000000000e-01,6.50000000000000e-01,-1.62588920775020e-03,6.50000000000000e-01
2.51240000000000e-08,6.50000000000000e-01,6.50000000000000e-01,-3.07843129824640e-03,6.50000000000000e-01
2.51560000000000e-08,6.50000000000000e-01,6.50000000000000e-01,-5.17280710911387e-03,6.50000000000000e-01
2.52200000000000e-08,6.50000000000000e-01,6.50000000000000e-01,6.07048605812084e-03,6.50000000000000e-01
2.53480000000000e-08,6.50000000000000e-01,6.50000000000000e-01,3.06565929241036e-01,6.50000000000000e-01
2.56040000000000e-08,6.50000000000000e-01,6.50000000000000e-01,6.64299332915611e-01,6.50000000000000e-01
2.59619212870794e-08,6.50000000000000e-01,6.50000000000000e-01,6.39380642167524e-01,6.50000000000000e-01
2.65729067667721e-08,6.50000000000000e-01,6.50000000000000e-01,6.60790023125770e-01,6.50000000000000e-01
2.73612558637996e-08,6.50000000000000e-01,6.50000000000000e-01,6.40032169146731e-01,6.50000000000000e-01
2.85585729097126e-08,6.50000000000000e-01,6.50000000000000e-01,6.59870626002797e-01,6.50000000000000e-01
3.09532070015385e-08,6.50000000000000e-01,6.50000000000000e-01,6.40445507924999e-01,6.50000000000000e-01
3.47532070015385e-08,6.50000000000000e-01,6.50000000000000e-01,6.59590726508381e-01,6.50000000000000e-01
3.51000000000000e-08,6.49999999999968e-01,6.50000000000000e-01,6.41537356433566e-01,6.50000000000000e-01
3.51100000000000e-08,5.84999999999980e-01,6.50000000000000e-01,6.45395655082801e-01,6.50000000000000e-01
3.51300000000000e-08,4.54999999999962e-01,6.50000000000000e-01,6.49554067891232e-01,6.50000000000000e-01
3.51700000000000e-08,1.94999999999968e-01,6.50000000000000e-01,6.50743418299637e-01,6.50000000000000e-01
3.52000000000000e-08,0.00000000000000e+00,6.50000000000000e-01,6.52362491922897e-01,6.50000000000000e-01
3.52080000000000e-08,0.00000000000000e+00,6.50000000000000e-01,6.52693005980240e-01,6.50000000000000e-01
3.52240000000000e-08,0.00000000000000e+00,6.50000000000000e-01,6.52651697752299e-01,6.50000000000000e-01
3.52560000000000e-08,0.00000000000000e+00,6.50000000000000e-01,6.47215202764032e-01,6.50000000000000e-01
3.53200000000000e-08,0.00000000000000e+00,6.50000000000000e-01,6.28985145710545e-01,6.50000000000000e-01
3.54480000000000e-08,0.00000000000000e+00,6.50000000000000e-01,6.35760362058213e-01,6.50000000000000e-01
3.57040000000000e-08,0.00000000000000e+00,6.50000000000000e-01,6.54789633637424e-01,6.50000000000000e-01
3.60740038822992e-08,0.00000000000000e+00,6.50000000000000e-01,6.45325719736497e-01,6.50000000000000e-01
3.67340342134828e-08,0.00000000000000e+00,6.50000000000000e-01,6.53374208044185e-01,6.50000000000000e-01
3.80540948758499e-08,0.00000000000000e+00,6.50000000000000e-01,6.46460038694717e-01,6.50000000000000e-01
4.06942162005841e-08,0.00000000000000e+00,6.50000000000000e-01,6.53151635285297e-01,6.50000000000000e-01
4.44942162005841e-08,0.00000000000000e+00,6.50000000000000e-01,6.46737951667292e-01,6.50000000000000e-01
4.50000000000000e-08,0.00000000000000e+00,6.50000000000000e-01,6.52560869267519e-01,6.50000000000000e-01
4.50100000000000e-08,6.49999999999877e-02,6.50000000000000e-01,6.51648193504484e-01,5.85000000000012e-01
4.50300000000000e-08,1.95000000000006e-01,6.50000000000000e-01,6.50404390332481e-01,4.54999999999994e-01
4.50700000000000e-08,4.55000000000000e-01,6.50000000000000e-01,6.51819317634820e-01,1.95000000000000e-01
4.51000000000000e-08,6.50000000000000e-01,6.50000000000000e-01,6.57656653938653e-01,0.00000000000000e+00
4.51080000000000e-08,6.50000000000000e-01,6.50000000000000e-01,6.59657107428444e-01,0.00000000000000e+00
4.51240000000000e-08,6.50000000000000e-01,6.50000000000000e-01,6.63358417728546e-01,0.00000000000000e+00
4.51560000000000e-08,6.50000000000000e-01,6.50000000000000e-01,6.71487447201209e-01,0.00000000000000e+00
4.52200000000000e-08,6.50000000000000e-01,6.50000000000000e-01,5.70876529480437e-01,0.00000000000000e+00
4.53480000000000e-08,6.50000000000000e-01,6.50000000000000e-01,1.11719241043613e-01,0.00000000000000e+00
4.55476835522206e-08,6.50000000000000e-01,6.50000000000000e-01,-4.08359419494197e-02,0.00000000000000e+00
4.58640648337272e-08,6.50000000000000e-01,6.50000000000000e-01,2.93818271838204e-02,0.00000000000000e+00
4.63534449098506e-08,6.50000000000000e-01,6.50000000000000e-01,-2.15088107523979e-02,0.00000000000000e+00
4.71645402567424e-08,6.50000000000000e-01,6.50000000000000e-01,1.94687982367234e-02,0.00000000000000e+00
4.86994351518267e-08,6.50000000000000e-01,6.50000000000000e-01,-1.72960620315340e-02,0.00000000000000e+00
5.01000000000000e-08,6.50000000000000e-01,6.49999999999963e-01,1.65749965892951e-02,0.00000000000000e+00
5.04069789790169e-08,6.50000000000000e-01,6.50000000000000e-01,1.37502063893348e-03,0.00000000000000e+00
5.10209369370506e-08,6.50000000000000e-01,6.50000000000000e-01,-1.10291971578901e-03,0.00000000000000e+00
5.22488528531181e-08,6.50000000000000e-01,6.50000000000000e-01,9.97283564943895e-04,0.00000000000000e+00
5.47046846852530e-08,6.50000000000000e-01,6.50000000000000e-01,-9.40701813256242e-04,0.00000000000000e+00
5.51000000000000e-08,6.50000000000000e-01,6.50000000000000e-01,6.80834066777299e-04,0.00000000000000e+00
5.51100000000000e-08,5.85000000000023e-01,6.50000000000000e-01,6.50169336510110e-04,6.49999999999769e-02
5.51300000000000e-08,4.55000000000005e-01,6.50000000000000e-01,5.02680728080483e-04,1.94999999999995e-01
5.51700000000000e-08,1.95000000000011e-01,6.50000000000000e-01,1.74197595160547e-04,4.54999999999989e-01
5.52000000000000e-08,0.00000000000000e+00,6.50000000000000e-01,1.35581744163435e-04,6.50000000000000e-01
5.52080000000000e-08,0.00000000000000e+00,6.50000000000000e-01,1.22183488652637e-04,6.50000000000000e-01
5.52240000000000e-08,0.00000000000000e+00,6.50000000000000e-01,7.93510195670269e-05,6.50000000000000e-01
5.52560000000000e-08,0.00000000000000e+00,6.50000000000000e-01,-2.47091053177835e-04,6.50000000000000e-01
5.53200000000000e-08,0.00000000000000e+00,6.50000000000000e-01,-9.85720985666599e-04,6.50000000000000e-01
5.54480000000000e-08,0.00000000000000e+00,6.50000000000000e-01,-1.74902247095699e-04,6.50000000000000e-01
5.56528288204121e-08,0.00000000000000e+00,6.50000000000000e-01,2.04364207056443e-04,6.50000000000000e-01
5.60289914392896e-08,0.00000000000000e+00,6.50000000000000e-01,-2.56660500374243e-04,6.50000000000000e-01
5.65175221912653e-08,0.00000000000000e+00,6.50000000000000e-01,2.84752094942458e-04,6.50000000000000e-01
5.73511785828241e-08,0.00000000000000e+00,6.50000000000000e-01,-2.74658567818173e-04,6.50000000000000e-01
5.88290625935111e-08,0.00000000000000e+00,6.50000000000000e-01,2.71050282393539e-04,6.50000000000000e-01
6.12651100593408e-08,0.00000000000000e+00,6.50000000000000e-01,-2.63158929847537e-04,6.50000000000000e-01
6.50000000000000e-08,0.00000000000000e+00,6.50000000000000e-01,2.62655345479181e-04,6.50000000000000e-01
6.50100000000000e-08,6.49999999999877e-02,6.50000000000000e-01,2.80956482095786e-04,6.50000000000000e-01
6.50300000000000e-08,1.94999999999963e-01,6.50000000000000e-01,3.14305692004517e-04,6.50000000000000e-01
6.50700000000000e-08,4.54999999999914e-01,6.50000000000000e-01,2.46884554064984e-04,6.50000000000000e-01
6.51000000000000e-08,6.49999999999963e-01,6.50000000000000e-01,-1.12007019658639e-03,6.50000000000000e-01
6.51080000000000e-08,6.50000000000000e-01,6.50000000000000e-01,-1.88789122428143e-03,6.50000000000000e-01
6.51240000000000e-08,6.50000000000000e-01,6.50000000000000e-01,-3.34035546036626e-03,6.50000000000000e-01
6.51560000000000e-08,6.50000000000000e-01,6.50000000000000e-01,-5.28977880408086e-03,6.50000000000000e-01
6.52200000000000e-08,6.50000000000000e-01,6.50000000000000e-01,8.79384115243905e-03,6.50000000000000e-01
6.53480000000000e-08,6.50000000000000e-01,6.50000000000000e-01,3.19043490657561e-01,6.50000000000000e-01
6.56040000000000e-08,6.50000000000000e-01,6.50000000000000e-01,6.65950795206593e-01,6.50000000000000e-01
6.59571465807241e-08,6.50000000000000e-01,6.50000000000000e-01,6.38153195111269e-01,6.50000000000000e-01
6.65748268007731e-08,6.50000000000000e-01,6.50000000000000e-01,6.61924416976019e-01,6.50000000000000e-01
6.73601590013783e-08,6.50000000000000e-01,6.50000000000000e-01,6.38958822295644e-01,6.50000000000000e-01
6.85752640417445e-08,6.50000000000000e-01,6.50000000000000e-01,6.60880026997034e-01,6.50000000000000e-01
7.10054741224771e-08,6.50000000000000e-01,6.50000000000000e-01,6.39429742191107e-01,6.50000000000000e-01
7.48054741224770e-08,6.50000000000000e-01,6.50000000000000e-01,6.60569519464346e-01,6.50000000000000e-01
7.51000000000000e-08,6.50000000000000e-01,6.50000000000000e-01,6.40865148240684e-01,6.50000000000000e-01
7.51100000000000e-08,5.85000000000066e-01,6.50000000000000e-01,6.45010556707270e-01,6.50000000000000e-01
7.51300000000000e-08,4.55000000000091e-01,6.50000000000000e-01,6.49492628513438e-01,6.50000000000000e-01
7.51700000000000e-08,1.95000000000140e-01,6.50000000000000e-01,6.50745992447875e-01,6.50000000000000e-01
7.52000000000000e-08,9.09272657168003e-14,6.50000000000000e-01,6.52353704610316e-01,6.50000000000000e-01
7.52080000000000e-08,0.00000000000000e+00,6.50000000000000e-01,6.52683469734817e-01,6.50000000000000e-01
7.52240000000000e-08,0.00000000000000e+00,6.50000000000000e-01,6.52635683635178e-01,6.50000000000000e-01
7.52560000000000e-08,0.00000000000000e+00,6.50000000000000e-01,6.47181181318678e-01,6.50000000000000e-01
7.53200000000000e-08,0.00000000000000e+00,6.50000000000000e-01,6.28953332781157e-01,6.50000000000000e-01
7.54480000000000e-08,0.00000000000000e+00,6.50000000000000e-01,6.35766612338212e-01,6.50000000000000e-01
7.57040000000000e-08,0.00000000000000e+00,6.50000000000000e-01,6.54784256590808e-01,6.50000000000000e-01
7.60740250050075e-08,0.00000000000000e+00,6.50000000000000e-01,6.45330228650657e-01,6.50000000000000e-01
7.67339535382329e-08,0.00000000000000e+00,6.50000000000000e-01,6.53370283187694e-01,6.50000000000000e-01
7.80538106046835e-08,0.00000000000000e+00,6.50000000000000e-01,6.46463795667079e-01,6.50000000000000e-01
8.06935247375848e-08,0.00000000000000e+00,6.50000000000000e-01,6.53147994769533e-01,6.50000000000000e-01
8.44935247375848e-08,0.00000000000000e+00,6.50000000000000e-01,6.46741543620817e-01,6.50000000000000e-01
8.50000000000000e-08,0.00000000000000e+00,6.50000000000000e-01,6.52558525956911e-01,6.50000000000000e-01
8.50100000000000e-08,6.49999999999877e-02,6.50000000000000e-01,6.51646600907557e-01,5.85000000000012e-01
8.50300000000000e-08,1.94999999999963e-01,6.50000000000000e-01,6.50403814079669e-01,4.55000000000037e-01
8.50700000000000e-08,4.54999999999914e-01,6.50000000000000e-01,6.51819315162984e-01,1.95000000000086e-01
8.51000000000000e-08,6.49999999999963e-01,6.50000000000000e-01,6.57656528931899e-01,3.71924713249427e-14
8.51080000000000e-08,6.50000000000000e-01,6.50000000000000e-01,6.59656970275893e-01,0.00000000000000e+00
8.51240000000000e-08,6.50000000000000e-01,6.50000000000000e-01,6.63358284738033e-01,0.00000000000000e+00
8.51560000000000e-08,6.50000000000000e-01,6.50000000000000e-01,6.71487438797995e-01,0.00000000000000e+00
8.52200000000000e-08,6.50000000000000e-01,6.50000000000000e-01,5.70880048945886e-01,0.00000000000000e+00
8.53480000000000e-08,6.50000000000000e-01,6.50000000000000e-01,1.11723560007816e-01,0.00000000000000e+00
8.55480548254037e-08,6.50000000000000e-01,6.50000000000000e-01,-4.09030143721891e-02,0.00000000000000e+00
8.58643360247335e-08,6.50000000000000e-01,6.50000000000000e-01,2.94254069753195e-02,0.00000000000000e+00
8.63540518941414e-08,6.50000000000000e-01,6.50000000000000e-01,-2.15414736580527e-02,0.00000000000000e+00
8.71653843611799e-08,6.50000000000000e-01,6.50000000000000e-01,1.94996260452803e-02,0.00000000000000e+00
8.87057662996652e-08,6.50000000000000e-01,6.50000000000000e-01,-1.73267877420450e-02,0.00000000000000e+00
9.01000000000000e-08,6.50000000000000e-01,6.49999999999963e-01,1.65986938274406e-02,0.00000000000000e+00
9.04080763876971e-08,6.50000000000000e-01,6.50000000000000e-01,1.37286895986510e-03,0.00000000000000e+00
9.10242291630912e-08,6.50000000000000e-01,6.50000000000000e-01,-1.10202716489395e-03,0.00000000000000e+00
9.22565347138795e-08,6.50000000000000e-01,6.50000000000000e-01,9.96842896881691e-04,0.00000000000000e+00
9.47211458154560e-08,6.50000000000000e-01,6.50000000000000e-01,-9.40456582551438e-04,0.00000000000000e+00
9.51000000000000e-08,6.50000000000000e-01,6.50000000000000e-01,6.70867121591168e-04,0.00000000000000e+00
9.51100000000000e-08,5.85000000000066e-01,6.50000000000000e-01,6.42594947803658e-04,6.49999999999339e-02
9.51300000000000e-08,4.55000000000091e-01,6.50000000000000e-01,4.98612077315545e-04,1.94999999999909e-01
9.51700000000000e-08,1.95000000000140e-01,6.50000000000000e-01,1.73116119613147e-04,4.54999999999860e-01
9.52000000000000e-08,9.09272657168003e-14,6.50000000000000e-01,1.35171117579574e-04,6.49999999999909e-01
9.52080000000000e-08,0.00000000000000e+00,6.50000000000000e-01,1.21828247324290e-04,6.50000000000000e-01
9.52240000000000e-08,0.00000000000000e+00,6.50000000000000e-01,7.90867812829055e-05,6.50000000000000e-01
9.52560000000000e-08,0.00000000000000e+00,6.50000000000000e-01,-2.47198795170857e-04,6.50000000000000e-01
9.53200000000000e-08,0.00000000000000e+00,6.50000000000000e-01,-9.85765190207578e-04,6.50000000000000e-01
9.54480000000000e-08,0.00000000000000e+00,6.50000000000000e-01,-1.74898115054445e-04,6.50000000000000e-01
9.56528830639052e-08,0.00000000000000e+00,6.50000000000000e-01,2.04329636658998e-04,6.50000000000000e-01
9.60290133411301e-08,0.00000000000000e+00,6.50000000000000e-01,-2.56611599744711e-04,6.50000000000000e-01
9.65176620490075e-08,0.00000000000000e+00,6.50000000000000e-01,2.84705772824452e-04,6.50000000000000e-01
9.73513011930327e-08,0.00000000000000e+00,6.50000000000000e-01,-2.74624246043405e-04,6.50000000000000e-01
9.88297024176299e-08,0.00000000000000e+00,6.50000000000000e-01,2.71023955274983e-04,6.50000000000000e-01
1.01266406030705e-07,0.00000000000000e+00,6.50000000000000e-01,-2.63137872071662e-04,6.50000000000000e-01
1.05000000000000e-07,0.00000000000000e+00,6.50000000000000e-01,2.62635655705367e-04,6.50000000000000e-01
1.05010000000000e-07,6.49999999999877e-02,6.50000000000000e-01,2.80933105389271e-04,6.50000000000000e-01
1.05030000000000e-07,1.94999999999963e-01,6.50000000000000e-01,3.14276550203753e-04,6.50000000000000e-01
1.05070000000000e-07,4.54999999999914e-01,6.50000000000000e-01,2.46872601390079e-04,6.50000000000000e-01
1.05100000000000e-07,6.49999999999963e-01,6.50000000000000e-01,-1.12006683117507e-03,6.50000000000000e-01
1.05108000000000e-07,6.50000000000000e-01,6.50000000000000e-01,-1.88788597305257e-03,6.50000000000000e-01
1.05124000000000e-07,6.50000000000000e-01,6.50000000000000e-01,-3.34034886463479e-03,6.50000000000000e-01
1.05156000000000e-07,6.50000000000000e-01,6.50000000000000e-01,-5.28977569310651e-03,6.50000000000000e-01
1.05220000000000e-07,6.50000000000000e-01,6.50000000000000e-01,8.79378093477211e-03,6.50000000000000e-01
1.05348000000000e-07,6.50000000000000e-01,6.50000000000000e-01,3.19043227872250e-01,6.50000000000000e-01
1.05604000000000e-07,6.50000000000000e-01,6.50000000000000e-01,6.65950762309647e-01,6.50000000000000e-01
1.05957146674174e-07,6.50000000000000e-01,6.50000000000000e-01,6.38153220242328e-01,6.50000000000000e-01
1.06574826744074e-07,6.50000000000000e-01,6.50000000000000e-01,6.61924393902853e-01,6.50000000000000e-01
1.07360158997291e-07,6.50000000000000e-01,6.50000000000000e-01,6.38958844254251e-01,6.50000000000000e-01
1.08575263624336e-07,6.50000000000000e-01,6.50000000000000e-01,6.60880006434343e-01,6.50000000000000e-01
1.11005472878426e-07,6.50000000000000e-01,6.50000000000000e-01,6.39429762991881e-01,6.50000000000000e-01
1.14805472878426e-07,6.50000000000000e-01,6.50000000000000e-01,6.60569499497488e-01,6.50000000000000e-01
1.15100000000000e-07,6.50000000000000e-01,6.50000000000000e-01,6.40865160079972e-01,6.50000000000000e-01
1.15110000000000e-07,5.85000000000066e-01,6.50000000000000e-01,6.45010563597316e-01,6.50000000000000e-01
1.15130000000000e-07,4.55000000000091e-01,6.50000000000000e-01,6.49492629756226e-01,6.50000000000000e-01
1.15170000000000e-07,1.95000000000140e-01,6.50000000000000e-01,6.50745992462670e-01,6.50000000000000e-01
