Time,v(clk),v(data),v(out),v(reset)
1.00000000000000e-08,6.50000000000000e-01,0.00000000000000e+00,2.71343986373383e-05,0.00000000000000e+00
1.00100000000000e-08,6.50000000000000e-01,6.49999999999984e-02,2.08380780960041e-05,0.00000000000000e+00
1.00300000000000e-08,6.50000000000000e-01,1.94999999999995e-01,1.18234100828368e-05,0.00000000000000e+00
1.00700000000000e-08,6.50000000000000e-01,4.54999999999989e-01,3.80239088921402e-06,0.00000000000000e+00
1.01000000000000e-08,6.50000000000000e-01,6.49999999999995e-01,2.87577551297269e-06,0.00000000000000e+00
1.01080000000000e-08,6.50000000000000e-01,6.50000000000000e-01,3.14660268115746e-06,0.00000000000000e+00
1.01240000000000e-08,6.50000000000000e-01,6.50000000000000e-01,3.88042201436567e-06,0.00000000000000e+00
1.01560000000000e-08,6.50000000000000e-01,6.50000000000000e-01,4.31492942357115e-06,0.00000000000000e+00
1.02200000000000e-08,6.50000000000000e-01,6.50000000000000e-01,3.04420884390116e-06,0.00000000000000e+00
1.03480000000000e-08,6.50000000000000e-01,6.50000000000000e-01,1.79980194286306e-06,0.00000000000000e+00
1.06040000000000e-08,6.50000000000000e-01,6.50000000000000e-01,2.48960415416728e-06,0.00000000000000e+00
1.11160000000000e-08,6.50000000000000e-01,6.50000000000000e-01,1.98259076032888e-06,0.00000000000000e+00
1.21400000000000e-08,6.50000000000000e-01,6.50000000000000e-01,2.12213576039535e-06,0.00000000000000e+00
1.41880000000000e-08,6.50000000000000e-01,6.50000000000000e-01,1.49074592311824e-06,0.00000000000000e+00
1.51000000000000e-08,6.50000000000000e-01,6.50000000000000e-01,1.71794431038080e-06,0.00000000000000e+00
1.51100000000000e-08,5.84999999999991e-01,6.50000000000000e-01,1.65642786499783e-04,6.50000000000092e-02
1.51300000000000e-08,4.54999999999994e-01,6.50000000000000e-01,3.06484876721948e-04,1.95000000000006e-01
1.51700000000000e-08,1.95000000000000e-01,6.50000000000000e-01,1.61970977952841e-04,4.55000000000000e-01
1.52000000000000e-08,0.00000000000000e+00,6.50000000000000e-01,1.10341398594380e-04,6.50000000000000e-01
1.52080000000000e-08,0.00000000000000e+00,6.50000000000000e-01,1.02718588922052e-04,6.50000000000000e-01
1.52240000000000e-08,0.00000000000000e+00,6.50000000000000e-01,9.06580615500432e-05,6.50000000000000e-01
1.52560000000000e-08,0.00000000000000e+00,6.50000000000000e-01,7.05785432208936e-05,6.50000000000000e-01
1.53200000000000e-08,0.00000000000000e+00,6.50000000000000e-01,-4.97330462872897e-05,6.50000000000000e-01
1.54480000000000e-08,0.00000000000000e+00,6.50000000000000e-01,-2.04281915254328e-04,6.50000000000000e-01
1.56896870797212e-08,0.00000000000000e+00,6.50000000000000e-01,-3.12149287412071e-05,6.50000000000000e-01
1.61348253463229e-08,0.00000000000000e+00,6.50000000000000e-01,-6.04046900231844e-06,6.50000000000000e-01
1.66396355872296e-08,0.00000000000000e+00,6.50000000000000e-01,1.35307898637364e-04,6.50000000000000e-01
1.76492560690428e-08,0.00000000000000e+00,6.50000000000000e-01,-1.58116724677563e-04,6.50000000000000e-01
1.88086525446121e-08,0.00000000000000e+00,6.50000000000000e-01,1.67127615417979e-04,6.50000000000000e-01
2.10642467202267e-08,0.00000000000000e+00,6.50000000000000e-01,-1.68228914314999e-04,6.50000000000000e-01
2.44436249936009e-08,0.00000000000000e+00,6.50000000000000e-01,1.68216132676135e-04,6.50000000000000e-01
2.50000000000000e-08,0.00000000000000e+00,6.50000000000000e-01,-1.55687405443292e-04,6.50000000000000e-01
2.50100000000000e-08,6.49999999999877e-02,6.50000000000000e-01,-2.26201361948550e-05,6.50000000000000e-01
2.50300000000000e-08,1.95000000000006e-01,6.50000000000000e-01,1.84428996367482e-04,6.50000000000000e-01
2.50700000000000e-08,4.55000000000000e-01,6.50000000000000e-01,3.35077097699914e-04,6.50000000000000e-01
2.51000000000000e-08,6.50000000000000e-01,6.50000000000000e-01,-4.70586864864286e-04,6.50000000000000e-01
2.51080000000000e-08,6.50000000000000e-01,6.50000000000000e-01,-1.04539675487587e-03,6.50000000000000e-01
2.51240000000000e-08,6.50000000000000e-01,6.50000000000000e-01,-2.25962365204632e-03,6.50000000000000e-01
2.51560000000000e-08,6.50000000000000e-01,6.50000000000000e-01,-4.35520814949575e-03,6.50000000000000e-01
2.52200000000000e-08,6.50000000000000e-01,6.50000000000000e-01,-5.18189648050350e-03,6.50000000000000e-01
2.53480000000000e-08,6.50000000000000e-01,6.50000000000000e-01,1.40367783054673e-01,6.50000000000000e-01
2.56040000000000e-08,6.50000000000000e-01,6.50000000000000e-01,6.05808804760164e-01,6.50000000000000e-01
2.61160000000000e-08,6.50000000000000e-01,6.50000000000000e-01,6.63722026011242e-01,6.50000000000000e-01
2.67114004308023e-08,6.50000000000000e-01,6.50000000000000e-01,6.36080849371767e-01,6.50000000000000e-01
2.77296448765360e-08,6.50000000000000e-01,6.50000000000000e-01,6.61632541264532e-01,6.50000000000000e-01
2.90700235434687e-08,6.50000000000000e-01,6.50000000000000e-01,6.37995972327307e-01,6.50000000000000e-01
3.17507808773341e-08,6.50000000000000e-01,6.50000000000000e-01,6.60809696139002e-01,6.50000000000000e-01
3.51000000000000e-08,6.49999999999968e-01,6.50000000000000e-01,6.38606546151956e-01,6.50000000000000e-01
3.51100000000000e-08,5.84999999999980e-01,6.50000000000000e-01,6.42843275827420e-01,6.50000000000000e-01
3.51300000000000e-08,4.54999999999962e-01,6.50000000000000e-01,6.48088792660943e-01,6.50000000000000e-01
3.51700000000000e-08,1.94999999999968e-01,6.50000000000000e-01,6.50551729441389e-01,6.50000000000000e-01
3.52000000000000e-08,0.00000000000000e+00,6.50000000000000e-01,6.52093629995938e-01,6.50000000000000e-01
3.52080000000000e-08,0.00000000000000e+00,6.50000000000000e-01,6.52522446321661e-01,6.50000000000000e-01
3.52240000000000e-08,0.00000000000000e+00,6.50000000000000e-01,6.52955066959990e-01,6.50000000000000e-01
3.52560000000000e-08,0.00000000000000e+00,6.50000000000000e-01,6.51002115060453e-01,6.50000000000000e-01
3.53200000000000e-08,0.00000000000000e+00,6.50000000000000e-01,6.35491396451990e-01,6.50000000000000e-01
3.54480000000000e-08,0.00000000000000e+00,6.50000000000000e-01,6.27498411309512e-01,6.50000000000000e-01
3.57040000000000e-08,0.00000000000000e+00,6.50000000000000e-01,6.51746154745991e-01,6.50000000000000e-01
3.61856172885950e-08,0.00000000000000e+00,6.50000000000000e-01,6.47741484941213e-01,6.50000000000000e-01
3.68177459341220e-08,0.00000000000000e+00,6.50000000000000e-01,6.51419896050944e-01,6.50000000000000e-01
3.80820032251762e-08,0.00000000000000e+00,6.50000000000000e-01,6.48316161146611e-01,6.50000000000000e-01
4.06105178072844e-08,0.00000000000000e+00,6.50000000000000e-01,6.51396969559196e-01,6.50000000000000e-01
4.44105178072844e-08,0.00000000000000e+00,6.50000000000000e-01,6.48493253835714e-01,6.50000000000000e-01
4.50000000000000e-08,0.00000000000000e+00,6.50000000000000e-01,6.51162223716389e-01,6.50000000000000e-01
4.50100000000000e-08,6.49999999999877e-02,6.50000000000000e-01,6.50716859155134e-01,5.85000000000012e-01
4.50300000000000e-08,1.95000000000006e-01,6.50000000000000e-01,6.50092978926320e-01,4.54999999999994e-01
4.50700000000000e-08,4.55000000000000e-01,6.50000000000000e-01,6.51407736898805e-01,1.95000000000000e-01
4.51000000000000e-08,6.50000000000000e-01,6.50000000000000e-01,6.56506126430637e-01,0.00000000000000e+00
4.51080000000000e-08,6.50000000000000e-01,6.50000000000000e-01,6.58284883787567e-01,0.00000000000000e+00
4.51240000000000e-08,6.50000000000000e-01,6.50000000000000e-01,6.61402871393172e-01,0.00000000000000e+00
4.51560000000000e-08,6.50000000000000e-01,6.50000000000000e-01,6.67451285898134e-01,0.00000000000000e+00
4.52200000000000e-08,6.50000000000000e-01,6.50000000000000e-01,6.60464445557716e-01,0.00000000000000e+00
4.53480000000000e-08,6.50000000000000e-01,6.50000000000000e-01,3.12243069261732e-01,0.00000000000000e+00
4.55893051468313e-08,6.50000000000000e-01,6.50000000000000e-01,-4.42265860063523e-02,0.00000000000000e+00
4.59059838735440e-08,6.50000000000000e-01,6.50000000000000e-01,2.92325317318859e-02,0.00000000000000e+00
4.65393413269694e-08,6.50000000000000e-01,6.50000000000000e-01,-2.17458340119191e-02,0.00000000000000e+00
4.72043140580770e-08,6.50000000000000e-01,6.50000000000000e-01,1.83031430227030e-02,0.00000000000000e+00
4.85342595202922e-08,6.50000000000000e-01,6.50000000000000e-01,-1.59105163544316e-02,0.00000000000000e+00
5.01000000000000e-08,6.50000000000000e-01,6.49999999999963e-01,1.50484068422537e-02,0.00000000000000e+00
5.03659890924430e-08,6.50000000000000e-01,6.50000000000000e-01,1.63673038444888e-03,0.00000000000000e+00
5.08979672773291e-08,6.50000000000000e-01,6.50000000000000e-01,-1.19980777389289e-03,0.00000000000000e+00
5.19619236471013e-08,6.50000000000000e-01,6.50000000000000e-01,1.03642628127452e-03,0.00000000000000e+00
5.40898363866457e-08,6.50000000000000e-01,6.50000000000000e-01,-9.59793850352813e-04,0.00000000000000e+00
5.51000000000000e-08,6.50000000000000e-01,6.50000000000000e-01,8.21597268400895e-04,0.00000000000000e+00
5.51100000000000e-08,5.85000000000023e-01,6.50000000000000e-01,7.97852684343708e-04,6.49999999999769e-02
5.51300000000000e-08,4.55000000000005e-01,6.50000000000000e-01,6.68461821396155e-04,1.94999999999995e-01
5.51700000000000e-08,1.95000000000011e-01,6.50000000000000e-01,2.96125819066975e-04,4.54999999999989e-01
5.52000000000000e-08,0.00000000000000e+00,6.50000000000000e-01,1.64999252479411e-04,6.50000000000000e-01
5.52080000000000e-08,0.00000000000000e+00,6.50000000000000e-01,1.47048917133699e-04,6.50000000000000e-01
5.52240000000000e-08,0.00000000000000e+00,6.50000000000000e-01,1.13199045123719e-04,6.50000000000000e-01
5.52560000000000e-08,0.00000000000000e+00,6.50000000000000e-01,-1.12991352952257e-05,6.50000000000000e-01
5.53200000000000e-08,0.00000000000000e+00,6.50000000000000e-01,-8.55707364675780e-04,6.50000000000000e-01
5.54480000000000e-08,0.00000000000000e+00,6.50000000000000e-01,-6.98446471081492e-04,6.50000000000000e-01
5.56697481583735e-08,0.00000000000000e+00,6.50000000000000e-01,4.32185762470550e-04,6.50000000000000e-01
5.61132444751204e-08,0.00000000000000e+00,6.50000000000000e-01,-4.53732690408893e-04,6.50000000000000e-01
5.66000010721651e-08,0.00000000000000e+00,6.50000000000000e-01,3.91932150894673e-04,6.50000000000000e-01
5.75735142662545e-08,0.00000000000000e+00,6.50000000000000e-01,-3.27878622779442e-04,6.50000000000000e-01
5.86926180307959e-08,0.00000000000000e+00,6.50000000000000e-01,2.82171412790514e-04,6.50000000000000e-01
6.09150831058155e-08,0.00000000000000e+00,6.50000000000000e-01,-2.58271421600322e-04,6.50000000000000e-01
6.42504234350556e-08,0.00000000000000e+00,6.50000000000000e-01,2.45591953514104e-04,6.50000000000000e-01
6.50000000000000e-08,0.00000000000000e+00,6.50000000000000e-01,-1.87583134444703e-04,6.50000000000000e-01
6.50100000000000e-08,6.49999999999877e-02,6.50000000000000e-01,-5.02716939974612e-05,6.50000000000000e-01
6.50300000000000e-08,1.94999999999963e-01,6.50000000000000e-01,1.48528201190053e-04,6.50000000000000e-01
6.50700000000000e-08,4.54999999999914e-01,6.50000000000000e-01,3.07198470395238e-04,6.50000000000000e-01
6.51000000000000e-08,6.49999999999963e-01,6.50000000000000e-01,-4.74430256086011e-04,6.50000000000000e-01
6.51080000000000e-08,6.50000000000000e-01,6.50000000000000e-01,-1.04620369197837e-03,6.50000000000000e-01
6.51240000000000e-08,6.50000000000000e-01,6.50000000000000e-01,-2.25638771266237e-03,6.50000000000000e-01
6.51560000000000e-08,6.50000000000000e-01,6.50000000000000e-01,-4.35007239661440e-03,6.50000000000000e-01
6.52200000000000e-08,6.50000000000000e-01,6.50000000000000e-01,-5.24153726088906e-03,6.50000000000000e-01
6.53480000000000e-08,6.50000000000000e-01,6.50000000000000e-01,1.39121594923505e-01,6.50000000000000e-01
6.56040000000000e-08,6.50000000000000e-01,6.50000000000000e-01,6.05144652380243e-01,6.50000000000000e-01
6.61159999999999e-08,6.50000000000000e-01,6.50000000000000e-01,6.63908121568095e-01,6.50000000000000e-01
6.67115338896330e-08,6.50000000000000e-01,6.50000000000000e-01,6.35882788111873e-01,6.50000000000000e-01
6.77307388233402e-08,6.50000000000000e-01,6.50000000000000e-01,6.61748575797515e-01,6.50000000000000e-01
6.90721573552955e-08,6.50000000000000e-01,6.50000000000000e-01,6.37816899928213e-01,6.50000000000000e-01
7.17549944192061e-08,6.50000000000000e-01,6.50000000000000e-01,6.60969433248291e-01,6.50000000000000e-01
7.51000000000000e-08,6.50000000000000e-01,6.50000000000000e-01,6.38435450725648e-01,6.50000000000000e-01
7.51100000000000e-08,5.85000000000066e-01,6.50000000000000e-01,6.42739407234855e-01,6.50000000000000e-01
7.51300000000000e-08,4.55000000000091e-01,6.50000000000000e-01,6.48066356079797e-01,6.50000000000000e-01
7.51700000000000e-08,1.95000000000140e-01,6.50000000000000e-01,6.50554956954978e-01,6.50000000000000e-01
7.52000000000000e-08,9.09272657168003e-14,6.50000000000000e-01,6.52093768775325e-01,6.50000000000000e-01
7.52080000000000e-08,0.00000000000000e+00,6.50000000000000e-01,6.52522474306313e-01,6.50000000000000e-01
7.52240000000000e-08,0.00000000000000e+00,6.50000000000000e-01,6.52954525012875e-01,6.50000000000000e-01
7.52560000000000e-08,0.00000000000000e+00,6.50000000000000e-01,6.50997035313548e-01,6.50000000000000e-01
7.53200000000000e-08,0.00000000000000e+00,6.50000000000000e-01,6.35480448290812e-01,6.50000000000000e-01
7.54480000000000e-08,0.00000000000000e+00,6.50000000000000e-01,6.27498025637750e-01,6.50000000000000e-01
7.57040000000000e-08,0.00000000000000e+00,6.50000000000000e-01,6.51748900205293e-01,6.50000000000000e-01
7.61856040530401e-08,0.00000000000000e+00,6.50000000000000e-01,6.47739005863549e-01,6.50000000000000e-01
7.68177457617400e-08,0.00000000000000e+00,6.50000000000000e-01,6.51421795804138e-01,6.50000000000000e-01
7.80820291791399e-08,0.00000000000000e+00,6.50000000000000e-01,6.48314356434442e-01,6.50000000000000e-01
8.06105960139397e-08,0.00000000000000e+00,6.50000000000000e-01,6.51398662726392e-01,6.50000000000000e-01
8.44105960139397e-08,0.00000000000000e+00,6.50000000000000e-01,6.48491595489368e-01,6.50000000000000e-01
8.50000000000000e-08,0.00000000000000e+00,6.50000000000000e-01,6.51163547350963e-01,6.50000000000000e-01
8.50100000000000e-08,6.49999999999877e-02,6.50000000000000e-01,6.50717828976593e-01,5.85000000000012e-01
8.50300000000000e-08,1.94999999999963e-01,6.50000000000000e-01,6.50093416972943e-01,4.55000000000037e-01
8.50700000000000e-08,4.54999999999914e-01,6.50000000000000e-01,6.51407792605068e-01,1.95000000000086e-01
8.51000000000000e-08,6.49999999999963e-01,6.50000000000000e-01,6.56506178224558e-01,3.71924713249427e-14
8.51080000000000e-08,6.50000000000000e-01,6.50000000000000e-01,6.58284935497169e-01,0.00000000000000e+00
8.51240000000000e-08,6.50000000000000e-01,6.50000000000000e-01,6.61402917158875e-01,0.00000000000000e+00
8.51560000000000e-08,6.50000000000000e-01,6.50000000000000e-01,6.67451303967509e-01,0.00000000000000e+00
8.52200000000000e-08,6.50000000000000e-01,6.50000000000000e-01,6.60464103878536e-01,0.00000000000000e+00
8.53480000000000e-08,6.50000000000000e-01,6.50000000000000e-01,3.12242786725916e-01,0.00000000000000e+00
8.55893057076467e-08,6.50000000000000e-01,6.50000000000000e-01,-4.42266651784076e-02,0.00000000000000e+00
8.59059847153588e-08,6.50000000000000e-01,6.50000000000000e-01,2.92325796376011e-02,0.00000000000000e+00
8.65393427307829e-08,6.50000000000000e-01,6.50000000000000e-01,-2.17458475115190e-02,0.00000000000000e+00
8.72043165885760e-08,6.50000000000000e-01,6.50000000000000e-01,1.83031601349605e-02,0.00000000000000e+00
8.85342643041622e-08,6.50000000000000e-01,6.50000000000000e-01,-1.59105214632577e-02,0.00000000000000e+00
9.01000000000000e-08,6.50000000000000e-01,6.49999999999963e-01,1.50484089070568e-02,0.00000000000000e+00
9.03659895431172e-08,6.50000000000000e-01,6.50000000000000e-01,1.63673405995318e-03,0.00000000000000e+00
9.08979686293517e-08,6.50000000000000e-01,6.50000000000000e-01,-1.19981083846149e-03,0.00000000000000e+00
9.19619268018206e-08,6.50000000000000e-01,6.50000000000000e-01,1.03642908684918e-03,0.00000000000000e+00
9.40898431467585e-08,6.50000000000000e-01,6.50000000000000e-01,-9.59796494286772e-04,0.00000000000000e+00
9.51000000000000e-08,6.50000000000000e-01,6.50000000000000e-01,8.21598528543899e-04,0.00000000000000e+00
9.51100000000000e-08,5.85000000000066e-01,6.50000000000000e-01,7.97854196448483e-04,6.49999999999339e-02
9.51300000000000e-08,4.55000000000091e-01,6.50000000000000e-01,6.68462942934815e-04,1.94999999999909e-01
9.51700000000000e-08,1.95000000000140e-01,6.50000000000000e-01,2.96126097050535e-04,4.54999999999860e-01
9.52000000000000e-08,9.09272657168003e-14,6.50000000000000e-01,1.64999344334935e-04,6.49999999999909e-01
9.52080000000000e-08,0.00000000000000e+00,6.50000000000000e-01,1.47048984405200e-04,6.50000000000000e-01
9.52240000000000e-08,0.00000000000000e+00,6.50000000000000e-01,1.13199293651743e-04,6.50000000000000e-01
9.52560000000000e-08,0.00000000000000e+00,6.50000000000000e-01,-1.12967689525206e-05,6.50000000000000e-01
9.53200000000000e-08,0.00000000000000e+00,6.50000000000000e-01,-8.55691770214960e-04,6.50000000000000e-01
9.54480000000000e-08,0.00000000000000e+00,6.50000000000000e-01,-6.98430095548187e-04,6.50000000000000e-01
9.56697425983941e-08,0.00000000000000e+00,6.50000000000000e-01,4.32176952845930e-04,6.50000000000000e-01
9.61132277951823e-08,0.00000000000000e+00,6.50000000000000e-01,-4.53727080982269e-04,6.50000000000000e-01
9.65999823687521e-08,0.00000000000000e+00,6.50000000000000e-01,3.91943099454803e-04,6.50000000000000e-01
9.75734915158916e-08,0.00000000000000e+00,6.50000000000000e-01,-3.27885675032069e-04,6.50000000000000e-01
9.86925754403202e-08,0.00000000000000e+00,6.50000000000000e-01,2.82175348904150e-04,6.50000000000000e-01
1.00915064433922e-07,0.00000000000000e+00,6.50000000000000e-01,-2.58274647952847e-04,6.50000000000000e-01
1.04250400996412e-07,0.00000000000000e+00,6.50000000000000e-01,2.45594657604910e-04,6.50000000000000e-01
1.05000000000000e-07,0.00000000000000e+00,6.50000000000000e-01,-1.87585466915962e-04,6.50000000000000e-01
1.05010000000000e-07,6.49999999999877e-02,6.50000000000000e-01,-5.02746581816094e-05,6.50000000000000e-01
1.05030000000000e-07,1.94999999999963e-01,6.50000000000000e-01,1.48525725678861e-04,6.50000000000000e-01
1.05070000000000e-07,4.54999999999914e-01,6.50000000000000e-01,3.07197853186572e-04,6.50000000000000e-01
1.05100000000000e-07,6.49999999999963e-01,6.50000000000000e-01,-4.74430996255396e-04,6.50000000000000e-01
1.05108000000000e-07,6.50000000000000e-01,6.50000000000000e-01,-1.04620438937806e-03,6.50000000000000e-01
1.05124000000000e-07,6.50000000000000e-01,6.50000000000000e-01,-2.25638831096670e-03,6.50000000000000e-01
1.05156000000000e-07,6.50000000000000e-01,6.50000000000000e-01,-4.35007269830722e-03,6.50000000000000e-01
1.05220000000000e-07,6.50000000000000e-01,6.50000000000000e-01,-5.24153885312269e-03,6.50000000000000e-01
1.05348000000000e-07,6.50000000000000e-01,6.50000000000000e-01,1.39121561012657e-01,6.50000000000000e-01
1.05604000000000e-07,6.50000000000000e-01,6.50000000000000e-01,6.05144634370756e-01,6.50000000000000e-01
1.06116000000000e-07,6.50000000000000e-01,6.50000000000000e-01,6.63908126625971e-01,6.50000000000000e-01
1.06711533893721e-07,6.50000000000000e-01,6.50000000000000e-01,6.35882782729192e-01,6.50000000000000e-01
1.07730738853903e-07,6.50000000000000e-01,6.50000000000000e-01,6.61748580314400e-01,6.50000000000000e-01
1.09072157414326e-07,6.50000000000000e-01,6.50000000000000e-01,6.37816895115597e-01,6.50000000000000e-01
1.11754994535172e-07,6.50000000000000e-01,6.50000000000000e-01,6.60969437553616e-01,6.50000000000000e-01
1.15100000000000e-07,6.50000000000000e-01,6.50000000000000e-01,6.38435446127532e-01,6.50000000000000e-01
1.15110000000000e-07,5.85000000000066e-01,6.50000000000000e-01,6.42739404443794e-01,6.50000000000000e-01
1.15130000000000e-07,4.55000000000091e-01,6.50000000000000e-01,6.48066355476853e-01,6.50000000000000e-01
1.15170000000000e-07,1.95000000000140e-01,6.50000000000000e-01,6.50554957037936e-01,6.50000000000000e-01
