Time,v(clk),v(data),v(out)
1.00000000000000e-08,8.50000000000000e-01,0.00000000000000e+00,2.58428034846251e-05
1.00100000000000e-08,8.50000000000000e-01,8.49999999999979e-02,2.19903002562916e-05
1.00300000000000e-08,8.50000000000000e-01,2.54999999999994e-01,1.53399939540472e-05
1.00700000000000e-08,8.50000000000000e-01,5.94999999999986e-01,6.82944062833923e-06
1.01000000000000e-08,8.50000000000000e-01,8.49999999999994e-01,2.07614704877956e-06
1.01080000000000e-08,8.50000000000000e-01,8.50000000000000e-01,1.73944975478957e-06
1.01240000000000e-08,8.50000000000000e-01,8.50000000000000e-01,2.61932535859655e-06
1.01560000000000e-08,8.50000000000000e-01,8.50000000000000e-01,6.35010646324319e-06
1.02200000000000e-08,8.50000000000000e-01,8.50000000000000e-01,1.07048920244823e-05
1.03480000000000e-08,8.50000000000000e-01,8.50000000000000e-01,5.32778210790563e-06
1.06040000000000e-08,8.50000000000000e-01,8.50000000000000e-01,3.47754091512345e-06
1.10533155595238e-08,8.50000000000000e-01,8.50000000000000e-01,5.14440556184659e-06
1.19519466785714e-08,8.50000000000000e-01,8.50000000000000e-01,3.68959395466266e-06
1.37492089166666e-08,8.50000000000000e-01,8.50000000000000e-01,4.49351267442760e-06
1.51000000000000e-08,8.50000000000000e-01,8.50000000000000e-01,3.13505385717006e-06
1.51100000000000e-08,7.64999999999988e-01,8.50000000000000e-01,-7.91612920416074e-05
1.51300000000000e-08,5.94999999999992e-01,8.50000000000000e-01,-2.14474343346052e-04
1.51700000000000e-08,2.55000000000000e-01,8.50000000000000e-01,-1.70795622149125e-04
1.52000000000000e-08,0.00000000000000e+00,8.50000000000000e-01,1.76566058168320e-04
1.52080000000000e-08,0.00000000000000e+00,8.50000000000000e-01,3.40853624936646e-04
1.52240000000000e-08,0.00000000000000e+00,8.50000000000000e-01,5.40648150175765e-04
1.52560000000000e-08,0.00000000000000e+00,8.50000000000000e-01,4.99825145193214e-04
1.53200000000000e-08,0.00000000000000e+00,8.50000000000000e-01,5.13518513528821e-05
1.54480000000000e-08,0.00000000000000e+00,8.50000000000000e-01,-3.57819395436401e-04
1.57040000000000e-08,0.00000000000000e+00,8.50000000000000e-01,-2.46778060456639e-04
1.60904327497551e-08,0.00000000000000e+00,8.50000000000000e-01,1.56854199001518e-04
1.65854024866648e-08,0.00000000000000e+00,8.50000000000000e-01,1.81889812827522e-04
1.75753419604844e-08,0.00000000000000e+00,8.50000000000000e-01,-2.41597042039236e-04
1.85356362560898e-08,0.00000000000000e+00,8.50000000000000e-01,2.71643621644432e-04
2.04562248473007e-08,0.00000000000000e+00,8.50000000000000e-01,-2.69985533158749e-04
2.33606353733688e-08,0.00000000000000e+00,8.50000000000000e-01,2.71968817853602e-04
2.50000000000000e-08,0.00000000000000e+00,8.50000000000000e-01,-2.62879678197263e-04
2.50100000000000e-08,8.49999999999839e-02,8.50000000000000e-01,-7.42152449394462e-05
2.50300000000000e-08,2.55000000000008e-01,8.50000000000000e-01,2.22318516014064e-04
2.50700000000000e-08,5.95000000000000e-01,8.50000000000000e-01,4.65872828211443e-04
2.51000000000000e-08,8.50000000000000e-01,8.50000000000000e-01,-4.93661067005643e-04
2.51080000000000e-08,8.50000000000000e-01,8.50000000000000e-01,-1.15777688618561e-03
2.51240000000000e-08,8.50000000000000e-01,8.50000000000000e-01,-2.54389744438956e-03
2.51560000000000e-08,8.50000000000000e-01,8.50000000000000e-01,-5.02510209490617e-03
2.52200000000000e-08,8.50000000000000e-01,8.50000000000000e-01,-4.99700399650949e-03
2.53480000000000e-08,8.50000000000000e-01,8.50000000000000e-01,1.37970557229190e-01
2.56040000000000e-08,8.50000000000000e-01,8.50000000000000e-01,7.48261425861032e-01
2.61160000000000e-08,8.50000000000000e-01,8.50000000000000e-01,8.77706573859956e-01
2.66329852227216e-08,8.50000000000000e-01,8.50000000000000e-01,8.24010722614224e-01
2.76422726702887e-08,8.50000000000000e-01,8.50000000000000e-01,8.72725891252660e-01
2.89096182698004e-08,8.50000000000000e-01,8.50000000000000e-01,8.27349231555135e-01
3.01000000000000e-08,8.50000000000000e-01,8.50000000000000e-01,8.70292549534958e-01
3.01100000000000e-08,8.50000000000000e-01,7.65000000000044e-01,8.62714245957257e-01
3.01300000000000e-08,8.50000000000000e-01,5.95000000000020e-01,8.53231454999548e-01
3.01700000000000e-08,8.50000000000000e-01,2.55000000000028e-01,8.49704588254278e-01
3.02000000000000e-08,8.50000000000000e-01,2.05391259555654e-14,8.49994914392261e-01
3.02080000000000e-08,8.50000000000000e-01,0.00000000000000e+00,8.49987029328556e-01
3.02240000000000e-08,8.50000000000000e-01,0.00000000000000e+00,8.49969534534404e-01
3.02560000000000e-08,8.50000000000000e-01,0.00000000000000e+00,8.49951416621709e-01
3.03200000000000e-08,8.50000000000000e-01,0.00000000000000e+00,8.49944367361131e-01
3.04480000000000e-08,8.50000000000000e-01,0.00000000000000e+00,8.49972988375853e-01
3.06742409936141e-08,8.50000000000000e-01,0.00000000000000e+00,8.49971046581461e-01
3.10770422815354e-08,8.50000000000000e-01,0.00000000000000e+00,8.49953874906534e-01
3.15454620467611e-08,8.50000000000000e-01,0.00000000000000e+00,8.49977141012322e-01
3.24823015772123e-08,8.50000000000000e-01,0.00000000000000e+00,8.49960875202737e-01
3.43559806381148e-08,8.50000000000000e-01,0.00000000000000e+00,8.49983794671208e-01
3.51000000000000e-08,8.49999999999958e-01,0.00000000000000e+00,8.49967613356804e-01
3.51100000000000e-08,7.64999999999974e-01,0.00000000000000e+00,8.49896186070130e-01
3.51300000000000e-08,5.94999999999950e-01,0.00000000000000e+00,8.49815045110421e-01
3.51700000000000e-08,2.54999999999958e-01,0.00000000000000e+00,8.50938331348045e-01
3.52000000000000e-08,0.00000000000000e+00,0.00000000000000e+00,8.53098028548546e-01
3.52080000000000e-08,0.00000000000000e+00,0.00000000000000e+00,8.53474295165429e-01
3.52240000000000e-08,0.00000000000000e+00,0.00000000000000e+00,8.53339241004771e-01
3.52560000000000e-08,0.00000000000000e+00,0.00000000000000e+00,8.47503014637733e-01
3.53200000000000e-08,0.00000000000000e+00,0.00000000000000e+00,8.24939704375990e-01
3.54480000000000e-08,0.00000000000000e+00,0.00000000000000e+00,8.17763567819404e-01
3.56911356039011e-08,0.00000000000000e+00,0.00000000000000e+00,8.51069268091785e-01
3.59972725337942e-08,0.00000000000000e+00,0.00000000000000e+00,8.47789870050826e-01
3.66021754330689e-08,0.00000000000000e+00,0.00000000000000e+00,8.50888454204774e-01
3.72060693830505e-08,0.00000000000000e+00,0.00000000000000e+00,8.48640707966669e-01
3.84138572830135e-08,0.00000000000000e+00,0.00000000000000e+00,8.50785935488061e-01
3.91000000000000e-08,0.00000000000000e+00,0.00000000000000e+00,8.49014798542357e-01
3.93415575799926e-08,0.00000000000000e+00,0.00000000000000e+00,8.49756045658960e-01
3.98246727399778e-08,0.00000000000000e+00,0.00000000000000e+00,8.49929810972293e-01
4.07909030599483e-08,0.00000000000000e+00,0.00000000000000e+00,8.49815469818946e-01
4.27233636998891e-08,0.00000000000000e+00,0.00000000000000e+00,8.49959992633468e-01
4.50000000000000e-08,0.00000000000000e+00,0.00000000000000e+00,8.49859754406505e-01
4.50100000000000e-08,8.49999999999839e-02,0.00000000000000e+00,8.49938697533578e-01
4.50300000000000e-08,2.55000000000008e-01,0.00000000000000e+00,8.50027060242115e-01
4.50700000000000e-08,5.95000000000000e-01,0.00000000000000e+00,8.50000487088733e-01
4.51000000000000e-08,8.50000000000000e-01,0.00000000000000e+00,8.49808560017866e-01
4.51080000000000e-08,8.50000000000000e-01,0.00000000000000e+00,8.49726712359547e-01
4.51240000000000e-08,8.50000000000000e-01,0.00000000000000e+00,8.49626160468167e-01
4.51560000000000e-08,8.50000000000000e-01,0.00000000000000e+00,8.49581390470844e-01
4.52200000000000e-08,8.50000000000000e-01,0.00000000000000e+00,8.49932446235607e-01
4.53480000000000e-08,8.50000000000000e-01,0.00000000000000e+00,8.55439607973539e-01
4.56040000000000e-08,8.50000000000000e-01,0.00000000000000e+00,4.81342368819185e-01
4.60746917577427e-08,8.50000000000000e-01,0.00000000000000e+00,-6.94912916544816e-02
4.65160571427738e-08,8.50000000000000e-01,0.00000000000000e+00,4.40530288334117e-02
4.73987879128361e-08,8.50000000000000e-01,0.00000000000000e+00,-2.85571457122078e-02
4.82333349866936e-08,8.50000000000000e-01,0.00000000000000e+00,2.25748581107504e-02
4.99024291344087e-08,8.50000000000000e-01,0.00000000000000e+00,-1.73625082736684e-02
5.00000000000000e-08,8.50000000000000e-01,0.00000000000000e+00,-4.77711878464162e-03
5.00100000000000e-08,8.50000000000000e-01,8.49999999999839e-02,-3.03257782189319e-03
5.00300000000000e-08,8.50000000000000e-01,2.54999999999952e-01,-1.15471099916331e-03
5.00700000000000e-08,8.50000000000000e-01,5.95000000000000e-01,-5.46660235487481e-04
5.01000000000000e-08,8.50000000000000e-01,8.50000000000000e-01,-2.61140913963051e-04
5.01080000000000e-08,8.50000000000000e-01,8.50000000000000e-01,-2.38775899869134e-04
5.01240000000000e-08,8.50000000000000e-01,8.50000000000000e-01,-1.84304316335024e-04
5.01560000000000e-08,8.50000000000000e-01,8.50000000000000e-01,-9.17381916937521e-05
5.02200000000000e-08,8.50000000000000e-01,8.50000000000000e-01,-2.31788308474729e-05
5.03480000000000e-08,8.50000000000000e-01,8.50000000000000e-01,-3.44949353657531e-06
5.06040000000000e-08,8.50000000000000e-01,8.50000000000000e-01,2.76018927585983e-06
5.10749538386775e-08,8.50000000000000e-01,8.50000000000000e-01,5.52178321639590e-07
5.20168615160323e-08,8.50000000000000e-01,8.50000000000000e-01,2.27924407672844e-06
5.39006768707419e-08,8.50000000000000e-01,8.50000000000000e-01,8.40292876951206e-07
5.51000000000000e-08,8.50000000000000e-01,8.50000000000000e-01,2.27664438844349e-06
5.51100000000000e-08,7.65000000000030e-01,8.50000000000000e-01,-7.86634379645601e-05
5.51300000000000e-08,5.95000000000006e-01,8.50000000000000e-01,-2.09089440543597e-04
5.51700000000000e-08,2.55000000000014e-01,8.50000000000000e-01,-1.69023383715869e-04
5.52000000000000e-08,0.00000000000000e+00,8.50000000000000e-01,1.69278127072944e-04
5.52080000000000e-08,0.00000000000000e+00,8.50000000000000e-01,3.28920796058299e-04
5.52240000000000e-08,0.00000000000000e+00,8.50000000000000e-01,4.65448599681825e-04
5.52560000000000e-08,0.00000000000000e+00,8.50000000000000e-01,2.80752404083970e-04
5.53200000000000e-08,0.00000000000000e+00,8.50000000000000e-01,-8.23381246332390e-04
5.54480000000000e-08,0.00000000000000e+00,8.50000000000000e-01,-9.36626599147915e-04
5.57040000000000e-08,0.00000000000000e+00,8.50000000000000e-01,1.66605120172046e-05
5.60892589625197e-08,0.00000000000000e+00,8.50000000000000e-01,-9.31909490946292e-06
5.65846435875292e-08,0.00000000000000e+00,8.50000000000000e-01,3.00499884996260e-04
5.75754128375481e-08,0.00000000000000e+00,8.50000000000000e-01,-4.07259864494407e-04
5.85347089901429e-08,0.00000000000000e+00,8.50000000000000e-01,4.09679155991223e-04
6.04533012953327e-08,0.00000000000000e+00,8.50000000000000e-01,-3.98798138510752e-04
6.33598778295894e-08,0.00000000000000e+00,8.50000000000000e-01,3.93445657757511e-04
6.50000000000000e-08,0.00000000000000e+00,8.50000000000000e-01,-3.73977646380748e-04
6.50100000000000e-08,8.49999999999839e-02,8.50000000000000e-01,-1.49344449738756e-04
6.50300000000000e-08,2.54999999999952e-01,8.50000000000000e-01,1.85100590893814e-04
6.50700000000000e-08,5.94999999999887e-01,8.50000000000000e-01,4.44440857025968e-04
6.51000000000000e-08,8.49999999999951e-01,8.50000000000000e-01,-5.05170297341567e-04
6.51080000000000e-08,8.50000000000000e-01,8.50000000000000e-01,-1.16871959875674e-03
6.51240000000000e-08,8.50000000000000e-01,8.50000000000000e-01,-2.55317456906194e-03
6.51560000000000e-08,8.50000000000000e-01,8.50000000000000e-01,-5.03082014495472e-03
6.52200000000000e-08,8.50000000000000e-01,8.50000000000000e-01,-4.99571102446909e-03
6.53480000000000e-08,8.50000000000000e-01,8.50000000000000e-01,1.38019647603794e-01
6.56040000000000e-08,8.50000000000000e-01,8.50000000000000e-01,7.48296503586623e-01
6.61159999999999e-08,8.50000000000000e-01,8.50000000000000e-01,8.77700523705280e-01
6.66330195459457e-08,8.50000000000000e-01,8.50000000000000e-01,8.24016211435431e-01
6.76422244398428e-08,8.50000000000000e-01,8.50000000000000e-01,8.72720937116830e-01
6.89095606893746e-08,8.50000000000000e-01,8.50000000000000e-01,8.27354256336096e-01
7.01000000000000e-08,8.50000000000000e-01,8.50000000000000e-01,8.70288154705473e-01
7.01100000000000e-08,8.50000000000000e-01,7.65000000000016e-01,8.62711545988536e-01
7.01300000000000e-08,8.50000000000000e-01,5.95000000000048e-01,8.53230835792664e-01
7.01700000000000e-08,8.50000000000000e-01,2.55000000000113e-01,8.49704670501467e-01
7.02000000000000e-08,8.50000000000000e-01,4.87387907810444e-14,8.49994922263508e-01
7.02080000000000e-08,8.50000000000000e-01,0.00000000000000e+00,8.49987040596967e-01
7.02240000000000e-08,8.50000000000000e-01,0.00000000000000e+00,8.49969553422557e-01
7.02560000000000e-08,8.50000000000000e-01,0.00000000000000e+00,8.49951438240562e-01
7.03200000000000e-08,8.50000000000000e-01,0.00000000000000e+00,8.49944384353709e-01
7.04480000000000e-08,8.50000000000000e-01,0.00000000000000e+00,8.49973002812879e-01
7.06742421343166e-08,8.50000000000000e-01,0.00000000000000e+00,8.49971049727516e-01
7.10770422588523e-08,8.50000000000000e-01,0.00000000000000e+00,8.49953888418057e-01
7.15454696504546e-08,8.50000000000000e-01,0.00000000000000e+00,8.49977143857810e-01
7.24823244336592e-08,8.50000000000000e-01,0.00000000000000e+00,8.49960885815602e-01
7.43560340000683e-08,8.50000000000000e-01,0.00000000000000e+00,8.49983794926519e-01
7.51000000000000e-08,8.50000000000000e-01,0.00000000000000e+00,8.49967620582892e-01
7.51100000000000e-08,7.65000000000086e-01,0.00000000000000e+00,8.49896151706800e-01
7.51300000000000e-08,5.95000000000119e-01,0.00000000000000e+00,8.49814971802574e-01
7.51700000000000e-08,2.55000000000183e-01,0.00000000000000e+00,8.50938306070769e-01
7.52000000000000e-08,1.19015908239817e-13,0.00000000000000e+00,8.53098053986981e-01
7.52080000000000e-08,0.00000000000000e+00,0.00000000000000e+00,8.53474329759162e-01
7.52240000000000e-08,0.00000000000000e+00,0.00000000000000e+00,8.53339360327967e-01
7.52560000000000e-08,0.00000000000000e+00,0.00000000000000e+00,8.47503485628933e-01
7.53200000000000e-08,0.00000000000000e+00,0.00000000000000e+00,8.24940446452766e-01
7.54480000000000e-08,0.00000000000000e+00,0.00000000000000e+00,8.17763681234801e-01
7.56911356029314e-08,0.00000000000000e+00,0.00000000000000e+00,8.51069203268417e-01
7.59972725525121e-08,0.00000000000000e+00,0.00000000000000e+00,8.47789921673386e-01
7.66021753710520e-08,0.00000000000000e+00,0.00000000000000e+00,8.50888415820575e-01
7.72060693335392e-08,0.00000000000000e+00,0.00000000000000e+00,8.48640740568536e-01
7.81000000000000e-08,0.00000000000000e+00,0.00000000000000e+00,8.50733960608025e-01
7.82207787924975e-08,0.00000000000000e+00,0.00000000000000e+00,8.49979202556948e-01
7.84623363774923e-08,0.00000000000000e+00,0.00000000000000e+00,8.49703510940273e-01
7.89454515474821e-08,0.00000000000000e+00,0.00000000000000e+00,8.49917277652871e-01
7.99116818874616e-08,0.00000000000000e+00,0.00000000000000e+00,8.49785672688549e-01
8.18441425674206e-08,0.00000000000000e+00,0.00000000000000e+00,8.49963235399228e-01
8.50000000000000e-08,0.00000000000000e+00,0.00000000000000e+00,8.49847880119144e-01
8.50100000000000e-08,8.49999999999839e-02,0.00000000000000e+00,8.49942099780472e-01
8.50300000000000e-08,2.54999999999952e-01,0.00000000000000e+00,8.50047414615854e-01
8.50700000000000e-08,5.94999999999887e-01,0.00000000000000e+00,8.50013251445070e-01
8.51000000000000e-08,8.49999999999951e-01,0.00000000000000e+00,8.49813448738528e-01
8.51080000000000e-08,8.50000000000000e-01,0.00000000000000e+00,8.49734170102734e-01
8.51240000000000e-08,8.50000000000000e-01,0.00000000000000e+00,8.49636391299525e-01
8.51560000000000e-08,8.50000000000000e-01,0.00000000000000e+00,8.49575218891847e-01
8.52200000000000e-08,8.50000000000000e-01,0.00000000000000e+00,8.49911161879925e-01
8.53480000000000e-08,8.50000000000000e-01,0.00000000000000e+00,8.55446898924700e-01
8.56040000000000e-08,8.50000000000000e-01,0.00000000000000e+00,4.81384356602417e-01
8.60745904985052e-08,8.50000000000000e-01,0.00000000000000e+00,-6.94480971667335e-02
8.65159622377605e-08,8.50000000000000e-01,0.00000000000000e+00,4.40230487521804e-02
8.73987057162712e-08,8.50000000000000e-01,0.00000000000000e+00,-2.85369812434076e-02
8.82332054538487e-08,8.50000000000000e-01,0.00000000000000e+00,2.25567536930906e-02
8.99022049290038e-08,8.50000000000000e-01,0.00000000000000e+00,-1.73474160095647e-02
9.00000000000000e-08,8.50000000000000e-01,0.00000000000000e+00,-4.75498643661228e-03
9.00100000000000e-08,8.50000000000000e-01,8.49999999999839e-02,-3.01222417017065e-03
9.00300000000000e-08,8.50000000000000e-01,2.54999999999952e-01,-1.13875883891872e-03
9.00700000000000e-08,8.50000000000000e-01,5.94999999999887e-01,-5.38860866581760e-04
9.01000000000000e-08,8.50000000000000e-01,8.49999999999951e-01,-2.56513578144879e-04
9.01080000000000e-08,8.50000000000000e-01,8.50000000000000e-01,-2.34718982789414e-04
9.01240000000000e-08,8.50000000000000e-01,8.50000000000000e-01,-1.81297012564766e-04
9.01560000000000e-08,8.50000000000000e-01,8.50000000000000e-01,-9.00880694609946e-05
9.02200000000000e-08,8.50000000000000e-01,8.50000000000000e-01,-2.27071968830622e-05
9.03480000000000e-08,8.50000000000000e-01,8.50000000000000e-01,-3.46726470155240e-06
9.06040000000000e-08,8.50000000000000e-01,8.50000000000000e-01,2.76786632088730e-06
9.10749064912008e-08,8.50000000000000e-01,8.50000000000000e-01,5.46743151700474e-07
9.20167194736024e-08,8.50000000000000e-01,8.50000000000000e-01,2.28396732545287e-06
9.39003454384056e-08,8.50000000000000e-01,8.50000000000000e-01,8.36217990777925e-07
9.51000000000000e-08,8.50000000000000e-01,8.50000000000000e-01,2.28097886192241e-06
9.51100000000000e-08,7.65000000000086e-01,8.50000000000000e-01,-7.86507783871182e-05
9.51300000000000e-08,5.95000000000119e-01,8.50000000000000e-01,-2.09063801730677e-04
9.51700000000000e-08,2.55000000000183e-01,8.50000000000000e-01,-1.68989683940288e-04
9.52000000000000e-08,1.19015908239817e-13,8.50000000000000e-01,1.69293901431625e-04
9.52080000000000e-08,0.00000000000000e+00,8.50000000000000e-01,3.28933738367718e-04
9.52240000000000e-08,0.00000000000000e+00,8.50000000000000e-01,4.65452990047771e-04
9.52560000000000e-08,0.00000000000000e+00,8.50000000000000e-01,2.80730568085294e-04
9.53200000000000e-08,0.00000000000000e+00,8.50000000000000e-01,-8.23570593517092e-04
9.54480000000000e-08,0.00000000000000e+00,8.50000000000000e-01,-9.36786892256347e-04
9.57040000000000e-08,0.00000000000000e+00,8.50000000000000e-01,1.67205648081113e-05
9.60892585757671e-08,0.00000000000000e+00,8.50000000000000e-01,-9.35263701170100e-06
9.65846433298664e-08,0.00000000000000e+00,8.50000000000000e-01,3.00522192461725e-04
9.75754128380649e-08,0.00000000000000e+00,8.50000000000000e-01,-4.07278981337435e-04
9.85347086879605e-08,0.00000000000000e+00,8.50000000000000e-01,4.09695276949293e-04
1.00453300387752e-07,0.00000000000000e+00,8.50000000000000e-01,-3.98813205730541e-04
1.03359877636870e-07,0.00000000000000e+00,8.50000000000000e-01,3.93459994319533e-04
1.05000000000000e-07,0.00000000000000e+00,8.50000000000000e-01,-3.73990992603854e-04
1.05010000000000e-07,8.49999999999839e-02,8.50000000000000e-01,-1.49351170980028e-04
1.05030000000000e-07,2.54999999999952e-01,8.50000000000000e-01,1.85098733171532e-04
1.05070000000000e-07,5.94999999999887e-01,8.50000000000000e-01,4.44438263601160e-04
1.05100000000000e-07,8.49999999999951e-01,8.50000000000000e-01,-5.05171761398401e-04
1.05108000000000e-07,8.50000000000000e-01,8.50000000000000e-01,-1.16872114935529e-03
1.05124000000000e-07,8.50000000000000e-01,8.50000000000000e-01,-2.55317607545372e-03
1.05156000000000e-07,8.50000000000000e-01,8.50000000000000e-01,-5.03082118132168e-03
1.05220000000000e-07,8.50000000000000e-01,8.50000000000000e-01,-4.99571043875298e-03
1.05348000000000e-07,8.50000000000000e-01,8.50000000000000e-01,1.38019662274017e-01
1.05604000000000e-07,8.50000000000000e-01,8.50000000000000e-01,7.48296513983610e-01
