Time,v(clk),v(data),v(out)
1.00000000000000e-08,8.50000000000000e-01,0.00000000000000e+00,1.45512478663748e-05
1.00100000000000e-08,8.50000000000000e-01,8.49999999999979e-02,1.67954722214841e-05
1.00300000000000e-08,8.50000000000000e-01,2.54999999999994e-01,1.77445281030475e-05
1.00700000000000e-08,8.50000000000000e-01,5.94999999999986e-01,1.35183571110878e-05
1.01000000000000e-08,8.50000000000000e-01,8.49999999999994e-01,1.16284098965885e-05
1.01080000000000e-08,8.50000000000000e-01,8.50000000000000e-01,1.06061964014748e-05
1.01240000000000e-08,8.50000000000000e-01,8.50000000000000e-01,1.03696305376738e-05
1.01560000000000e-08,8.50000000000000e-01,8.50000000000000e-01,1.25669776893378e-05
1.02200000000000e-08,8.50000000000000e-01,8.50000000000000e-01,1.79070554561719e-05
1.03480000000000e-08,8.50000000000000e-01,8.50000000000000e-01,1.63248650768832e-05
1.06040000000000e-08,8.50000000000000e-01,8.50000000000000e-01,1.33249057504593e-05
1.10498577355924e-08,8.50000000000000e-01,8.50000000000000e-01,1.35272843732916e-05
1.19415732067772e-08,8.50000000000000e-01,8.50000000000000e-01,1.35854436201493e-05
1.37250041491467e-08,8.50000000000000e-01,8.50000000000000e-01,1.21693549674558e-05
1.51000000000000e-08,8.50000000000000e-01,8.50000000000000e-01,1.25682008971038e-05
1.51100000000000e-08,7.64999999999988e-01,8.50000000000000e-01,-7.30104238557405e-05
1.51300000000000e-08,5.94999999999992e-01,8.50000000000000e-01,-2.22082870915408e-04
1.51700000000000e-08,2.55000000000000e-01,8.50000000000000e-01,-2.17967965759042e-04
1.52000000000000e-08,0.00000000000000e+00,8.50000000000000e-01,1.08627850929174e-04
1.52080000000000e-08,0.00000000000000e+00,8.50000000000000e-01,2.81866289192356e-04
1.52240000000000e-08,0.00000000000000e+00,8.50000000000000e-01,5.15081786066449e-04
1.52560000000000e-08,0.00000000000000e+00,8.50000000000000e-01,5.64499252374284e-04
1.53200000000000e-08,0.00000000000000e+00,8.50000000000000e-01,1.69643642984940e-04
1.54480000000000e-08,0.00000000000000e+00,8.50000000000000e-01,-3.92391805149245e-04
1.57040000000000e-08,0.00000000000000e+00,8.50000000000000e-01,-2.17326242385452e-04
1.61446167804568e-08,0.00000000000000e+00,8.50000000000000e-01,1.01170338264109e-05
1.66952039948287e-08,0.00000000000000e+00,8.50000000000000e-01,2.41598101878827e-04
1.77963784235726e-08,0.00000000000000e+00,8.50000000000000e-01,-1.83354267164490e-04
1.88428085181704e-08,0.00000000000000e+00,8.50000000000000e-01,1.65336839224071e-04
2.09356687073659e-08,0.00000000000000e+00,8.50000000000000e-01,-1.28676420281128e-04
2.47356687073659e-08,0.00000000000000e+00,8.50000000000000e-01,1.38721883551005e-04
2.50000000000000e-08,0.00000000000000e+00,8.50000000000000e-01,-2.48406628927979e-05
2.50100000000000e-08,8.49999999999839e-02,8.50000000000000e-01,1.16958772471754e-04
2.50300000000000e-08,2.55000000000008e-01,8.50000000000000e-01,3.45179271144108e-04
2.50700000000000e-08,5.95000000000000e-01,8.50000000000000e-01,5.81751516942002e-04
2.51000000000000e-08,8.50000000000000e-01,8.50000000000000e-01,2.21114819728974e-05
2.51080000000000e-08,8.50000000000000e-01,8.50000000000000e-01,-4.53182794868418e-04
2.51240000000000e-08,8.50000000000000e-01,8.50000000000000e-01,-1.50195354707369e-03
2.51560000000000e-08,8.50000000000000e-01,8.50000000000000e-01,-3.66952625818302e-03
2.52200000000000e-08,8.50000000000000e-01,8.50000000000000e-01,-6.06881383961267e-03
2.53480000000000e-08,8.50000000000000e-01,8.50000000000000e-01,4.25697205478191e-02
2.56040000000000e-08,8.50000000000000e-01,8.50000000000000e-01,5.94996386557537e-01
2.61160000000000e-08,8.50000000000000e-01,8.50000000000000e-01,8.88125691729564e-01
2.66270359738274e-08,8.50000000000000e-01,8.50000000000000e-01,8.17694235783617e-01
2.76491079214821e-08,8.50000000000000e-01,8.50000000000000e-01,8.78907815463764e-01
2.89432938208147e-08,8.50000000000000e-01,8.50000000000000e-01,8.21717778937507e-01
3.12068428880250e-08,8.50000000000000e-01,8.50000000000000e-01,8.76233489783709e-01
3.50068428880250e-08,8.50000000000000e-01,8.50000000000000e-01,8.23305753954730e-01
3.51000000000000e-08,8.49999999999958e-01,8.50000000000000e-01,8.59900352953098e-01
3.51100000000000e-08,7.64999999999974e-01,8.50000000000000e-01,8.56434948251351e-01
3.51300000000000e-08,5.94999999999950e-01,8.50000000000000e-01,8.51904792080654e-01
3.51700000000000e-08,2.54999999999958e-01,8.50000000000000e-01,8.50865200286245e-01
3.52000000000000e-08,0.00000000000000e+00,8.50000000000000e-01,8.53057484421309e-01
3.52080000000000e-08,0.00000000000000e+00,8.50000000000000e-01,8.53504473754250e-01
3.52240000000000e-08,0.00000000000000e+00,8.50000000000000e-01,8.53765622288084e-01
3.52560000000000e-08,0.00000000000000e+00,8.50000000000000e-01,8.50270810835337e-01
3.53200000000000e-08,0.00000000000000e+00,8.50000000000000e-01,8.31803372657471e-01
3.54480000000000e-08,0.00000000000000e+00,8.50000000000000e-01,8.14482059710956e-01
3.57040000000000e-08,0.00000000000000e+00,8.50000000000000e-01,8.45133895319866e-01
3.61965653986052e-08,0.00000000000000e+00,8.50000000000000e-01,8.51097878576883e-01
3.67487633265094e-08,0.00000000000000e+00,8.50000000000000e-01,8.48270263654617e-01
3.78531591823178e-08,0.00000000000000e+00,8.50000000000000e-01,8.50687218125694e-01
4.00619508939345e-08,0.00000000000000e+00,8.50000000000000e-01,8.48898336516669e-01
4.38619508939345e-08,0.00000000000000e+00,8.50000000000000e-01,8.50710511304969e-01
4.50000000000000e-08,0.00000000000000e+00,8.50000000000000e-01,8.49144612990654e-01
4.50100000000000e-08,8.49999999999839e-02,8.50000000000000e-01,8.49365650724392e-01
4.50300000000000e-08,2.55000000000008e-01,8.50000000000000e-01,8.49703452352212e-01
4.50700000000000e-08,5.95000000000000e-01,8.50000000000000e-01,8.50014645811151e-01
4.51000000000000e-08,8.50000000000000e-01,8.50000000000000e-01,8.49722510361584e-01
4.51080000000000e-08,8.50000000000000e-01,7.82000000000035e-01,8.49447194286374e-01
4.51240000000000e-08,8.50000000000000e-01,6.45999999999994e-01,8.48881806045400e-01
4.51560000000000e-08,8.50000000000000e-01,3.74000000000023e-01,8.47889799913926e-01
4.52000000000000e-08,8.50000000000000e-01,4.87387907810444e-14,8.47060706371510e-01
4.52064000000000e-08,8.50000000000000e-01,0.00000000000000e+00,8.46985652428372e-01
4.52192000000000e-08,8.50000000000000e-01,0.00000000000000e+00,8.46833541423659e-01
4.52448000000000e-08,8.50000000000000e-01,0.00000000000000e+00,8.46588259342896e-01
4.52960000000000e-08,8.50000000000000e-01,0.00000000000000e+00,8.46501420749420e-01
4.53984000000000e-08,8.50000000000000e-01,0.00000000000000e+00,8.47490368571026e-01
4.56032000000000e-08,8.50000000000000e-01,0.00000000000000e+00,8.48912652427294e-01
4.58675933217166e-08,8.50000000000000e-01,0.00000000000000e+00,8.49666866403455e-01
4.63963799651499e-08,8.50000000000000e-01,0.00000000000000e+00,8.50046214788347e-01
4.69474481686361e-08,8.50000000000000e-01,0.00000000000000e+00,8.49989125215634e-01
4.80495845756084e-08,8.50000000000000e-01,0.00000000000000e+00,8.50008482527103e-01
5.02538573895530e-08,8.50000000000000e-01,0.00000000000000e+00,8.49991724146900e-01
5.40538573895530e-08,8.50000000000000e-01,0.00000000000000e+00,8.50008303340797e-01
5.51000000000000e-08,8.50000000000000e-01,0.00000000000000e+00,8.49991148158609e-01
5.51100000000000e-08,7.65000000000030e-01,0.00000000000000e+00,8.49934749293570e-01
5.51300000000000e-08,5.95000000000006e-01,0.00000000000000e+00,8.49858959926881e-01
5.51700000000000e-08,2.55000000000014e-01,0.00000000000000e+00,8.50943662740186e-01
5.52000000000000e-08,0.00000000000000e+00,0.00000000000000e+00,8.53203616234417e-01
5.52080000000000e-08,0.00000000000000e+00,0.00000000000000e+00,8.53786027147848e-01
5.52240000000000e-08,0.00000000000000e+00,0.00000000000000e+00,8.54626592958653e-01
5.52560000000000e-08,0.00000000000000e+00,0.00000000000000e+00,8.55366080393938e-01
5.53200000000000e-08,0.00000000000000e+00,0.00000000000000e+00,8.56084481276253e-01
5.54480000000000e-08,0.00000000000000e+00,0.00000000000000e+00,8.52798808970436e-01
5.57040000000000e-08,0.00000000000000e+00,0.00000000000000e+00,8.48592895389306e-01
5.60685635337823e-08,0.00000000000000e+00,0.00000000000000e+00,8.50049701193904e-01
5.66406576629491e-08,0.00000000000000e+00,0.00000000000000e+00,8.49361662154846e-01
5.73801873081895e-08,0.00000000000000e+00,0.00000000000000e+00,8.49933839319516e-01
5.88592465986703e-08,0.00000000000000e+00,0.00000000000000e+00,8.49626725104593e-01
6.18173651796318e-08,0.00000000000000e+00,0.00000000000000e+00,8.49995768414746e-01
6.50000000000000e-08,0.00000000000000e+00,0.00000000000000e+00,8.49735701554896e-01
6.50100000000000e-08,8.49999999999839e-02,0.00000000000000e+00,8.49815226623834e-01
6.50300000000000e-08,2.54999999999952e-01,0.00000000000000e+00,8.49919170766742e-01
6.50700000000000e-08,5.94999999999887e-01,0.00000000000000e+00,8.49943642182673e-01
6.51000000000000e-08,8.49999999999951e-01,0.00000000000000e+00,8.49797835735907e-01
6.51080000000000e-08,8.50000000000000e-01,0.00000000000000e+00,8.49717418092864e-01
6.51240000000000e-08,8.50000000000000e-01,0.00000000000000e+00,8.49608512905888e-01
6.51560000000000e-08,8.50000000000000e-01,0.00000000000000e+00,8.49564363279824e-01
6.52200000000000e-08,8.50000000000000e-01,0.00000000000000e+00,8.49657125208500e-01
6.53480000000000e-08,8.50000000000000e-01,0.00000000000000e+00,8.52187756804493e-01
6.56040000000000e-08,8.50000000000000e-01,0.00000000000000e+00,7.83747884095380e-01
6.61159999999999e-08,8.50000000000000e-01,0.00000000000000e+00,1.13661137249143e-01
6.65920859138996e-08,8.50000000000000e-01,0.00000000000000e+00,-5.27120032224107e-02
6.75442577416988e-08,8.50000000000000e-01,0.00000000000000e+00,4.15976562332763e-02
6.86256461440254e-08,8.50000000000000e-01,0.00000000000000e+00,-3.11060314973127e-02
7.06616610365928e-08,8.50000000000000e-01,0.00000000000000e+00,2.83956302636927e-02
7.43304401432325e-08,8.50000000000000e-01,0.00000000000000e+00,-2.56427619486876e-02
7.51000000000000e-08,8.50000000000000e-01,0.00000000000000e+00,1.91834957614859e-02
7.51100000000000e-08,7.65000000000086e-01,0.00000000000000e+00,1.52003739772998e-02
7.51300000000000e-08,5.95000000000119e-01,0.00000000000000e+00,9.73588617043857e-03
7.51700000000000e-08,2.55000000000183e-01,0.00000000000000e+00,5.42609260592265e-03
7.52000000000000e-08,1.19015908239817e-13,0.00000000000000e+00,3.84278994269836e-03
7.52080000000000e-08,0.00000000000000e+00,0.00000000000000e+00,3.64963389005342e-03
7.52240000000000e-08,0.00000000000000e+00,0.00000000000000e+00,3.19988011945596e-03
7.52560000000000e-08,0.00000000000000e+00,0.00000000000000e+00,2.06651845569053e-03
7.53200000000000e-08,0.00000000000000e+00,0.00000000000000e+00,-4.68954573562566e-04
7.54480000000000e-08,0.00000000000000e+00,0.00000000000000e+00,-2.47172125822398e-03
7.54800000000000e-08,0.00000000000000e+00,0.00000000000000e+00,-2.10263801477460e-03
7.55440000000000e-08,0.00000000000000e+00,0.00000000000000e+00,-1.36519644396329e-03
7.56720000000000e-08,0.00000000000000e+00,0.00000000000000e+00,-2.92223500816570e-04
7.59279999999999e-08,0.00000000000000e+00,0.00000000000000e+00,9.34475733603730e-05
7.64399999999999e-08,0.00000000000000e+00,0.00000000000000e+00,-3.81524578982884e-05
7.74639999999999e-08,0.00000000000000e+00,0.00000000000000e+00,4.56972609519223e-05
7.95119999999997e-08,0.00000000000000e+00,0.00000000000000e+00,-2.18612307863230e-05
8.33119999999997e-08,0.00000000000000e+00,0.00000000000000e+00,3.87414412991284e-05
8.50000000000000e-08,0.00000000000000e+00,0.00000000000000e+00,-1.51376835183289e-05
8.50100000000000e-08,8.49999999999839e-02,0.00000000000000e+00,1.10878907438716e-04
8.50300000000000e-08,2.54999999999952e-01,0.00000000000000e+00,2.82927483719109e-04
8.50700000000000e-08,5.94999999999887e-01,0.00000000000000e+00,3.35678229846148e-04
8.51000000000000e-08,8.49999999999951e-01,0.00000000000000e+00,1.12410334478369e-04
8.51080000000000e-08,8.50000000000000e-01,0.00000000000000e+00,-1.54413187846841e-05
8.51240000000000e-08,8.50000000000000e-01,0.00000000000000e+00,-2.11468434050718e-04
8.51560000000000e-08,8.50000000000000e-01,0.00000000000000e+00,-3.66296350314335e-04
8.52200000000000e-08,8.50000000000000e-01,0.00000000000000e+00,-3.28298612143223e-04
8.53480000000000e-08,8.50000000000000e-01,0.00000000000000e+00,-7.49290410044304e-05
8.56040000000000e-08,8.50000000000000e-01,0.00000000000000e+00,1.25723410011488e-04
8.61159999999999e-08,8.50000000000000e-01,0.00000000000000e+00,6.66005475759984e-06
8.71399999999999e-08,8.50000000000000e-01,0.00000000000000e+00,2.31566297358866e-05
8.83153052415417e-08,8.50000000000000e-01,0.00000000000000e+00,1.43069194804314e-05
9.00000000000000e-08,8.50000000000000e-01,0.00000000000000e+00,1.47812182379877e-05
9.00100000000000e-08,8.50000000000000e-01,8.49999999999839e-02,1.69589924407382e-05
9.00300000000000e-08,8.50000000000000e-01,2.54999999999952e-01,1.78358542530926e-05
9.00700000000000e-08,8.50000000000000e-01,5.94999999999887e-01,1.36081405235772e-05
9.01000000000000e-08,8.50000000000000e-01,8.49999999999951e-01,1.17845617011725e-05
9.01080000000000e-08,8.50000000000000e-01,8.50000000000000e-01,1.07868191928095e-05
9.01240000000000e-08,8.50000000000000e-01,8.50000000000000e-01,1.05493678527746e-05
9.01560000000000e-08,8.50000000000000e-01,8.50000000000000e-01,1.26383505120176e-05
9.02200000000000e-08,8.50000000000000e-01,8.50000000000000e-01,1.78090539568118e-05
9.03480000000000e-08,8.50000000000000e-01,8.50000000000000e-01,1.62901926121853e-05
9.06040000000000e-08,8.50000000000000e-01,8.50000000000000e-01,1.33219797353763e-05
9.10644622612400e-08,8.50000000000000e-01,8.50000000000000e-01,1.35852039646021e-05
9.19853867837200e-08,8.50000000000000e-01,8.50000000000000e-01,1.34983013133829e-05
9.38272358286801e-08,8.50000000000000e-01,8.50000000000000e-01,1.22011233646465e-05
9.51000000000000e-08,8.50000000000000e-01,8.50000000000000e-01,1.25105296716436e-05
9.51100000000000e-08,7.65000000000086e-01,8.50000000000000e-01,-7.28855725324329e-05
9.51300000000000e-08,5.95000000000119e-01,8.50000000000000e-01,-2.22073400213518e-04
9.51700000000000e-08,2.55000000000183e-01,8.50000000000000e-01,-2.18007992360075e-04
9.52000000000000e-08,1.19015908239817e-13,8.50000000000000e-01,1.08545923954650e-04
9.52080000000000e-08,0.00000000000000e+00,8.50000000000000e-01,2.81787603055236e-04
9.52240000000000e-08,0.00000000000000e+00,8.50000000000000e-01,5.15009622588894e-04
9.52560000000000e-08,0.00000000000000e+00,8.50000000000000e-01,5.64434180285775e-04
9.53200000000000e-08,0.00000000000000e+00,8.50000000000000e-01,1.69589561650391e-04
9.54480000000000e-08,0.00000000000000e+00,8.50000000000000e-01,-3.92399636017740e-04
9.57040000000000e-08,0.00000000000000e+00,8.50000000000000e-01,-2.17329206968677e-04
9.61446110064513e-08,0.00000000000000e+00,8.50000000000000e-01,1.01286140393071e-05
9.66951893085416e-08,0.00000000000000e+00,8.50000000000000e-01,2.41606444688576e-04
9.77963459127222e-08,0.00000000000000e+00,8.50000000000000e-01,-1.83371848176154e-04
9.88427596909768e-08,0.00000000000000e+00,8.50000000000000e-01,1.65359544384144e-04
1.00935587247486e-07,0.00000000000000e+00,8.50000000000000e-01,-1.28699868929685e-04
1.04735587247486e-07,0.00000000000000e+00,8.50000000000000e-01,1.38745571788411e-04
1.05000000000000e-07,0.00000000000000e+00,8.50000000000000e-01,-2.48793489513628e-05
1.05010000000000e-07,8.49999999999839e-02,8.50000000000000e-01,1.16924187463577e-04
1.05030000000000e-07,2.54999999999952e-01,8.50000000000000e-01,3.45151976989727e-04
1.05070000000000e-07,5.94999999999887e-01,8.50000000000000e-01,5.81733508160785e-04
1.05100000000000e-07,8.49999999999951e-01,8.50000000000000e-01,2.20915911351288e-05
1.05108000000000e-07,8.50000000000000e-01,8.50000000000000e-01,-4.53203520940026e-04
1.05124000000000e-07,8.50000000000000e-01,8.50000000000000e-01,-1.50197583108995e-03
1.05156000000000e-07,8.50000000000000e-01,8.50000000000000e-01,-3.66954499094375e-03
1.05220000000000e-07,8.50000000000000e-01,8.50000000000000e-01,-6.06881050538971e-03
1.05348000000000e-07,8.50000000000000e-01,8.50000000000000e-01,4.25700364125319e-02
1.05604000000000e-07,8.50000000000000e-01,8.50000000000000e-01,5.94997050713512e-01
1.06116000000000e-07,8.50000000000000e-01,8.50000000000000e-01,8.88125696929246e-01
1.06627035873201e-07,8.50000000000000e-01,8.50000000000000e-01,8.17694221627561e-01
1.07649107619602e-07,8.50000000000000e-01,8.50000000000000e-01,8.78907823523883e-01
1.08943294148585e-07,8.50000000000000e-01,8.50000000000000e-01,8.21717767903371e-01
1.11206845189551e-07,8.50000000000000e-01,8.50000000000000e-01,8.76233498802176e-01
1.15006845189551e-07,8.50000000000000e-01,8.50000000000000e-01,8.23305743089872e-01
1.15100000000000e-07,8.50000000000000e-01,8.50000000000000e-01,8.59900078691144e-01
1.15110000000000e-07,7.65000000000086e-01,8.50000000000000e-01,8.56434767924989e-01
1.15130000000000e-07,5.95000000000119e-01,8.50000000000000e-01,8.51904735006310e-01
1.15170000000000e-07,2.55000000000183e-01,8.50000000000000e-01,8.50865201988293e-01
1.15200000000000e-07,1.19015908239817e-13,8.50000000000000e-01,8.53057484347253e-01
1.15208000000000e-07,0.00000000000000e+00,8.50000000000000e-01,8.53504473777722e-01
1.15224000000000e-07,0.00000000000000e+00,8.50000000000000e-01,8.53765622543516e-01
1.15256000000000e-07,0.00000000000000e+00,8.50000000000000e-01,8.50270810803463e-01
1.15320000000000e-07,0.00000000000000e+00,8.50000000000000e-01,8.31803372035593e-01
1.15448000000000e-07,0.00000000000000e+00,8.50000000000000e-01,8.14482059178929e-01
1.15704000000000e-07,0.00000000000000e+00,8.50000000000000e-01,8.45133893935888e-01
1.16196565401042e-07,0.00000000000000e+00,8.50000000000000e-01,8.51097879221225e-01
1.16748763329193e-07,0.00000000000000e+00,8.50000000000000e-01,8.48270263407232e-01
1.17853159185494e-07,0.00000000000000e+00,8.50000000000000e-01,8.50687218293112e-01
1.20061950898096e-07,0.00000000000000e+00,8.50000000000000e-01,8.48898336375831e-01
1.23861950898096e-07,0.00000000000000e+00,8.50000000000000e-01,8.50710511421632e-01
1.25000000000000e-07,0.00000000000000e+00,8.50000000000000e-01,8.49144612880775e-01
1.25010000000000e-07,8.49999999998714e-02,8.50000000000000e-01,8.49365650167708e-01
1.25030000000000e-07,2.54999999999839e-01,8.50000000000000e-01,8.49703451270386e-01
1.25070000000000e-07,5.94999999999775e-01,8.50000000000000e-01,8.50014645072867e-01
1.25100000000000e-07,8.49999999999839e-01,8.50000000000000e-01,8.49722509975498e-01
1.25108000000000e-07,8.50000000000000e-01,7.81999999999923e-01,8.49447193792451e-01
1.25124000000000e-07,8.50000000000000e-01,6.45999999999994e-01,8.48881805454195e-01
1.25156000000000e-07,8.50000000000000e-01,3.73999999999910e-01,8.47889799613847e-01
1.25200000000000e-07,8.50000000000000e-01,0.00000000000000e+00,8.47060706498812e-01
1.25206400000000e-07,8.50000000000000e-01,0.00000000000000e+00,8.46985652372930e-01
1.25219200000000e-07,8.50000000000000e-01,0.00000000000000e+00,8.46833541147661e-01
1.25244800000000e-07,8.50000000000000e-01,0.00000000000000e+00,8.46588259171444e-01
1.25296000000000e-07,8.50000000000000e-01,0.00000000000000e+00,8.46501421081230e-01
1.25398400000000e-07,8.50000000000000e-01,0.00000000000000e+00,8.47490368881555e-01
1.25603200000000e-07,8.50000000000000e-01,0.00000000000000e+00,8.48912652485604e-01
1.25867593337721e-07,8.50000000000000e-01,0.00000000000000e+00,8.49666866450910e-01
1.26396380013163e-07,8.50000000000000e-01,0.00000000000000e+00,8.50046214802764e-01
1.26947448273801e-07,8.50000000000000e-01,0.00000000000000e+00,8.49989125207782e-01
1.28049584795076e-07,8.50000000000000e-01,0.00000000000000e+00,8.50008482536210e-01
1.30253857837626e-07,8.50000000000000e-01,0.00000000000000e+00,8.49991724143501e-01
1.34053857837626e-07,8.50000000000000e-01,0.00000000000000e+00,8.50008303343236e-01
1.35100000000000e-07,8.49999999999845e-01,0.00000000000000e+00,8.49991148179545e-01
1.35110000000000e-07,7.64999999999749e-01,0.00000000000000e+00,8.49934749806026e-01
