Time,v(clk),v(data),v(out)
1.00000000000000e-08,7.50000000000000e-01,0.00000000000000e+00,-7.19835511998369e-06
1.00100000000000e-08,7.50000000000000e-01,7.49999999999982e-02,-2.48793508926537e-06
1.00300000000000e-08,7.50000000000000e-01,2.24999999999995e-01,1.05701793208512e-06
1.00700000000000e-08,7.50000000000000e-01,5.24999999999987e-01,-4.06426492835510e-07
1.01000000000000e-08,7.50000000000000e-01,7.49999999999994e-01,1.60825785529284e-06
1.01080000000000e-08,7.50000000000000e-01,7.50000000000000e-01,2.85964450827403e-06
1.01240000000000e-08,7.50000000000000e-01,7.50000000000000e-01,6.34429450489804e-06
1.01560000000000e-08,7.50000000000000e-01,7.50000000000000e-01,8.15704721192356e-06
1.02200000000000e-08,7.50000000000000e-01,7.50000000000000e-01,4.33905164498594e-06
1.03480000000000e-08,7.50000000000000e-01,7.50000000000000e-01,5.23062087420118e-06
1.06040000000000e-08,7.50000000000000e-01,7.50000000000000e-01,4.75481665132213e-06
1.11160000000000e-08,7.50000000000000e-01,7.50000000000000e-01,5.27345769429921e-06
1.21400000000000e-08,7.50000000000000e-01,7.50000000000000e-01,4.32985352920908e-06
1.41880000000000e-08,7.50000000000000e-01,7.50000000000000e-01,4.85106039301584e-06
1.51000000000000e-08,7.50000000000000e-01,7.50000000000000e-01,3.87228676235890e-06
1.51100000000000e-08,6.74999999999989e-01,7.50000000000000e-01,-1.03383841082397e-04
1.51300000000000e-08,5.24999999999993e-01,7.50000000000000e-01,-2.10340784819504e-04
1.51700000000000e-08,2.25000000000000e-01,7.50000000000000e-01,1.54442081488002e-04
1.52000000000000e-08,0.00000000000000e+00,7.50000000000000e-01,6.97167609607835e-04
1.52080000000000e-08,0.00000000000000e+00,7.50000000000000e-01,7.93616466017083e-04
1.52240000000000e-08,0.00000000000000e+00,7.50000000000000e-01,5.83342890603411e-04
1.52560000000000e-08,0.00000000000000e+00,7.50000000000000e-01,-5.22856333536173e-04
1.53200000000000e-08,0.00000000000000e+00,7.50000000000000e-01,-4.28057447398718e-04
1.54480000000000e-08,0.00000000000000e+00,7.50000000000000e-01,1.08269726303914e-04
1.56145724509697e-08,0.00000000000000e+00,7.50000000000000e-01,-2.26896256391759e-04
1.58604107388221e-08,0.00000000000000e+00,7.50000000000000e-01,4.24771207547421e-04
1.63520873145271e-08,0.00000000000000e+00,7.50000000000000e-01,-4.36373550299149e-04
1.67995219553761e-08,0.00000000000000e+00,7.50000000000000e-01,4.32436958096400e-04
1.76943912370740e-08,0.00000000000000e+00,7.50000000000000e-01,-4.13547499379991e-04
1.91077115813993e-08,0.00000000000000e+00,7.50000000000000e-01,4.08873413970168e-04
2.11879929598823e-08,0.00000000000000e+00,7.50000000000000e-01,-3.95506472915160e-04
2.49855172254450e-08,0.00000000000000e+00,7.50000000000000e-01,3.96788918568404e-04
2.50000000000000e-08,0.00000000000000e+00,7.50000000000000e-01,2.07834419186814e-04
2.50100000000000e-08,7.49999999999858e-02,7.50000000000000e-01,3.13070120943920e-04
2.50300000000000e-08,2.25000000000007e-01,7.50000000000000e-01,4.20264847731472e-04
2.50700000000000e-08,5.25000000000000e-01,7.50000000000000e-01,2.52184883362552e-04
2.51000000000000e-08,7.50000000000000e-01,7.50000000000000e-01,-2.17933083434342e-03
2.51080000000000e-08,7.50000000000000e-01,7.50000000000000e-01,-3.38700415482827e-03
2.51240000000000e-08,7.50000000000000e-01,7.50000000000000e-01,-5.44269255539087e-03
2.51560000000000e-08,7.50000000000000e-01,7.50000000000000e-01,-6.81580050383780e-03
2.52200000000000e-08,7.50000000000000e-01,7.50000000000000e-01,5.75332069937395e-02
2.53480000000000e-08,7.50000000000000e-01,7.50000000000000e-01,6.21665507763915e-01
2.56040000000000e-08,7.50000000000000e-01,7.50000000000000e-01,7.74003498412270e-01
2.58401196679891e-08,7.50000000000000e-01,7.50000000000000e-01,7.28006339266691e-01
2.63123590039672e-08,7.50000000000000e-01,7.50000000000000e-01,7.70241311055610e-01
2.69791080695178e-08,7.50000000000000e-01,7.50000000000000e-01,7.29788101485881e-01
2.83126062006190e-08,7.50000000000000e-01,7.50000000000000e-01,7.69149613655578e-01
3.05957887163855e-08,7.50000000000000e-01,7.50000000000000e-01,7.30386307531758e-01
3.43957887163855e-08,7.50000000000000e-01,7.50000000000000e-01,7.68828215878547e-01
3.51000000000000e-08,7.49999999999963e-01,7.50000000000000e-01,7.31196758679464e-01
3.51100000000000e-08,6.74999999999977e-01,7.50000000000000e-01,7.42473621459476e-01
3.51300000000000e-08,5.24999999999956e-01,7.50000000000000e-01,7.51477328746832e-01
3.51700000000000e-08,2.24999999999963e-01,7.50000000000000e-01,7.50843373482250e-01
3.52000000000000e-08,0.00000000000000e+00,7.50000000000000e-01,7.54526448678037e-01
3.52080000000000e-08,0.00000000000000e+00,7.50000000000000e-01,7.52876410775046e-01
3.52240000000000e-08,0.00000000000000e+00,7.50000000000000e-01,7.45997434227802e-01
3.52560000000000e-08,0.00000000000000e+00,7.50000000000000e-01,7.32048081668578e-01
3.53200000000000e-08,0.00000000000000e+00,7.50000000000000e-01,7.41478247614727e-01
3.54480000000000e-08,0.00000000000000e+00,7.50000000000000e-01,7.52285282581076e-01
3.56268816699715e-08,0.00000000000000e+00,7.50000000000000e-01,7.47464884231523e-01
3.59585214128727e-08,0.00000000000000e+00,7.50000000000000e-01,7.51639665872603e-01
3.66218008986750e-08,0.00000000000000e+00,7.50000000000000e-01,7.48183900738885e-01
3.79483598702798e-08,0.00000000000000e+00,7.50000000000000e-01,7.51570889480371e-01
4.06014778134893e-08,0.00000000000000e+00,7.50000000000000e-01,7.48350180035587e-01
4.44014778134893e-08,0.00000000000000e+00,7.50000000000000e-01,7.51545119164298e-01
4.50000000000000e-08,0.00000000000000e+00,7.50000000000000e-01,7.48501503364739e-01
4.50100000000000e-08,7.49999999999858e-02,7.50000000000000e-01,7.49272864756803e-01
4.50300000000000e-08,2.25000000000007e-01,7.50000000000000e-01,7.50053336803838e-01
4.50700000000000e-08,5.25000000000000e-01,7.50000000000000e-01,7.49991160723062e-01
4.51000000000000e-08,7.50000000000000e-01,7.50000000000000e-01,7.48945345774677e-01
4.51080000000000e-08,7.50000000000000e-01,6.90000000000031e-01,7.48499508159126e-01
4.51240000000000e-08,7.50000000000000e-01,5.69999999999994e-01,7.47876571256456e-01
4.51560000000000e-08,7.50000000000000e-01,3.30000000000020e-01,7.47423656501704e-01
4.52000000000000e-08,7.50000000000000e-01,4.29656310529936e-14,7.47322795651769e-01
4.52064000000000e-08,7.50000000000000e-01,0.00000000000000e+00,7.47385966014786e-01
4.52192000000000e-08,7.50000000000000e-01,0.00000000000000e+00,7.47520928635478e-01
4.52448000000000e-08,7.50000000000000e-01,0.00000000000000e+00,7.47927703290866e-01
4.52960000000000e-08,7.50000000000000e-01,0.00000000000000e+00,7.48731161854040e-01
4.53954296587181e-08,7.50000000000000e-01,0.00000000000000e+00,7.49531885079988e-01
4.55519386673883e-08,7.50000000000000e-01,0.00000000000000e+00,7.49908593071353e-01
4.57587472183221e-08,7.50000000000000e-01,0.00000000000000e+00,7.50027947118466e-01
4.61723643201897e-08,7.50000000000000e-01,0.00000000000000e+00,7.49976646132758e-01
4.69995985239249e-08,7.50000000000000e-01,0.00000000000000e+00,7.50021910273621e-01
4.86540669313953e-08,7.50000000000000e-01,0.00000000000000e+00,7.49978749332564e-01
5.19630037463362e-08,7.50000000000000e-01,0.00000000000000e+00,7.50020935657832e-01
5.51000000000000e-08,7.50000000000000e-01,0.00000000000000e+00,7.49979383281669e-01
5.51100000000000e-08,6.75000000000027e-01,0.00000000000000e+00,7.49900222666419e-01
5.51300000000000e-08,5.25000000000005e-01,0.00000000000000e+00,7.49881842273742e-01
5.51700000000000e-08,2.25000000000013e-01,0.00000000000000e+00,7.51803242017818e-01
5.52000000000000e-08,0.00000000000000e+00,0.00000000000000e+00,7.55827290638583e-01
5.52080000000000e-08,0.00000000000000e+00,0.00000000000000e+00,7.56831491385383e-01
5.52240000000000e-08,0.00000000000000e+00,0.00000000000000e+00,7.57879318087607e-01
5.52560000000000e-08,0.00000000000000e+00,0.00000000000000e+00,7.54231592445782e-01
5.53200000000000e-08,0.00000000000000e+00,0.00000000000000e+00,7.48948922355959e-01
5.54480000000000e-08,0.00000000000000e+00,0.00000000000000e+00,7.50235348630074e-01
5.56085322688159e-08,0.00000000000000e+00,0.00000000000000e+00,7.49500075559631e-01
5.59295968064476e-08,0.00000000000000e+00,0.00000000000000e+00,7.50084036118965e-01
5.63048489808447e-08,0.00000000000000e+00,0.00000000000000e+00,7.49715275180855e-01
5.70553533296388e-08,0.00000000000000e+00,0.00000000000000e+00,7.50073596385387e-01
5.85563620272271e-08,0.00000000000000e+00,0.00000000000000e+00,7.49806901439902e-01
6.15583794224036e-08,0.00000000000000e+00,0.00000000000000e+00,7.50093612543184e-01
6.50000000000000e-08,0.00000000000000e+00,0.00000000000000e+00,7.49834400065443e-01
6.50100000000000e-08,7.49999999999858e-02,0.00000000000000e+00,7.49920841499817e-01
6.50300000000000e-08,2.24999999999957e-01,0.00000000000000e+00,7.49998168519278e-01
6.50700000000000e-08,5.24999999999900e-01,0.00000000000000e+00,7.49949416471144e-01
6.51000000000000e-08,7.49999999999957e-01,0.00000000000000e+00,7.49750895984655e-01
6.51080000000000e-08,7.50000000000000e-01,0.00000000000000e+00,7.49680001187075e-01
6.51240000000000e-08,7.50000000000000e-01,0.00000000000000e+00,7.49673020835116e-01
6.51560000000000e-08,7.50000000000000e-01,0.00000000000000e+00,7.49913140313785e-01
6.52200000000000e-08,7.50000000000000e-01,0.00000000000000e+00,7.54006519997740e-01
6.53480000000000e-08,7.50000000000000e-01,0.00000000000000e+00,5.35273541202473e-01
6.56040000000000e-08,7.50000000000000e-01,0.00000000000000e+00,-2.20532790255809e-02
6.58506114347007e-08,7.50000000000000e-01,0.00000000000000e+00,1.12773425290951e-02
6.63438343041022e-08,7.50000000000000e-01,0.00000000000000e+00,-6.11030241313529e-03
6.68629848022585e-08,7.50000000000000e-01,0.00000000000000e+00,4.20074019427523e-03
6.79012857985711e-08,7.50000000000000e-01,0.00000000000000e+00,-2.36309533151164e-03
6.98441435601442e-08,7.50000000000000e-01,0.00000000000000e+00,2.48180797361366e-03
7.28425835890378e-08,7.50000000000000e-01,0.00000000000000e+00,-1.52948713679661e-03
7.51000000000000e-08,7.50000000000000e-01,0.00000000000000e+00,1.72886643770733e-03
7.51100000000000e-08,6.75000000000076e-01,0.00000000000000e+00,3.78276963440782e-03
7.51300000000000e-08,5.25000000000105e-01,0.00000000000000e+00,3.63169357369528e-03
7.51700000000000e-08,2.25000000000162e-01,0.00000000000000e+00,6.26017648942989e-04
7.52000000000000e-08,1.05027098129540e-13,0.00000000000000e+00,1.07153554590833e-03
7.52080000000000e-08,0.00000000000000e+00,0.00000000000000e+00,8.51632632374755e-04
7.52240000000000e-08,0.00000000000000e+00,0.00000000000000e+00,-3.67140680293532e-06
7.52560000000000e-08,0.00000000000000e+00,0.00000000000000e+00,-1.58580383322217e-03
7.53200000000000e-08,0.00000000000000e+00,0.00000000000000e+00,-8.25329650073051e-04
7.54480000000000e-08,0.00000000000000e+00,0.00000000000000e+00,3.94457385904039e-04
7.56137055052826e-08,0.00000000000000e+00,0.00000000000000e+00,-2.21943215721755e-04
7.59451165158479e-08,0.00000000000000e+00,0.00000000000000e+00,1.76646834644460e-04
7.66079385369786e-08,0.00000000000000e+00,0.00000000000000e+00,-1.47996965734004e-04
7.79335825792398e-08,0.00000000000000e+00,0.00000000000000e+00,1.45534245733403e-04
8.05848706637623e-08,0.00000000000000e+00,0.00000000000000e+00,-1.33685765590714e-04
8.43848706637623e-08,0.00000000000000e+00,0.00000000000000e+00,1.37766034351253e-04
8.50000000000000e-08,0.00000000000000e+00,0.00000000000000e+00,-1.12686038498126e-04
8.50100000000000e-08,7.49999999999858e-02,0.00000000000000e+00,6.73431267240315e-05
8.50300000000000e-08,2.24999999999957e-01,0.00000000000000e+00,2.10671449513061e-04
8.50700000000000e-08,5.24999999999900e-01,0.00000000000000e+00,6.03142769706744e-05
8.51000000000000e-08,7.49999999999957e-01,0.00000000000000e+00,-2.35190848145467e-04
8.51080000000000e-08,7.50000000000000e-01,0.00000000000000e+00,-3.50470860421240e-04
8.51240000000000e-08,7.50000000000000e-01,0.00000000000000e+00,-4.29668290825191e-04
8.51560000000000e-08,7.50000000000000e-01,0.00000000000000e+00,-2.65747643784869e-04
8.52200000000000e-08,7.50000000000000e-01,0.00000000000000e+00,8.93336954885249e-06
8.53480000000000e-08,7.50000000000000e-01,0.00000000000000e+00,1.25780100008299e-04
8.56040000000000e-08,7.50000000000000e-01,0.00000000000000e+00,-2.37850897643332e-05
8.61159999999999e-08,7.50000000000000e-01,0.00000000000000e+00,2.93645902308248e-05
8.67467273580305e-08,7.50000000000000e-01,0.00000000000000e+00,-8.36470235472155e-06
8.80081820740916e-08,7.50000000000000e-01,0.00000000000000e+00,1.95669017457410e-05
9.00000000000000e-08,7.50000000000000e-01,0.00000000000000e+00,-7.21200457232032e-06
9.00100000000000e-08,7.50000000000000e-01,7.49999999999858e-02,-2.49177821681767e-06
9.00300000000000e-08,7.50000000000000e-01,2.24999999999957e-01,1.08275067396690e-06
9.00700000000000e-08,7.50000000000000e-01,5.24999999999900e-01,-3.69228719265813e-07
9.01000000000000e-08,7.50000000000000e-01,7.49999999999957e-01,1.70889808839836e-06
9.01080000000000e-08,7.50000000000000e-01,7.50000000000000e-01,2.90057954380196e-06
9.01240000000000e-08,7.50000000000000e-01,7.50000000000000e-01,6.26327866484755e-06
9.01560000000000e-08,7.50000000000000e-01,7.50000000000000e-01,8.08931608439756e-06
9.02200000000000e-08,7.50000000000000e-01,7.50000000000000e-01,4.34106621130526e-06
9.03480000000000e-08,7.50000000000000e-01,7.50000000000000e-01,5.21950308523395e-06
9.06040000000000e-08,7.50000000000000e-01,7.50000000000000e-01,4.77114381071744e-06
9.11159999999999e-08,7.50000000000000e-01,7.50000000000000e-01,5.25568881262067e-06
9.21399999999999e-08,7.50000000000000e-01,7.50000000000000e-01,4.34504440486195e-06
9.41879999999998e-08,7.50000000000000e-01,7.50000000000000e-01,4.88564810196537e-06
9.51000000000000e-08,7.50000000000000e-01,7.50000000000000e-01,4.00438839322313e-06
9.51100000000000e-08,6.75000000000076e-01,7.50000000000000e-01,-1.03238240280620e-04
9.51300000000000e-08,5.25000000000105e-01,7.50000000000000e-01,-2.10353302651567e-04
9.51700000000000e-08,2.25000000000162e-01,7.50000000000000e-01,1.54436177014605e-04
9.52000000000000e-08,1.05027098129540e-13,7.50000000000000e-01,6.97155821393694e-04
9.52080000000000e-08,0.00000000000000e+00,7.50000000000000e-01,7.93608220045497e-04
9.52240000000000e-08,0.00000000000000e+00,7.50000000000000e-01,5.83339793710946e-04
9.52560000000000e-08,0.00000000000000e+00,7.50000000000000e-01,-5.22858633901141e-04
9.53200000000000e-08,0.00000000000000e+00,7.50000000000000e-01,-4.28061173438944e-04
9.54480000000000e-08,0.00000000000000e+00,7.50000000000000e-01,1.08271885056188e-04
9.56145725241281e-08,0.00000000000000e+00,7.50000000000000e-01,-2.26897612896869e-04
9.58604107914319e-08,0.00000000000000e+00,7.50000000000000e-01,4.24771977586905e-04
9.63520873260396e-08,0.00000000000000e+00,7.50000000000000e-01,-4.36374050626102e-04
9.67995217978430e-08,0.00000000000000e+00,7.50000000000000e-01,4.32437230010404e-04
9.76943907414499e-08,0.00000000000000e+00,7.50000000000000e-01,-4.13547669977908e-04
9.91077105551088e-08,0.00000000000000e+00,7.50000000000000e-01,4.08873530599987e-04
1.01187990871566e-07,0.00000000000000e+00,7.50000000000000e-01,-3.95506549587449e-04
1.04985513298131e-07,0.00000000000000e+00,7.50000000000000e-01,3.96788978259855e-04
1.05000000000000e-07,0.00000000000000e+00,7.50000000000000e-01,2.07787201262896e-04
1.05010000000000e-07,7.49999999999858e-02,7.50000000000000e-01,3.13034238022272e-04
1.05030000000000e-07,2.24999999999957e-01,7.50000000000000e-01,4.20250034875794e-04
1.05070000000000e-07,5.24999999999900e-01,7.50000000000000e-01,2.52188099669579e-04
1.05100000000000e-07,7.49999999999957e-01,7.50000000000000e-01,-2.17932985726632e-03
1.05108000000000e-07,7.50000000000000e-01,7.50000000000000e-01,-3.38700340109835e-03
1.05124000000000e-07,7.50000000000000e-01,7.50000000000000e-01,-5.44269206249755e-03
1.05156000000000e-07,7.50000000000000e-01,7.50000000000000e-01,-6.81579820864481e-03
1.05220000000000e-07,7.50000000000000e-01,7.50000000000000e-01,5.75332612370797e-02
1.05348000000000e-07,7.50000000000000e-01,7.50000000000000e-01,6.21665565408062e-01
1.05604000000000e-07,7.50000000000000e-01,7.50000000000000e-01,7.74003493878721e-01
1.05840119676551e-07,7.50000000000000e-01,7.50000000000000e-01,7.28006342903824e-01
1.06312359029653e-07,7.50000000000000e-01,7.50000000000000e-01,7.70241307642124e-01
1.06979108145464e-07,7.50000000000000e-01,7.50000000000000e-01,7.29788104828650e-01
1.08312606377088e-07,7.50000000000000e-01,7.50000000000000e-01,7.69149610532666e-01
1.10595789206782e-07,7.50000000000000e-01,7.50000000000000e-01,7.30386310742187e-01
1.14395789206782e-07,7.50000000000000e-01,7.50000000000000e-01,7.68828212837316e-01
1.15100000000000e-07,7.50000000000000e-01,7.50000000000000e-01,7.31196762232570e-01
1.15110000000000e-07,6.75000000000076e-01,7.50000000000000e-01,7.42473622821768e-01
1.15130000000000e-07,5.25000000000105e-01,7.50000000000000e-01,7.51477328437073e-01
1.15170000000000e-07,2.25000000000162e-01,7.50000000000000e-01,7.50843373687459e-01
1.15200000000000e-07,1.05027098129540e-13,7.50000000000000e-01,7.54526448551835e-01
1.15208000000000e-07,0.00000000000000e+00,7.50000000000000e-01,7.52876410703447e-01
1.15224000000000e-07,0.00000000000000e+00,7.50000000000000e-01,7.45997434205910e-01
1.15256000000000e-07,0.00000000000000e+00,7.50000000000000e-01,7.32048081650907e-01
1.15320000000000e-07,0.00000000000000e+00,7.50000000000000e-01,7.41478247627597e-01
1.15448000000000e-07,0.00000000000000e+00,7.50000000000000e-01,7.52285282555190e-01
1.15626881669998e-07,0.00000000000000e+00,7.50000000000000e-01,7.47464884252388e-01
1.15958521412689e-07,0.00000000000000e+00,7.50000000000000e-01,7.51639665854529e-01
1.16621800898072e-07,0.00000000000000e+00,7.50000000000000e-01,7.48183900755838e-01
1.17948359868837e-07,0.00000000000000e+00,7.50000000000000e-01,7.51570889464016e-01
1.20601477810367e-07,0.00000000000000e+00,7.50000000000000e-01,7.48350180051760e-01
1.24401477810367e-07,0.00000000000000e+00,7.50000000000000e-01,7.51545119148245e-01
1.25000000000000e-07,0.00000000000000e+00,7.50000000000000e-01,7.48501503378859e-01
1.25010000000000e-07,7.49999999998865e-02,7.50000000000000e-01,7.49272864764707e-01
1.25030000000000e-07,2.24999999999858e-01,7.50000000000000e-01,7.50053336805131e-01
1.25070000000000e-07,5.24999999999801e-01,7.50000000000000e-01,7.49991160722262e-01
1.25100000000000e-07,7.49999999999858e-01,7.50000000000000e-01,7.48945345773066e-01
1.25108000000000e-07,7.50000000000000e-01,6.89999999999932e-01,7.48499508157599e-01
1.25124000000000e-07,7.50000000000000e-01,5.69999999999994e-01,7.47876571254770e-01
1.25156000000000e-07,7.50000000000000e-01,3.29999999999921e-01,7.47423656501484e-01
1.25200000000000e-07,7.50000000000000e-01,0.00000000000000e+00,7.47322795651444e-01
1.25206400000000e-07,7.50000000000000e-01,0.00000000000000e+00,7.47385966013412e-01
1.25219200000000e-07,7.50000000000000e-01,0.00000000000000e+00,7.47520928637240e-01
1.25244800000000e-07,7.50000000000000e-01,0.00000000000000e+00,7.47927703291958e-01
1.25296000000000e-07,7.50000000000000e-01,0.00000000000000e+00,7.48731161854609e-01
1.25395429658942e-07,7.50000000000000e-01,0.00000000000000e+00,7.49531885081133e-01
1.25551938667526e-07,7.50000000000000e-01,0.00000000000000e+00,7.49908593071283e-01
1.25758747220236e-07,7.50000000000000e-01,0.00000000000000e+00,7.50027947118748e-01
1.26172364325655e-07,7.50000000000000e-01,0.00000000000000e+00,7.49976646132694e-01
1.26999598536495e-07,7.50000000000000e-01,0.00000000000000e+00,7.50021910273700e-01
1.28654066958174e-07,7.50000000000000e-01,0.00000000000000e+00,7.49978749332564e-01
1.31963003801531e-07,7.50000000000000e-01,0.00000000000000e+00,7.50020935658036e-01
1.35100000000000e-07,7.49999999999864e-01,0.00000000000000e+00,7.49979383281627e-01
1.35110000000000e-07,6.74999999999778e-01,0.00000000000000e+00,7.49900222666335e-01
1.35130000000000e-07,5.24999999999807e-01,0.00000000000000e+00,7.49881842273735e-01
1.35170000000000e-07,2.24999999999864e-01,0.00000000000000e+00,7.51803242006459e-01
