Time,v(clk),v(data),v(out)
1.00000000000000e-08,7.50000000000000e-01,0.00000000000000e+00,-3.91171068892457e-05
1.00100000000000e-08,7.50000000000000e-01,7.49999999999982e-02,-2.71656771811957e-05
1.00300000000000e-08,7.50000000000000e-01,2.24999999999995e-01,-1.20957673804822e-05
1.00700000000000e-08,7.50000000000000e-01,5.24999999999987e-01,-9.93427748498255e-06
1.01000000000000e-08,7.50000000000000e-01,7.49999999999994e-01,-6.71964969028993e-06
1.01080000000000e-08,7.50000000000000e-01,7.50000000000000e-01,-5.38698083374367e-06
1.01240000000000e-08,7.50000000000000e-01,7.50000000000000e-01,-7.37641795034438e-07
1.01560000000000e-08,7.50000000000000e-01,7.50000000000000e-01,5.39808137124675e-06
1.02200000000000e-08,7.50000000000000e-01,7.50000000000000e-01,3.91727646444767e-06
1.03480000000000e-08,7.50000000000000e-01,7.50000000000000e-01,-4.26292411620510e-07
1.06040000000000e-08,7.50000000000000e-01,7.50000000000000e-01,3.11807035995038e-06
1.11160000000000e-08,7.50000000000000e-01,7.50000000000000e-01,-3.07056070254080e-07
1.21400000000000e-08,7.50000000000000e-01,7.50000000000000e-01,2.76560061891751e-06
1.41880000000000e-08,7.50000000000000e-01,7.50000000000000e-01,-5.25065496841375e-07
1.51000000000000e-08,7.50000000000000e-01,7.50000000000000e-01,2.44291278546013e-06
1.51100000000000e-08,6.74999999999989e-01,7.50000000000000e-01,-1.28740140128508e-04
1.51300000000000e-08,5.24999999999993e-01,7.50000000000000e-01,-2.73721911705854e-04
1.51700000000000e-08,2.25000000000000e-01,7.50000000000000e-01,-3.85872152639938e-05
1.52000000000000e-08,0.00000000000000e+00,7.50000000000000e-01,5.19050970343604e-04
1.52080000000000e-08,0.00000000000000e+00,7.50000000000000e-01,7.15363766430110e-04
1.52240000000000e-08,0.00000000000000e+00,7.50000000000000e-01,8.10283880320173e-04
1.52560000000000e-08,0.00000000000000e+00,7.50000000000000e-01,3.08136663897909e-04
1.53200000000000e-08,0.00000000000000e+00,7.50000000000000e-01,-5.05228772280417e-04
1.54480000000000e-08,0.00000000000000e+00,7.50000000000000e-01,-4.87219997837990e-05
1.57040000000000e-08,0.00000000000000e+00,7.50000000000000e-01,-1.28990409644415e-04
1.60135421997238e-08,0.00000000000000e+00,7.50000000000000e-01,2.14098979173089e-04
1.66326265991715e-08,0.00000000000000e+00,7.50000000000000e-01,-1.58087649230747e-04
1.72012890480981e-08,0.00000000000000e+00,7.50000000000000e-01,1.08781630274037e-04
1.83386139459515e-08,0.00000000000000e+00,7.50000000000000e-01,-8.71086449650837e-05
2.06132637416581e-08,0.00000000000000e+00,7.50000000000000e-01,7.84567257629308e-05
2.42851134345188e-08,0.00000000000000e+00,7.50000000000000e-01,-7.20844263586008e-05
2.50000000000000e-08,0.00000000000000e+00,7.50000000000000e-01,4.75752027139491e-05
2.50100000000000e-08,7.49999999999858e-02,7.50000000000000e-01,2.87018120360916e-04
2.50300000000000e-08,2.25000000000007e-01,7.50000000000000e-01,5.67741866028273e-04
2.50700000000000e-08,5.25000000000000e-01,7.50000000000000e-01,1.96820469832326e-04
2.51000000000000e-08,7.50000000000000e-01,7.50000000000000e-01,-2.86371536546273e-03
2.51080000000000e-08,7.50000000000000e-01,7.50000000000000e-01,-4.17572610430451e-03
2.51240000000000e-08,7.50000000000000e-01,7.50000000000000e-01,-6.33775217302672e-03
2.51560000000000e-08,7.50000000000000e-01,7.50000000000000e-01,-7.76377899077142e-03
2.52200000000000e-08,7.50000000000000e-01,7.50000000000000e-01,5.42814601263673e-02
2.53480000000000e-08,7.50000000000000e-01,7.50000000000000e-01,5.47819400848494e-01
2.56040000000000e-08,7.50000000000000e-01,7.50000000000000e-01,7.80948246060604e-01
2.58677715695315e-08,7.50000000000000e-01,7.50000000000000e-01,7.23111834778029e-01
2.63953147085944e-08,7.50000000000000e-01,7.50000000000000e-01,7.74058559183570e-01
2.70322120158434e-08,7.50000000000000e-01,7.50000000000000e-01,7.26771584003751e-01
2.83060066303413e-08,7.50000000000000e-01,7.50000000000000e-01,7.71690647242168e-01
3.05442190071352e-08,7.50000000000000e-01,7.50000000000000e-01,7.28016813710053e-01
3.42416875846413e-08,7.50000000000000e-01,7.50000000000000e-01,7.71026120291462e-01
3.51000000000000e-08,7.49999999999963e-01,7.50000000000000e-01,7.29384734594088e-01
3.51100000000000e-08,6.74999999999977e-01,7.50000000000000e-01,7.38684838666838e-01
3.51300000000000e-08,5.24999999999956e-01,7.50000000000000e-01,7.48816246593471e-01
3.51700000000000e-08,2.24999999999963e-01,7.50000000000000e-01,7.51550028600886e-01
3.52000000000000e-08,0.00000000000000e+00,7.50000000000000e-01,7.54309655244514e-01
3.52080000000000e-08,0.00000000000000e+00,7.50000000000000e-01,7.54815193245973e-01
3.52240000000000e-08,0.00000000000000e+00,7.50000000000000e-01,7.53795500843174e-01
3.52560000000000e-08,0.00000000000000e+00,7.50000000000000e-01,7.43192090174050e-01
3.53200000000000e-08,0.00000000000000e+00,7.50000000000000e-01,7.26724697182783e-01
3.54480000000000e-08,0.00000000000000e+00,7.50000000000000e-01,7.43003519363179e-01
3.57040000000000e-08,0.00000000000000e+00,7.50000000000000e-01,7.52724538092619e-01
3.60180069255185e-08,0.00000000000000e+00,7.50000000000000e-01,7.47431117333850e-01
3.66460207765555e-08,0.00000000000000e+00,7.50000000000000e-01,7.51715121512118e-01
3.79020484786294e-08,0.00000000000000e+00,7.50000000000000e-01,7.48149232740304e-01
4.04141038827773e-08,0.00000000000000e+00,7.50000000000000e-01,7.51599944454460e-01
4.42141038827773e-08,0.00000000000000e+00,7.50000000000000e-01,7.48322111382758e-01
4.50000000000000e-08,0.00000000000000e+00,7.50000000000000e-01,7.51381413045998e-01
4.50100000000000e-08,7.49999999999858e-02,7.50000000000000e-01,7.51091385427869e-01
4.50300000000000e-08,2.25000000000007e-01,7.50000000000000e-01,7.50650717773354e-01
4.50700000000000e-08,5.25000000000000e-01,7.50000000000000e-01,7.50004344754590e-01
4.51000000000000e-08,7.50000000000000e-01,7.50000000000000e-01,7.48049269412171e-01
4.51080000000000e-08,7.50000000000000e-01,6.90000000000031e-01,7.47236368256320e-01
4.51240000000000e-08,7.50000000000000e-01,5.69999999999994e-01,7.45955716127795e-01
4.51560000000000e-08,7.50000000000000e-01,3.30000000000020e-01,7.44654628189027e-01
4.52000000000000e-08,7.50000000000000e-01,4.29656310529936e-14,7.44420080485611e-01
4.52064000000000e-08,7.50000000000000e-01,0.00000000000000e+00,7.44609296516472e-01
4.52192000000000e-08,7.50000000000000e-01,0.00000000000000e+00,7.45032907716636e-01
4.52448000000000e-08,7.50000000000000e-01,0.00000000000000e+00,7.46058019477832e-01
4.52960000000000e-08,7.50000000000000e-01,0.00000000000000e+00,7.47800780856518e-01
4.53984000000000e-08,7.50000000000000e-01,0.00000000000000e+00,7.49526530025486e-01
4.55264937440729e-08,7.50000000000000e-01,0.00000000000000e+00,7.49925958564007e-01
4.57826812322187e-08,7.50000000000000e-01,0.00000000000000e+00,7.50023637857268e-01
4.60658680123808e-08,7.50000000000000e-01,0.00000000000000e+00,7.49993012031167e-01
4.66322415727051e-08,7.50000000000000e-01,0.00000000000000e+00,7.50002524936036e-01
4.77649886933536e-08,7.50000000000000e-01,0.00000000000000e+00,7.49999080748499e-01
4.98469148284428e-08,7.50000000000000e-01,0.00000000000000e+00,7.50000132886043e-01
5.36469148284428e-08,7.50000000000000e-01,0.00000000000000e+00,7.50000249477018e-01
5.51000000000000e-08,7.50000000000000e-01,0.00000000000000e+00,7.49998803431511e-01
5.51100000000000e-08,6.75000000000027e-01,0.00000000000000e+00,7.49867760655445e-01
5.51300000000000e-08,5.25000000000005e-01,0.00000000000000e+00,7.49760804066556e-01
5.51700000000000e-08,2.25000000000013e-01,0.00000000000000e+00,7.51207602406779e-01
5.52000000000000e-08,0.00000000000000e+00,0.00000000000000e+00,7.54616343529521e-01
5.52080000000000e-08,0.00000000000000e+00,0.00000000000000e+00,7.55490672549048e-01
5.52240000000000e-08,0.00000000000000e+00,0.00000000000000e+00,7.56743158259506e-01
5.52560000000000e-08,0.00000000000000e+00,0.00000000000000e+00,7.57999785410192e-01
5.53200000000000e-08,0.00000000000000e+00,0.00000000000000e+00,7.54921060769119e-01
5.54480000000000e-08,0.00000000000000e+00,0.00000000000000e+00,7.48818413212791e-01
5.56367519503710e-08,0.00000000000000e+00,0.00000000000000e+00,7.50275899895082e-01
5.59611637014171e-08,0.00000000000000e+00,0.00000000000000e+00,7.49483648587316e-01
5.63370070368096e-08,0.00000000000000e+00,0.00000000000000e+00,7.50087395387403e-01
5.70886937075946e-08,0.00000000000000e+00,0.00000000000000e+00,7.49696181936935e-01
5.85920670491646e-08,0.00000000000000e+00,0.00000000000000e+00,7.50093501040748e-01
6.15988137323046e-08,0.00000000000000e+00,0.00000000000000e+00,7.49779616207687e-01
6.50000000000000e-08,0.00000000000000e+00,0.00000000000000e+00,7.50104862470023e-01
6.50100000000000e-08,7.49999999999858e-02,0.00000000000000e+00,7.50225673563686e-01
6.50300000000000e-08,2.24999999999957e-01,0.00000000000000e+00,7.50277870901818e-01
6.50700000000000e-08,5.24999999999900e-01,0.00000000000000e+00,7.49973801436463e-01
6.51000000000000e-08,7.49999999999957e-01,0.00000000000000e+00,7.49553114480249e-01
6.51080000000000e-08,7.50000000000000e-01,0.00000000000000e+00,7.49408940626397e-01
6.51240000000000e-08,7.50000000000000e-01,0.00000000000000e+00,7.49304485453681e-01
6.51560000000000e-08,7.50000000000000e-01,0.00000000000000e+00,7.49644890144075e-01
6.52200000000000e-08,7.50000000000000e-01,0.00000000000000e+00,7.55246336391020e-01
6.53480000000000e-08,7.50000000000000e-01,0.00000000000000e+00,5.94439991276373e-01
6.56040000000000e-08,7.50000000000000e-01,0.00000000000000e+00,1.61793757025217e-02
6.58713825267423e-08,7.50000000000000e-01,0.00000000000000e+00,-1.21500570739966e-02
6.64061475802268e-08,7.50000000000000e-01,0.00000000000000e+00,1.11284532361474e-02
6.69857297793666e-08,7.50000000000000e-01,0.00000000000000e+00,-9.70519278846516e-03
6.81448941776460e-08,7.50000000000000e-01,0.00000000000000e+00,9.50013195864428e-03
7.04632229742050e-08,7.50000000000000e-01,0.00000000000000e+00,-8.98632390816864e-03
7.41629173019803e-08,7.50000000000000e-01,0.00000000000000e+00,9.11594910996706e-03
7.51000000000000e-08,7.50000000000000e-01,0.00000000000000e+00,-8.31366045967527e-03
7.51100000000000e-08,6.75000000000076e-01,0.00000000000000e+00,-4.48787870845863e-03
7.51300000000000e-08,5.25000000000105e-01,0.00000000000000e+00,-1.00273224326318e-03
7.51700000000000e-08,2.25000000000162e-01,0.00000000000000e+00,-2.59708207318701e-04
7.52000000000000e-08,1.05027098129540e-13,0.00000000000000e+00,5.55919263880683e-04
7.52080000000000e-08,0.00000000000000e+00,0.00000000000000e+00,6.63521157110492e-04
7.52240000000000e-08,0.00000000000000e+00,0.00000000000000e+00,6.28654080362320e-04
7.52560000000000e-08,0.00000000000000e+00,0.00000000000000e+00,-4.78248992480321e-04
7.53200000000000e-08,0.00000000000000e+00,0.00000000000000e+00,-1.47922643744451e-03
7.54480000000000e-08,0.00000000000000e+00,0.00000000000000e+00,1.75611464520511e-04
7.56978629931799e-08,0.00000000000000e+00,0.00000000000000e+00,-1.94517071608891e-05
7.59909866001105e-08,0.00000000000000e+00,0.00000000000000e+00,-3.61486916870511e-05
7.65772338139718e-08,0.00000000000000e+00,0.00000000000000e+00,4.98944647430895e-05
7.77497282416944e-08,0.00000000000000e+00,0.00000000000000e+00,-5.32739188493295e-05
8.00947170971395e-08,0.00000000000000e+00,0.00000000000000e+00,5.55391823801200e-05
8.38947170971395e-08,0.00000000000000e+00,0.00000000000000e+00,-5.56451145223176e-05
8.50000000000000e-08,0.00000000000000e+00,0.00000000000000e+00,5.84864557347606e-05
8.50100000000000e-08,7.49999999999858e-02,0.00000000000000e+00,2.16580498543589e-04
8.50300000000000e-08,2.24999999999957e-01,0.00000000000000e+00,3.34375593084607e-04
8.50700000000000e-08,5.24999999999900e-01,0.00000000000000e+00,9.81453122502890e-05
8.51000000000000e-08,7.49999999999957e-01,0.00000000000000e+00,-3.47821924756339e-04
8.51080000000000e-08,7.50000000000000e-01,0.00000000000000e+00,-5.00746638992577e-04
8.51240000000000e-08,7.50000000000000e-01,0.00000000000000e+00,-6.38398931822964e-04
8.51560000000000e-08,7.50000000000000e-01,0.00000000000000e+00,-4.70604227626278e-04
8.52200000000000e-08,7.50000000000000e-01,0.00000000000000e+00,1.26559593728315e-05
8.53480000000000e-08,7.50000000000000e-01,0.00000000000000e+00,2.41219932530429e-04
8.56040000000000e-08,7.50000000000000e-01,0.00000000000000e+00,-9.34737293533765e-05
8.61159999999999e-08,7.50000000000000e-01,0.00000000000000e+00,7.07988392265376e-05
8.66926359109479e-08,7.50000000000000e-01,0.00000000000000e+00,-4.77221526690285e-05
8.78459077328439e-08,7.50000000000000e-01,0.00000000000000e+00,4.60400927047456e-05
9.00000000000000e-08,7.50000000000000e-01,0.00000000000000e+00,-3.94728353913937e-05
9.00100000000000e-08,7.50000000000000e-01,7.49999999999858e-02,-2.71986142507258e-05
9.00300000000000e-08,7.50000000000000e-01,2.24999999999957e-01,-1.20223025979610e-05
9.00700000000000e-08,7.50000000000000e-01,5.24999999999900e-01,-9.80566106975611e-06
9.01000000000000e-08,7.50000000000000e-01,7.49999999999957e-01,-6.49491060746021e-06
9.01080000000000e-08,7.50000000000000e-01,7.50000000000000e-01,-4.49302443900068e-06
9.01240000000000e-08,7.50000000000000e-01,7.50000000000000e-01,5.55238122770807e-07
9.01560000000000e-08,7.50000000000000e-01,7.50000000000000e-01,5.44100640896550e-06
9.02200000000000e-08,7.50000000000000e-01,7.50000000000000e-01,1.93254424267486e-06
9.03480000000000e-08,7.50000000000000e-01,7.50000000000000e-01,1.38995265426545e-06
9.06040000000000e-08,7.50000000000000e-01,7.50000000000000e-01,1.55581126611362e-06
9.11159999999999e-08,7.50000000000000e-01,7.50000000000000e-01,1.13232907031011e-06
9.21399999999999e-08,7.50000000000000e-01,7.50000000000000e-01,1.38530830804014e-06
9.41879999999998e-08,7.50000000000000e-01,7.50000000000000e-01,8.26733178319050e-07
9.51000000000000e-08,7.50000000000000e-01,7.50000000000000e-01,1.15365967096829e-06
9.51100000000000e-08,6.75000000000076e-01,7.50000000000000e-01,-1.29770612610686e-04
9.51300000000000e-08,5.25000000000105e-01,7.50000000000000e-01,-2.73600478530547e-04
9.51700000000000e-08,2.25000000000162e-01,7.50000000000000e-01,-3.84917320638278e-05
9.52000000000000e-08,1.05027098129540e-13,7.50000000000000e-01,5.19049371893759e-04
9.52080000000000e-08,0.00000000000000e+00,7.50000000000000e-01,7.15353183309772e-04
9.52240000000000e-08,0.00000000000000e+00,7.50000000000000e-01,8.10279618079432e-04
9.52560000000000e-08,0.00000000000000e+00,7.50000000000000e-01,3.08164963363125e-04
9.53200000000000e-08,0.00000000000000e+00,7.50000000000000e-01,-5.05206403806392e-04
9.54480000000000e-08,0.00000000000000e+00,7.50000000000000e-01,-4.87538751827304e-05
9.57040000000000e-08,0.00000000000000e+00,7.50000000000000e-01,-1.28969565249146e-04
9.60135334092722e-08,0.00000000000000e+00,7.50000000000000e-01,2.14072648164858e-04
9.66326002278167e-08,0.00000000000000e+00,7.50000000000000e-01,-1.58051029502646e-04
9.72012643365912e-08,0.00000000000000e+00,7.50000000000000e-01,1.08742088767880e-04
9.83385925541404e-08,0.00000000000000e+00,7.50000000000000e-01,-8.70690940502454e-05
1.00613248989239e-07,0.00000000000000e+00,7.50000000000000e-01,7.84174037773999e-05
1.04285510282947e-07,0.00000000000000e+00,7.50000000000000e-01,-7.20459303999825e-05
1.05000000000000e-07,0.00000000000000e+00,7.50000000000000e-01,4.75255467205036e-05
1.05010000000000e-07,7.49999999999858e-02,7.50000000000000e-01,2.86978823270473e-04
1.05030000000000e-07,2.24999999999957e-01,7.50000000000000e-01,5.67722558824715e-04
1.05070000000000e-07,5.24999999999900e-01,7.50000000000000e-01,1.96831275710754e-04
1.05100000000000e-07,7.49999999999957e-01,7.50000000000000e-01,-2.86369818820138e-03
1.05108000000000e-07,7.50000000000000e-01,7.50000000000000e-01,-4.17571154903762e-03
1.05124000000000e-07,7.50000000000000e-01,7.50000000000000e-01,-6.33774273742109e-03
1.05156000000000e-07,7.50000000000000e-01,7.50000000000000e-01,-7.76378239556651e-03
1.05220000000000e-07,7.50000000000000e-01,7.50000000000000e-01,5.42812792951887e-02
1.05348000000000e-07,7.50000000000000e-01,7.50000000000000e-01,5.47819108289059e-01
1.05604000000000e-07,7.50000000000000e-01,7.50000000000000e-01,7.80948254790318e-01
1.05867771571887e-07,7.50000000000000e-01,7.50000000000000e-01,7.23111829603320e-01
1.06395314715662e-07,7.50000000000000e-01,7.50000000000000e-01,7.74058565776474e-01
1.07032211911729e-07,7.50000000000000e-01,7.50000000000000e-01,7.26771578639852e-01
1.08306006303863e-07,7.50000000000000e-01,7.50000000000000e-01,7.71690652971054e-01
1.10544218208595e-07,7.50000000000000e-01,7.50000000000000e-01,7.28016808627722e-01
1.14241685689757e-07,7.50000000000000e-01,7.50000000000000e-01,7.71026125713794e-01
1.15100000000000e-07,7.50000000000000e-01,7.50000000000000e-01,7.29384727328819e-01
1.15110000000000e-07,6.75000000000076e-01,7.50000000000000e-01,7.38684835137139e-01
1.15130000000000e-07,5.25000000000105e-01,7.50000000000000e-01,7.48816246729515e-01
1.15170000000000e-07,2.25000000000162e-01,7.50000000000000e-01,7.51550028913707e-01
1.15200000000000e-07,1.05027098129540e-13,7.50000000000000e-01,7.54309655189132e-01
1.15208000000000e-07,0.00000000000000e+00,7.50000000000000e-01,7.54815193091776e-01
1.15224000000000e-07,0.00000000000000e+00,7.50000000000000e-01,7.53795500398553e-01
1.15256000000000e-07,0.00000000000000e+00,7.50000000000000e-01,7.43192089467042e-01
1.15320000000000e-07,0.00000000000000e+00,7.50000000000000e-01,7.26724696987447e-01
1.15448000000000e-07,0.00000000000000e+00,7.50000000000000e-01,7.43003519522590e-01
1.15704000000000e-07,0.00000000000000e+00,7.50000000000000e-01,7.52724537978867e-01
1.16018006925083e-07,0.00000000000000e+00,7.50000000000000e-01,7.47431117416304e-01
1.16646020775250e-07,0.00000000000000e+00,7.50000000000000e-01,7.51715121438034e-01
1.17902048475583e-07,0.00000000000000e+00,7.50000000000000e-01,7.48149232808856e-01
1.20414103876250e-07,0.00000000000000e+00,7.50000000000000e-01,7.51599944387570e-01
1.24214103876250e-07,0.00000000000000e+00,7.50000000000000e-01,7.48322111448103e-01
1.25000000000000e-07,0.00000000000000e+00,7.50000000000000e-01,7.51381412987894e-01
1.25010000000000e-07,7.49999999998865e-02,7.50000000000000e-01,7.51091385380134e-01
1.25030000000000e-07,2.24999999999858e-01,7.50000000000000e-01,7.50650717755192e-01
1.25070000000000e-07,5.24999999999801e-01,7.50000000000000e-01,7.50004344752332e-01
1.25100000000000e-07,7.49999999999858e-01,7.50000000000000e-01,7.48049269420726e-01
1.25108000000000e-07,7.50000000000000e-01,6.89999999999932e-01,7.47236368261591e-01
1.25124000000000e-07,7.50000000000000e-01,5.69999999999994e-01,7.45955716128753e-01
1.25156000000000e-07,7.50000000000000e-01,3.29999999999921e-01,7.44654628195695e-01
1.25200000000000e-07,7.50000000000000e-01,0.00000000000000e+00,7.44420080491219e-01
1.25206400000000e-07,7.50000000000000e-01,0.00000000000000e+00,7.44609296515120e-01
1.25219200000000e-07,7.50000000000000e-01,0.00000000000000e+00,7.45032907713316e-01
1.25244800000000e-07,7.50000000000000e-01,0.00000000000000e+00,7.46058019474756e-01
1.25296000000000e-07,7.50000000000000e-01,0.00000000000000e+00,7.47800780855975e-01
1.25398400000000e-07,7.50000000000000e-01,0.00000000000000e+00,7.49526530025821e-01
1.25526493740046e-07,7.50000000000000e-01,0.00000000000000e+00,7.49925958561468e-01
1.25782681220139e-07,7.50000000000000e-01,0.00000000000000e+00,7.50023637853466e-01
1.26065867984040e-07,7.50000000000000e-01,0.00000000000000e+00,7.49993012035031e-01
1.26632241511842e-07,7.50000000000000e-01,0.00000000000000e+00,7.50002524932440e-01
1.27764988567447e-07,7.50000000000000e-01,0.00000000000000e+00,7.49999080752097e-01
1.29846914593706e-07,7.50000000000000e-01,0.00000000000000e+00,7.50000132882641e-01
1.33646914593706e-07,7.50000000000000e-01,0.00000000000000e+00,7.50000249480404e-01
1.35100000000000e-07,7.49999999999864e-01,0.00000000000000e+00,7.49998803428416e-01
1.35110000000000e-07,6.74999999999778e-01,0.00000000000000e+00,7.49867760647208e-01
1.35130000000000e-07,5.24999999999807e-01,0.00000000000000e+00,7.49760804057086e-01
1.35170000000000e-07,2.24999999999864e-01,0.00000000000000e+00,7.51207602405579e-01
