Time,v(clk),v(data),v(out),v(reset)
1.00000000000000e-08,7.50000000000000e-01,0.00000000000000e+00,1.24624887947421e-05,0.00000000000000e+00
1.00100000000000e-08,7.50000000000000e-01,7.49999999999982e-02,1.04414551048704e-05,0.00000000000000e+00
1.00300000000000e-08,7.50000000000000e-01,2.24999999999995e-01,5.24289981365667e-06,0.00000000000000e+00
1.00700000000000e-08,7.50000000000000e-01,5.24999999999987e-01,3.82678472309050e-06,0.00000000000000e+00
1.01000000000000e-08,7.50000000000000e-01,7.49999999999994e-01,3.39128430669466e-06,0.00000000000000e+00
1.01080000000000e-08,7.50000000000000e-01,7.50000000000000e-01,3.77302538460966e-06,0.00000000000000e+00
1.01240000000000e-08,7.50000000000000e-01,7.50000000000000e-01,5.67060297441968e-06,0.00000000000000e+00
1.01560000000000e-08,7.50000000000000e-01,7.50000000000000e-01,6.74026342578626e-06,0.00000000000000e+00
1.02200000000000e-08,7.50000000000000e-01,7.50000000000000e-01,5.19141076445184e-06,0.00000000000000e+00
1.03480000000000e-08,7.50000000000000e-01,7.50000000000000e-01,5.76700033024652e-06,0.00000000000000e+00
1.06040000000000e-08,7.50000000000000e-01,7.50000000000000e-01,4.50141806985355e-06,0.00000000000000e+00
1.11160000000000e-08,7.50000000000000e-01,7.50000000000000e-01,5.56223859808982e-06,0.00000000000000e+00
1.21400000000000e-08,7.50000000000000e-01,7.50000000000000e-01,4.07577045070072e-06,0.00000000000000e+00
1.41880000000000e-08,7.50000000000000e-01,7.50000000000000e-01,4.84541396803418e-06,0.00000000000000e+00
1.51000000000000e-08,7.50000000000000e-01,7.50000000000000e-01,3.56546808389160e-06,0.00000000000000e+00
1.51100000000000e-08,6.74999999999989e-01,7.50000000000000e-01,3.04696373925883e-04,7.50000000000106e-02
1.51300000000000e-08,5.24999999999993e-01,7.50000000000000e-01,4.49267628722938e-04,2.25000000000007e-01
1.51700000000000e-08,2.25000000000000e-01,7.50000000000000e-01,4.72407161704741e-04,5.25000000000000e-01
1.52000000000000e-08,0.00000000000000e+00,7.50000000000000e-01,9.98177687238283e-04,7.50000000000000e-01
1.52080000000000e-08,0.00000000000000e+00,7.50000000000000e-01,9.82550459138351e-04,7.50000000000000e-01
1.52240000000000e-08,0.00000000000000e+00,7.50000000000000e-01,5.86307854692880e-04,7.50000000000000e-01
1.52560000000000e-08,0.00000000000000e+00,7.50000000000000e-01,-5.77461781068114e-04,7.50000000000000e-01
1.53200000000000e-08,0.00000000000000e+00,7.50000000000000e-01,-5.84466528869981e-04,7.50000000000000e-01
1.54480000000000e-08,0.00000000000000e+00,7.50000000000000e-01,9.90675909595257e-05,7.50000000000000e-01
1.56076335182377e-08,0.00000000000000e+00,7.50000000000000e-01,-1.40122964380998e-04,7.50000000000000e-01
1.59269005547130e-08,0.00000000000000e+00,7.50000000000000e-01,-2.72968936787937e-05,7.50000000000000e-01
1.62565734467611e-08,0.00000000000000e+00,7.50000000000000e-01,2.54898289178206e-04,7.50000000000000e-01
1.69159192308574e-08,0.00000000000000e+00,7.50000000000000e-01,-2.80721969525662e-04,7.50000000000000e-01
1.77317459669694e-08,0.00000000000000e+00,7.50000000000000e-01,2.89359321893320e-04,7.50000000000000e-01
1.93633994391933e-08,0.00000000000000e+00,7.50000000000000e-01,-2.83786449957076e-04,7.50000000000000e-01
2.18084272640132e-08,0.00000000000000e+00,7.50000000000000e-01,2.85180836228891e-04,7.50000000000000e-01
2.50000000000000e-08,0.00000000000000e+00,7.50000000000000e-01,-2.78986369736080e-04,7.50000000000000e-01
2.50100000000000e-08,7.49999999999858e-02,7.50000000000000e-01,8.09454681953425e-06,7.50000000000000e-01
2.50300000000000e-08,2.25000000000007e-01,7.50000000000000e-01,4.30760018056309e-04,7.50000000000000e-01
2.50700000000000e-08,5.25000000000000e-01,7.50000000000000e-01,9.77041377327487e-04,7.50000000000000e-01
2.51000000000000e-08,7.50000000000000e-01,7.50000000000000e-01,5.06915864232571e-04,7.50000000000000e-01
2.51080000000000e-08,7.50000000000000e-01,7.50000000000000e-01,-9.73976393244258e-05,7.50000000000000e-01
2.51240000000000e-08,7.50000000000000e-01,7.50000000000000e-01,-1.40734879955448e-03,7.50000000000000e-01
2.51560000000000e-08,7.50000000000000e-01,7.50000000000000e-01,-4.00336765594474e-03,7.50000000000000e-01
2.52200000000000e-08,7.50000000000000e-01,7.50000000000000e-01,-7.02539764363237e-03,7.50000000000000e-01
2.53480000000000e-08,7.50000000000000e-01,7.50000000000000e-01,7.54139784666627e-02,7.50000000000000e-01
2.56040000000000e-08,7.50000000000000e-01,7.50000000000000e-01,6.96812667004303e-01,7.50000000000000e-01
2.60450489776831e-08,7.50000000000000e-01,7.50000000000000e-01,7.62929040931157e-01,7.50000000000000e-01
2.64940849806566e-08,7.50000000000000e-01,7.50000000000000e-01,7.37712942792495e-01,7.50000000000000e-01
2.73915788166350e-08,7.50000000000000e-01,7.50000000000000e-01,7.61775109560293e-01,7.50000000000000e-01
2.87065723407210e-08,7.50000000000000e-01,7.50000000000000e-01,7.38148060895420e-01,7.50000000000000e-01
3.13365593888930e-08,7.50000000000000e-01,7.50000000000000e-01,7.61466549380145e-01,7.50000000000000e-01
3.51000000000000e-08,7.49999999999963e-01,7.50000000000000e-01,7.38317663769066e-01,7.50000000000000e-01
3.51100000000000e-08,6.74999999999977e-01,7.50000000000000e-01,7.45538020052224e-01,7.50000000000000e-01
3.51300000000000e-08,5.24999999999956e-01,7.50000000000000e-01,7.50989480831116e-01,7.50000000000000e-01
3.51700000000000e-08,2.24999999999963e-01,7.50000000000000e-01,7.51117714821782e-01,7.50000000000000e-01
3.52000000000000e-08,0.00000000000000e+00,7.50000000000000e-01,7.54728085688240e-01,7.50000000000000e-01
3.52080000000000e-08,0.00000000000000e+00,7.50000000000000e-01,7.53258416563328e-01,7.50000000000000e-01
3.52240000000000e-08,0.00000000000000e+00,7.50000000000000e-01,7.46837527416532e-01,7.50000000000000e-01
3.52560000000000e-08,0.00000000000000e+00,7.50000000000000e-01,7.34024899091733e-01,7.50000000000000e-01
3.53200000000000e-08,0.00000000000000e+00,7.50000000000000e-01,7.42495833009030e-01,7.50000000000000e-01
3.54480000000000e-08,0.00000000000000e+00,7.50000000000000e-01,7.51500825113069e-01,7.50000000000000e-01
3.56196739596696e-08,0.00000000000000e+00,7.50000000000000e-01,7.48024838625193e-01,7.50000000000000e-01
3.59630218790087e-08,0.00000000000000e+00,7.50000000000000e-01,7.51203699503409e-01,7.50000000000000e-01
3.66497177176869e-08,0.00000000000000e+00,7.50000000000000e-01,7.48621132561419e-01,7.50000000000000e-01
3.80231093950434e-08,0.00000000000000e+00,7.50000000000000e-01,7.51196378410545e-01,7.50000000000000e-01
4.07698927497563e-08,0.00000000000000e+00,7.50000000000000e-01,7.48755938065355e-01,7.50000000000000e-01
4.45698927497563e-08,0.00000000000000e+00,7.50000000000000e-01,7.51188350552311e-01,7.50000000000000e-01
4.50000000000000e-08,0.00000000000000e+00,7.50000000000000e-01,7.48899792514185e-01,7.50000000000000e-01
4.50100000000000e-08,7.49999999999858e-02,7.50000000000000e-01,7.49229731348795e-01,6.75000000000014e-01
4.50300000000000e-08,2.25000000000007e-01,7.50000000000000e-01,7.49626008044586e-01,5.24999999999993e-01
4.50700000000000e-08,5.25000000000000e-01,7.50000000000000e-01,7.56839337497495e-01,2.25000000000000e-01
4.51000000000000e-08,7.50000000000000e-01,7.50000000000000e-01,7.83035127038797e-01,0.00000000000000e+00
4.51080000000000e-08,7.50000000000000e-01,7.50000000000000e-01,7.96726285809328e-01,0.00000000000000e+00
4.51240000000000e-08,7.50000000000000e-01,7.50000000000000e-01,8.16682661997148e-01,0.00000000000000e+00
4.51560000000000e-08,7.50000000000000e-01,7.50000000000000e-01,7.77307658412487e-01,0.00000000000000e+00
4.52200000000000e-08,7.50000000000000e-01,7.50000000000000e-01,5.33222000738806e-01,0.00000000000000e+00
4.53480000000000e-08,7.50000000000000e-01,7.50000000000000e-01,1.52065468668910e-01,0.00000000000000e+00
4.55219702762282e-08,7.50000000000000e-01,7.50000000000000e-01,-2.90057564587643e-03,0.00000000000000e+00
4.58411697737582e-08,7.50000000000000e-01,7.50000000000000e-01,6.63126765174996e-04,0.00000000000000e+00
4.64185943509110e-08,7.50000000000000e-01,7.50000000000000e-01,-7.94899598252838e-05,0.00000000000000e+00
4.72039207112636e-08,7.50000000000000e-01,7.50000000000000e-01,-1.81500243691346e-04,0.00000000000000e+00
4.86778258553679e-08,7.50000000000000e-01,7.50000000000000e-01,2.91765799314352e-04,0.00000000000000e+00
5.01000000000000e-08,7.50000000000000e-01,7.49999999999957e-01,-3.73177542177038e-04,0.00000000000000e+00
5.03947810288209e-08,7.50000000000000e-01,7.50000000000000e-01,8.20662502789594e-05,0.00000000000000e+00
5.09843430864626e-08,7.50000000000000e-01,7.50000000000000e-01,-4.04165985196346e-05,0.00000000000000e+00
5.21634672017460e-08,7.50000000000000e-01,7.50000000000000e-01,3.19435546753833e-05,0.00000000000000e+00
5.45217154323129e-08,7.50000000000000e-01,7.50000000000000e-01,-2.18469024116799e-05,0.00000000000000e+00
5.51000000000000e-08,7.50000000000000e-01,7.50000000000000e-01,1.27475045170397e-05,0.00000000000000e+00
5.51100000000000e-08,6.75000000000027e-01,7.50000000000000e-01,3.27353437080485e-04,7.49999999999734e-02
5.51300000000000e-08,5.25000000000005e-01,7.50000000000000e-01,4.69911726541816e-04,2.24999999999995e-01
5.51700000000000e-08,2.25000000000013e-01,7.50000000000000e-01,4.79637704793270e-04,5.24999999999987e-01
5.52000000000000e-08,0.00000000000000e+00,7.50000000000000e-01,9.55538773862674e-04,7.50000000000000e-01
5.52080000000000e-08,0.00000000000000e+00,7.50000000000000e-01,8.52385457378479e-04,7.50000000000000e-01
5.52240000000000e-08,0.00000000000000e+00,7.50000000000000e-01,7.94952539334010e-05,7.50000000000000e-01
5.52560000000000e-08,0.00000000000000e+00,7.50000000000000e-01,-1.78693730529039e-03,7.50000000000000e-01
5.53200000000000e-08,0.00000000000000e+00,7.50000000000000e-01,-1.63413027902214e-03,7.50000000000000e-01
5.54480000000000e-08,0.00000000000000e+00,7.50000000000000e-01,-3.62356270170727e-05,7.50000000000000e-01
5.56078318819150e-08,0.00000000000000e+00,7.50000000000000e-01,1.63442925730992e-04,7.50000000000000e-01
5.59274956457451e-08,0.00000000000000e+00,7.50000000000000e-01,-3.29513681515597e-04,7.50000000000000e-01
5.62575640220436e-08,0.00000000000000e+00,7.50000000000000e-01,3.38575251231418e-04,7.50000000000000e-01
5.69177007746405e-08,0.00000000000000e+00,7.50000000000000e-01,-2.83406121592826e-04,7.50000000000000e-01
5.77120571555154e-08,0.00000000000000e+00,7.50000000000000e-01,2.56185771854125e-04,7.50000000000000e-01
5.93007699172651e-08,0.00000000000000e+00,7.50000000000000e-01,-2.35948212730439e-04,7.50000000000000e-01
6.17137588395009e-08,0.00000000000000e+00,7.50000000000000e-01,2.30330652268415e-04,7.50000000000000e-01
6.50000000000000e-08,0.00000000000000e+00,7.50000000000000e-01,-2.18608532383635e-04,7.50000000000000e-01
6.50100000000000e-08,7.49999999999858e-02,7.50000000000000e-01,2.20710359671167e-05,7.50000000000000e-01
6.50300000000000e-08,2.24999999999957e-01,7.50000000000000e-01,3.93438862645909e-04,7.50000000000000e-01
6.50700000000000e-08,5.24999999999900e-01,7.50000000000000e-01,9.30609405836558e-04,7.50000000000000e-01
6.51000000000000e-08,7.49999999999957e-01,7.50000000000000e-01,3.51354683035043e-04,7.50000000000000e-01
6.51080000000000e-08,7.50000000000000e-01,7.50000000000000e-01,-2.91966540440655e-04,7.50000000000000e-01
6.51240000000000e-08,7.50000000000000e-01,7.50000000000000e-01,-1.64456487926982e-03,7.50000000000000e-01
6.51560000000000e-08,7.50000000000000e-01,7.50000000000000e-01,-4.21460182856399e-03,7.50000000000000e-01
6.52200000000000e-08,7.50000000000000e-01,7.50000000000000e-01,-7.03844148008938e-03,7.50000000000000e-01
6.53480000000000e-08,7.50000000000000e-01,7.50000000000000e-01,8.14172359507029e-02,7.50000000000000e-01
6.56040000000000e-08,7.50000000000000e-01,7.50000000000000e-01,6.99152589579546e-01,7.50000000000000e-01
6.60484268068715e-08,7.50000000000000e-01,7.50000000000000e-01,7.62491448559869e-01,7.50000000000000e-01
6.65002700239523e-08,7.50000000000000e-01,7.50000000000000e-01,7.38097101062953e-01,7.50000000000000e-01
6.73942225714510e-08,7.50000000000000e-01,7.50000000000000e-01,7.61403007488487e-01,7.50000000000000e-01
6.87163496829859e-08,7.50000000000000e-01,7.50000000000000e-01,7.38522413257568e-01,7.50000000000000e-01
7.13606039060558e-08,7.50000000000000e-01,7.50000000000000e-01,7.61106117543599e-01,7.50000000000000e-01
7.51000000000000e-08,7.50000000000000e-01,7.50000000000000e-01,7.38687782630361e-01,7.50000000000000e-01
7.51100000000000e-08,6.75000000000076e-01,7.50000000000000e-01,7.45673163203532e-01,7.50000000000000e-01
7.51300000000000e-08,5.25000000000105e-01,7.50000000000000e-01,7.50950983272173e-01,7.50000000000000e-01
7.51700000000000e-08,2.25000000000162e-01,7.50000000000000e-01,7.51139890398854e-01,7.50000000000000e-01
7.52000000000000e-08,1.05027098129540e-13,7.50000000000000e-01,7.54711713105298e-01,7.50000000000000e-01
7.52080000000000e-08,0.00000000000000e+00,7.50000000000000e-01,7.53246600608376e-01,7.50000000000000e-01
7.52240000000000e-08,0.00000000000000e+00,7.50000000000000e-01,7.46830488657693e-01,7.50000000000000e-01
7.52560000000000e-08,0.00000000000000e+00,7.50000000000000e-01,7.34020319464727e-01,7.50000000000000e-01
7.53200000000000e-08,0.00000000000000e+00,7.50000000000000e-01,7.42495150412845e-01,7.50000000000000e-01
7.54480000000000e-08,0.00000000000000e+00,7.50000000000000e-01,7.51500675912432e-01,7.50000000000000e-01
7.56196812350962e-08,0.00000000000000e+00,7.50000000000000e-01,7.48024892788925e-01,7.50000000000000e-01
7.59630437052887e-08,0.00000000000000e+00,7.50000000000000e-01,7.51203665833241e-01,7.50000000000000e-01
7.66497686456736e-08,0.00000000000000e+00,7.50000000000000e-01,7.48621175483824e-01,7.50000000000000e-01
7.80232185264435e-08,0.00000000000000e+00,7.50000000000000e-01,7.51196346913242e-01,7.50000000000000e-01
8.07701182879832e-08,0.00000000000000e+00,7.50000000000000e-01,7.48755973604164e-01,7.50000000000000e-01
8.45701182879832e-08,0.00000000000000e+00,7.50000000000000e-01,7.51188320376121e-01,7.50000000000000e-01
8.50000000000000e-08,0.00000000000000e+00,7.50000000000000e-01,7.48899877127536e-01,7.50000000000000e-01
8.50100000000000e-08,7.49999999999858e-02,7.50000000000000e-01,7.49229813448430e-01,6.75000000000014e-01
8.50300000000000e-08,2.24999999999957e-01,7.50000000000000e-01,7.49626024236762e-01,5.25000000000043e-01
8.50700000000000e-08,5.24999999999900e-01,7.50000000000000e-01,7.56839322175073e-01,2.25000000000100e-01
8.51000000000000e-08,7.49999999999957e-01,7.50000000000000e-01,7.83035066403406e-01,4.29656310529936e-14
8.51080000000000e-08,7.50000000000000e-01,7.50000000000000e-01,7.96726203172371e-01,0.00000000000000e+00
8.51240000000000e-08,7.50000000000000e-01,7.50000000000000e-01,8.16682632360374e-01,0.00000000000000e+00
8.51560000000000e-08,7.50000000000000e-01,7.50000000000000e-01,7.77308420111986e-01,0.00000000000000e+00
8.52200000000000e-08,7.50000000000000e-01,7.50000000000000e-01,5.33223363138875e-01,0.00000000000000e+00
8.53480000000000e-08,7.50000000000000e-01,7.50000000000000e-01,1.52065653203673e-01,0.00000000000000e+00
8.55219733459680e-08,7.50000000000000e-01,7.50000000000000e-01,-2.90155899041940e-03,0.00000000000000e+00
8.58415342408745e-08,7.50000000000000e-01,7.50000000000000e-01,6.65243513861428e-04,0.00000000000000e+00
8.64187318602810e-08,7.50000000000000e-01,7.50000000000000e-01,-8.05707598824923e-05,0.00000000000000e+00
8.72045602140203e-08,7.50000000000000e-01,7.50000000000000e-01,-1.80639084867660e-04,0.00000000000000e+00
8.86786260315990e-08,7.50000000000000e-01,7.50000000000000e-01,2.91065368023008e-04,0.00000000000000e+00
9.01000000000000e-08,7.50000000000000e-01,7.49999999999957e-01,-3.72675494944855e-04,0.00000000000000e+00
9.03948131635157e-08,7.50000000000000e-01,7.50000000000000e-01,8.21881018144462e-05,0.00000000000000e+00
9.09844394905472e-08,7.50000000000000e-01,7.50000000000000e-01,-4.04964336135211e-05,0.00000000000000e+00
9.21636921446102e-08,7.50000000000000e-01,7.50000000000000e-01,3.20093763385692e-05,0.00000000000000e+00
9.45221974527361e-08,7.50000000000000e-01,7.50000000000000e-01,-2.19061350015069e-05,0.00000000000000e+00
9.51000000000000e-08,7.50000000000000e-01,7.50000000000000e-01,1.27764527265740e-05,0.00000000000000e+00
9.51100000000000e-08,6.75000000000076e-01,7.50000000000000e-01,3.27384788063004e-04,7.49999999999237e-02
9.51300000000000e-08,5.25000000000105e-01,7.50000000000000e-01,4.69934721473483e-04,2.24999999999895e-01
9.51700000000000e-08,2.25000000000162e-01,7.50000000000000e-01,4.79649690528008e-04,5.24999999999838e-01
9.52000000000000e-08,1.05027098129540e-13,7.50000000000000e-01,9.55549902906527e-04,7.49999999999895e-01
9.52080000000000e-08,0.00000000000000e+00,7.50000000000000e-01,8.52398676897528e-04,7.50000000000000e-01
9.52240000000000e-08,0.00000000000000e+00,7.50000000000000e-01,7.95188446284928e-05,7.50000000000000e-01
9.52560000000000e-08,0.00000000000000e+00,7.50000000000000e-01,-1.78689125731386e-03,7.50000000000000e-01
9.53200000000000e-08,0.00000000000000e+00,7.50000000000000e-01,-1.63410046855726e-03,7.50000000000000e-01
9.54480000000000e-08,0.00000000000000e+00,7.50000000000000e-01,-3.62184905818297e-05,7.50000000000000e-01
9.56078315861379e-08,0.00000000000000e+00,7.50000000000000e-01,1.63404810221229e-04,7.50000000000000e-01
9.59274947584138e-08,0.00000000000000e+00,7.50000000000000e-01,-3.29452997051422e-04,7.50000000000000e-01
9.62575601687568e-08,0.00000000000000e+00,7.50000000000000e-01,3.38546348326738e-04,7.50000000000000e-01
9.69176909894427e-08,0.00000000000000e+00,7.50000000000000e-01,-2.83392729807427e-04,7.50000000000000e-01
9.77120728428340e-08,0.00000000000000e+00,7.50000000000000e-01,2.56180648143044e-04,7.50000000000000e-01
9.93008365496167e-08,0.00000000000000e+00,7.50000000000000e-01,-2.35946132944868e-04,7.50000000000000e-01
1.01713845522372e-07,0.00000000000000e+00,7.50000000000000e-01,2.30329987779763e-04,7.50000000000000e-01
1.05000000000000e-07,0.00000000000000e+00,7.50000000000000e-01,-2.18608618758429e-04,7.50000000000000e-01
1.05010000000000e-07,7.49999999999858e-02,7.50000000000000e-01,2.20737137975324e-05,7.50000000000000e-01
1.05030000000000e-07,2.24999999999957e-01,7.50000000000000e-01,3.93445081317265e-04,7.50000000000000e-01
1.05070000000000e-07,5.24999999999900e-01,7.50000000000000e-01,9.30613748952147e-04,7.50000000000000e-01
1.05100000000000e-07,7.49999999999957e-01,7.50000000000000e-01,3.51354467682252e-04,7.50000000000000e-01
1.05108000000000e-07,7.50000000000000e-01,7.50000000000000e-01,-2.91967944739416e-04,7.50000000000000e-01
1.05124000000000e-07,7.50000000000000e-01,7.50000000000000e-01,-1.64456781937004e-03,7.50000000000000e-01
1.05156000000000e-07,7.50000000000000e-01,7.50000000000000e-01,-4.21460500131912e-03,7.50000000000000e-01
1.05220000000000e-07,7.50000000000000e-01,7.50000000000000e-01,-7.03844073355085e-03,7.50000000000000e-01
1.05348000000000e-07,7.50000000000000e-01,7.50000000000000e-01,8.14173883918122e-02,7.50000000000000e-01
1.05604000000000e-07,7.50000000000000e-01,7.50000000000000e-01,6.99152647711472e-01,7.50000000000000e-01
1.06048426894127e-07,7.50000000000000e-01,7.50000000000000e-01,7.62491437402630e-01,7.50000000000000e-01
1.06500270184052e-07,7.50000000000000e-01,7.50000000000000e-01,7.38097110852602e-01,7.50000000000000e-01
1.07394222649905e-07,7.50000000000000e-01,7.50000000000000e-01,7.61402997988055e-01,7.50000000000000e-01
1.08716349944189e-07,7.50000000000000e-01,7.50000000000000e-01,7.38522422763901e-01,7.50000000000000e-01
1.11360604532756e-07,7.50000000000000e-01,7.50000000000000e-01,7.61106108308144e-01,7.50000000000000e-01
1.15100000000000e-07,7.50000000000000e-01,7.50000000000000e-01,7.38687792051072e-01,7.50000000000000e-01
1.15110000000000e-07,6.75000000000076e-01,7.50000000000000e-01,7.45673166634267e-01,7.50000000000000e-01
1.15130000000000e-07,5.25000000000105e-01,7.50000000000000e-01,7.50950982277587e-01,7.50000000000000e-01
1.15170000000000e-07,2.25000000000162e-01,7.50000000000000e-01,7.51139890964421e-01,7.50000000000000e-01
