Time,v(clk),v(data),v(out)
1.00000000000000e-08,7.50000000000000e-01,0.00000000000000e+00,3.76532840976190e-05
1.00100000000000e-08,7.50000000000000e-01,7.49999999999982e-02,4.37039975742098e-05
1.00300000000000e-08,7.50000000000000e-01,2.24999999999995e-01,4.65246477661108e-05
1.00700000000000e-08,7.50000000000000e-01,5.24999999999987e-01,4.21551794026476e-05
1.01000000000000e-08,7.50000000000000e-01,7.49999999999994e-01,4.17677484737811e-05
1.01080000000000e-08,7.50000000000000e-01,7.50000000000000e-01,4.09631365977242e-05
1.01240000000000e-08,7.50000000000000e-01,7.50000000000000e-01,4.30315953521970e-05
1.01560000000000e-08,7.50000000000000e-01,7.50000000000000e-01,4.60523670835072e-05
1.02200000000000e-08,7.50000000000000e-01,7.50000000000000e-01,4.77008168449228e-05
1.03480000000000e-08,7.50000000000000e-01,7.50000000000000e-01,4.63831901654360e-05
1.06040000000000e-08,7.50000000000000e-01,7.50000000000000e-01,4.77629338668170e-05
1.10888537424899e-08,7.50000000000000e-01,7.50000000000000e-01,4.58413434936689e-05
1.20414516275608e-08,7.50000000000000e-01,7.50000000000000e-01,4.63664097465274e-05
1.39466473977027e-08,7.50000000000000e-01,7.50000000000000e-01,4.49587768695265e-05
1.51000000000000e-08,7.50000000000000e-01,7.50000000000000e-01,4.53381434771839e-05
1.51100000000000e-08,6.74999999999989e-01,7.50000000000000e-01,-8.31147477746152e-05
1.51300000000000e-08,5.24999999999993e-01,7.50000000000000e-01,-2.54588138652700e-04
1.51700000000000e-08,2.25000000000000e-01,7.50000000000000e-01,1.29195548560043e-04
1.52000000000000e-08,0.00000000000000e+00,7.50000000000000e-01,9.76709438822360e-04
1.52080000000000e-08,0.00000000000000e+00,7.50000000000000e-01,1.23047054179867e-03
1.52240000000000e-08,0.00000000000000e+00,7.50000000000000e-01,1.29402207612360e-03
1.52560000000000e-08,0.00000000000000e+00,7.50000000000000e-01,2.00564237148260e-04
1.53200000000000e-08,0.00000000000000e+00,7.50000000000000e-01,-6.74314218141903e-04
1.54480000000000e-08,0.00000000000000e+00,7.50000000000000e-01,-8.78417404870796e-05
1.56279228237638e-08,0.00000000000000e+00,7.50000000000000e-01,3.26580752979533e-06
1.59877684712914e-08,0.00000000000000e+00,7.50000000000000e-01,-9.11052471388382e-05
1.64467711276813e-08,0.00000000000000e+00,7.50000000000000e-01,2.64974068582391e-04
1.73647764404612e-08,0.00000000000000e+00,7.50000000000000e-01,-1.42012184193574e-04
1.82746447827090e-08,0.00000000000000e+00,7.50000000000000e-01,1.94133978391353e-04
2.00943814672046e-08,0.00000000000000e+00,7.50000000000000e-01,-9.60968972348424e-05
2.37338548361958e-08,0.00000000000000e+00,7.50000000000000e-01,1.74571576914589e-04
2.50000000000000e-08,0.00000000000000e+00,7.50000000000000e-01,-7.41844155485692e-05
2.50100000000000e-08,7.49999999999858e-02,7.50000000000000e-01,1.66682106602895e-04
2.50300000000000e-08,2.25000000000007e-01,7.50000000000000e-01,5.28167420029382e-04
2.50700000000000e-08,5.25000000000000e-01,7.50000000000000e-01,1.09263940745123e-03
2.51000000000000e-08,7.50000000000000e-01,7.50000000000000e-01,1.10688257626863e-03
2.51080000000000e-08,7.50000000000000e-01,7.50000000000000e-01,7.58964378874849e-04
2.51240000000000e-08,7.50000000000000e-01,7.50000000000000e-01,-2.75966288097867e-05
2.51560000000000e-08,7.50000000000000e-01,7.50000000000000e-01,-1.83513963598890e-03
2.52200000000000e-08,7.50000000000000e-01,7.50000000000000e-01,-4.96125894124733e-03
2.53480000000000e-08,7.50000000000000e-01,7.50000000000000e-01,1.97917842757235e-03
2.56040000000000e-08,7.50000000000000e-01,7.50000000000000e-01,4.48610667137136e-01
2.61160000000000e-08,7.50000000000000e-01,7.50000000000000e-01,7.64210771942575e-01
2.66464478034758e-08,7.50000000000000e-01,7.50000000000000e-01,7.39754852397573e-01
2.77073434104275e-08,7.50000000000000e-01,7.50000000000000e-01,7.59625526658353e-01
2.90126250772759e-08,7.50000000000000e-01,7.50000000000000e-01,7.40371331363650e-01
3.11327834643431e-08,7.50000000000000e-01,7.50000000000000e-01,7.59321682141603e-01
3.49327834643431e-08,7.50000000000000e-01,7.50000000000000e-01,7.40585661266257e-01
3.51000000000000e-08,7.49999999999963e-01,7.50000000000000e-01,7.57848201061670e-01
3.51100000000000e-08,6.74999999999977e-01,7.50000000000000e-01,7.52987310276979e-01
3.51300000000000e-08,5.24999999999956e-01,7.50000000000000e-01,7.49233683877730e-01
3.51700000000000e-08,2.24999999999963e-01,7.50000000000000e-01,7.52293801591376e-01
3.52000000000000e-08,0.00000000000000e+00,7.50000000000000e-01,7.55231897928145e-01
3.52080000000000e-08,0.00000000000000e+00,7.50000000000000e-01,7.55104364763609e-01
3.52240000000000e-08,0.00000000000000e+00,7.50000000000000e-01,7.51610062861478e-01
3.52560000000000e-08,0.00000000000000e+00,7.50000000000000e-01,7.38759021006562e-01
3.53200000000000e-08,0.00000000000000e+00,7.50000000000000e-01,7.37200074933049e-01
3.54480000000000e-08,0.00000000000000e+00,7.50000000000000e-01,7.50813712705589e-01
3.56447516389752e-08,0.00000000000000e+00,7.50000000000000e-01,7.48030483025715e-01
3.59662971885911e-08,0.00000000000000e+00,7.50000000000000e-01,7.50862679771404e-01
3.66093882878230e-08,0.00000000000000e+00,7.50000000000000e-01,7.48790942164259e-01
3.78955704862869e-08,0.00000000000000e+00,7.50000000000000e-01,7.50927347577257e-01
4.04679348832146e-08,0.00000000000000e+00,7.50000000000000e-01,7.48968767185066e-01
4.42679348832146e-08,0.00000000000000e+00,7.50000000000000e-01,7.50937665948631e-01
4.50000000000000e-08,0.00000000000000e+00,7.50000000000000e-01,7.49068258229156e-01
4.50100000000000e-08,7.49999999999858e-02,7.50000000000000e-01,7.49564317922920e-01
4.50300000000000e-08,2.25000000000007e-01,7.50000000000000e-01,7.50084246804985e-01
4.50700000000000e-08,5.25000000000000e-01,7.50000000000000e-01,7.50198070857129e-01
4.51000000000000e-08,7.50000000000000e-01,7.50000000000000e-01,7.50070761906085e-01
4.51080000000000e-08,7.50000000000000e-01,6.90000000000031e-01,7.49886518960863e-01
4.51240000000000e-08,7.50000000000000e-01,5.69999999999994e-01,7.49594289924053e-01
4.51560000000000e-08,7.50000000000000e-01,3.30000000000020e-01,7.49286978446725e-01
4.52000000000000e-08,7.50000000000000e-01,4.29656310529936e-14,7.49142745999701e-01
4.52064000000000e-08,7.50000000000000e-01,0.00000000000000e+00,7.49129504937752e-01
4.52192000000000e-08,7.50000000000000e-01,0.00000000000000e+00,7.49098848527554e-01
4.52448000000000e-08,7.50000000000000e-01,0.00000000000000e+00,7.49092754481963e-01
4.52960000000000e-08,7.50000000000000e-01,0.00000000000000e+00,7.49205858228343e-01
4.53984000000000e-08,7.50000000000000e-01,0.00000000000000e+00,7.50331421114581e-01
4.55746960001707e-08,7.50000000000000e-01,0.00000000000000e+00,7.50851002619091e-01
4.58386238236958e-08,7.50000000000000e-01,0.00000000000000e+00,7.59912032418106e-01
4.62571927930587e-08,7.50000000000000e-01,0.00000000000000e+00,2.90560774327433e-01
4.68272432404122e-08,7.50000000000000e-01,0.00000000000000e+00,-6.80538896493298e-02
4.77130478848869e-08,7.50000000000000e-01,0.00000000000000e+00,4.78025802541848e-02
4.87728672104740e-08,7.50000000000000e-01,0.00000000000000e+00,-2.98192358424876e-02
5.03669121780159e-08,7.50000000000000e-01,0.00000000000000e+00,2.47262623267643e-02
5.35550021130999e-08,7.50000000000000e-01,0.00000000000000e+00,-2.07329484106077e-02
5.51000000000000e-08,7.50000000000000e-01,0.00000000000000e+00,1.69847975062651e-02
5.51100000000000e-08,6.75000000000027e-01,0.00000000000000e+00,1.45880319247867e-02
5.51300000000000e-08,5.25000000000005e-01,0.00000000000000e+00,1.11367461762265e-02
5.51700000000000e-08,2.25000000000013e-01,0.00000000000000e+00,7.94037129193213e-03
5.52000000000000e-08,0.00000000000000e+00,0.00000000000000e+00,6.72005124056214e-03
5.52080000000000e-08,0.00000000000000e+00,0.00000000000000e+00,6.45109873482924e-03
5.52240000000000e-08,0.00000000000000e+00,0.00000000000000e+00,5.40497326838089e-03
5.52560000000000e-08,0.00000000000000e+00,0.00000000000000e+00,2.14527885406600e-03
5.53200000000000e-08,0.00000000000000e+00,0.00000000000000e+00,-9.87175703488025e-04
5.54480000000000e-08,0.00000000000000e+00,0.00000000000000e+00,-9.17790864084042e-04
5.56259308718198e-08,0.00000000000000e+00,0.00000000000000e+00,-1.14950823957259e-04
5.59817926154595e-08,0.00000000000000e+00,0.00000000000000e+00,1.22092092898651e-04
5.65599810877505e-08,0.00000000000000e+00,0.00000000000000e+00,-1.58758416329528e-05
5.77163580323323e-08,0.00000000000000e+00,0.00000000000000e+00,9.26824491144056e-05
6.00291119214961e-08,0.00000000000000e+00,0.00000000000000e+00,-5.01018500676312e-06
6.38291119214961e-08,0.00000000000000e+00,0.00000000000000e+00,8.77288034001169e-05
6.50000000000000e-08,0.00000000000000e+00,0.00000000000000e+00,1.85920688923827e-06
6.50100000000000e-08,7.49999999999858e-02,0.00000000000000e+00,1.84637630876450e-04
6.50300000000000e-08,2.24999999999957e-01,0.00000000000000e+00,3.69432436416489e-04
6.50700000000000e-08,5.24999999999900e-01,0.00000000000000e+00,3.63955637908503e-04
6.51000000000000e-08,7.49999999999957e-01,0.00000000000000e+00,1.55711679441797e-04
6.51080000000000e-08,7.50000000000000e-01,0.00000000000000e+00,-1.32732163929811e-05
6.51240000000000e-08,7.50000000000000e-01,0.00000000000000e+00,-2.30837945186718e-04
6.51560000000000e-08,7.50000000000000e-01,0.00000000000000e+00,-2.90549436832127e-04
6.52200000000000e-08,7.50000000000000e-01,0.00000000000000e+00,-1.76189185999709e-04
6.53480000000000e-08,7.50000000000000e-01,0.00000000000000e+00,-3.18353352207756e-05
6.56040000000000e-08,7.50000000000000e-01,0.00000000000000e+00,7.83656432675334e-05
6.61159999999999e-08,7.50000000000000e-01,0.00000000000000e+00,7.13993570331320e-05
6.71399999999999e-08,7.50000000000000e-01,0.00000000000000e+00,3.67908186674586e-05
6.88730966436811e-08,7.50000000000000e-01,0.00000000000000e+00,5.90683413598334e-05
7.10516023742699e-08,7.50000000000000e-01,0.00000000000000e+00,3.63775596856700e-05
7.48516023742699e-08,7.50000000000000e-01,0.00000000000000e+00,5.45684476100580e-05
7.51000000000000e-08,7.50000000000000e-01,0.00000000000000e+00,3.89156425719406e-05
7.51100000000000e-08,6.75000000000076e-01,0.00000000000000e+00,-8.67438021578543e-05
7.51300000000000e-08,5.25000000000105e-01,0.00000000000000e+00,-2.53398051994508e-04
7.51700000000000e-08,2.25000000000162e-01,0.00000000000000e+00,1.29909576793957e-04
7.52000000000000e-08,1.05027098129540e-13,0.00000000000000e+00,9.83203006711522e-04
7.52080000000000e-08,0.00000000000000e+00,0.00000000000000e+00,1.23939314127436e-03
7.52240000000000e-08,0.00000000000000e+00,0.00000000000000e+00,1.30166289608273e-03
7.52560000000000e-08,0.00000000000000e+00,0.00000000000000e+00,1.94922663124542e-04
7.53200000000000e-08,0.00000000000000e+00,0.00000000000000e+00,-6.73560862546677e-04
7.54480000000000e-08,0.00000000000000e+00,0.00000000000000e+00,-1.09489633181872e-04
7.56265784944388e-08,0.00000000000000e+00,0.00000000000000e+00,-1.15307104761597e-05
7.59837354833163e-08,0.00000000000000e+00,0.00000000000000e+00,7.42042066085372e-05
7.66980494610715e-08,0.00000000000000e+00,0.00000000000000e+00,1.59598183029457e-05
7.81266774165818e-08,0.00000000000000e+00,0.00000000000000e+00,6.62040439709018e-05
8.09839333276024e-08,0.00000000000000e+00,0.00000000000000e+00,1.93967015541608e-05
8.47839333276024e-08,0.00000000000000e+00,0.00000000000000e+00,6.43453950478750e-05
8.50000000000000e-08,0.00000000000000e+00,0.00000000000000e+00,3.01344949395557e-05
8.50100000000000e-08,7.49999999999858e-02,0.00000000000000e+00,2.03364866647002e-04
8.50300000000000e-08,2.24999999999957e-01,0.00000000000000e+00,3.76822972390417e-04
8.50700000000000e-08,5.24999999999900e-01,0.00000000000000e+00,3.67545514250098e-04
8.51000000000000e-08,7.49999999999957e-01,0.00000000000000e+00,1.58081270117280e-04
8.51080000000000e-08,7.50000000000000e-01,0.00000000000000e+00,-1.10949056314757e-05
8.51240000000000e-08,7.50000000000000e-01,0.00000000000000e+00,-2.29036018844636e-04
8.51560000000000e-08,7.50000000000000e-01,0.00000000000000e+00,-2.89291004938366e-04
8.52200000000000e-08,7.50000000000000e-01,0.00000000000000e+00,-1.75655535346361e-04
8.53480000000000e-08,7.50000000000000e-01,0.00000000000000e+00,-3.17065971261188e-05
8.56040000000000e-08,7.50000000000000e-01,0.00000000000000e+00,7.83448175434506e-05
8.61159999999999e-08,7.50000000000000e-01,0.00000000000000e+00,7.13911341322579e-05
8.71399999999999e-08,7.50000000000000e-01,0.00000000000000e+00,3.67777075419816e-05
8.88730677406499e-08,7.50000000000000e-01,0.00000000000000e+00,5.90807715140640e-05
9.00000000000000e-08,7.50000000000000e-01,0.00000000000000e+00,3.77943166250810e-05
9.00100000000000e-08,7.50000000000000e-01,7.49999999999858e-02,4.37901902254068e-05
9.00300000000000e-08,7.50000000000000e-01,2.24999999999957e-01,4.65601677511612e-05
9.00700000000000e-08,7.50000000000000e-01,5.24999999999900e-01,4.22306630173813e-05
9.01000000000000e-08,7.50000000000000e-01,7.49999999999957e-01,4.18923284261352e-05
9.01080000000000e-08,7.50000000000000e-01,7.50000000000000e-01,4.10754077455611e-05
9.01240000000000e-08,7.50000000000000e-01,7.50000000000000e-01,4.31245365685590e-05
9.01560000000000e-08,7.50000000000000e-01,7.50000000000000e-01,4.61557776409716e-05
9.02200000000000e-08,7.50000000000000e-01,7.50000000000000e-01,4.76094929872939e-05
9.03480000000000e-08,7.50000000000000e-01,7.50000000000000e-01,4.63385786248771e-05
9.06040000000000e-08,7.50000000000000e-01,7.50000000000000e-01,4.77589922027108e-05
9.11040492110797e-08,7.50000000000000e-01,7.50000000000000e-01,4.58064787673684e-05
9.21004964610708e-08,7.50000000000000e-01,7.50000000000000e-01,4.63720606467474e-05
9.40933909610530e-08,7.50000000000000e-01,7.50000000000000e-01,4.48861491719865e-05
9.51000000000000e-08,7.50000000000000e-01,7.50000000000000e-01,4.52145156539241e-05
9.51100000000000e-08,6.75000000000076e-01,7.50000000000000e-01,-8.39325428196591e-05
9.51300000000000e-08,5.25000000000105e-01,7.50000000000000e-01,-2.55054887021183e-04
9.51700000000000e-08,2.25000000000162e-01,7.50000000000000e-01,1.28861101260980e-04
9.52000000000000e-08,1.05027098129540e-13,7.50000000000000e-01,9.76458634618316e-04
9.52080000000000e-08,0.00000000000000e+00,7.50000000000000e-01,1.23024105752516e-03
9.52240000000000e-08,0.00000000000000e+00,7.50000000000000e-01,1.29386542403792e-03
9.52560000000000e-08,0.00000000000000e+00,7.50000000000000e-01,2.00489847657068e-04
9.53200000000000e-08,0.00000000000000e+00,7.50000000000000e-01,-6.74408170649385e-04
9.54480000000000e-08,0.00000000000000e+00,7.50000000000000e-01,-8.78655345562529e-05
9.56279250243454e-08,0.00000000000000e+00,7.50000000000000e-01,3.26983427831329e-06
9.59877750730363e-08,0.00000000000000e+00,7.50000000000000e-01,-9.11081597359253e-05
9.64467834473617e-08,0.00000000000000e+00,7.50000000000000e-01,2.64972869136876e-04
9.73648001960127e-08,0.00000000000000e+00,7.50000000000000e-01,-1.42010842661501e-04
9.82746774528867e-08,0.00000000000000e+00,7.50000000000000e-01,1.94131934217533e-04
1.00094431966635e-07,0.00000000000000e+00,7.50000000000000e-01,-9.60947124986865e-05
1.03733940994131e-07,0.00000000000000e+00,7.50000000000000e-01,1.74569343082115e-04
1.05000000000000e-07,0.00000000000000e+00,7.50000000000000e-01,-7.41809920470383e-05
1.05010000000000e-07,7.49999999999858e-02,7.50000000000000e-01,1.66685199094990e-04
1.05030000000000e-07,2.24999999999957e-01,7.50000000000000e-01,5.28169153157815e-04
1.05070000000000e-07,5.24999999999900e-01,7.50000000000000e-01,1.09263946669735e-03
1.05100000000000e-07,7.49999999999957e-01,7.50000000000000e-01,1.10688377714430e-03
1.05108000000000e-07,7.50000000000000e-01,7.50000000000000e-01,7.58966088034538e-04
1.05124000000000e-07,7.50000000000000e-01,7.50000000000000e-01,-2.75940691200627e-05
1.05156000000000e-07,7.50000000000000e-01,7.50000000000000e-01,-1.83513648653071e-03
1.05220000000000e-07,7.50000000000000e-01,7.50000000000000e-01,-4.96125688722895e-03
1.05348000000000e-07,7.50000000000000e-01,7.50000000000000e-01,1.97915987573707e-03
1.05604000000000e-07,7.50000000000000e-01,7.50000000000000e-01,4.48610485288722e-01
1.06116000000000e-07,7.50000000000000e-01,7.50000000000000e-01,7.64210763105345e-01
1.06646447903952e-07,7.50000000000000e-01,7.50000000000000e-01,7.39754860565726e-01
1.07707343711856e-07,7.50000000000000e-01,7.50000000000000e-01,7.59625519187446e-01
1.09012625297021e-07,7.50000000000000e-01,7.50000000000000e-01,7.40371339017130e-01
1.11132783853991e-07,7.50000000000000e-01,7.50000000000000e-01,7.59321674925123e-01
1.14932783853991e-07,7.50000000000000e-01,7.50000000000000e-01,7.40585668723359e-01
1.15100000000000e-07,7.50000000000000e-01,7.50000000000000e-01,7.57848191979347e-01
1.15110000000000e-07,6.75000000000076e-01,7.50000000000000e-01,7.52987306620577e-01
1.15130000000000e-07,5.25000000000105e-01,7.50000000000000e-01,7.49233684589217e-01
1.15170000000000e-07,2.25000000000162e-01,7.50000000000000e-01,7.52293801207595e-01
1.15200000000000e-07,1.05027098129540e-13,7.50000000000000e-01,7.55231898004230e-01
1.15208000000000e-07,0.00000000000000e+00,7.50000000000000e-01,7.55104364693007e-01
1.15224000000000e-07,0.00000000000000e+00,7.50000000000000e-01,7.51610062565307e-01
1.15256000000000e-07,0.00000000000000e+00,7.50000000000000e-01,7.38759020674272e-01
1.15320000000000e-07,0.00000000000000e+00,7.50000000000000e-01,7.37200074899458e-01
1.15448000000000e-07,0.00000000000000e+00,7.50000000000000e-01,7.50813712718921e-01
1.15644751638897e-07,0.00000000000000e+00,7.50000000000000e-01,7.48030483013348e-01
1.15966297189006e-07,0.00000000000000e+00,7.50000000000000e-01,7.50862679779433e-01
1.16609388289222e-07,0.00000000000000e+00,7.50000000000000e-01,7.48790942157228e-01
1.17895570489656e-07,0.00000000000000e+00,7.50000000000000e-01,7.50927347586187e-01
1.20467934890524e-07,0.00000000000000e+00,7.50000000000000e-01,7.48968767175121e-01
1.24267934890524e-07,0.00000000000000e+00,7.50000000000000e-01,7.50937665955669e-01
1.25000000000000e-07,0.00000000000000e+00,7.50000000000000e-01,7.49068258222008e-01
1.25010000000000e-07,7.49999999998865e-02,7.50000000000000e-01,7.49564317920522e-01
1.25030000000000e-07,2.24999999999858e-01,7.50000000000000e-01,7.50084246804714e-01
1.25070000000000e-07,5.24999999999801e-01,7.50000000000000e-01,7.50198070855026e-01
1.25100000000000e-07,7.49999999999858e-01,7.50000000000000e-01,7.50070761908405e-01
1.25108000000000e-07,7.50000000000000e-01,6.89999999999932e-01,7.49886518963484e-01
1.25124000000000e-07,7.50000000000000e-01,5.69999999999994e-01,7.49594289925111e-01
1.25156000000000e-07,7.50000000000000e-01,3.29999999999921e-01,7.49286978447396e-01
1.25200000000000e-07,7.50000000000000e-01,0.00000000000000e+00,7.49142746003325e-01
1.25206400000000e-07,7.50000000000000e-01,0.00000000000000e+00,7.49129504940642e-01
1.25219200000000e-07,7.50000000000000e-01,0.00000000000000e+00,7.49098848528666e-01
1.25244800000000e-07,7.50000000000000e-01,0.00000000000000e+00,7.49092754484295e-01
1.25296000000000e-07,7.50000000000000e-01,0.00000000000000e+00,7.49205858238630e-01
1.25398400000000e-07,7.50000000000000e-01,0.00000000000000e+00,7.50331421134805e-01
1.25574696001045e-07,7.50000000000000e-01,0.00000000000000e+00,7.50851002583846e-01
1.25838623828379e-07,7.50000000000000e-01,0.00000000000000e+00,7.59912032129025e-01
1.26257192793106e-07,7.50000000000000e-01,0.00000000000000e+00,2.90560771935738e-01
1.26827243240553e-07,7.50000000000000e-01,0.00000000000000e+00,-6.80538899587927e-02
1.27713047888730e-07,7.50000000000000e-01,0.00000000000000e+00,4.78025806579394e-02
1.28772867210608e-07,7.50000000000000e-01,0.00000000000000e+00,-2.98192361296264e-02
1.30366912189828e-07,7.50000000000000e-01,0.00000000000000e+00,2.47262626889869e-02
1.33555002148267e-07,7.50000000000000e-01,0.00000000000000e+00,-2.07329487469940e-02
1.35100000000000e-07,7.49999999999864e-01,0.00000000000000e+00,1.69847977581707e-02
1.35110000000000e-07,6.74999999999778e-01,0.00000000000000e+00,1.45880320395071e-02
1.35130000000000e-07,5.24999999999807e-01,0.00000000000000e+00,1.11367461547422e-02
