Time,v(clk),v(data),v(out)
1.00000000000000e-08,7.50000000000000e-01,0.00000000000000e+00,9.60350736355781e-06
1.00100000000000e-08,7.50000000000000e-01,7.49999999999982e-02,1.51347184189354e-05
1.00300000000000e-08,7.50000000000000e-01,2.24999999999995e-01,1.52670547476225e-05
1.00700000000000e-08,7.50000000000000e-01,5.24999999999987e-01,3.79238152896366e-06
1.01000000000000e-08,7.50000000000000e-01,7.49999999999994e-01,-2.07944576892383e-06
1.01080000000000e-08,7.50000000000000e-01,7.50000000000000e-01,-3.76079811202634e-06
1.01240000000000e-08,7.50000000000000e-01,7.50000000000000e-01,-1.97010573649292e-06
1.01560000000000e-08,7.50000000000000e-01,7.50000000000000e-01,6.33101256014568e-06
1.02200000000000e-08,7.50000000000000e-01,7.50000000000000e-01,1.05389358438235e-05
1.03480000000000e-08,7.50000000000000e-01,7.50000000000000e-01,2.56941279270367e-06
1.06040000000000e-08,7.50000000000000e-01,7.50000000000000e-01,1.57967501911160e-06
1.10649147910891e-08,7.50000000000000e-01,7.50000000000000e-01,2.86746587132777e-06
1.19867443732672e-08,7.50000000000000e-01,7.50000000000000e-01,1.73401655050726e-06
1.38304035376234e-08,7.50000000000000e-01,7.50000000000000e-01,2.46230519049609e-06
1.51000000000000e-08,7.50000000000000e-01,7.50000000000000e-01,1.58591812257115e-06
1.51100000000000e-08,6.74999999999989e-01,7.50000000000000e-01,-1.50118189904763e-04
1.51300000000000e-08,5.24999999999993e-01,7.50000000000000e-01,-3.59889676841099e-04
1.51700000000000e-08,2.25000000000000e-01,7.50000000000000e-01,-1.66911222053090e-04
1.52000000000000e-08,0.00000000000000e+00,7.50000000000000e-01,5.91825737894042e-04
1.52080000000000e-08,0.00000000000000e+00,7.50000000000000e-01,8.94688848502648e-04
1.52240000000000e-08,0.00000000000000e+00,7.50000000000000e-01,1.21732799577744e-03
1.52560000000000e-08,0.00000000000000e+00,7.50000000000000e-01,9.65505553690682e-04
1.53200000000000e-08,0.00000000000000e+00,7.50000000000000e-01,-3.63902977881581e-04
1.54480000000000e-08,0.00000000000000e+00,7.50000000000000e-01,-4.82586851028498e-04
1.57040000000000e-08,0.00000000000000e+00,7.50000000000000e-01,1.68759105469408e-04
1.60223764593793e-08,0.00000000000000e+00,7.50000000000000e-01,-2.79290326729145e-04
1.65115681080771e-08,0.00000000000000e+00,7.50000000000000e-01,4.49959773453124e-04
1.74899514054727e-08,0.00000000000000e+00,7.50000000000000e-01,-4.61458218759784e-04
1.83879051966567e-08,0.00000000000000e+00,7.50000000000000e-01,4.47045338804852e-04
2.01838127790246e-08,0.00000000000000e+00,7.50000000000000e-01,-4.32762154828436e-04
2.30612856622433e-08,0.00000000000000e+00,7.50000000000000e-01,4.21612514287973e-04
2.50000000000000e-08,0.00000000000000e+00,7.50000000000000e-01,-4.03733197807871e-04
2.50100000000000e-08,7.49999999999858e-02,7.50000000000000e-01,-8.60051669965695e-05
2.50300000000000e-08,2.25000000000007e-01,7.50000000000000e-01,4.27979575387955e-04
2.50700000000000e-08,5.25000000000000e-01,7.50000000000000e-01,1.03212588619850e-03
2.51000000000000e-08,7.50000000000000e-01,7.50000000000000e-01,3.76884595023774e-04
2.51080000000000e-08,7.50000000000000e-01,7.50000000000000e-01,-2.89428600310768e-04
2.51240000000000e-08,7.50000000000000e-01,7.50000000000000e-01,-1.69027622489004e-03
2.51560000000000e-08,7.50000000000000e-01,7.50000000000000e-01,-4.31258013945747e-03
2.52200000000000e-08,7.50000000000000e-01,7.50000000000000e-01,-7.51894610321512e-03
2.53480000000000e-08,7.50000000000000e-01,7.50000000000000e-01,3.30443178910103e-02
2.56040000000000e-08,7.50000000000000e-01,7.50000000000000e-01,6.06940955591154e-01
2.60628581761300e-08,7.50000000000000e-01,7.50000000000000e-01,7.76012782571060e-01
2.65311585787949e-08,7.50000000000000e-01,7.50000000000000e-01,7.26710498956224e-01
2.74677593841247e-08,7.50000000000000e-01,7.50000000000000e-01,7.71746920641516e-01
2.87382318231933e-08,7.50000000000000e-01,7.50000000000000e-01,7.28324437311353e-01
3.01000000000000e-08,7.50000000000000e-01,7.50000000000000e-01,7.70260665023649e-01
3.01100000000000e-08,7.50000000000000e-01,6.75000000000039e-01,7.60443536261363e-01
3.01300000000000e-08,7.50000000000000e-01,5.25000000000018e-01,7.50316839267186e-01
3.01700000000000e-08,7.50000000000000e-01,2.25000000000025e-01,7.49861652012586e-01
3.02000000000000e-08,7.50000000000000e-01,1.80966353013901e-14,7.50002878191525e-01
3.02080000000000e-08,7.50000000000000e-01,0.00000000000000e+00,7.49992932912513e-01
3.02240000000000e-08,7.50000000000000e-01,0.00000000000000e+00,7.49968196501120e-01
3.02560000000000e-08,7.50000000000000e-01,0.00000000000000e+00,7.49937832276191e-01
3.03200000000000e-08,7.50000000000000e-01,0.00000000000000e+00,7.49934586907175e-01
3.04480000000000e-08,7.50000000000000e-01,0.00000000000000e+00,7.50023943500779e-01
3.06610858426972e-08,7.50000000000000e-01,0.00000000000000e+00,7.49959972442708e-01
3.09924599846470e-08,7.50000000000000e-01,0.00000000000000e+00,7.49998802758050e-01
3.14906566415906e-08,7.50000000000000e-01,0.00000000000000e+00,7.49975499209978e-01
3.24870499554777e-08,7.50000000000000e-01,0.00000000000000e+00,7.49997014799399e-01
3.44798365832520e-08,7.50000000000000e-01,0.00000000000000e+00,7.49980194357016e-01
3.51000000000000e-08,7.49999999999963e-01,0.00000000000000e+00,7.49997506280777e-01
3.51100000000000e-08,6.74999999999977e-01,0.00000000000000e+00,7.49873314550773e-01
3.51300000000000e-08,5.24999999999956e-01,0.00000000000000e+00,7.49746717023250e-01
3.51700000000000e-08,2.24999999999963e-01,0.00000000000000e+00,7.51292882261516e-01
3.52000000000000e-08,0.00000000000000e+00,0.00000000000000e+00,7.54653803589153e-01
3.52080000000000e-08,0.00000000000000e+00,0.00000000000000e+00,7.55248861767310e-01
3.52240000000000e-08,0.00000000000000e+00,0.00000000000000e+00,7.54822540111930e-01
3.52560000000000e-08,0.00000000000000e+00,0.00000000000000e+00,7.46445109234521e-01
3.53200000000000e-08,0.00000000000000e+00,0.00000000000000e+00,7.29145218921772e-01
3.54480000000000e-08,0.00000000000000e+00,0.00000000000000e+00,7.41054206853083e-01
3.56933764854222e-08,0.00000000000000e+00,0.00000000000000e+00,7.53249807440949e-01
3.59932676147804e-08,0.00000000000000e+00,0.00000000000000e+00,7.46691388449415e-01
3.65930498734969e-08,0.00000000000000e+00,0.00000000000000e+00,7.52262177723829e-01
3.73225455174879e-08,0.00000000000000e+00,0.00000000000000e+00,7.47687278284941e-01
3.87815368054699e-08,0.00000000000000e+00,0.00000000000000e+00,7.51957427340615e-01
3.91000000000000e-08,0.00000000000000e+00,0.00000000000000e+00,7.48397958865578e-01
3.93917982575964e-08,0.00000000000000e+00,0.00000000000000e+00,7.49818254376701e-01
3.99753947727892e-08,0.00000000000000e+00,0.00000000000000e+00,7.50039631308713e-01
4.11425878031749e-08,0.00000000000000e+00,0.00000000000000e+00,7.49858950554992e-01
4.34769738639462e-08,0.00000000000000e+00,0.00000000000000e+00,7.50050840838382e-01
4.50000000000000e-08,0.00000000000000e+00,0.00000000000000e+00,7.49884708427674e-01
4.50100000000000e-08,7.49999999999858e-02,0.00000000000000e+00,7.50046492503126e-01
4.50300000000000e-08,2.25000000000007e-01,0.00000000000000e+00,7.50186376623727e-01
4.50700000000000e-08,5.25000000000000e-01,0.00000000000000e+00,7.50081540336017e-01
4.51000000000000e-08,7.50000000000000e-01,0.00000000000000e+00,7.49852269631881e-01
4.51080000000000e-08,7.50000000000000e-01,0.00000000000000e+00,7.49725599400550e-01
4.51240000000000e-08,7.50000000000000e-01,0.00000000000000e+00,7.49596005411808e-01
4.51560000000000e-08,7.50000000000000e-01,0.00000000000000e+00,7.49591509037840e-01
4.52200000000000e-08,7.50000000000000e-01,0.00000000000000e+00,7.49775109762701e-01
4.53480000000000e-08,7.50000000000000e-01,0.00000000000000e+00,7.52562044502233e-01
4.56040000000000e-08,7.50000000000000e-01,0.00000000000000e+00,5.41220976880098e-01
4.61160000000000e-08,7.50000000000000e-01,0.00000000000000e+00,-1.87256549082237e-02
4.65894339088725e-08,7.50000000000000e-01,0.00000000000000e+00,9.35440778811323e-03
4.75363017266175e-08,7.50000000000000e-01,0.00000000000000e+00,-4.46722356004491e-03
4.85889202679008e-08,7.50000000000000e-01,0.00000000000000e+00,3.06035346236688e-03
5.00000000000000e-08,7.50000000000000e-01,0.00000000000000e+00,-8.54593183666374e-04
5.00100000000000e-08,7.50000000000000e-01,7.49999999999858e-02,-3.13073023329186e-03
5.00300000000000e-08,7.50000000000000e-01,2.24999999999957e-01,-4.54870322430755e-03
5.00700000000000e-08,7.50000000000000e-01,5.25000000000000e-01,-2.39838557656943e-03
5.01000000000000e-08,7.50000000000000e-01,7.50000000000000e-01,-1.55792164025356e-03
5.01080000000000e-08,7.50000000000000e-01,7.50000000000000e-01,-1.37163204178496e-03
5.01240000000000e-08,7.50000000000000e-01,7.50000000000000e-01,-1.05328698334033e-03
5.01560000000000e-08,7.50000000000000e-01,7.50000000000000e-01,-6.23258638138058e-04
5.02200000000000e-08,7.50000000000000e-01,7.50000000000000e-01,-2.12682240074799e-04
5.03480000000000e-08,7.50000000000000e-01,7.50000000000000e-01,5.03598856817916e-06
5.06040000000000e-08,7.50000000000000e-01,7.50000000000000e-01,-1.17802434715375e-06
5.10971844677241e-08,7.50000000000000e-01,7.50000000000000e-01,6.94818809456738e-07
5.20835534031721e-08,7.50000000000000e-01,7.50000000000000e-01,-2.32462678290829e-08
5.40562912740683e-08,7.50000000000000e-01,7.50000000000000e-01,1.98748914887435e-07
5.51000000000000e-08,7.50000000000000e-01,7.50000000000000e-01,-2.40330340871286e-08
5.51100000000000e-08,6.75000000000027e-01,7.50000000000000e-01,-1.54751999020417e-04
5.51300000000000e-08,5.25000000000005e-01,7.50000000000000e-01,-3.64956988829199e-04
5.51700000000000e-08,2.25000000000013e-01,7.50000000000000e-01,-1.66595140346490e-04
5.52000000000000e-08,0.00000000000000e+00,7.50000000000000e-01,5.72302422954696e-04
5.52080000000000e-08,0.00000000000000e+00,7.50000000000000e-01,8.64062198888793e-04
5.52240000000000e-08,0.00000000000000e+00,7.50000000000000e-01,1.11764299366279e-03
5.52560000000000e-08,0.00000000000000e+00,7.50000000000000e-01,3.77673322355998e-04
5.53200000000000e-08,0.00000000000000e+00,7.50000000000000e-01,-1.86684850182278e-03
5.54480000000000e-08,0.00000000000000e+00,7.50000000000000e-01,-1.15285997865977e-03
5.57040000000000e-08,0.00000000000000e+00,7.50000000000000e-01,4.84956875150738e-04
5.60222490312967e-08,0.00000000000000e+00,7.50000000000000e-01,-4.66920005363164e-04
5.65115673042498e-08,0.00000000000000e+00,7.50000000000000e-01,5.87268600618543e-04
5.74902038501560e-08,0.00000000000000e+00,7.50000000000000e-01,-5.81660471400526e-04
5.83878950641599e-08,0.00000000000000e+00,7.50000000000000e-01,5.50146956928147e-04
6.01832774921675e-08,0.00000000000000e+00,7.50000000000000e-01,-5.27416626949483e-04
6.30612662280581e-08,0.00000000000000e+00,7.50000000000000e-01,5.12072932360656e-04
6.50000000000000e-08,0.00000000000000e+00,7.50000000000000e-01,-4.89186545696651e-04
6.50100000000000e-08,7.49999999999858e-02,7.50000000000000e-01,-1.38517876707267e-04
6.50300000000000e-08,2.24999999999957e-01,7.50000000000000e-01,4.06535198067826e-04
6.50700000000000e-08,5.24999999999900e-01,7.50000000000000e-01,1.02233535951046e-03
6.51000000000000e-08,7.49999999999957e-01,7.50000000000000e-01,3.73425180542550e-04
6.51080000000000e-08,7.50000000000000e-01,7.50000000000000e-01,-2.92772403509833e-04
6.51240000000000e-08,7.50000000000000e-01,7.50000000000000e-01,-1.69302458829269e-03
6.51560000000000e-08,7.50000000000000e-01,7.50000000000000e-01,-4.31400200055312e-03
6.52200000000000e-08,7.50000000000000e-01,7.50000000000000e-01,-7.51934924192584e-03
6.53480000000000e-08,7.50000000000000e-01,7.50000000000000e-01,3.30456884911107e-02
6.56040000000000e-08,7.50000000000000e-01,7.50000000000000e-01,6.06942733048266e-01
6.60628585516237e-08,7.50000000000000e-01,7.50000000000000e-01,7.76012692683117e-01
6.65311592177235e-08,7.50000000000000e-01,7.50000000000000e-01,7.26710544834783e-01
6.74677605499231e-08,7.50000000000000e-01,7.50000000000000e-01,7.71746869796612e-01
6.87382356479045e-08,7.50000000000000e-01,7.50000000000000e-01,7.28324482517573e-01
7.01000000000000e-08,7.50000000000000e-01,7.50000000000000e-01,7.70260618160620e-01
7.01100000000000e-08,7.50000000000000e-01,6.75000000000014e-01,7.60443512630140e-01
7.01300000000000e-08,7.50000000000000e-01,5.25000000000043e-01,7.50316838030254e-01
7.01700000000000e-08,7.50000000000000e-01,2.25000000000100e-01,7.49861653904755e-01
7.02000000000000e-08,7.50000000000000e-01,4.29656310529936e-14,7.50002877629601e-01
7.02080000000000e-08,7.50000000000000e-01,0.00000000000000e+00,7.49992931896101e-01
7.02240000000000e-08,7.50000000000000e-01,0.00000000000000e+00,7.49968194927735e-01
7.02560000000000e-08,7.50000000000000e-01,0.00000000000000e+00,7.49937831219575e-01
7.03200000000000e-08,7.50000000000000e-01,0.00000000000000e+00,7.49934586652002e-01
7.04480000000000e-08,7.50000000000000e-01,0.00000000000000e+00,7.50023943143849e-01
7.06610860890366e-08,7.50000000000000e-01,0.00000000000000e+00,7.49959972267848e-01
7.09924601128419e-08,7.50000000000000e-01,0.00000000000000e+00,7.49998803472506e-01
7.14906578298341e-08,7.50000000000000e-01,0.00000000000000e+00,7.49975498571197e-01
7.24870532638185e-08,7.50000000000000e-01,0.00000000000000e+00,7.49997014967020e-01
7.44798441317874e-08,7.50000000000000e-01,0.00000000000000e+00,7.49980194122861e-01
7.51000000000000e-08,7.50000000000000e-01,0.00000000000000e+00,7.49997506148532e-01
7.51100000000000e-08,6.75000000000076e-01,0.00000000000000e+00,7.49873312168932e-01
7.51300000000000e-08,5.25000000000105e-01,0.00000000000000e+00,7.49746713452764e-01
7.51700000000000e-08,2.25000000000162e-01,0.00000000000000e+00,7.51292881682789e-01
7.52000000000000e-08,1.05027098129540e-13,0.00000000000000e+00,7.54653801974625e-01
7.52080000000000e-08,0.00000000000000e+00,0.00000000000000e+00,7.55248857741071e-01
7.52240000000000e-08,0.00000000000000e+00,0.00000000000000e+00,7.54822530313807e-01
7.52560000000000e-08,0.00000000000000e+00,0.00000000000000e+00,7.46445092990644e-01
7.53200000000000e-08,0.00000000000000e+00,0.00000000000000e+00,7.29145215682088e-01
7.54480000000000e-08,0.00000000000000e+00,0.00000000000000e+00,7.41054213844041e-01
7.56933764821202e-08,0.00000000000000e+00,0.00000000000000e+00,7.53249802744685e-01
7.59932676110982e-08,0.00000000000000e+00,0.00000000000000e+00,7.46691392077196e-01
7.65930498690541e-08,0.00000000000000e+00,0.00000000000000e+00,7.52262174552429e-01
7.73225455111470e-08,0.00000000000000e+00,0.00000000000000e+00,7.47687281150237e-01
7.81000000000000e-08,0.00000000000000e+00,0.00000000000000e+00,7.51830650512864e-01
7.82458991284186e-08,0.00000000000000e+00,0.00000000000000e+00,7.50161496443642e-01
7.85376973852557e-08,0.00000000000000e+00,0.00000000000000e+00,7.49729834118044e-01
7.91212938989300e-08,0.00000000000000e+00,0.00000000000000e+00,7.50084676822137e-01
8.02884869262786e-08,0.00000000000000e+00,0.00000000000000e+00,7.49797224515720e-01
8.26228729809757e-08,0.00000000000000e+00,0.00000000000000e+00,7.50098750321558e-01
8.50000000000000e-08,0.00000000000000e+00,0.00000000000000e+00,7.49832923495212e-01
8.50100000000000e-08,7.49999999999858e-02,0.00000000000000e+00,7.50001630036867e-01
8.50300000000000e-08,2.24999999999957e-01,0.00000000000000e+00,7.50160292324983e-01
8.50700000000000e-08,5.24999999999900e-01,0.00000000000000e+00,7.50077486956157e-01
8.51000000000000e-08,7.49999999999957e-01,0.00000000000000e+00,7.49855667069723e-01
8.51080000000000e-08,7.50000000000000e-01,0.00000000000000e+00,7.49729003624336e-01
8.51240000000000e-08,7.50000000000000e-01,0.00000000000000e+00,7.49599410939238e-01
8.51560000000000e-08,7.50000000000000e-01,0.00000000000000e+00,7.49594374306833e-01
8.52200000000000e-08,7.50000000000000e-01,0.00000000000000e+00,7.49776233816128e-01
8.53480000000000e-08,7.50000000000000e-01,0.00000000000000e+00,7.52563707437619e-01
8.56040000000000e-08,7.50000000000000e-01,0.00000000000000e+00,5.41152387476683e-01
8.61159999999999e-08,7.50000000000000e-01,0.00000000000000e+00,-1.87533169281041e-02
8.65894715288663e-08,7.50000000000000e-01,0.00000000000000e+00,9.37274228891291e-03
8.75364145865990e-08,7.50000000000000e-01,0.00000000000000e+00,-4.48093039955840e-03
8.85890112675646e-08,7.50000000000000e-01,0.00000000000000e+00,3.07149123844668e-03
9.00000000000000e-08,7.50000000000000e-01,0.00000000000000e+00,-8.63822564292221e-04
9.00100000000000e-08,7.50000000000000e-01,7.49999999999858e-02,-3.13822458457637e-03
9.00300000000000e-08,7.50000000000000e-01,2.24999999999957e-01,-4.55373747984873e-03
9.00700000000000e-08,7.50000000000000e-01,5.24999999999900e-01,-2.40113135877640e-03
9.01000000000000e-08,7.50000000000000e-01,7.49999999999957e-01,-1.55958426934706e-03
9.01080000000000e-08,7.50000000000000e-01,7.50000000000000e-01,-1.37311848851943e-03
9.01240000000000e-08,7.50000000000000e-01,7.50000000000000e-01,-1.05445054969024e-03
9.01560000000000e-08,7.50000000000000e-01,7.50000000000000e-01,-6.23945153466698e-04
9.02200000000000e-08,7.50000000000000e-01,7.50000000000000e-01,-2.12917837749876e-04
9.03480000000000e-08,7.50000000000000e-01,7.50000000000000e-01,5.02664339465525e-06
9.06040000000000e-08,7.50000000000000e-01,7.50000000000000e-01,-1.17417889516913e-06
9.10973133513602e-08,7.50000000000000e-01,7.50000000000000e-01,6.93068259918078e-07
9.20839400540808e-08,7.50000000000000e-01,7.50000000000000e-01,-2.12786588731084e-08
9.40571934595218e-08,7.50000000000000e-01,7.50000000000000e-01,1.97817703822580e-07
9.51000000000000e-08,7.50000000000000e-01,7.50000000000000e-01,-2.25973304339433e-08
9.51100000000000e-08,6.75000000000076e-01,7.50000000000000e-01,-1.54743573327634e-04
9.51300000000000e-08,5.25000000000105e-01,7.50000000000000e-01,-3.64943644950252e-04
9.51700000000000e-08,2.25000000000162e-01,7.50000000000000e-01,-1.66580989925086e-04
9.52000000000000e-08,1.05027098129540e-13,7.50000000000000e-01,5.72310816899763e-04
9.52080000000000e-08,0.00000000000000e+00,7.50000000000000e-01,8.64074883378835e-04
9.52240000000000e-08,0.00000000000000e+00,7.50000000000000e-01,1.11767580143075e-03
9.52560000000000e-08,0.00000000000000e+00,7.50000000000000e-01,3.77784621010055e-04
9.53200000000000e-08,0.00000000000000e+00,7.50000000000000e-01,-1.86639282122988e-03
9.54480000000000e-08,0.00000000000000e+00,7.50000000000000e-01,-1.15256489074763e-03
9.57040000000000e-08,0.00000000000000e+00,7.50000000000000e-01,4.84833501858219e-04
9.60222493909579e-08,0.00000000000000e+00,7.50000000000000e-01,-4.66849607064453e-04
9.65115674904475e-08,0.00000000000000e+00,7.50000000000000e-01,5.87216797274127e-04
9.74902036894267e-08,0.00000000000000e+00,7.50000000000000e-01,-5.81614567694923e-04
9.83878953140483e-08,0.00000000000000e+00,7.50000000000000e-01,5.50106767398969e-04
1.00183278563292e-07,0.00000000000000e+00,7.50000000000000e-01,-5.27378665678610e-04
1.03061266553026e-07,0.00000000000000e+00,7.50000000000000e-01,5.12036415541942e-04
1.05000000000000e-07,0.00000000000000e+00,7.50000000000000e-01,-4.89151662118233e-04
1.05010000000000e-07,7.49999999999858e-02,7.50000000000000e-01,-1.38499560429259e-04
1.05030000000000e-07,2.24999999999957e-01,7.50000000000000e-01,4.06539959703953e-04
1.05070000000000e-07,5.24999999999900e-01,7.50000000000000e-01,1.02233972016462e-03
1.05100000000000e-07,7.49999999999957e-01,7.50000000000000e-01,3.73426709382244e-04
1.05108000000000e-07,7.50000000000000e-01,7.50000000000000e-01,-2.92770714860668e-04
1.05124000000000e-07,7.50000000000000e-01,7.50000000000000e-01,-1.69302292264384e-03
1.05156000000000e-07,7.50000000000000e-01,7.50000000000000e-01,-4.31400094091353e-03
1.05220000000000e-07,7.50000000000000e-01,7.50000000000000e-01,-7.51934883789486e-03
1.05348000000000e-07,7.50000000000000e-01,7.50000000000000e-01,3.30456848627571e-02
1.05604000000000e-07,7.50000000000000e-01,7.50000000000000e-01,6.06942728443364e-01
1.06062858550751e-07,7.50000000000000e-01,7.50000000000000e-01,7.76012692983556e-01
1.06531159216248e-07,7.50000000000000e-01,7.50000000000000e-01,7.26710544659125e-01
