Time,v(clk),v(data),v(out),v(reset)
1.00000000000000e-08,7.50000000000000e-01,0.00000000000000e+00,2.24659295459716e-05,0.00000000000000e+00
1.00100000000000e-08,7.50000000000000e-01,7.49999999999982e-02,1.81380159602340e-05,0.00000000000000e+00
1.00300000000000e-08,7.50000000000000e-01,2.24999999999995e-01,1.13141234358294e-05,0.00000000000000e+00
1.00700000000000e-08,7.50000000000000e-01,5.24999999999987e-01,6.55405436640610e-06,0.00000000000000e+00
1.01000000000000e-08,7.50000000000000e-01,7.49999999999994e-01,5.98794808387426e-06,0.00000000000000e+00
1.01080000000000e-08,7.50000000000000e-01,7.50000000000000e-01,6.01593887510077e-06,0.00000000000000e+00
1.01240000000000e-08,7.50000000000000e-01,7.50000000000000e-01,7.81705691331458e-06,0.00000000000000e+00
1.01560000000000e-08,7.50000000000000e-01,7.50000000000000e-01,8.98418537277623e-06,0.00000000000000e+00
1.02200000000000e-08,7.50000000000000e-01,7.50000000000000e-01,5.86173914174370e-06,0.00000000000000e+00
1.03480000000000e-08,7.50000000000000e-01,7.50000000000000e-01,6.57225926575800e-06,0.00000000000000e+00
1.06040000000000e-08,7.50000000000000e-01,7.50000000000000e-01,5.23923985826583e-06,0.00000000000000e+00
1.11160000000000e-08,7.50000000000000e-01,7.50000000000000e-01,6.33599924569281e-06,0.00000000000000e+00
1.21400000000000e-08,7.50000000000000e-01,7.50000000000000e-01,4.70472395376099e-06,0.00000000000000e+00
1.41880000000000e-08,7.50000000000000e-01,7.50000000000000e-01,5.56454664932260e-06,0.00000000000000e+00
1.51000000000000e-08,7.50000000000000e-01,7.50000000000000e-01,4.11729261474980e-06,0.00000000000000e+00
1.51100000000000e-08,6.74999999999989e-01,7.50000000000000e-01,3.46722474340991e-04,7.50000000000106e-02
1.51300000000000e-08,5.24999999999993e-01,7.50000000000000e-01,5.44054288749360e-04,2.25000000000007e-01
1.51700000000000e-08,2.25000000000000e-01,7.50000000000000e-01,4.24076282492067e-04,5.25000000000000e-01
1.52000000000000e-08,0.00000000000000e+00,7.50000000000000e-01,6.66833822046534e-04,7.50000000000000e-01
1.52080000000000e-08,0.00000000000000e+00,7.50000000000000e-01,6.02697952423653e-04,7.50000000000000e-01
1.52240000000000e-08,0.00000000000000e+00,7.50000000000000e-01,4.53381377930079e-04,7.50000000000000e-01
1.52560000000000e-08,0.00000000000000e+00,7.50000000000000e-01,-1.50293599661649e-04,7.50000000000000e-01
1.53200000000000e-08,0.00000000000000e+00,7.50000000000000e-01,-8.53599890163828e-04,7.50000000000000e-01
1.54480000000000e-08,0.00000000000000e+00,7.50000000000000e-01,1.50042113602554e-04,7.50000000000000e-01
1.56493725527704e-08,0.00000000000000e+00,7.50000000000000e-01,-3.10802494237553e-04,7.50000000000000e-01
1.59514834206223e-08,0.00000000000000e+00,7.50000000000000e-01,1.74513042157664e-04,7.50000000000000e-01
1.63915897018391e-08,0.00000000000000e+00,7.50000000000000e-01,8.30166092961361e-05,7.50000000000000e-01
1.70347957679478e-08,0.00000000000000e+00,7.50000000000000e-01,-1.66208501687842e-04,7.50000000000000e-01
1.81310111000391e-08,0.00000000000000e+00,7.50000000000000e-01,2.03248960916173e-04,7.50000000000000e-01
2.03234417642217e-08,0.00000000000000e+00,7.50000000000000e-01,-2.07986858329178e-04,7.50000000000000e-01
2.39276388146869e-08,0.00000000000000e+00,7.50000000000000e-01,2.19439043245510e-04,7.50000000000000e-01
2.50000000000000e-08,0.00000000000000e+00,7.50000000000000e-01,-2.26330862339919e-04,7.50000000000000e-01
2.50100000000000e-08,7.49999999999858e-02,7.50000000000000e-01,8.29582781541743e-05,7.50000000000000e-01
2.50300000000000e-08,2.25000000000007e-01,7.50000000000000e-01,5.15264409924818e-04,7.50000000000000e-01
2.50700000000000e-08,5.25000000000000e-01,7.50000000000000e-01,8.94500990892624e-04,7.50000000000000e-01
2.51000000000000e-08,7.50000000000000e-01,7.50000000000000e-01,-2.39060392307422e-04,7.50000000000000e-01
2.51080000000000e-08,7.50000000000000e-01,7.50000000000000e-01,-1.12532796550732e-03,7.50000000000000e-01
2.51240000000000e-08,7.50000000000000e-01,7.50000000000000e-01,-2.91399994430055e-03,7.50000000000000e-01
2.51560000000000e-08,7.50000000000000e-01,7.50000000000000e-01,-5.79504219947509e-03,7.50000000000000e-01
2.52200000000000e-08,7.50000000000000e-01,7.50000000000000e-01,-4.82704809531470e-03,7.50000000000000e-01
2.53480000000000e-08,7.50000000000000e-01,7.50000000000000e-01,2.33591249843135e-01,7.50000000000000e-01
2.56040000000000e-08,7.50000000000000e-01,7.50000000000000e-01,7.39203555542249e-01,7.50000000000000e-01
2.60167983482370e-08,7.50000000000000e-01,7.50000000000000e-01,7.52242983008962e-01,7.50000000000000e-01
2.65632837407902e-08,7.50000000000000e-01,7.50000000000000e-01,7.47968343126360e-01,7.50000000000000e-01
2.73152640876071e-08,7.50000000000000e-01,7.50000000000000e-01,7.51722451627804e-01,7.50000000000000e-01
2.84819187075374e-08,7.50000000000000e-01,7.50000000000000e-01,7.48291065628091e-01,7.50000000000000e-01
3.08152279473979e-08,7.50000000000000e-01,7.50000000000000e-01,7.51597338657249e-01,7.50000000000000e-01
3.46152279473979e-08,7.50000000000000e-01,7.50000000000000e-01,7.48371353943058e-01,7.50000000000000e-01
3.51000000000000e-08,7.49999999999963e-01,7.50000000000000e-01,7.51410491487956e-01,7.50000000000000e-01
3.51100000000000e-08,6.74999999999977e-01,7.50000000000000e-01,7.50652254733293e-01,7.50000000000000e-01
3.51300000000000e-08,5.24999999999956e-01,7.50000000000000e-01,7.49869929736175e-01,7.50000000000000e-01
3.51700000000000e-08,2.24999999999963e-01,7.50000000000000e-01,7.51596367899623e-01,7.50000000000000e-01
3.52000000000000e-08,0.00000000000000e+00,7.50000000000000e-01,7.54866775557374e-01,7.50000000000000e-01
3.52080000000000e-08,0.00000000000000e+00,7.50000000000000e-01,7.54888798565529e-01,7.50000000000000e-01
3.52240000000000e-08,0.00000000000000e+00,7.50000000000000e-01,7.52033746298139e-01,7.50000000000000e-01
3.52560000000000e-08,0.00000000000000e+00,7.50000000000000e-01,7.38377005321980e-01,7.50000000000000e-01
3.53200000000000e-08,0.00000000000000e+00,7.50000000000000e-01,7.31571405801094e-01,7.50000000000000e-01
3.54480000000000e-08,0.00000000000000e+00,7.50000000000000e-01,7.50519670284921e-01,7.50000000000000e-01
3.56720668905434e-08,0.00000000000000e+00,7.50000000000000e-01,7.48480177296798e-01,7.50000000000000e-01
3.59540409207508e-08,0.00000000000000e+00,7.50000000000000e-01,7.50643659323768e-01,7.50000000000000e-01
3.65179889811654e-08,0.00000000000000e+00,7.50000000000000e-01,7.48997446193141e-01,7.50000000000000e-01
3.76458851019947e-08,0.00000000000000e+00,7.50000000000000e-01,7.50713145292925e-01,7.50000000000000e-01
3.99016773436532e-08,0.00000000000000e+00,7.50000000000000e-01,7.49158685165947e-01,7.50000000000000e-01
4.37016773436532e-08,0.00000000000000e+00,7.50000000000000e-01,7.50738105632410e-01,7.50000000000000e-01
4.50000000000000e-08,0.00000000000000e+00,7.50000000000000e-01,7.49217891288599e-01,7.50000000000000e-01
4.50100000000000e-08,7.49999999999858e-02,7.50000000000000e-01,7.49314455742510e-01,6.75000000000014e-01
4.50300000000000e-08,2.25000000000007e-01,7.50000000000000e-01,7.49481909695194e-01,5.24999999999993e-01
4.50700000000000e-08,5.25000000000000e-01,7.50000000000000e-01,7.55414793024386e-01,2.25000000000000e-01
4.51000000000000e-08,7.50000000000000e-01,7.50000000000000e-01,7.71355170855905e-01,0.00000000000000e+00
4.51080000000000e-08,7.50000000000000e-01,7.50000000000000e-01,7.77751685605019e-01,0.00000000000000e+00
4.51240000000000e-08,7.50000000000000e-01,7.50000000000000e-01,7.91780119583909e-01,0.00000000000000e+00
4.51560000000000e-08,7.50000000000000e-01,7.50000000000000e-01,7.78371019736673e-01,0.00000000000000e+00
4.52200000000000e-08,7.50000000000000e-01,7.50000000000000e-01,5.27751529148422e-01,0.00000000000000e+00
4.53480000000000e-08,7.50000000000000e-01,7.50000000000000e-01,8.92971149730731e-02,0.00000000000000e+00
4.55381679695100e-08,7.50000000000000e-01,7.50000000000000e-01,-1.94255841293648e-02,0.00000000000000e+00
4.58300157499124e-08,7.50000000000000e-01,7.50000000000000e-01,8.96791020327614e-03,0.00000000000000e+00
4.63229387968062e-08,7.50000000000000e-01,7.50000000000000e-01,-5.28762637552519e-03,0.00000000000000e+00
4.71533773088673e-08,7.50000000000000e-01,7.50000000000000e-01,3.85423583577378e-03,0.00000000000000e+00
4.84290795502253e-08,7.50000000000000e-01,7.50000000000000e-01,-3.03445886165003e-03,0.00000000000000e+00
5.01000000000000e-08,7.50000000000000e-01,7.49999999999957e-01,2.53787700831172e-03,0.00000000000000e+00
5.03551404482716e-08,7.50000000000000e-01,7.50000000000000e-01,6.74304522169704e-04,0.00000000000000e+00
5.08654213448148e-08,7.50000000000000e-01,7.50000000000000e-01,-4.41466696850547e-04,0.00000000000000e+00
5.18859831379012e-08,7.50000000000000e-01,7.50000000000000e-01,3.65721250701714e-04,0.00000000000000e+00
5.39271067240741e-08,7.50000000000000e-01,7.50000000000000e-01,-3.22938458375432e-04,0.00000000000000e+00
5.51000000000000e-08,7.50000000000000e-01,7.50000000000000e-01,2.74551020981114e-04,0.00000000000000e+00
5.51100000000000e-08,6.75000000000027e-01,7.50000000000000e-01,5.88076256584441e-04,7.49999999999734e-02
5.51300000000000e-08,5.25000000000005e-01,7.50000000000000e-01,7.12722172879945e-04,2.24999999999995e-01
5.51700000000000e-08,2.25000000000013e-01,7.50000000000000e-01,4.89553815395560e-04,5.24999999999987e-01
5.52000000000000e-08,0.00000000000000e+00,7.50000000000000e-01,6.87659793781159e-04,7.50000000000000e-01
5.52080000000000e-08,0.00000000000000e+00,7.50000000000000e-01,5.91463776019180e-04,7.50000000000000e-01
5.52240000000000e-08,0.00000000000000e+00,7.50000000000000e-01,2.42052453816574e-04,7.50000000000000e-01
5.52560000000000e-08,0.00000000000000e+00,7.50000000000000e-01,-1.08042731846877e-03,7.50000000000000e-01
5.53200000000000e-08,0.00000000000000e+00,7.50000000000000e-01,-1.79471711802007e-03,7.50000000000000e-01
5.54480000000000e-08,0.00000000000000e+00,7.50000000000000e-01,2.19828765595877e-04,7.50000000000000e-01
5.56488952822536e-08,0.00000000000000e+00,7.50000000000000e-01,-5.67108817158546e-05,7.50000000000000e-01
5.59522978813024e-08,0.00000000000000e+00,7.50000000000000e-01,-1.12381580100115e-04,7.50000000000000e-01
5.63840295167368e-08,0.00000000000000e+00,7.50000000000000e-01,1.91671280553529e-04,7.50000000000000e-01
5.70434951654018e-08,0.00000000000000e+00,7.50000000000000e-01,-1.90881356192061e-04,7.50000000000000e-01
5.82547808432642e-08,0.00000000000000e+00,7.50000000000000e-01,1.95304134405159e-04,7.50000000000000e-01
6.03303873044859e-08,0.00000000000000e+00,7.50000000000000e-01,-1.85264879773294e-04,7.50000000000000e-01
6.40361025660062e-08,0.00000000000000e+00,7.50000000000000e-01,1.89553235579266e-04,7.50000000000000e-01
6.50000000000000e-08,0.00000000000000e+00,7.50000000000000e-01,-1.72552452066398e-04,7.50000000000000e-01
6.50100000000000e-08,7.49999999999858e-02,7.50000000000000e-01,8.04339636514273e-05,7.50000000000000e-01
6.50300000000000e-08,2.24999999999957e-01,7.50000000000000e-01,4.59200146542937e-04,7.50000000000000e-01
6.50700000000000e-08,5.24999999999900e-01,7.50000000000000e-01,7.80198505242580e-04,7.50000000000000e-01
6.51000000000000e-08,7.49999999999957e-01,7.50000000000000e-01,-6.09265022016844e-04,7.50000000000000e-01
6.51080000000000e-08,7.50000000000000e-01,7.50000000000000e-01,-1.54403187065594e-03,7.50000000000000e-01
6.51240000000000e-08,7.50000000000000e-01,7.50000000000000e-01,-3.35338044973152e-03,7.50000000000000e-01
6.51560000000000e-08,7.50000000000000e-01,7.50000000000000e-01,-6.08345242368036e-03,7.50000000000000e-01
6.52200000000000e-08,7.50000000000000e-01,7.50000000000000e-01,-3.81996639389003e-03,7.50000000000000e-01
6.53480000000000e-08,7.50000000000000e-01,7.50000000000000e-01,2.48586596582963e-01,7.50000000000000e-01
6.56040000000000e-08,7.50000000000000e-01,7.50000000000000e-01,7.42613368264986e-01,7.50000000000000e-01
6.60013482773004e-08,7.50000000000000e-01,7.50000000000000e-01,7.50769028110591e-01,7.50000000000000e-01
6.65597380155857e-08,7.50000000000000e-01,7.50000000000000e-01,7.49423812509789e-01,7.50000000000000e-01
6.72924831036280e-08,7.50000000000000e-01,7.50000000000000e-01,7.50396662536004e-01,7.50000000000000e-01
6.84634368415487e-08,7.50000000000000e-01,7.50000000000000e-01,7.49614732262476e-01,7.50000000000000e-01
7.08053443173901e-08,7.50000000000000e-01,7.50000000000000e-01,7.50327241248500e-01,7.50000000000000e-01
7.46053443173901e-08,7.50000000000000e-01,7.50000000000000e-01,7.49659306773437e-01,7.50000000000000e-01
7.51000000000000e-08,7.50000000000000e-01,7.50000000000000e-01,7.50237136862019e-01,7.50000000000000e-01
7.51100000000000e-08,6.75000000000076e-01,7.50000000000000e-01,7.50133593947449e-01,7.50000000000000e-01
7.51300000000000e-08,5.25000000000105e-01,7.50000000000000e-01,7.49928119626187e-01,7.50000000000000e-01
7.51700000000000e-08,2.25000000000162e-01,7.50000000000000e-01,7.51570255742558e-01,7.50000000000000e-01
7.52000000000000e-08,1.05027098129540e-13,7.50000000000000e-01,7.54883722413320e-01,7.50000000000000e-01
7.52080000000000e-08,0.00000000000000e+00,7.50000000000000e-01,7.54911169414248e-01,7.50000000000000e-01
7.52240000000000e-08,0.00000000000000e+00,7.50000000000000e-01,7.52074263852071e-01,7.50000000000000e-01
7.52560000000000e-08,0.00000000000000e+00,7.50000000000000e-01,7.38426224347714e-01,7.50000000000000e-01
7.53200000000000e-08,0.00000000000000e+00,7.50000000000000e-01,7.31575913871386e-01,7.50000000000000e-01
7.54480000000000e-08,0.00000000000000e+00,7.50000000000000e-01,7.50513784510156e-01,7.50000000000000e-01
7.56720990895737e-08,0.00000000000000e+00,7.50000000000000e-01,7.48484906014501e-01,7.50000000000000e-01
7.59540624158515e-08,0.00000000000000e+00,7.50000000000000e-01,7.50640256311781e-01,7.50000000000000e-01
7.65179890684071e-08,0.00000000000000e+00,7.50000000000000e-01,7.49000573453504e-01,7.50000000000000e-01
7.76458423735183e-08,0.00000000000000e+00,7.50000000000000e-01,7.50710213009571e-01,7.50000000000000e-01
7.99015489837407e-08,0.00000000000000e+00,7.50000000000000e-01,7.49161552684024e-01,7.50000000000000e-01
8.37015489837407e-08,0.00000000000000e+00,7.50000000000000e-01,7.50735295357952e-01,7.50000000000000e-01
8.50000000000000e-08,0.00000000000000e+00,7.50000000000000e-01,7.49220577095002e-01,7.50000000000000e-01
8.50100000000000e-08,7.49999999999858e-02,7.50000000000000e-01,7.49316039338594e-01,6.75000000000014e-01
8.50300000000000e-08,2.24999999999957e-01,7.50000000000000e-01,7.49482220662627e-01,5.25000000000043e-01
8.50700000000000e-08,5.24999999999900e-01,7.50000000000000e-01,7.55414744761372e-01,2.25000000000100e-01
8.51000000000000e-08,7.49999999999957e-01,7.50000000000000e-01,7.71355007628665e-01,4.29656310529936e-14
8.51080000000000e-08,7.50000000000000e-01,7.50000000000000e-01,7.77751484911647e-01,0.00000000000000e+00
8.51240000000000e-08,7.50000000000000e-01,7.50000000000000e-01,7.91779900782740e-01,0.00000000000000e+00
8.51560000000000e-08,7.50000000000000e-01,7.50000000000000e-01,7.78372611877974e-01,0.00000000000000e+00
8.52200000000000e-08,7.50000000000000e-01,7.50000000000000e-01,5.27755485980496e-01,0.00000000000000e+00
8.53480000000000e-08,7.50000000000000e-01,7.50000000000000e-01,8.92985558599090e-02,0.00000000000000e+00
8.55381655564189e-08,7.50000000000000e-01,7.50000000000000e-01,-1.94250641514911e-02,0.00000000000000e+00
8.58304714671184e-08,7.50000000000000e-01,7.50000000000000e-01,8.98032089734256e-03,0.00000000000000e+00
8.63231426371401e-08,7.50000000000000e-01,7.50000000000000e-01,-5.29391774270990e-03,0.00000000000000e+00
8.71543310932236e-08,7.50000000000000e-01,7.50000000000000e-01,3.86040358963888e-03,0.00000000000000e+00
8.84313860811059e-08,7.50000000000000e-01,7.50000000000000e-01,-3.04031801143608e-03,0.00000000000000e+00
9.01000000000000e-08,7.50000000000000e-01,7.49999999999957e-01,2.54244337187975e-03,0.00000000000000e+00
9.03554109975765e-08,7.50000000000000e-01,7.50000000000000e-01,6.74525581552728e-04,0.00000000000000e+00
9.08662329927294e-08,7.50000000000000e-01,7.50000000000000e-01,-4.41828123054867e-04,0.00000000000000e+00
9.18878769830352e-08,7.50000000000000e-01,7.50000000000000e-01,3.66105383026619e-04,0.00000000000000e+00
9.39311649636469e-08,7.50000000000000e-01,7.50000000000000e-01,-3.23325792458949e-04,0.00000000000000e+00
9.51000000000000e-08,7.50000000000000e-01,7.50000000000000e-01,2.74705711977793e-04,0.00000000000000e+00
9.51100000000000e-08,6.75000000000076e-01,7.50000000000000e-01,5.88186090105525e-04,7.49999999999237e-02
9.51300000000000e-08,5.25000000000105e-01,7.50000000000000e-01,7.12786422559217e-04,2.24999999999895e-01
9.51700000000000e-08,2.25000000000162e-01,7.50000000000000e-01,4.89581177940637e-04,5.24999999999838e-01
9.52000000000000e-08,1.05027098129540e-13,7.50000000000000e-01,6.87673619205895e-04,7.49999999999895e-01
9.52080000000000e-08,0.00000000000000e+00,7.50000000000000e-01,5.91472286282702e-04,7.50000000000000e-01
9.52240000000000e-08,0.00000000000000e+00,7.50000000000000e-01,2.42050107670713e-04,7.50000000000000e-01
9.52560000000000e-08,0.00000000000000e+00,7.50000000000000e-01,-1.08044004029935e-03,7.50000000000000e-01
9.53200000000000e-08,0.00000000000000e+00,7.50000000000000e-01,-1.79475982155003e-03,7.50000000000000e-01
9.54480000000000e-08,0.00000000000000e+00,7.50000000000000e-01,2.19845968833253e-04,7.50000000000000e-01
9.56488947495100e-08,0.00000000000000e+00,7.50000000000000e-01,-5.67628847059423e-05,7.50000000000000e-01
9.59522975180199e-08,0.00000000000000e+00,7.50000000000000e-01,-1.12319436829017e-04,7.50000000000000e-01
9.63840430253135e-08,0.00000000000000e+00,7.50000000000000e-01,1.91618367472515e-04,7.50000000000000e-01
9.70434743983091e-08,0.00000000000000e+00,7.50000000000000e-01,-1.90839307537655e-04,7.50000000000000e-01
9.82549266172513e-08,0.00000000000000e+00,7.50000000000000e-01,1.95267350138967e-04,7.50000000000000e-01
1.00330699531317e-07,0.00000000000000e+00,7.50000000000000e-01,-1.85231302136009e-04,7.50000000000000e-01
1.04037042211212e-07,0.00000000000000e+00,7.50000000000000e-01,1.89521745235476e-04,7.50000000000000e-01
1.05000000000000e-07,0.00000000000000e+00,7.50000000000000e-01,-1.72515370700592e-04,7.50000000000000e-01
1.05010000000000e-07,7.49999999999858e-02,7.50000000000000e-01,8.04667206372456e-05,7.50000000000000e-01
1.05030000000000e-07,2.24999999999957e-01,7.50000000000000e-01,4.59220406395067e-04,7.50000000000000e-01
1.05070000000000e-07,5.24999999999900e-01,7.50000000000000e-01,7.80201776349465e-04,7.50000000000000e-01
1.05100000000000e-07,7.49999999999957e-01,7.50000000000000e-01,-6.09263299351764e-04,7.50000000000000e-01
1.05108000000000e-07,7.50000000000000e-01,7.50000000000000e-01,-1.54403019339962e-03,7.50000000000000e-01
1.05124000000000e-07,7.50000000000000e-01,7.50000000000000e-01,-3.35337896102128e-03,7.50000000000000e-01
1.05156000000000e-07,7.50000000000000e-01,7.50000000000000e-01,-6.08345187920861e-03,7.50000000000000e-01
1.05220000000000e-07,7.50000000000000e-01,7.50000000000000e-01,-3.81998738479766e-03,7.50000000000000e-01
1.05348000000000e-07,7.50000000000000e-01,7.50000000000000e-01,2.48586329383280e-01,7.50000000000000e-01
1.05604000000000e-07,7.50000000000000e-01,7.50000000000000e-01,7.42613309441069e-01,7.50000000000000e-01
1.06001348536762e-07,7.50000000000000e-01,7.50000000000000e-01,7.50769054083910e-01,7.50000000000000e-01
1.06559738057583e-07,7.50000000000000e-01,7.50000000000000e-01,7.49423787022512e-01,7.50000000000000e-01
1.07292483469608e-07,7.50000000000000e-01,7.50000000000000e-01,7.50396685878028e-01,7.50000000000000e-01
1.08463437121680e-07,7.50000000000000e-01,7.50000000000000e-01,7.49614709050023e-01,7.50000000000000e-01
1.10805344425826e-07,7.50000000000000e-01,7.50000000000000e-01,7.50327263610484e-01,7.50000000000000e-01
1.14605344425826e-07,7.50000000000000e-01,7.50000000000000e-01,7.49659284176724e-01,7.50000000000000e-01
1.15100000000000e-07,7.50000000000000e-01,7.50000000000000e-01,7.50237157555634e-01,7.50000000000000e-01
