Time,v(clk),v(data),v(out)
1.00000000000000e-08,6.00000000000000e-01,0.00000000000000e+00,-3.16151006150064e-06
1.00100000000000e-08,6.00000000000000e-01,5.99999999999985e-02,4.49696246009046e-06
1.00300000000000e-08,6.00000000000000e-01,1.79999999999996e-01,1.04444389543851e-05
1.00700000000000e-08,6.00000000000000e-01,4.19999999999990e-01,6.42697959782335e-06
1.01000000000000e-08,6.00000000000000e-01,5.99999999999995e-01,1.86877968342408e-06
1.01080000000000e-08,6.00000000000000e-01,6.00000000000000e-01,9.23772051561467e-07
1.01240000000000e-08,6.00000000000000e-01,6.00000000000000e-01,1.52415326984401e-06
1.01560000000000e-08,6.00000000000000e-01,6.00000000000000e-01,5.97348428563182e-06
1.02200000000000e-08,6.00000000000000e-01,6.00000000000000e-01,9.69738924593011e-06
1.03480000000000e-08,6.00000000000000e-01,6.00000000000000e-01,4.96936842753898e-06
1.06040000000000e-08,6.00000000000000e-01,6.00000000000000e-01,3.04561356388386e-06
1.11035206883159e-08,6.00000000000000e-01,6.00000000000000e-01,4.82646311882051e-06
1.21025620649478e-08,6.00000000000000e-01,6.00000000000000e-01,3.06759875422745e-06
1.41006448182115e-08,6.00000000000000e-01,6.00000000000000e-01,4.19568827031945e-06
1.51000000000000e-08,6.00000000000000e-01,6.00000000000000e-01,2.78682870893943e-06
1.51100000000000e-08,5.39999999999991e-01,6.00000000000000e-01,-8.70632533154503e-05
1.51300000000000e-08,4.19999999999994e-01,6.00000000000000e-01,-2.19000288991661e-04
1.51700000000000e-08,1.80000000000000e-01,6.00000000000000e-01,-1.93196133191888e-04
1.52000000000000e-08,0.00000000000000e+00,6.00000000000000e-01,1.92645242763245e-04
1.52080000000000e-08,0.00000000000000e+00,6.00000000000000e-01,3.90438370270557e-04
1.52240000000000e-08,0.00000000000000e+00,6.00000000000000e-01,6.26278994553087e-04
1.52560000000000e-08,0.00000000000000e+00,6.00000000000000e-01,5.90936436874440e-04
1.53200000000000e-08,0.00000000000000e+00,6.00000000000000e-01,3.52293953559055e-05
1.54480000000000e-08,0.00000000000000e+00,6.00000000000000e-01,-4.26568450741120e-04
1.57040000000000e-08,0.00000000000000e+00,6.00000000000000e-01,1.26806034754845e-04
1.61137910144423e-08,0.00000000000000e+00,6.00000000000000e-01,-1.94821916057235e-04
1.67634706839181e-08,0.00000000000000e+00,6.00000000000000e-01,2.43749512438531e-04
1.80628300228699e-08,0.00000000000000e+00,6.00000000000000e-01,-2.11037715538737e-04
1.92904553923547e-08,0.00000000000000e+00,6.00000000000000e-01,1.84273614386665e-04
2.17457061313244e-08,0.00000000000000e+00,6.00000000000000e-01,-1.65779544469502e-04
2.50000000000000e-08,0.00000000000000e+00,6.00000000000000e-01,1.59357889117454e-04
2.50100000000000e-08,5.99999999999886e-02,6.00000000000000e-01,3.13927693135790e-04
2.50300000000000e-08,1.80000000000006e-01,6.00000000000000e-01,5.47990870713430e-04
2.50700000000000e-08,4.20000000000000e-01,6.00000000000000e-01,7.56555527003627e-04
2.51000000000000e-08,6.00000000000000e-01,6.00000000000000e-01,4.42616237684712e-04
2.51080000000000e-08,6.00000000000000e-01,6.00000000000000e-01,8.52675132453212e-05
2.51240000000000e-08,6.00000000000000e-01,6.00000000000000e-01,-7.66954066848582e-04
2.51560000000000e-08,6.00000000000000e-01,6.00000000000000e-01,-2.63849074969306e-03
2.52200000000000e-08,6.00000000000000e-01,6.00000000000000e-01,-5.23850120374212e-03
2.53480000000000e-08,6.00000000000000e-01,6.00000000000000e-01,5.71114173489364e-03
2.56040000000000e-08,6.00000000000000e-01,6.00000000000000e-01,3.90665938063147e-01
2.61160000000000e-08,6.00000000000000e-01,6.00000000000000e-01,6.22118748542484e-01
2.66947290701165e-08,6.00000000000000e-01,6.00000000000000e-01,5.81746032983519e-01
2.78521872103496e-08,6.00000000000000e-01,6.00000000000000e-01,6.17686041266230e-01
2.93577847940086e-08,6.00000000000000e-01,6.00000000000000e-01,5.82758446128299e-01
3.19828253121281e-08,6.00000000000000e-01,6.00000000000000e-01,6.16606633740667e-01
3.51000000000000e-08,5.99999999999970e-01,6.00000000000000e-01,5.83318888886305e-01
3.51100000000000e-08,5.39999999999982e-01,6.00000000000000e-01,5.90012643799270e-01
3.51300000000000e-08,4.19999999999965e-01,6.00000000000000e-01,5.97979122370050e-01
3.51700000000000e-08,1.79999999999970e-01,6.00000000000000e-01,6.00871555759865e-01
3.52000000000000e-08,0.00000000000000e+00,6.00000000000000e-01,6.02678525449826e-01
3.52080000000000e-08,0.00000000000000e+00,6.00000000000000e-01,6.03264367735031e-01
3.52240000000000e-08,0.00000000000000e+00,6.00000000000000e-01,6.03938210992250e-01
3.52560000000000e-08,0.00000000000000e+00,6.00000000000000e-01,6.02619792027550e-01
3.53200000000000e-08,0.00000000000000e+00,6.00000000000000e-01,5.90147246281267e-01
3.54480000000000e-08,0.00000000000000e+00,6.00000000000000e-01,5.83209726921536e-01
3.57040000000000e-08,0.00000000000000e+00,6.00000000000000e-01,6.01498838096334e-01
3.61583490973131e-08,0.00000000000000e+00,6.00000000000000e-01,5.97916589904756e-01
3.67724147158113e-08,0.00000000000000e+00,6.00000000000000e-01,6.01204307646138e-01
3.80005459528076e-08,0.00000000000000e+00,6.00000000000000e-01,5.98513656600798e-01
4.04568084268002e-08,0.00000000000000e+00,6.00000000000000e-01,6.01195506391902e-01
4.42568084268002e-08,0.00000000000000e+00,6.00000000000000e-01,5.98688916194970e-01
4.50000000000000e-08,0.00000000000000e+00,6.00000000000000e-01,6.01030798568352e-01
4.50100000000000e-08,5.99999999999886e-02,6.00000000000000e-01,6.00822751076358e-01
4.50300000000000e-08,1.80000000000006e-01,6.00000000000000e-01,6.00505892172325e-01
4.50700000000000e-08,4.20000000000000e-01,6.00000000000000e-01,6.00266720798182e-01
4.51000000000000e-08,6.00000000000000e-01,6.00000000000000e-01,5.99999909041884e-01
4.51080000000000e-08,6.00000000000000e-01,5.52000000000025e-01,5.99774420406379e-01
4.51240000000000e-08,6.00000000000000e-01,4.55999999999996e-01,5.99302309624011e-01
4.51560000000000e-08,6.00000000000000e-01,2.64000000000016e-01,5.98529324557613e-01
4.52000000000000e-08,6.00000000000000e-01,3.44169137633799e-14,5.98062717463287e-01
4.52064000000000e-08,6.00000000000000e-01,0.00000000000000e+00,5.98036722450078e-01
4.52192000000000e-08,6.00000000000000e-01,0.00000000000000e+00,5.97979302113342e-01
4.52448000000000e-08,6.00000000000000e-01,0.00000000000000e+00,5.97886826399825e-01
4.52960000000000e-08,6.00000000000000e-01,0.00000000000000e+00,5.97866319728956e-01
4.53984000000000e-08,6.00000000000000e-01,0.00000000000000e+00,5.98408322223042e-01
4.56032000000000e-08,6.00000000000000e-01,0.00000000000000e+00,5.99102970310306e-01
4.58894103954582e-08,6.00000000000000e-01,0.00000000000000e+00,5.99788736556544e-01
4.64618311863745e-08,6.00000000000000e-01,0.00000000000000e+00,6.00042385767446e-01
4.71266107768305e-08,6.00000000000000e-01,0.00000000000000e+00,5.99990908763716e-01
4.84561699577426e-08,6.00000000000000e-01,0.00000000000000e+00,6.00002928277555e-01
5.11152883195668e-08,6.00000000000000e-01,0.00000000000000e+00,5.99998835359379e-01
5.49152883195668e-08,6.00000000000000e-01,0.00000000000000e+00,6.00000243215929e-01
5.51000000000000e-08,6.00000000000000e-01,0.00000000000000e+00,5.99997966754501e-01
5.51100000000000e-08,5.40000000000021e-01,0.00000000000000e+00,5.99920849725100e-01
5.51300000000000e-08,4.20000000000004e-01,0.00000000000000e+00,5.99829080980251e-01
5.51700000000000e-08,1.80000000000010e-01,0.00000000000000e+00,6.00514842347145e-01
5.52000000000000e-08,0.00000000000000e+00,0.00000000000000e+00,6.02681508691879e-01
5.52080000000000e-08,0.00000000000000e+00,0.00000000000000e+00,6.03294307822563e-01
5.52240000000000e-08,0.00000000000000e+00,0.00000000000000e+00,6.04171323933869e-01
5.52560000000000e-08,0.00000000000000e+00,0.00000000000000e+00,6.04989367794329e-01
5.53200000000000e-08,0.00000000000000e+00,0.00000000000000e+00,6.04848168205729e-01
5.54480000000000e-08,0.00000000000000e+00,0.00000000000000e+00,6.00454085379686e-01
5.57040000000000e-08,0.00000000000000e+00,0.00000000000000e+00,5.99590744015555e-01
5.60754561352599e-08,0.00000000000000e+00,0.00000000000000e+00,6.00099952151449e-01
5.67356989306732e-08,0.00000000000000e+00,0.00000000000000e+00,5.99702689911701e-01
5.75654584395497e-08,0.00000000000000e+00,0.00000000000000e+00,6.00085263322771e-01
5.92249774573027e-08,0.00000000000000e+00,0.00000000000000e+00,5.99758904036669e-01
6.25440154928088e-08,0.00000000000000e+00,0.00000000000000e+00,6.00107193923802e-01
6.50000000000000e-08,0.00000000000000e+00,0.00000000000000e+00,5.99790271805038e-01
6.50100000000000e-08,5.99999999999886e-02,0.00000000000000e+00,5.99922931840337e-01
6.50300000000000e-08,1.79999999999966e-01,0.00000000000000e+00,6.00073727593179e-01
6.50700000000000e-08,4.19999999999920e-01,0.00000000000000e+00,6.00043479220212e-01
6.51000000000000e-08,5.99999999999966e-01,0.00000000000000e+00,5.99903038800279e-01
6.51080000000000e-08,6.00000000000000e-01,0.00000000000000e+00,5.99829923024959e-01
6.51240000000000e-08,6.00000000000000e-01,0.00000000000000e+00,5.99714002169710e-01
6.51560000000000e-08,6.00000000000000e-01,0.00000000000000e+00,5.99675976140347e-01
6.52200000000000e-08,6.00000000000000e-01,0.00000000000000e+00,5.99780593345417e-01
6.53480000000000e-08,6.00000000000000e-01,0.00000000000000e+00,6.00778891013730e-01
6.56040000000000e-08,6.00000000000000e-01,0.00000000000000e+00,6.03312785935771e-01
6.61159999999999e-08,6.00000000000000e-01,0.00000000000000e+00,1.00577161063858e-01
6.66460377497732e-08,6.00000000000000e-01,0.00000000000000e+00,-5.00343116014239e-02
6.77061132493196e-08,6.00000000000000e-01,0.00000000000000e+00,4.45238146681740e-02
6.89561094688092e-08,6.00000000000000e-01,0.00000000000000e+00,-3.38522550744651e-02
7.12518097452282e-08,6.00000000000000e-01,0.00000000000000e+00,3.29544903454814e-02
7.50518097452282e-08,6.00000000000000e-01,0.00000000000000e+00,-2.90623679881669e-02
7.51000000000000e-08,6.00000000000000e-01,0.00000000000000e+00,-9.17464845978075e-03
7.51100000000000e-08,5.40000000000061e-01,0.00000000000000e+00,-8.58212564331931e-03
7.51300000000000e-08,4.20000000000084e-01,0.00000000000000e+00,-6.86227927142731e-03
7.51700000000000e-08,1.80000000000129e-01,0.00000000000000e+00,-3.51949213604656e-03
7.52000000000000e-08,8.40438829641244e-14,0.00000000000000e+00,-1.87269671403234e-03
7.52080000000000e-08,0.00000000000000e+00,0.00000000000000e+00,-1.43266053946084e-03
7.52240000000000e-08,0.00000000000000e+00,0.00000000000000e+00,-7.86498655036438e-04
7.52560000000000e-08,0.00000000000000e+00,0.00000000000000e+00,-3.95410077017475e-04
7.53200000000000e-08,0.00000000000000e+00,0.00000000000000e+00,-1.30368495486700e-03
7.54480000000000e-08,0.00000000000000e+00,0.00000000000000e+00,-1.84158445393489e-03
7.57040000000000e-08,0.00000000000000e+00,0.00000000000000e+00,3.76709729727216e-04
7.61097520427572e-08,0.00000000000000e+00,0.00000000000000e+00,-8.13842568850205e-05
7.66856691519938e-08,0.00000000000000e+00,0.00000000000000e+00,-5.28130700365968e-06
7.78375033704670e-08,0.00000000000000e+00,0.00000000000000e+00,3.51479896127729e-05
8.01411718074133e-08,0.00000000000000e+00,0.00000000000000e+00,-4.01664013085648e-05
8.39411718074133e-08,0.00000000000000e+00,0.00000000000000e+00,4.93848788441810e-05
8.50000000000000e-08,0.00000000000000e+00,0.00000000000000e+00,-5.87042108799556e-05
8.50100000000000e-08,5.99999999999886e-02,0.00000000000000e+00,1.00483387078867e-04
8.50300000000000e-08,1.79999999999966e-01,0.00000000000000e+00,3.11784956342043e-04
8.50700000000000e-08,4.19999999999920e-01,0.00000000000000e+00,3.22503761255054e-04
8.51000000000000e-08,5.99999999999966e-01,0.00000000000000e+00,7.36076861201779e-05
8.51080000000000e-08,6.00000000000000e-01,0.00000000000000e+00,-5.95130137719113e-05
8.51240000000000e-08,6.00000000000000e-01,0.00000000000000e+00,-2.51062615194170e-04
8.51560000000000e-08,6.00000000000000e-01,0.00000000000000e+00,-3.52325383006294e-04
8.52200000000000e-08,6.00000000000000e-01,0.00000000000000e+00,-2.28197069510258e-04
8.53480000000000e-08,6.00000000000000e-01,0.00000000000000e+00,-2.30864002073103e-05
8.56040000000000e-08,6.00000000000000e-01,0.00000000000000e+00,8.34519036580009e-05
8.61159999999999e-08,6.00000000000000e-01,0.00000000000000e+00,-4.86554428429098e-06
8.71399999999999e-08,6.00000000000000e-01,0.00000000000000e+00,5.82617226975619e-06
8.84880861155471e-08,6.00000000000000e-01,0.00000000000000e+00,8.79461307142036e-06
9.00000000000000e-08,6.00000000000000e-01,0.00000000000000e+00,-2.52955094014531e-06
9.00100000000000e-08,6.00000000000000e-01,5.99999999999886e-02,4.94114927029887e-06
9.00300000000000e-08,6.00000000000000e-01,1.79999999999966e-01,1.06348777897947e-05
9.00700000000000e-08,6.00000000000000e-01,4.19999999999920e-01,6.52687866078971e-06
9.01000000000000e-08,6.00000000000000e-01,5.99999999999966e-01,2.09186276435569e-06
9.01080000000000e-08,6.00000000000000e-01,6.00000000000000e-01,1.16708382881525e-06
9.01240000000000e-08,6.00000000000000e-01,6.00000000000000e-01,1.74894374621593e-06
9.01560000000000e-08,6.00000000000000e-01,6.00000000000000e-01,5.64590104944196e-06
9.02200000000000e-08,6.00000000000000e-01,6.00000000000000e-01,8.49603982756852e-06
9.03480000000000e-08,6.00000000000000e-01,6.00000000000000e-01,5.13304574778495e-06
9.06040000000000e-08,6.00000000000000e-01,6.00000000000000e-01,2.97992319491652e-06
9.11159999999999e-08,6.00000000000000e-01,6.00000000000000e-01,4.90228667851360e-06
9.21399999999999e-08,6.00000000000000e-01,6.00000000000000e-01,2.99055161559481e-06
9.41879999999998e-08,6.00000000000000e-01,6.00000000000000e-01,4.25161977987611e-06
9.51000000000000e-08,6.00000000000000e-01,6.00000000000000e-01,2.74092191762144e-06
9.51100000000000e-08,5.40000000000061e-01,6.00000000000000e-01,-8.73765909591290e-05
9.51300000000000e-08,4.20000000000084e-01,6.00000000000000e-01,-2.18996475043379e-04
9.51700000000000e-08,1.80000000000129e-01,6.00000000000000e-01,-1.93133224827516e-04
9.52000000000000e-08,8.40438829641244e-14,6.00000000000000e-01,1.92667527635762e-04
9.52080000000000e-08,0.00000000000000e+00,6.00000000000000e-01,3.90453994487325e-04
9.52240000000000e-08,0.00000000000000e+00,6.00000000000000e-01,6.26284638224006e-04
9.52560000000000e-08,0.00000000000000e+00,6.00000000000000e-01,5.90954982361683e-04
9.53200000000000e-08,0.00000000000000e+00,6.00000000000000e-01,3.53012574593470e-05
9.54480000000000e-08,0.00000000000000e+00,6.00000000000000e-01,-4.26584946518913e-04
9.57040000000000e-08,0.00000000000000e+00,6.00000000000000e-01,1.26800805644221e-04
9.61137893328561e-08,0.00000000000000e+00,6.00000000000000e-01,-1.94818591754659e-04
9.67634345710211e-08,0.00000000000000e+00,6.00000000000000e-01,2.43737532823252e-04
9.80627250473510e-08,0.00000000000000e+00,6.00000000000000e-01,-2.11013960407095e-04
9.92903282922459e-08,0.00000000000000e+00,6.00000000000000e-01,1.84244175423016e-04
1.01745534782036e-07,0.00000000000000e+00,6.00000000000000e-01,-1.65747928492203e-04
1.05000000000000e-07,0.00000000000000e+00,6.00000000000000e-01,1.59326270236219e-04
1.05010000000000e-07,5.99999999999886e-02,6.00000000000000e-01,3.13903281718417e-04
1.05030000000000e-07,1.79999999999966e-01,6.00000000000000e-01,5.47977413383818e-04
1.05070000000000e-07,4.19999999999920e-01,6.00000000000000e-01,7.56552174847831e-04
1.05100000000000e-07,5.99999999999966e-01,6.00000000000000e-01,4.42623251914367e-04
1.05108000000000e-07,6.00000000000000e-01,6.00000000000000e-01,8.52793934953411e-05
1.05124000000000e-07,6.00000000000000e-01,6.00000000000000e-01,-7.66935155102996e-04
1.05156000000000e-07,6.00000000000000e-01,6.00000000000000e-01,-2.63847084930344e-03
1.05220000000000e-07,6.00000000000000e-01,6.00000000000000e-01,-5.23849206004186e-03
1.05348000000000e-07,6.00000000000000e-01,6.00000000000000e-01,5.71109624235684e-03
1.05604000000000e-07,6.00000000000000e-01,6.00000000000000e-01,3.90665729252529e-01
1.06116000000000e-07,6.00000000000000e-01,6.00000000000000e-01,6.22118736985528e-01
1.06694729211358e-07,6.00000000000000e-01,6.00000000000000e-01,5.81746047119712e-01
1.07852187634074e-07,6.00000000000000e-01,6.00000000000000e-01,6.17686030468472e-01
1.09357785078554e-07,6.00000000000000e-01,6.00000000000000e-01,5.82758458439299e-01
1.11982825062159e-07,6.00000000000000e-01,6.00000000000000e-01,6.16606623391852e-01
1.15100000000000e-07,6.00000000000000e-01,6.00000000000000e-01,5.83318900563078e-01
1.15110000000000e-07,5.40000000000061e-01,6.00000000000000e-01,5.90012650928595e-01
1.15130000000000e-07,4.20000000000084e-01,6.00000000000000e-01,5.97979124171599e-01
1.15170000000000e-07,1.80000000000129e-01,6.00000000000000e-01,6.00871555696269e-01
1.15200000000000e-07,8.40438829641244e-14,6.00000000000000e-01,6.02678525541133e-01
1.15208000000000e-07,0.00000000000000e+00,6.00000000000000e-01,6.03264367822865e-01
1.15224000000000e-07,0.00000000000000e+00,6.00000000000000e-01,6.03938211099856e-01
1.15256000000000e-07,0.00000000000000e+00,6.00000000000000e-01,6.02619792236611e-01
1.15320000000000e-07,0.00000000000000e+00,6.00000000000000e-01,5.90147246588925e-01
1.15448000000000e-07,0.00000000000000e+00,6.00000000000000e-01,5.83209726973710e-01
1.15704000000000e-07,0.00000000000000e+00,6.00000000000000e-01,6.01498838021723e-01
1.16158349097625e-07,0.00000000000000e+00,6.00000000000000e-01,5.97916589973026e-01
1.16772414715513e-07,0.00000000000000e+00,6.00000000000000e-01,6.01204307590932e-01
1.18000545951291e-07,0.00000000000000e+00,6.00000000000000e-01,5.98513656651293e-01
1.20456808422846e-07,0.00000000000000e+00,6.00000000000000e-01,6.01195506344038e-01
1.24256808422846e-07,0.00000000000000e+00,6.00000000000000e-01,5.98688916241701e-01
1.25000000000000e-07,0.00000000000000e+00,6.00000000000000e-01,6.01030798528827e-01
1.25010000000000e-07,5.99999999999092e-02,6.00000000000000e-01,6.00822751048530e-01
1.25030000000000e-07,1.79999999999886e-01,6.00000000000000e-01,6.00505892161178e-01
1.25070000000000e-07,4.19999999999841e-01,6.00000000000000e-01,6.00266720797143e-01
1.25100000000000e-07,5.99999999999886e-01,6.00000000000000e-01,5.99999909041767e-01
1.25108000000000e-07,6.00000000000000e-01,5.51999999999946e-01,5.99774420406455e-01
1.25124000000000e-07,6.00000000000000e-01,4.55999999999996e-01,5.99302309624317e-01
1.25156000000000e-07,6.00000000000000e-01,2.63999999999937e-01,5.98529324557845e-01
1.25200000000000e-07,6.00000000000000e-01,0.00000000000000e+00,5.98062717463213e-01
1.25206400000000e-07,6.00000000000000e-01,0.00000000000000e+00,5.98036722450764e-01
1.25219200000000e-07,6.00000000000000e-01,0.00000000000000e+00,5.97979302113581e-01
1.25244800000000e-07,6.00000000000000e-01,0.00000000000000e+00,5.97886826400628e-01
1.25296000000000e-07,6.00000000000000e-01,0.00000000000000e+00,5.97866319728862e-01
1.25398400000000e-07,6.00000000000000e-01,0.00000000000000e+00,5.98408322222321e-01
1.25603200000000e-07,6.00000000000000e-01,0.00000000000000e+00,5.99102970309916e-01
1.25889410394968e-07,6.00000000000000e-01,0.00000000000000e+00,5.99788736556168e-01
1.26461831184904e-07,6.00000000000000e-01,0.00000000000000e+00,6.00042385767771e-01
1.27126610773360e-07,6.00000000000000e-01,0.00000000000000e+00,5.99990908763322e-01
1.28456169950272e-07,6.00000000000000e-01,0.00000000000000e+00,6.00002928278070e-01
1.31115288304097e-07,6.00000000000000e-01,0.00000000000000e+00,5.99998835358785e-01
1.34915288304097e-07,6.00000000000000e-01,0.00000000000000e+00,6.00000243216360e-01
1.35100000000000e-07,5.99999999999891e-01,0.00000000000000e+00,5.99997966754688e-01
1.35110000000000e-07,5.39999999999823e-01,0.00000000000000e+00,5.99920849724884e-01
1.35130000000000e-07,4.19999999999845e-01,0.00000000000000e+00,5.99829080980091e-01
1.35170000000000e-07,1.79999999999891e-01,0.00000000000000e+00,6.00514842346901e-01
1.35200000000000e-07,0.00000000000000e+00,0.00000000000000e+00,6.02681508691925e-01
1.35208000000000e-07,0.00000000000000e+00,0.00000000000000e+00,6.03294307822751e-01
1.35224000000000e-07,0.00000000000000e+00,0.00000000000000e+00,6.04171323936043e-01
1.35256000000000e-07,0.00000000000000e+00,0.00000000000000e+00,6.04989367777163e-01
