Time,v(clk),v(data),v(out),v(reset)
1.00000000000000e-08,7.00000000000000e-01,0.00000000000000e+00,2.65967549556933e-06,0.00000000000000e+00
1.00100000000000e-08,7.00000000000000e-01,6.99999999999983e-02,1.81104751910410e-06,0.00000000000000e+00
1.00300000000000e-08,7.00000000000000e-01,2.09999999999995e-01,1.43654656564046e-06,0.00000000000000e+00
1.00700000000000e-08,7.00000000000000e-01,4.89999999999988e-01,1.90711639375118e-06,0.00000000000000e+00
1.01000000000000e-08,7.00000000000000e-01,6.99999999999995e-01,2.30752509408627e-06,0.00000000000000e+00
1.01080000000000e-08,7.00000000000000e-01,7.00000000000000e-01,2.93823825957273e-06,0.00000000000000e+00
1.01240000000000e-08,7.00000000000000e-01,7.00000000000000e-01,3.96728985560535e-06,0.00000000000000e+00
1.01560000000000e-08,7.00000000000000e-01,7.00000000000000e-01,4.05353974489847e-06,0.00000000000000e+00
1.02200000000000e-08,7.00000000000000e-01,7.00000000000000e-01,3.65487422176319e-06,0.00000000000000e+00
1.03480000000000e-08,7.00000000000000e-01,7.00000000000000e-01,3.52928395591645e-06,0.00000000000000e+00
1.06040000000000e-08,7.00000000000000e-01,7.00000000000000e-01,3.54287777886396e-06,0.00000000000000e+00
1.11160000000000e-08,7.00000000000000e-01,7.00000000000000e-01,3.46157820879829e-06,0.00000000000000e+00
1.21400000000000e-08,7.00000000000000e-01,7.00000000000000e-01,3.16554286420787e-06,0.00000000000000e+00
1.41880000000000e-08,7.00000000000000e-01,7.00000000000000e-01,2.87362166498254e-06,0.00000000000000e+00
1.51000000000000e-08,7.00000000000000e-01,7.00000000000000e-01,2.75864426458206e-06,0.00000000000000e+00
1.51100000000000e-08,6.29999999999990e-01,7.00000000000000e-01,1.44421531124150e-04,7.00000000000099e-02
1.51300000000000e-08,4.89999999999994e-01,7.00000000000000e-01,2.24033764316747e-04,2.10000000000007e-01
1.51700000000000e-08,2.10000000000000e-01,7.00000000000000e-01,1.04798489477566e-04,4.90000000000000e-01
1.52000000000000e-08,0.00000000000000e+00,7.00000000000000e-01,1.37563436479270e-04,7.00000000000000e-01
1.52080000000000e-08,0.00000000000000e+00,7.00000000000000e-01,1.24987531709315e-04,7.00000000000000e-01
1.52240000000000e-08,0.00000000000000e+00,7.00000000000000e-01,8.38462231931708e-05,7.00000000000000e-01
1.52560000000000e-08,0.00000000000000e+00,7.00000000000000e-01,-6.75834596619504e-05,7.00000000000000e-01
1.53200000000000e-08,0.00000000000000e+00,7.00000000000000e-01,-2.77290229911062e-04,7.00000000000000e-01
1.54480000000000e-08,0.00000000000000e+00,7.00000000000000e-01,-2.94119361695794e-05,7.00000000000000e-01
1.56827008741628e-08,0.00000000000000e+00,7.00000000000000e-01,-1.74841756319832e-04,7.00000000000000e-01
1.60123408674325e-08,0.00000000000000e+00,7.00000000000000e-01,2.22311136224184e-04,7.00000000000000e-01
1.66716208539719e-08,0.00000000000000e+00,7.00000000000000e-01,-1.31470337743834e-04,7.00000000000000e-01
1.73204316958659e-08,0.00000000000000e+00,7.00000000000000e-01,6.95345604774253e-05,7.00000000000000e-01
1.86180533796540e-08,0.00000000000000e+00,7.00000000000000e-01,-4.01423380444734e-05,7.00000000000000e-01
2.12132967472301e-08,0.00000000000000e+00,7.00000000000000e-01,3.25943884825462e-05,7.00000000000000e-01
2.50000000000000e-08,0.00000000000000e+00,7.00000000000000e-01,-2.18048659465142e-05,7.00000000000000e-01
2.50100000000000e-08,6.99999999999867e-02,7.00000000000000e-01,5.75153062202308e-05,7.00000000000000e-01
2.50300000000000e-08,2.10000000000007e-01,7.00000000000000e-01,1.70525583139618e-04,7.00000000000000e-01
2.50700000000000e-08,4.90000000000000e-01,7.00000000000000e-01,1.61806996383650e-04,7.00000000000000e-01
2.51000000000000e-08,7.00000000000000e-01,7.00000000000000e-01,-1.56807037211066e-03,7.00000000000000e-01
2.51080000000000e-08,7.00000000000000e-01,7.00000000000000e-01,-2.48109801419936e-03,7.00000000000000e-01
2.51240000000000e-08,7.00000000000000e-01,7.00000000000000e-01,-4.12929925511465e-03,7.00000000000000e-01
2.51560000000000e-08,7.00000000000000e-01,7.00000000000000e-01,-5.72455317631346e-03,7.00000000000000e-01
2.52200000000000e-08,7.00000000000000e-01,7.00000000000000e-01,3.86227569754769e-02,7.00000000000000e-01
2.53480000000000e-08,7.00000000000000e-01,7.00000000000000e-01,4.82233300044669e-01,7.00000000000000e-01
2.56040000000000e-08,7.00000000000000e-01,7.00000000000000e-01,7.29429175750218e-01,7.00000000000000e-01
2.58945497979698e-08,7.00000000000000e-01,7.00000000000000e-01,6.74903919157279e-01,7.00000000000000e-01
2.64756493939095e-08,7.00000000000000e-01,7.00000000000000e-01,7.22914711039155e-01,7.00000000000000e-01
2.72219750553428e-08,7.00000000000000e-01,7.00000000000000e-01,6.77661703652743e-01,7.00000000000000e-01
2.86211751972432e-08,7.00000000000000e-01,7.00000000000000e-01,7.20997364272261e-01,7.00000000000000e-01
3.14195754810440e-08,7.00000000000000e-01,7.00000000000000e-01,6.78633510500216e-01,7.00000000000000e-01
3.51000000000000e-08,6.99999999999965e-01,7.00000000000000e-01,7.20520636257167e-01,7.00000000000000e-01
3.51100000000000e-08,6.29999999999979e-01,7.00000000000000e-01,7.10194743342672e-01,7.00000000000000e-01
3.51300000000000e-08,4.89999999999959e-01,7.00000000000000e-01,6.99856935092568e-01,7.00000000000000e-01
3.51700000000000e-08,2.09999999999966e-01,7.00000000000000e-01,7.00728958535640e-01,7.00000000000000e-01
3.52000000000000e-08,0.00000000000000e+00,7.00000000000000e-01,7.02557541115008e-01,7.00000000000000e-01
3.52080000000000e-08,0.00000000000000e+00,7.00000000000000e-01,7.02734157285640e-01,7.00000000000000e-01
3.52240000000000e-08,0.00000000000000e+00,7.00000000000000e-01,7.01737023780867e-01,7.00000000000000e-01
3.52560000000000e-08,0.00000000000000e+00,7.00000000000000e-01,6.91861444086257e-01,7.00000000000000e-01
3.53200000000000e-08,0.00000000000000e+00,7.00000000000000e-01,6.74077797847599e-01,7.00000000000000e-01
3.54480000000000e-08,0.00000000000000e+00,7.00000000000000e-01,6.91040946779216e-01,7.00000000000000e-01
3.57040000000000e-08,0.00000000000000e+00,7.00000000000000e-01,7.03563344226983e-01,7.00000000000000e-01
3.60331653655958e-08,0.00000000000000e+00,7.00000000000000e-01,6.96445662720494e-01,7.00000000000000e-01
3.66914960967875e-08,0.00000000000000e+00,7.00000000000000e-01,7.02477732280616e-01,7.00000000000000e-01
3.80081575591707e-08,0.00000000000000e+00,7.00000000000000e-01,6.97331408079909e-01,7.00000000000000e-01
4.06414804839373e-08,0.00000000000000e+00,7.00000000000000e-01,7.02340516104017e-01,7.00000000000000e-01
4.44414804839373e-08,0.00000000000000e+00,7.00000000000000e-01,6.97543079399556e-01,7.00000000000000e-01
4.50000000000000e-08,0.00000000000000e+00,7.00000000000000e-01,7.01957304038886e-01,7.00000000000000e-01
4.50100000000000e-08,6.99999999999867e-02,7.00000000000000e-01,7.01189214048890e-01,6.30000000000013e-01
4.50300000000000e-08,2.10000000000007e-01,7.00000000000000e-01,7.00198817019862e-01,4.89999999999994e-01
4.50700000000000e-08,4.90000000000000e-01,7.00000000000000e-01,7.02400537122737e-01,2.10000000000000e-01
4.51000000000000e-08,7.00000000000000e-01,7.00000000000000e-01,7.09149974689760e-01,0.00000000000000e+00
4.51080000000000e-08,7.00000000000000e-01,7.00000000000000e-01,7.11411464963519e-01,0.00000000000000e+00
4.51240000000000e-08,7.00000000000000e-01,7.00000000000000e-01,7.15755709392850e-01,0.00000000000000e+00
4.51560000000000e-08,7.00000000000000e-01,7.00000000000000e-01,7.22732711314709e-01,0.00000000000000e+00
4.52200000000000e-08,7.00000000000000e-01,7.00000000000000e-01,5.29892230554142e-01,0.00000000000000e+00
4.53480000000000e-08,7.00000000000000e-01,7.00000000000000e-01,4.32536472980343e-02,0.00000000000000e+00
4.55415363138193e-08,7.00000000000000e-01,7.00000000000000e-01,-2.03447864283360e-02,0.00000000000000e+00
4.58694349524893e-08,7.00000000000000e-01,7.00000000000000e-01,1.43378678203504e-02,0.00000000000000e+00
4.62735112617453e-08,7.00000000000000e-01,7.00000000000000e-01,-1.04237593970693e-02,0.00000000000000e+00
4.70708243891113e-08,7.00000000000000e-01,7.00000000000000e-01,9.08953935410716e-03,0.00000000000000e+00
4.86654506438433e-08,7.00000000000000e-01,7.00000000000000e-01,-8.34685830619281e-03,0.00000000000000e+00
5.01000000000000e-08,7.00000000000000e-01,6.99999999999960e-01,7.76330005382532e-03,0.00000000000000e+00
5.03934328804089e-08,7.00000000000000e-01,7.00000000000000e-01,7.04711757495092e-04,0.00000000000000e+00
5.09802986412268e-08,7.00000000000000e-01,7.00000000000000e-01,-5.68683399941757e-04,0.00000000000000e+00
5.21540301628625e-08,7.00000000000000e-01,7.00000000000000e-01,5.16697728658408e-04,0.00000000000000e+00
5.45014932061339e-08,7.00000000000000e-01,7.00000000000000e-01,-4.86813312382232e-04,0.00000000000000e+00
5.51000000000000e-08,7.00000000000000e-01,7.00000000000000e-01,4.00493011927612e-04,0.00000000000000e+00
5.51100000000000e-08,6.30000000000025e-01,7.00000000000000e-01,4.41683155081529e-04,6.99999999999752e-02
5.51300000000000e-08,4.90000000000005e-01,7.00000000000000e-01,3.73149884258031e-04,2.09999999999995e-01
5.51700000000000e-08,2.10000000000012e-01,7.00000000000000e-01,1.33364300153462e-04,4.89999999999988e-01
5.52000000000000e-08,0.00000000000000e+00,7.00000000000000e-01,1.39844820069665e-04,7.00000000000000e-01
5.52080000000000e-08,0.00000000000000e+00,7.00000000000000e-01,1.19332947442076e-04,7.00000000000000e-01
5.52240000000000e-08,0.00000000000000e+00,7.00000000000000e-01,2.73588022688120e-05,7.00000000000000e-01
5.52560000000000e-08,0.00000000000000e+00,7.00000000000000e-01,-5.35835280677716e-04,7.00000000000000e-01
5.53200000000000e-08,0.00000000000000e+00,7.00000000000000e-01,-1.01552843099048e-03,7.00000000000000e-01
5.54480000000000e-08,0.00000000000000e+00,7.00000000000000e-01,1.25142726208990e-04,7.00000000000000e-01
5.56546901369255e-08,0.00000000000000e+00,7.00000000000000e-01,-9.33195416748731e-05,7.00000000000000e-01
5.59967466828748e-08,0.00000000000000e+00,7.00000000000000e-01,3.23275884464898e-05,7.00000000000000e-01
5.66140877980928e-08,0.00000000000000e+00,7.00000000000000e-01,2.93220801816600e-05,7.00000000000000e-01
5.72463772086862e-08,0.00000000000000e+00,7.00000000000000e-01,-6.28032081393913e-05,7.00000000000000e-01
5.85109560298729e-08,0.00000000000000e+00,7.00000000000000e-01,7.93113329316279e-05,7.00000000000000e-01
6.10401136722462e-08,0.00000000000000e+00,7.00000000000000e-01,-8.12916408192816e-05,7.00000000000000e-01
6.48401136722462e-08,0.00000000000000e+00,7.00000000000000e-01,8.78979083720383e-05,7.00000000000000e-01
6.50000000000000e-08,0.00000000000000e+00,7.00000000000000e-01,-1.09867005608170e-04,7.00000000000000e-01
6.50100000000000e-08,6.99999999999867e-02,7.00000000000000e-01,3.47793474242825e-05,7.00000000000000e-01
6.50300000000000e-08,2.09999999999960e-01,7.00000000000000e-01,2.22727789153186e-04,7.00000000000000e-01
6.50700000000000e-08,4.89999999999907e-01,7.00000000000000e-01,1.21002790167982e-04,7.00000000000000e-01
6.51000000000000e-08,6.99999999999960e-01,7.00000000000000e-01,-1.74847534704701e-03,7.00000000000000e-01
6.51080000000000e-08,7.00000000000000e-01,7.00000000000000e-01,-2.66220517650084e-03,7.00000000000000e-01
6.51240000000000e-08,7.00000000000000e-01,7.00000000000000e-01,-4.28326147979698e-03,7.00000000000000e-01
6.51560000000000e-08,7.00000000000000e-01,7.00000000000000e-01,-5.64732985408881e-03,7.00000000000000e-01
6.52200000000000e-08,7.00000000000000e-01,7.00000000000000e-01,4.32582944307081e-02,7.00000000000000e-01
6.53480000000000e-08,7.00000000000000e-01,7.00000000000000e-01,4.92117352314965e-01,7.00000000000000e-01
6.56040000000000e-08,7.00000000000000e-01,7.00000000000000e-01,7.29448273463117e-01,7.00000000000000e-01
6.58934659905391e-08,7.00000000000000e-01,7.00000000000000e-01,6.74633696447322e-01,7.00000000000000e-01
6.64723979716175e-08,7.00000000000000e-01,7.00000000000000e-01,7.23068111195646e-01,7.00000000000000e-01
6.72258549661016e-08,7.00000000000000e-01,7.00000000000000e-01,6.77451456308142e-01,7.00000000000000e-01
6.86503918930405e-08,7.00000000000000e-01,7.00000000000000e-01,7.21159545133141e-01,7.00000000000000e-01
7.14994657469183e-08,7.00000000000000e-01,7.00000000000000e-01,6.78422926382219e-01,7.00000000000000e-01
7.51000000000000e-08,7.00000000000000e-01,7.00000000000000e-01,7.20617274004330e-01,7.00000000000000e-01
7.51100000000000e-08,6.30000000000071e-01,7.00000000000000e-01,7.10268350823150e-01,7.00000000000000e-01
7.51300000000000e-08,4.90000000000098e-01,7.00000000000000e-01,6.99862353856770e-01,7.00000000000000e-01
7.51700000000000e-08,2.10000000000151e-01,7.00000000000000e-01,7.00725275230053e-01,7.00000000000000e-01
7.52000000000000e-08,9.80326930744013e-14,7.00000000000000e-01,7.02563173267070e-01,7.00000000000000e-01
7.52080000000000e-08,0.00000000000000e+00,7.00000000000000e-01,7.02739588541005e-01,7.00000000000000e-01
7.52240000000000e-08,0.00000000000000e+00,7.00000000000000e-01,7.01745237524894e-01,7.00000000000000e-01
7.52560000000000e-08,0.00000000000000e+00,7.00000000000000e-01,6.91878189051746e-01,7.00000000000000e-01
7.53200000000000e-08,0.00000000000000e+00,7.00000000000000e-01,6.74087127672919e-01,7.00000000000000e-01
7.54480000000000e-08,0.00000000000000e+00,7.00000000000000e-01,6.91030921551041e-01,7.00000000000000e-01
7.57040000000000e-08,0.00000000000000e+00,7.00000000000000e-01,7.03576996226224e-01,7.00000000000000e-01
7.60331795598396e-08,0.00000000000000e+00,7.00000000000000e-01,6.96434405218178e-01,7.00000000000000e-01
7.66915386795188e-08,0.00000000000000e+00,7.00000000000000e-01,7.02488339533197e-01,7.00000000000000e-01
7.80082569188774e-08,0.00000000000000e+00,7.00000000000000e-01,6.97321441173269e-01,7.00000000000000e-01
8.06416933975944e-08,0.00000000000000e+00,7.00000000000000e-01,7.02350383465521e-01,7.00000000000000e-01
8.44416933975944e-08,0.00000000000000e+00,7.00000000000000e-01,6.97533479479898e-01,7.00000000000000e-01
8.50000000000000e-08,0.00000000000000e+00,7.00000000000000e-01,7.01965811142955e-01,7.00000000000000e-01
8.50100000000000e-08,6.99999999999867e-02,7.00000000000000e-01,7.01194054846424e-01,6.30000000000013e-01
8.50300000000000e-08,2.09999999999960e-01,7.00000000000000e-01,7.00200133455192e-01,4.90000000000040e-01
8.50700000000000e-08,4.89999999999907e-01,7.00000000000000e-01,7.02400453537253e-01,2.10000000000093e-01
8.51000000000000e-08,6.99999999999960e-01,7.00000000000000e-01,7.09149857579918e-01,4.00790511889682e-14
8.51080000000000e-08,7.00000000000000e-01,7.00000000000000e-01,7.11411334050590e-01,0.00000000000000e+00
8.51240000000000e-08,7.00000000000000e-01,7.00000000000000e-01,7.15755569400168e-01,0.00000000000000e+00
8.51560000000000e-08,7.00000000000000e-01,7.00000000000000e-01,7.22733184254473e-01,0.00000000000000e+00
8.52200000000000e-08,7.00000000000000e-01,7.00000000000000e-01,5.29894766132996e-01,0.00000000000000e+00
8.53480000000000e-08,7.00000000000000e-01,7.00000000000000e-01,4.32552658316092e-02,0.00000000000000e+00
8.55418540218763e-08,7.00000000000000e-01,7.00000000000000e-01,-2.03697566065581e-02,0.00000000000000e+00
8.58696185112436e-08,7.00000000000000e-01,7.00000000000000e-01,1.43566468211900e-02,0.00000000000000e+00
8.62740036932947e-08,7.00000000000000e-01,7.00000000000000e-01,-1.04392164865900e-02,0.00000000000000e+00
8.70709595543081e-08,7.00000000000000e-01,7.00000000000000e-01,9.10253303929070e-03,0.00000000000000e+00
8.86648712763347e-08,7.00000000000000e-01,7.00000000000000e-01,-8.35827756750113e-03,0.00000000000000e+00
9.01000000000000e-08,7.00000000000000e-01,6.99999999999960e-01,7.77427646727241e-03,0.00000000000000e+00
9.03940827770984e-08,7.00000000000000e-01,7.00000000000000e-01,7.04345759877592e-04,0.00000000000000e+00
9.09822483312953e-08,7.00000000000000e-01,7.00000000000000e-01,-5.68649511175199e-04,0.00000000000000e+00
9.21585794396891e-08,7.00000000000000e-01,7.00000000000000e-01,5.16783606227379e-04,0.00000000000000e+00
9.45112416564767e-08,7.00000000000000e-01,7.00000000000000e-01,-4.86949330921889e-04,0.00000000000000e+00
9.51000000000000e-08,7.00000000000000e-01,7.00000000000000e-01,3.99249282782023e-04,0.00000000000000e+00
9.51100000000000e-08,6.30000000000071e-01,7.00000000000000e-01,4.40755453782311e-04,6.99999999999288e-02
9.51300000000000e-08,4.90000000000098e-01,7.00000000000000e-01,3.72682376855081e-04,2.09999999999902e-01
9.51700000000000e-08,2.10000000000151e-01,7.00000000000000e-01,1.33261970151552e-04,4.89999999999849e-01
9.52000000000000e-08,9.80326930744013e-14,7.00000000000000e-01,1.39808717468048e-04,6.99999999999902e-01
9.52080000000000e-08,0.00000000000000e+00,7.00000000000000e-01,1.19301237553993e-04,7.00000000000000e-01
9.52240000000000e-08,0.00000000000000e+00,7.00000000000000e-01,2.73245558911339e-05,7.00000000000000e-01
9.52560000000000e-08,0.00000000000000e+00,7.00000000000000e-01,-5.35918030168982e-04,7.00000000000000e-01
9.53200000000000e-08,0.00000000000000e+00,7.00000000000000e-01,-1.01573836657293e-03,7.00000000000000e-01
9.54480000000000e-08,0.00000000000000e+00,7.00000000000000e-01,1.25133509945596e-04,7.00000000000000e-01
9.56547437384612e-08,0.00000000000000e+00,7.00000000000000e-01,-9.32946582634722e-05,7.00000000000000e-01
9.59967743538448e-08,0.00000000000000e+00,7.00000000000000e-01,3.23051135919794e-05,7.00000000000000e-01
9.66143203476987e-08,0.00000000000000e+00,7.00000000000000e-01,2.93110728504693e-05,7.00000000000000e-01
9.72466143750605e-08,0.00000000000000e+00,7.00000000000000e-01,-6.27942505368401e-05,7.00000000000000e-01
9.85112024297841e-08,0.00000000000000e+00,7.00000000000000e-01,7.93038912149306e-05,7.00000000000000e-01
1.01040378539231e-07,0.00000000000000e+00,7.00000000000000e-01,-8.12850366517883e-05,7.00000000000000e-01
1.04840378539231e-07,0.00000000000000e+00,7.00000000000000e-01,8.78920274032607e-05,7.00000000000000e-01
1.05000000000000e-07,0.00000000000000e+00,7.00000000000000e-01,-1.09873083404852e-04,7.00000000000000e-01
1.05010000000000e-07,6.99999999999867e-02,7.00000000000000e-01,3.47679200225631e-05,7.00000000000000e-01
1.05030000000000e-07,2.09999999999960e-01,7.00000000000000e-01,2.22702965529759e-04,7.00000000000000e-01
1.05070000000000e-07,4.89999999999907e-01,7.00000000000000e-01,1.20988863292100e-04,7.00000000000000e-01
1.05100000000000e-07,6.99999999999960e-01,7.00000000000000e-01,-1.74847299898841e-03,7.00000000000000e-01
1.05108000000000e-07,7.00000000000000e-01,7.00000000000000e-01,-2.66220229022194e-03,7.00000000000000e-01
1.05124000000000e-07,7.00000000000000e-01,7.00000000000000e-01,-4.28325855530599e-03,7.00000000000000e-01
1.05156000000000e-07,7.00000000000000e-01,7.00000000000000e-01,-5.64734491718465e-03,7.00000000000000e-01
1.05220000000000e-07,7.00000000000000e-01,7.00000000000000e-01,4.32578113520790e-02,7.00000000000000e-01
1.05348000000000e-07,7.00000000000000e-01,7.00000000000000e-01,4.92116370824139e-01,7.00000000000000e-01
1.05604000000000e-07,7.00000000000000e-01,7.00000000000000e-01,7.29448266716110e-01,7.00000000000000e-01
1.05893466080374e-07,7.00000000000000e-01,7.00000000000000e-01,6.74633718284532e-01,7.00000000000000e-01
1.06472398241124e-07,7.00000000000000e-01,7.00000000000000e-01,7.23068104181707e-01,7.00000000000000e-01
1.07225854545992e-07,7.00000000000000e-01,7.00000000000000e-01,6.77451470725032e-01,7.00000000000000e-01
1.08650389166957e-07,7.00000000000000e-01,7.00000000000000e-01,7.21159536405142e-01,7.00000000000000e-01
1.11499458408887e-07,7.00000000000000e-01,7.00000000000000e-01,6.78422940604449e-01,7.00000000000000e-01
1.15100000000000e-07,7.00000000000000e-01,7.00000000000000e-01,7.20617265721488e-01,7.00000000000000e-01
1.15110000000000e-07,6.30000000000071e-01,7.00000000000000e-01,7.10268350445130e-01,7.00000000000000e-01
1.15130000000000e-07,4.90000000000098e-01,7.00000000000000e-01,6.99862353214159e-01,7.00000000000000e-01
1.15170000000000e-07,2.10000000000151e-01,7.00000000000000e-01,7.00725274383847e-01,7.00000000000000e-01
1.15200000000000e-07,9.80326930744013e-14,7.00000000000000e-01,7.02563172845304e-01,7.00000000000000e-01
