Time,v(clk),v(data),v(out)
1.00000000000000e-08,7.00000000000000e-01,0.00000000000000e+00,2.58810330319931e-05
1.00100000000000e-08,7.00000000000000e-01,6.99999999999983e-02,2.07056393584856e-05
1.00300000000000e-08,7.00000000000000e-01,2.09999999999995e-01,1.44969150579211e-05
1.00700000000000e-08,7.00000000000000e-01,4.89999999999988e-01,9.21666965553181e-06
1.01000000000000e-08,7.00000000000000e-01,6.99999999999995e-01,7.52419089015965e-06
1.01080000000000e-08,7.00000000000000e-01,7.00000000000000e-01,7.57167429032979e-06
1.01240000000000e-08,7.00000000000000e-01,7.00000000000000e-01,8.59843076785050e-06
1.01560000000000e-08,7.00000000000000e-01,7.00000000000000e-01,1.25358839192027e-05
1.02200000000000e-08,7.00000000000000e-01,7.00000000000000e-01,1.54499054683677e-05
1.03480000000000e-08,7.00000000000000e-01,7.00000000000000e-01,8.80190366996103e-06
1.06040000000000e-08,7.00000000000000e-01,7.00000000000000e-01,1.21060418034440e-05
1.11160000000000e-08,7.00000000000000e-01,7.00000000000000e-01,9.90934895316042e-06
1.21400000000000e-08,7.00000000000000e-01,7.00000000000000e-01,1.11797814449947e-05
1.41880000000000e-08,7.00000000000000e-01,7.00000000000000e-01,9.24630116633978e-06
1.51000000000000e-08,7.00000000000000e-01,7.00000000000000e-01,1.04488305307359e-05
1.51100000000000e-08,6.29999999999990e-01,7.00000000000000e-01,-4.97443134992101e-05
1.51300000000000e-08,4.89999999999994e-01,7.00000000000000e-01,-1.32757556144322e-04
1.51700000000000e-08,2.10000000000000e-01,7.00000000000000e-01,-4.30051060839737e-05
1.52000000000000e-08,0.00000000000000e+00,7.00000000000000e-01,2.25227043108296e-04
1.52080000000000e-08,0.00000000000000e+00,7.00000000000000e-01,3.28093688198285e-04
1.52240000000000e-08,0.00000000000000e+00,7.00000000000000e-01,4.03266778590407e-04
1.52560000000000e-08,0.00000000000000e+00,7.00000000000000e-01,1.40353864756040e-04
1.53200000000000e-08,0.00000000000000e+00,7.00000000000000e-01,-3.24132684055463e-04
1.54480000000000e-08,0.00000000000000e+00,7.00000000000000e-01,-1.32348082728141e-04
1.57040000000000e-08,0.00000000000000e+00,7.00000000000000e-01,-1.44626909442804e-04
1.60358869210301e-08,0.00000000000000e+00,7.00000000000000e-01,1.90199760489947e-04
1.66341602704802e-08,0.00000000000000e+00,7.00000000000000e-01,-7.63494220199293e-06
1.74082228111322e-08,0.00000000000000e+00,7.00000000000000e-01,-4.91862962579883e-05
1.87801215589817e-08,0.00000000000000e+00,7.00000000000000e-01,9.50432553668539e-05
2.15239190546806e-08,0.00000000000000e+00,7.00000000000000e-01,-8.97153990079339e-05
2.50000000000000e-08,0.00000000000000e+00,7.00000000000000e-01,1.14645934468332e-04
2.50100000000000e-08,6.99999999999867e-02,7.00000000000000e-01,1.71458892408854e-04
2.50300000000000e-08,2.10000000000007e-01,7.00000000000000e-01,2.49501004935419e-04
2.50700000000000e-08,4.90000000000000e-01,7.00000000000000e-01,2.38756161812653e-04
2.51000000000000e-08,7.00000000000000e-01,7.00000000000000e-01,-1.02431839656136e-03
2.51080000000000e-08,7.00000000000000e-01,7.00000000000000e-01,-1.77410498738274e-03
2.51240000000000e-08,7.00000000000000e-01,7.00000000000000e-01,-3.22269918887521e-03
2.51560000000000e-08,7.00000000000000e-01,7.00000000000000e-01,-5.19505360881489e-03
2.52200000000000e-08,7.00000000000000e-01,7.00000000000000e-01,7.85726423637066e-03
2.53480000000000e-08,7.00000000000000e-01,7.00000000000000e-01,3.14436548402192e-01
2.56040000000000e-08,7.00000000000000e-01,7.00000000000000e-01,7.11212948833943e-01
2.59553544553314e-08,7.00000000000000e-01,7.00000000000000e-01,6.91208800091940e-01
2.65618102350718e-08,7.00000000000000e-01,7.00000000000000e-01,7.08727296308220e-01
2.73085876487251e-08,7.00000000000000e-01,7.00000000000000e-01,6.91815270794520e-01
2.84523475162543e-08,7.00000000000000e-01,7.00000000000000e-01,7.07959690630533e-01
3.07398672513126e-08,7.00000000000000e-01,7.00000000000000e-01,6.92210765861804e-01
3.45398672513126e-08,7.00000000000000e-01,7.00000000000000e-01,7.07738579035197e-01
3.51000000000000e-08,6.99999999999965e-01,7.00000000000000e-01,6.92835696316331e-01
3.51100000000000e-08,6.29999999999979e-01,7.00000000000000e-01,6.96060463640706e-01
3.51300000000000e-08,4.89999999999959e-01,7.00000000000000e-01,6.99567715367729e-01
3.51700000000000e-08,2.09999999999966e-01,7.00000000000000e-01,7.00915941138459e-01
3.52000000000000e-08,0.00000000000000e+00,7.00000000000000e-01,7.02660286654186e-01
3.52080000000000e-08,0.00000000000000e+00,7.00000000000000e-01,7.02933160229992e-01
3.52240000000000e-08,0.00000000000000e+00,7.00000000000000e-01,7.02582389928223e-01
3.52560000000000e-08,0.00000000000000e+00,7.00000000000000e-01,6.95771819116574e-01
3.53200000000000e-08,0.00000000000000e+00,7.00000000000000e-01,6.76762795482247e-01
3.54480000000000e-08,0.00000000000000e+00,7.00000000000000e-01,6.85629029033870e-01
3.57040000000000e-08,0.00000000000000e+00,7.00000000000000e-01,7.04585050139300e-01
3.60494583057922e-08,0.00000000000000e+00,7.00000000000000e-01,6.95354286543445e-01
3.67184183284593e-08,0.00000000000000e+00,7.00000000000000e-01,7.03162795445246e-01
3.80563383737936e-08,0.00000000000000e+00,7.00000000000000e-01,6.96541773218568e-01
4.07321784644622e-08,0.00000000000000e+00,7.00000000000000e-01,7.02967814045301e-01
4.45321784644622e-08,0.00000000000000e+00,7.00000000000000e-01,6.96811570136597e-01
4.50000000000000e-08,0.00000000000000e+00,7.00000000000000e-01,7.02339524001721e-01
4.50100000000000e-08,6.99999999999867e-02,7.00000000000000e-01,7.01646606953595e-01
4.50300000000000e-08,2.10000000000007e-01,7.00000000000000e-01,7.00669903193776e-01
4.50700000000000e-08,4.90000000000000e-01,7.00000000000000e-01,7.00000808364400e-01
4.51000000000000e-08,7.00000000000000e-01,7.00000000000000e-01,6.99279938587137e-01
4.51080000000000e-08,7.00000000000000e-01,6.44000000000029e-01,6.98901591548546e-01
4.51240000000000e-08,7.00000000000000e-01,5.31999999999995e-01,6.98217179206775e-01
4.51560000000000e-08,7.00000000000000e-01,3.08000000000019e-01,6.97364492612907e-01
4.52000000000000e-08,7.00000000000000e-01,4.00790511889682e-14,6.96900067530601e-01
4.52064000000000e-08,7.00000000000000e-01,0.00000000000000e+00,6.96900239625587e-01
4.52192000000000e-08,7.00000000000000e-01,0.00000000000000e+00,6.96925884356068e-01
4.52448000000000e-08,7.00000000000000e-01,0.00000000000000e+00,6.97186713519235e-01
4.52960000000000e-08,7.00000000000000e-01,0.00000000000000e+00,6.98044865820501e-01
4.53984000000000e-08,7.00000000000000e-01,0.00000000000000e+00,6.99252632581548e-01
4.55666679707661e-08,7.00000000000000e-01,0.00000000000000e+00,6.99872789141666e-01
4.58997510153335e-08,7.00000000000000e-01,0.00000000000000e+00,7.00026841884833e-01
4.62327840809949e-08,7.00000000000000e-01,0.00000000000000e+00,6.99995730596138e-01
4.68988502123178e-08,7.00000000000000e-01,0.00000000000000e+00,7.00001211702068e-01
4.82309824749636e-08,7.00000000000000e-01,0.00000000000000e+00,6.99999927122124e-01
5.08952470002551e-08,7.00000000000000e-01,0.00000000000000e+00,6.99999689193111e-01
5.46952470002551e-08,7.00000000000000e-01,0.00000000000000e+00,7.00000561198392e-01
5.51000000000000e-08,7.00000000000000e-01,0.00000000000000e+00,6.99998144295601e-01
5.51100000000000e-08,6.30000000000025e-01,0.00000000000000e+00,6.99943856287749e-01
5.51300000000000e-08,4.90000000000005e-01,0.00000000000000e+00,6.99891271179636e-01
5.51700000000000e-08,2.10000000000012e-01,0.00000000000000e+00,7.00825143103409e-01
5.52000000000000e-08,0.00000000000000e+00,0.00000000000000e+00,7.02846806251861e-01
5.52080000000000e-08,0.00000000000000e+00,0.00000000000000e+00,7.03322792723833e-01
5.52240000000000e-08,0.00000000000000e+00,0.00000000000000e+00,7.04005438622419e-01
5.52560000000000e-08,0.00000000000000e+00,0.00000000000000e+00,7.04691861758988e-01
5.53200000000000e-08,0.00000000000000e+00,0.00000000000000e+00,7.03568474461292e-01
5.54480000000000e-08,0.00000000000000e+00,0.00000000000000e+00,6.98293088469216e-01
5.56730797763098e-08,0.00000000000000e+00,0.00000000000000e+00,6.99031688577526e-01
5.59833116806047e-08,0.00000000000000e+00,0.00000000000000e+00,6.99589454125084e-01
5.64956065615918e-08,0.00000000000000e+00,0.00000000000000e+00,6.99466258507621e-01
5.72782174740855e-08,0.00000000000000e+00,0.00000000000000e+00,6.99928222183796e-01
5.88434392990730e-08,0.00000000000000e+00,0.00000000000000e+00,6.99638117856337e-01
6.19738829490481e-08,0.00000000000000e+00,0.00000000000000e+00,7.00047312405365e-01
6.50000000000000e-08,0.00000000000000e+00,0.00000000000000e+00,6.99677931468687e-01
6.50100000000000e-08,6.99999999999867e-02,0.00000000000000e+00,6.99817308741270e-01
6.50300000000000e-08,2.09999999999960e-01,0.00000000000000e+00,6.99957458483843e-01
6.50700000000000e-08,4.89999999999907e-01,0.00000000000000e+00,6.99889384764871e-01
6.51000000000000e-08,6.99999999999960e-01,0.00000000000000e+00,6.99733013366431e-01
6.51080000000000e-08,7.00000000000000e-01,0.00000000000000e+00,6.99685162512308e-01
6.51240000000000e-08,7.00000000000000e-01,0.00000000000000e+00,6.99623023221358e-01
6.51560000000000e-08,7.00000000000000e-01,0.00000000000000e+00,6.99644969530626e-01
6.52200000000000e-08,7.00000000000000e-01,0.00000000000000e+00,7.00738325896002e-01
6.53480000000000e-08,7.00000000000000e-01,0.00000000000000e+00,7.11567337841785e-01
6.56040000000000e-08,7.00000000000000e-01,0.00000000000000e+00,2.21973467671938e-01
6.59255780606660e-08,7.00000000000000e-01,0.00000000000000e+00,-7.63304555464001e-02
6.63750135329964e-08,7.00000000000000e-01,0.00000000000000e+00,5.95587111700154e-02
6.70551281621552e-08,7.00000000000000e-01,0.00000000000000e+00,-4.15967744386783e-02
6.78703053325713e-08,7.00000000000000e-01,0.00000000000000e+00,3.66647812733781e-02
6.94780622331823e-08,7.00000000000000e-01,0.00000000000000e+00,-3.08652332609013e-02
7.17919212167669e-08,7.00000000000000e-01,0.00000000000000e+00,3.05703696451171e-02
7.51000000000000e-08,7.00000000000000e-01,0.00000000000000e+00,-2.74265661986620e-02
7.51100000000000e-08,6.30000000000071e-01,0.00000000000000e+00,-2.19363773951720e-02
7.51300000000000e-08,4.90000000000098e-01,0.00000000000000e+00,-1.31473010716829e-02
7.51700000000000e-08,2.10000000000151e-01,0.00000000000000e+00,-4.36890918983859e-03
7.52000000000000e-08,9.80326930744013e-14,0.00000000000000e+00,-1.72909244572896e-03
7.52080000000000e-08,0.00000000000000e+00,0.00000000000000e+00,-1.31623869215756e-03
7.52240000000000e-08,0.00000000000000e+00,0.00000000000000e+00,-7.52780913329858e-04
7.52560000000000e-08,0.00000000000000e+00,0.00000000000000e+00,-7.59923387693866e-04
7.53200000000000e-08,0.00000000000000e+00,0.00000000000000e+00,-1.57705633209890e-03
7.54480000000000e-08,0.00000000000000e+00,0.00000000000000e+00,-4.68825671627031e-04
7.56786723977389e-08,0.00000000000000e+00,0.00000000000000e+00,4.27568504885904e-04
7.60206787534633e-08,0.00000000000000e+00,0.00000000000000e+00,-3.29214550032975e-04
7.66126671943667e-08,0.00000000000000e+00,0.00000000000000e+00,3.10046585284400e-04
7.77966440761736e-08,0.00000000000000e+00,0.00000000000000e+00,-2.74353598688673e-04
8.01645978397872e-08,0.00000000000000e+00,0.00000000000000e+00,2.83034364972327e-04
8.39645978397872e-08,0.00000000000000e+00,0.00000000000000e+00,-2.60043485487106e-04
8.50000000000000e-08,0.00000000000000e+00,0.00000000000000e+00,2.58516216146057e-04
8.50100000000000e-08,6.99999999999867e-02,0.00000000000000e+00,2.56608189535594e-04
8.50300000000000e-08,2.09999999999960e-01,0.00000000000000e+00,2.42340796278086e-04
8.50700000000000e-08,4.89999999999907e-01,0.00000000000000e+00,1.05905469496202e-04
8.51000000000000e-08,6.99999999999960e-01,0.00000000000000e+00,-1.18509067369862e-04
8.51080000000000e-08,7.00000000000000e-01,0.00000000000000e+00,-1.92498251722656e-04
8.51240000000000e-08,7.00000000000000e-01,0.00000000000000e+00,-2.74473493590610e-04
8.51560000000000e-08,7.00000000000000e-01,0.00000000000000e+00,-2.44427271048939e-04
8.52200000000000e-08,7.00000000000000e-01,0.00000000000000e+00,-8.49919025005114e-05
8.53480000000000e-08,7.00000000000000e-01,0.00000000000000e+00,9.01053655095359e-05
8.56040000000000e-08,7.00000000000000e-01,0.00000000000000e+00,3.86711720344636e-05
8.61159999999999e-08,7.00000000000000e-01,0.00000000000000e+00,-2.00057689081490e-07
8.68549385081045e-08,7.00000000000000e-01,0.00000000000000e+00,3.10244064307364e-05
8.81078277758239e-08,7.00000000000000e-01,0.00000000000000e+00,-2.25902149706900e-06
9.00000000000000e-08,7.00000000000000e-01,0.00000000000000e+00,2.56949263516063e-05
9.00100000000000e-08,7.00000000000000e-01,6.99999999999867e-02,2.05376183145534e-05
9.00300000000000e-08,7.00000000000000e-01,2.09999999999960e-01,1.43850518901020e-05
9.00700000000000e-08,7.00000000000000e-01,4.89999999999907e-01,9.20058973918891e-06
9.01000000000000e-08,7.00000000000000e-01,6.99999999999960e-01,7.54052678497014e-06
9.01080000000000e-08,7.00000000000000e-01,7.00000000000000e-01,7.57832349849996e-06
9.01240000000000e-08,7.00000000000000e-01,7.00000000000000e-01,8.81168752188410e-06
9.01560000000000e-08,7.00000000000000e-01,7.00000000000000e-01,1.25454348460369e-05
9.02200000000000e-08,7.00000000000000e-01,7.00000000000000e-01,1.54050464021838e-05
9.03480000000000e-08,7.00000000000000e-01,7.00000000000000e-01,8.81480801715254e-06
9.06040000000000e-08,7.00000000000000e-01,7.00000000000000e-01,1.21142115157603e-05
9.11159999999999e-08,7.00000000000000e-01,7.00000000000000e-01,9.89944030114868e-06
9.21399999999999e-08,7.00000000000000e-01,7.00000000000000e-01,1.11914679079153e-05
9.41879999999998e-08,7.00000000000000e-01,7.00000000000000e-01,9.23508185102576e-06
9.51000000000000e-08,7.00000000000000e-01,7.00000000000000e-01,1.04608862763695e-05
9.51100000000000e-08,6.30000000000071e-01,7.00000000000000e-01,-4.97382074741079e-05
9.51300000000000e-08,4.90000000000098e-01,7.00000000000000e-01,-1.32757660135915e-04
9.51700000000000e-08,2.10000000000151e-01,7.00000000000000e-01,-4.30064608154118e-05
9.52000000000000e-08,9.80326930744013e-14,7.00000000000000e-01,2.25226169176279e-04
9.52080000000000e-08,0.00000000000000e+00,7.00000000000000e-01,3.28093345825724e-04
9.52240000000000e-08,0.00000000000000e+00,7.00000000000000e-01,4.03268200519932e-04
9.52560000000000e-08,0.00000000000000e+00,7.00000000000000e-01,1.40363367852128e-04
9.53200000000000e-08,0.00000000000000e+00,7.00000000000000e-01,-3.24119142001464e-04
9.54480000000000e-08,0.00000000000000e+00,7.00000000000000e-01,-1.32348735963118e-04
9.57040000000000e-08,0.00000000000000e+00,7.00000000000000e-01,-1.44627204081420e-04
9.60358868346542e-08,0.00000000000000e+00,7.00000000000000e-01,1.90200191707738e-04
9.66341600034160e-08,0.00000000000000e+00,7.00000000000000e-01,-7.63531353315666e-06
9.74082227396006e-08,0.00000000000000e+00,7.00000000000000e-01,-4.91859167829484e-05
9.87801208958431e-08,0.00000000000000e+00,7.00000000000000e-01,9.50428987108397e-05
1.01523917208328e-07,0.00000000000000e+00,7.00000000000000e-01,-8.97150510574811e-05
1.05000000000000e-07,0.00000000000000e+00,7.00000000000000e-01,1.14645586159693e-04
1.05010000000000e-07,6.99999999999867e-02,7.00000000000000e-01,1.71458623448986e-04
1.05030000000000e-07,2.09999999999960e-01,7.00000000000000e-01,2.49500963326453e-04
1.05070000000000e-07,4.89999999999907e-01,7.00000000000000e-01,2.38756238638518e-04
1.05100000000000e-07,6.99999999999960e-01,7.00000000000000e-01,-1.02431846274373e-03
1.05108000000000e-07,7.00000000000000e-01,7.00000000000000e-01,-1.77410506541864e-03
1.05124000000000e-07,7.00000000000000e-01,7.00000000000000e-01,-3.22269927506833e-03
1.05156000000000e-07,7.00000000000000e-01,7.00000000000000e-01,-5.19505364696810e-03
1.05220000000000e-07,7.00000000000000e-01,7.00000000000000e-01,7.85726489624345e-03
1.05348000000000e-07,7.00000000000000e-01,7.00000000000000e-01,3.14436552868508e-01
1.05604000000000e-07,7.00000000000000e-01,7.00000000000000e-01,7.11212949584549e-01
1.05955354452985e-07,7.00000000000000e-01,7.00000000000000e-01,6.91208799605903e-01
1.06561810232734e-07,7.00000000000000e-01,7.00000000000000e-01,7.08727296759755e-01
1.07308587644023e-07,7.00000000000000e-01,7.00000000000000e-01,6.91815270375055e-01
1.08452347510606e-07,7.00000000000000e-01,7.00000000000000e-01,7.07959691033514e-01
1.10739867243770e-07,7.00000000000000e-01,7.00000000000000e-01,6.92210765466434e-01
1.14539867243770e-07,7.00000000000000e-01,7.00000000000000e-01,7.07738579423974e-01
1.15100000000000e-07,7.00000000000000e-01,7.00000000000000e-01,6.92835695946846e-01
1.15110000000000e-07,6.30000000000071e-01,7.00000000000000e-01,6.96060463434878e-01
1.15130000000000e-07,4.90000000000098e-01,7.00000000000000e-01,6.99567715344119e-01
1.15170000000000e-07,2.10000000000151e-01,7.00000000000000e-01,7.00915941145169e-01
1.15200000000000e-07,9.80326930744013e-14,7.00000000000000e-01,7.02660286655727e-01
1.15208000000000e-07,0.00000000000000e+00,7.00000000000000e-01,7.02933160230251e-01
1.15224000000000e-07,0.00000000000000e+00,7.00000000000000e-01,7.02582389925163e-01
1.15256000000000e-07,0.00000000000000e+00,7.00000000000000e-01,6.95771819105961e-01
1.15320000000000e-07,0.00000000000000e+00,7.00000000000000e-01,6.76762795474137e-01
1.15448000000000e-07,0.00000000000000e+00,7.00000000000000e-01,6.85629029040857e-01
1.15704000000000e-07,0.00000000000000e+00,7.00000000000000e-01,7.04585050136683e-01
1.16049458305813e-07,0.00000000000000e+00,7.00000000000000e-01,6.95354286545463e-01
1.16718418328558e-07,0.00000000000000e+00,7.00000000000000e-01,7.03162795443726e-01
1.18056338374047e-07,0.00000000000000e+00,7.00000000000000e-01,6.96541773219943e-01
1.20732178465025e-07,0.00000000000000e+00,7.00000000000000e-01,7.02967814046483e-01
1.24532178465025e-07,0.00000000000000e+00,7.00000000000000e-01,6.96811570138014e-01
1.25000000000000e-07,0.00000000000000e+00,7.00000000000000e-01,7.02339523999996e-01
1.25010000000000e-07,6.99999999998941e-02,7.00000000000000e-01,7.01646606952355e-01
1.25030000000000e-07,2.09999999999868e-01,7.00000000000000e-01,7.00669903193183e-01
1.25070000000000e-07,4.89999999999815e-01,7.00000000000000e-01,7.00000808364384e-01
1.25100000000000e-07,6.99999999999867e-01,7.00000000000000e-01,6.99279938587476e-01
1.25108000000000e-07,7.00000000000000e-01,6.43999999999937e-01,6.98901591548992e-01
1.25124000000000e-07,7.00000000000000e-01,5.31999999999995e-01,6.98217179206769e-01
1.25156000000000e-07,7.00000000000000e-01,3.07999999999926e-01,6.97364492612945e-01
1.25200000000000e-07,7.00000000000000e-01,0.00000000000000e+00,6.96900067530197e-01
1.25206400000000e-07,7.00000000000000e-01,0.00000000000000e+00,6.96900239624804e-01
1.25219200000000e-07,7.00000000000000e-01,0.00000000000000e+00,6.96925884355330e-01
1.25244800000000e-07,7.00000000000000e-01,0.00000000000000e+00,6.97186713521263e-01
1.25296000000000e-07,7.00000000000000e-01,0.00000000000000e+00,6.98044865821042e-01
1.25398400000000e-07,7.00000000000000e-01,0.00000000000000e+00,6.99252632581962e-01
1.25566667970774e-07,7.00000000000000e-01,0.00000000000000e+00,6.99872789141206e-01
1.25899751015328e-07,7.00000000000000e-01,0.00000000000000e+00,7.00026841885061e-01
1.26232784081032e-07,7.00000000000000e-01,0.00000000000000e+00,6.99995730595908e-01
1.26898850212440e-07,7.00000000000000e-01,0.00000000000000e+00,7.00001211702275e-01
1.28230982475255e-07,7.00000000000000e-01,0.00000000000000e+00,6.99999927121933e-01
1.30895247000885e-07,7.00000000000000e-01,0.00000000000000e+00,6.99999689193370e-01
1.34695247000885e-07,7.00000000000000e-01,0.00000000000000e+00,7.00000561198151e-01
1.35100000000000e-07,6.99999999999873e-01,0.00000000000000e+00,6.99998144295851e-01
1.35110000000000e-07,6.29999999999793e-01,0.00000000000000e+00,6.99943856287824e-01
1.35130000000000e-07,4.89999999999820e-01,0.00000000000000e+00,6.99891271179601e-01
1.35170000000000e-07,2.09999999999873e-01,0.00000000000000e+00,7.00825143103442e-01
1.35200000000000e-07,0.00000000000000e+00,0.00000000000000e+00,7.02846806251841e-01
1.35208000000000e-07,0.00000000000000e+00,0.00000000000000e+00,7.03322792727084e-01
