Time,v(clk),v(data),v(out)
1.00000000000000e-08,7.00000000000000e-01,0.00000000000000e+00,5.01892282984539e-06
1.00100000000000e-08,7.00000000000000e-01,6.99999999999983e-02,6.92580694063027e-06
1.00300000000000e-08,7.00000000000000e-01,2.09999999999995e-01,7.44913738115471e-06
1.00700000000000e-08,7.00000000000000e-01,4.89999999999988e-01,4.11122674136288e-06
1.01000000000000e-08,7.00000000000000e-01,6.99999999999995e-01,1.84779947569325e-06
1.01080000000000e-08,7.00000000000000e-01,7.00000000000000e-01,1.58763507600301e-06
1.01240000000000e-08,7.00000000000000e-01,7.00000000000000e-01,2.18284083515485e-06
1.01560000000000e-08,7.00000000000000e-01,7.00000000000000e-01,4.76569290917828e-06
1.02200000000000e-08,7.00000000000000e-01,7.00000000000000e-01,5.88563625032734e-06
1.03480000000000e-08,7.00000000000000e-01,7.00000000000000e-01,2.90340205453404e-06
1.06040000000000e-08,7.00000000000000e-01,7.00000000000000e-01,2.51516783744687e-06
1.10638781268901e-08,7.00000000000000e-01,7.00000000000000e-01,2.91939374158154e-06
1.19836343806704e-08,7.00000000000000e-01,7.00000000000000e-01,2.50577865199518e-06
1.38231468882309e-08,7.00000000000000e-01,7.00000000000000e-01,2.62477356900454e-06
1.51000000000000e-08,7.00000000000000e-01,7.00000000000000e-01,2.29879530377203e-06
1.51100000000000e-08,6.29999999999990e-01,7.00000000000000e-01,-5.76707138389698e-05
1.51300000000000e-08,4.89999999999994e-01,7.00000000000000e-01,-1.42822717281652e-04
1.51700000000000e-08,2.10000000000000e-01,7.00000000000000e-01,-5.47116970657652e-05
1.52000000000000e-08,0.00000000000000e+00,7.00000000000000e-01,2.68594656333207e-04
1.52080000000000e-08,0.00000000000000e+00,7.00000000000000e-01,3.93839459848916e-04
1.52240000000000e-08,0.00000000000000e+00,7.00000000000000e-01,5.18540460741249e-04
1.52560000000000e-08,0.00000000000000e+00,7.00000000000000e-01,3.58717331128376e-04
1.53200000000000e-08,0.00000000000000e+00,7.00000000000000e-01,-2.04127163525580e-04
1.54480000000000e-08,0.00000000000000e+00,7.00000000000000e-01,-1.73922052116283e-04
1.57040000000000e-08,0.00000000000000e+00,7.00000000000000e-01,-9.25486401539104e-05
1.60345482312278e-08,0.00000000000000e+00,7.00000000000000e-01,5.45480556375863e-05
1.65597493147355e-08,0.00000000000000e+00,7.00000000000000e-01,1.30791761300680e-04
1.74839156611878e-08,0.00000000000000e+00,7.00000000000000e-01,-1.77873567111469e-04
1.87217380800555e-08,0.00000000000000e+00,7.00000000000000e-01,2.01605054664399e-04
2.11973829177908e-08,0.00000000000000e+00,7.00000000000000e-01,-2.05725557660559e-04
2.49973829177908e-08,0.00000000000000e+00,7.00000000000000e-01,2.09886594001414e-04
2.50000000000000e-08,0.00000000000000e+00,7.00000000000000e-01,1.96233121341358e-04
2.50052341644184e-08,3.66391509285224e-02,7.00000000000000e-01,2.35413260454467e-04
2.50157024932551e-08,1.09917452785567e-01,7.00000000000000e-01,2.91823822599471e-04
2.50366391509285e-08,2.56474056499657e-01,7.00000000000000e-01,3.63342852185464e-04
2.50785124662754e-08,5.49587263927836e-01,7.00000000000000e-01,4.50377035821702e-04
2.51000000000000e-08,7.00000000000000e-01,7.00000000000000e-01,1.28652379168266e-04
2.51083746630694e-08,7.00000000000000e-01,7.00000000000000e-01,-2.76831434354030e-04
2.51251239892081e-08,7.00000000000000e-01,7.00000000000000e-01,-1.21776053717534e-03
2.51586226414856e-08,7.00000000000000e-01,7.00000000000000e-01,-3.22284109648446e-03
2.52256199460406e-08,7.00000000000000e-01,7.00000000000000e-01,-5.62717719386086e-03
2.53596145551507e-08,7.00000000000000e-01,7.00000000000000e-01,7.54799912153050e-02
2.56276037733707e-08,7.00000000000000e-01,7.00000000000000e-01,6.28669081073634e-01
2.61635822098108e-08,7.00000000000000e-01,7.00000000000000e-01,7.18908533640198e-01
2.66951737144508e-08,7.00000000000000e-01,7.00000000000000e-01,6.81307921417183e-01
2.77583567237309e-08,7.00000000000000e-01,7.00000000000000e-01,7.17045178641993e-01
2.93077660343178e-08,7.00000000000000e-01,7.00000000000000e-01,6.82513996798909e-01
3.01000000000000e-08,7.00000000000000e-01,7.00000000000000e-01,7.15831425373324e-01
3.01100000000000e-08,7.00000000000000e-01,6.30000000000037e-01,7.07597795192617e-01
3.01300000000000e-08,7.00000000000000e-01,4.90000000000017e-01,6.99730511366970e-01
3.01700000000000e-08,7.00000000000000e-01,2.10000000000023e-01,7.00106568156522e-01
3.02000000000000e-08,7.00000000000000e-01,1.68753899743024e-14,6.99963524570286e-01
3.02080000000000e-08,7.00000000000000e-01,0.00000000000000e+00,6.99976431466032e-01
3.02240000000000e-08,7.00000000000000e-01,0.00000000000000e+00,6.99984772018546e-01
3.02560000000000e-08,7.00000000000000e-01,0.00000000000000e+00,6.99977721567321e-01
3.03200000000000e-08,7.00000000000000e-01,0.00000000000000e+00,6.99983218068426e-01
3.04480000000000e-08,7.00000000000000e-01,0.00000000000000e+00,6.99992700468940e-01
3.06773992325152e-08,7.00000000000000e-01,0.00000000000000e+00,6.99984318327318e-01
3.10152622818142e-08,7.00000000000000e-01,0.00000000000000e+00,6.99989883934330e-01
3.15639217885295e-08,7.00000000000000e-01,0.00000000000000e+00,6.99987492329524e-01
3.26612408019602e-08,7.00000000000000e-01,0.00000000000000e+00,6.99990961252332e-01
3.48558788288216e-08,7.00000000000000e-01,0.00000000000000e+00,6.99990134224676e-01
3.51000000000000e-08,6.99999999999965e-01,0.00000000000000e+00,6.99990559026496e-01
3.51100000000000e-08,6.29999999999979e-01,0.00000000000000e+00,6.99935866096273e-01
3.51300000000000e-08,4.89999999999959e-01,0.00000000000000e+00,6.99885284526110e-01
3.51700000000000e-08,2.09999999999966e-01,0.00000000000000e+00,7.00842049657817e-01
3.52000000000000e-08,0.00000000000000e+00,0.00000000000000e+00,7.02811499659809e-01
3.52080000000000e-08,0.00000000000000e+00,0.00000000000000e+00,7.02997098356945e-01
3.52240000000000e-08,0.00000000000000e+00,0.00000000000000e+00,7.01946142192596e-01
3.52560000000000e-08,0.00000000000000e+00,0.00000000000000e+00,6.92472668302648e-01
3.53200000000000e-08,0.00000000000000e+00,0.00000000000000e+00,6.76579304389201e-01
3.54480000000000e-08,0.00000000000000e+00,0.00000000000000e+00,6.92816300451132e-01
3.56927847305891e-08,0.00000000000000e+00,0.00000000000000e+00,7.02596743389230e-01
3.60054798092601e-08,0.00000000000000e+00,0.00000000000000e+00,6.97069193202720e-01
3.66308699666021e-08,0.00000000000000e+00,0.00000000000000e+00,7.02003475444364e-01
3.73991723241207e-08,0.00000000000000e+00,0.00000000000000e+00,6.97873588411480e-01
3.89357770391579e-08,0.00000000000000e+00,0.00000000000000e+00,7.01805842445946e-01
3.91000000000000e-08,0.00000000000000e+00,0.00000000000000e+00,6.98762401624862e-01
3.94073209430074e-08,0.00000000000000e+00,0.00000000000000e+00,6.99860373398438e-01
4.00219628290223e-08,0.00000000000000e+00,0.00000000000000e+00,7.00003047719575e-01
4.12512466010521e-08,0.00000000000000e+00,0.00000000000000e+00,6.99891616927931e-01
4.37098141451116e-08,0.00000000000000e+00,0.00000000000000e+00,7.00020743017149e-01
4.50000000000000e-08,0.00000000000000e+00,0.00000000000000e+00,6.99913577478774e-01
4.50100000000000e-08,6.99999999999867e-02,0.00000000000000e+00,6.99978554702669e-01
4.50300000000000e-08,2.10000000000007e-01,0.00000000000000e+00,7.00032844025094e-01
4.50700000000000e-08,4.90000000000000e-01,0.00000000000000e+00,6.99986544565574e-01
4.51000000000000e-08,7.00000000000000e-01,0.00000000000000e+00,6.99896238635040e-01
4.51080000000000e-08,7.00000000000000e-01,0.00000000000000e+00,6.99859564056815e-01
4.51240000000000e-08,7.00000000000000e-01,0.00000000000000e+00,6.99829446190740e-01
4.51560000000000e-08,7.00000000000000e-01,0.00000000000000e+00,6.99860948620084e-01
4.52200000000000e-08,7.00000000000000e-01,0.00000000000000e+00,6.99891974915437e-01
4.53480000000000e-08,7.00000000000000e-01,0.00000000000000e+00,7.02036424324117e-01
4.56040000000000e-08,7.00000000000000e-01,0.00000000000000e+00,4.52003399406857e-01
4.61160000000000e-08,7.00000000000000e-01,0.00000000000000e+00,-4.07525122998573e-02
4.66211426797976e-08,7.00000000000000e-01,0.00000000000000e+00,2.65830423256509e-02
4.76314280393927e-08,7.00000000000000e-01,0.00000000000000e+00,-1.68161957404578e-02
4.86784083402296e-08,7.00000000000000e-01,0.00000000000000e+00,1.40504223480390e-02
5.00000000000000e-08,7.00000000000000e-01,0.00000000000000e+00,-9.37074148439196e-03
5.00100000000000e-08,7.00000000000000e-01,6.99999999999867e-02,-9.92053916628845e-03
5.00300000000000e-08,7.00000000000000e-01,2.09999999999960e-01,-8.91573441930255e-03
5.00700000000000e-08,7.00000000000000e-01,4.90000000000000e-01,-4.41041754284019e-03
5.01000000000000e-08,7.00000000000000e-01,7.00000000000000e-01,-2.75126826854233e-03
5.01080000000000e-08,7.00000000000000e-01,7.00000000000000e-01,-2.42129821239483e-03
5.01240000000000e-08,7.00000000000000e-01,7.00000000000000e-01,-1.80216217068313e-03
5.01560000000000e-08,7.00000000000000e-01,7.00000000000000e-01,-1.06539460948746e-03
5.02200000000000e-08,7.00000000000000e-01,7.00000000000000e-01,-3.21716988849370e-04
5.03480000000000e-08,7.00000000000000e-01,7.00000000000000e-01,5.52494024274458e-06
5.06040000000000e-08,7.00000000000000e-01,7.00000000000000e-01,-3.71770793799325e-07
5.10960130562971e-08,7.00000000000000e-01,7.00000000000000e-01,1.32240438472341e-06
5.20800391688913e-08,7.00000000000000e-01,7.00000000000000e-01,8.28829702211910e-07
5.40480913940797e-08,7.00000000000000e-01,7.00000000000000e-01,9.69777877521047e-07
5.51000000000000e-08,7.00000000000000e-01,7.00000000000000e-01,1.05900436386027e-06
5.51100000000000e-08,6.30000000000025e-01,7.00000000000000e-01,-6.19921252892897e-05
5.51300000000000e-08,4.90000000000005e-01,7.00000000000000e-01,-1.46861234984350e-04
5.51700000000000e-08,2.10000000000012e-01,7.00000000000000e-01,-5.17677731511693e-05
5.52000000000000e-08,0.00000000000000e+00,7.00000000000000e-01,2.62762535728003e-04
5.52080000000000e-08,0.00000000000000e+00,7.00000000000000e-01,3.78832630914774e-04
5.52240000000000e-08,0.00000000000000e+00,7.00000000000000e-01,4.51275103823062e-04
5.52560000000000e-08,0.00000000000000e+00,7.00000000000000e-01,-1.19233256923694e-04
5.53200000000000e-08,0.00000000000000e+00,7.00000000000000e-01,-1.27400030684403e-03
5.54480000000000e-08,0.00000000000000e+00,7.00000000000000e-01,-5.80333436905459e-04
5.57040000000000e-08,0.00000000000000e+00,7.00000000000000e-01,1.03548884514686e-04
5.60347116663024e-08,0.00000000000000e+00,7.00000000000000e-01,-6.40471227691432e-05
5.65598292640439e-08,0.00000000000000e+00,7.00000000000000e-01,2.16337933099791e-04
5.74843292567923e-08,0.00000000000000e+00,7.00000000000000e-01,-2.50438533166556e-04
5.87218745917610e-08,0.00000000000000e+00,7.00000000000000e-01,2.65297708524503e-04
6.11969652616986e-08,0.00000000000000e+00,7.00000000000000e-01,-2.65255878544906e-04
6.49969652616986e-08,0.00000000000000e+00,7.00000000000000e-01,2.66828732126934e-04
6.50000000000000e-08,0.00000000000000e+00,7.00000000000000e-01,2.44058868651378e-04
6.50060694766028e-08,4.24863362194158e-02,7.00000000000000e-01,2.78801813252363e-04
6.50182084298083e-08,1.27459008658248e-01,7.00000000000000e-01,3.27350190507267e-04
6.50424863362194e-08,2.97404353535911e-01,7.00000000000000e-01,4.04225613323088e-04
6.50910421490416e-08,6.37295043291238e-01,7.00000000000000e-01,2.93062287594209e-04
6.51000000000000e-08,6.99999999999960e-01,7.00000000000000e-01,1.27055386067151e-04
6.51097111625644e-08,7.00000000000000e-01,7.00000000000000e-01,-3.45232712100296e-04
6.51291334876933e-08,7.00000000000000e-01,7.00000000000000e-01,-1.44701070427165e-03
6.51679781379511e-08,7.00000000000000e-01,7.00000000000000e-01,-3.69648406577297e-03
6.52456674384666e-08,7.00000000000000e-01,7.00000000000000e-01,-5.32881509954103e-03
6.54010460394976e-08,7.00000000000000e-01,7.00000000000000e-01,1.70332569634741e-01
6.57118032415596e-08,7.00000000000000e-01,7.00000000000000e-01,6.78490336245025e-01
6.63333176456836e-08,7.00000000000000e-01,7.00000000000000e-01,7.07120745263759e-01
6.70541424411807e-08,7.00000000000000e-01,7.00000000000000e-01,6.92709457953603e-01
6.81763261224496e-08,7.00000000000000e-01,7.00000000000000e-01,7.06482667459882e-01
6.98263831816344e-08,7.00000000000000e-01,7.00000000000000e-01,6.93346551667667e-01
7.01000000000000e-08,7.00000000000000e-01,7.00000000000000e-01,7.05438110413997e-01
7.01100000000000e-08,7.00000000000000e-01,6.30000000000013e-01,7.02663754747153e-01
7.01300000000000e-08,7.00000000000000e-01,4.90000000000040e-01,6.99962322126598e-01
7.01700000000000e-08,7.00000000000000e-01,2.10000000000093e-01,7.00025563899755e-01
7.02000000000000e-08,7.00000000000000e-01,4.00790511889682e-14,6.99987599246164e-01
7.02080000000000e-08,7.00000000000000e-01,0.00000000000000e+00,6.99991819307508e-01
7.02240000000000e-08,7.00000000000000e-01,0.00000000000000e+00,6.99990534136065e-01
7.02560000000000e-08,7.00000000000000e-01,0.00000000000000e+00,6.99981445914676e-01
7.03200000000000e-08,7.00000000000000e-01,0.00000000000000e+00,6.99986983470464e-01
7.04480000000000e-08,7.00000000000000e-01,0.00000000000000e+00,6.99996300984362e-01
7.06774706355025e-08,7.00000000000000e-01,0.00000000000000e+00,6.99988008724155e-01
7.10152760812526e-08,7.00000000000000e-01,0.00000000000000e+00,6.99993276194134e-01
7.15642664819075e-08,7.00000000000000e-01,0.00000000000000e+00,6.99990677562690e-01
7.26622472832173e-08,7.00000000000000e-01,0.00000000000000e+00,6.99993694600127e-01
7.48582088858368e-08,7.00000000000000e-01,0.00000000000000e+00,6.99992272210065e-01
7.51000000000000e-08,7.00000000000000e-01,0.00000000000000e+00,6.99992608807322e-01
7.51100000000000e-08,6.30000000000071e-01,0.00000000000000e+00,6.99937979369076e-01
7.51300000000000e-08,4.90000000000098e-01,0.00000000000000e+00,6.99887380457669e-01
7.51700000000000e-08,2.10000000000151e-01,0.00000000000000e+00,7.00846179564513e-01
7.52000000000000e-08,9.80326930744013e-14,0.00000000000000e+00,7.02859897077822e-01
7.52080000000000e-08,0.00000000000000e+00,0.00000000000000e+00,7.03103025839123e-01
7.52240000000000e-08,0.00000000000000e+00,0.00000000000000e+00,7.02276314658532e-01
7.52560000000000e-08,0.00000000000000e+00,0.00000000000000e+00,6.93254573354365e-01
7.53200000000000e-08,0.00000000000000e+00,0.00000000000000e+00,6.77067330031482e-01
7.54480000000000e-08,0.00000000000000e+00,0.00000000000000e+00,6.92628638690062e-01
7.56928301737513e-08,0.00000000000000e+00,0.00000000000000e+00,7.02723483476607e-01
7.60055938971898e-08,0.00000000000000e+00,0.00000000000000e+00,6.96967132713892e-01
7.66311213440669e-08,0.00000000000000e+00,0.00000000000000e+00,7.02094143108559e-01
7.73994609783989e-08,0.00000000000000e+00,0.00000000000000e+00,6.97790154845454e-01
7.81000000000000e-08,0.00000000000000e+00,0.00000000000000e+00,7.01748551282974e-01
7.82536679268664e-08,0.00000000000000e+00,0.00000000000000e+00,7.00108435670700e-01
7.85610037805992e-08,0.00000000000000e+00,0.00000000000000e+00,6.99755729103854e-01
7.91756754880649e-08,0.00000000000000e+00,0.00000000000000e+00,7.00065511592083e-01
8.04050189029962e-08,0.00000000000000e+00,0.00000000000000e+00,6.99811815722843e-01
8.28637057328588e-08,0.00000000000000e+00,0.00000000000000e+00,7.00086658848445e-01
8.50000000000000e-08,0.00000000000000e+00,0.00000000000000e+00,6.99844534115043e-01
8.50100000000000e-08,6.99999999999867e-02,0.00000000000000e+00,6.99926502333702e-01
8.50300000000000e-08,2.09999999999960e-01,0.00000000000000e+00,7.00006535670766e-01
8.50700000000000e-08,4.89999999999907e-01,0.00000000000000e+00,6.99984551864254e-01
8.51000000000000e-08,6.99999999999960e-01,0.00000000000000e+00,6.99895787292185e-01
8.51080000000000e-08,7.00000000000000e-01,0.00000000000000e+00,6.99857291797010e-01
8.51240000000000e-08,7.00000000000000e-01,0.00000000000000e+00,6.99825570174318e-01
8.51560000000000e-08,7.00000000000000e-01,0.00000000000000e+00,6.99859958055077e-01
8.52200000000000e-08,7.00000000000000e-01,0.00000000000000e+00,6.99898027489901e-01
8.53480000000000e-08,7.00000000000000e-01,0.00000000000000e+00,7.02036173615350e-01
8.56040000000000e-08,7.00000000000000e-01,0.00000000000000e+00,4.51938681031920e-01
8.61159999999999e-08,7.00000000000000e-01,0.00000000000000e+00,-4.07718214911314e-02
8.66212747332908e-08,7.00000000000000e-01,0.00000000000000e+00,2.66016495143033e-02
8.76318241998725e-08,7.00000000000000e-01,0.00000000000000e+00,-1.68313617146713e-02
8.86788798490107e-08,7.00000000000000e-01,0.00000000000000e+00,1.40639925986038e-02
9.00000000000000e-08,7.00000000000000e-01,0.00000000000000e+00,-9.38105790608421e-03
9.00100000000000e-08,7.00000000000000e-01,6.99999999999867e-02,-9.92837465429056e-03
9.00300000000000e-08,7.00000000000000e-01,2.09999999999960e-01,-8.92023772355210e-03
9.00700000000000e-08,7.00000000000000e-01,4.89999999999907e-01,-4.41286491930786e-03
9.01000000000000e-08,7.00000000000000e-01,6.99999999999960e-01,-2.75267826549907e-03
9.01080000000000e-08,7.00000000000000e-01,7.00000000000000e-01,-2.42255547731283e-03
9.01240000000000e-08,7.00000000000000e-01,7.00000000000000e-01,-1.80308409389446e-03
9.01560000000000e-08,7.00000000000000e-01,7.00000000000000e-01,-1.06594254938320e-03
9.02200000000000e-08,7.00000000000000e-01,7.00000000000000e-01,-3.21888333168610e-04
9.03480000000000e-08,7.00000000000000e-01,7.00000000000000e-01,5.52693252202363e-06
9.06040000000000e-08,7.00000000000000e-01,7.00000000000000e-01,-3.71909768780154e-07
9.10960993473721e-08,7.00000000000000e-01,7.00000000000000e-01,1.32230705120716e-06
9.20802980421163e-08,7.00000000000000e-01,7.00000000000000e-01,8.29029301560244e-07
9.40486954316048e-08,7.00000000000000e-01,7.00000000000000e-01,9.69573842872495e-07
9.51000000000000e-08,7.00000000000000e-01,7.00000000000000e-01,1.05929050443938e-06
9.51100000000000e-08,6.30000000000071e-01,7.00000000000000e-01,-6.19917533658115e-05
9.51300000000000e-08,4.90000000000098e-01,7.00000000000000e-01,-1.46862553043622e-04
9.51700000000000e-08,2.10000000000151e-01,7.00000000000000e-01,-5.17705166007618e-05
9.52000000000000e-08,9.80326930744013e-14,7.00000000000000e-01,2.62760762200193e-04
9.52080000000000e-08,0.00000000000000e+00,7.00000000000000e-01,3.78831526964940e-04
9.52240000000000e-08,0.00000000000000e+00,7.00000000000000e-01,4.51276620979851e-04
9.52560000000000e-08,0.00000000000000e+00,7.00000000000000e-01,-1.19218124170706e-04
9.53200000000000e-08,0.00000000000000e+00,7.00000000000000e-01,-1.27393277530598e-03
9.54480000000000e-08,0.00000000000000e+00,7.00000000000000e-01,-5.80294761298367e-04
9.57040000000000e-08,0.00000000000000e+00,7.00000000000000e-01,1.03530446524242e-04
9.60347117493690e-08,0.00000000000000e+00,7.00000000000000e-01,-6.40357871269127e-05
9.65598293350768e-08,0.00000000000000e+00,7.00000000000000e-01,2.16329209315538e-04
9.74843293540827e-08,0.00000000000000e+00,7.00000000000000e-01,-2.50430819550670e-04
9.87218749182844e-08,0.00000000000000e+00,7.00000000000000e-01,2.65290685485534e-04
1.01196966046688e-07,0.00000000000000e+00,7.00000000000000e-01,-2.65249147531136e-04
1.04996966046688e-07,0.00000000000000e+00,7.00000000000000e-01,2.66822230480434e-04
1.05000000000000e-07,0.00000000000000e+00,7.00000000000000e-01,2.44060802773866e-04
1.05006067906624e-07,4.24753463687629e-02,7.00000000000000e-01,2.78798649107279e-04
1.05018203719872e-07,1.27426039106289e-01,7.00000000000000e-01,3.27341260786193e-04
1.05042475346369e-07,2.97327424581341e-01,7.00000000000000e-01,4.04179727225090e-04
1.05091018599362e-07,6.37130195531444e-01,7.00000000000000e-01,2.93308531924698e-04
1.05100000000000e-07,6.99999999999960e-01,7.00000000000000e-01,1.26936835170177e-04
1.05109708650599e-07,7.00000000000000e-01,7.00000000000000e-01,-3.45257074951887e-04
1.05129125951796e-07,7.00000000000000e-01,7.00000000000000e-01,-1.44677467233666e-03
1.05167960554190e-07,7.00000000000000e-01,7.00000000000000e-01,-3.69578802454428e-03
1.05245629758979e-07,7.00000000000000e-01,7.00000000000000e-01,-5.33024645233240e-03
1.05400968168556e-07,7.00000000000000e-01,7.00000000000000e-01,1.70145321180614e-01
1.05711644987710e-07,7.00000000000000e-01,7.00000000000000e-01,6.78423393111371e-01
