Time,v(clk),v(data),v(out)
1.00000000000000e-08,7.00000000000000e-01,0.00000000000000e+00,-1.15261006908363e-05
1.00100000000000e-08,7.00000000000000e-01,6.99999999999983e-02,-5.49816305248085e-06
1.00300000000000e-08,7.00000000000000e-01,2.09999999999995e-01,1.14878023973336e-06
1.00700000000000e-08,7.00000000000000e-01,4.89999999999988e-01,2.78793792770488e-06
1.01000000000000e-08,7.00000000000000e-01,6.99999999999995e-01,-4.79483650728252e-07
1.01080000000000e-08,7.00000000000000e-01,7.00000000000000e-01,-1.22286434807439e-06
1.01240000000000e-08,7.00000000000000e-01,7.00000000000000e-01,-1.28544489517990e-06
1.01560000000000e-08,7.00000000000000e-01,7.00000000000000e-01,1.73115799360218e-06
1.02200000000000e-08,7.00000000000000e-01,7.00000000000000e-01,6.96946719175306e-06
1.03480000000000e-08,7.00000000000000e-01,7.00000000000000e-01,6.64704029714608e-06
1.06040000000000e-08,7.00000000000000e-01,7.00000000000000e-01,2.83862878740909e-06
1.10725222341580e-08,7.00000000000000e-01,7.00000000000000e-01,4.13682320480127e-06
1.20095667024740e-08,7.00000000000000e-01,7.00000000000000e-01,3.57412013233908e-06
1.38836556391061e-08,7.00000000000000e-01,7.00000000000000e-01,3.40658853280069e-06
1.51000000000000e-08,7.00000000000000e-01,7.00000000000000e-01,3.23586869187698e-06
1.51100000000000e-08,6.29999999999990e-01,7.00000000000000e-01,-6.86213341942604e-05
1.51300000000000e-08,4.89999999999994e-01,7.00000000000000e-01,-1.91595173368440e-04
1.51700000000000e-08,2.10000000000000e-01,7.00000000000000e-01,-2.43425253731909e-04
1.52000000000000e-08,0.00000000000000e+00,7.00000000000000e-01,-1.97307376707118e-06
1.52080000000000e-08,0.00000000000000e+00,7.00000000000000e-01,1.54584390755066e-04
1.52240000000000e-08,0.00000000000000e+00,7.00000000000000e-01,3.77062212400608e-04
1.52560000000000e-08,0.00000000000000e+00,7.00000000000000e-01,4.90333655913576e-04
1.53200000000000e-08,0.00000000000000e+00,7.00000000000000e-01,2.86284354067343e-04
1.54480000000000e-08,0.00000000000000e+00,7.00000000000000e-01,-1.99821747839939e-04
1.57040000000000e-08,0.00000000000000e+00,7.00000000000000e-01,-1.20265233498302e-04
1.62160000000000e-08,0.00000000000000e+00,7.00000000000000e-01,-1.47748365514851e-04
1.68401946770279e-08,0.00000000000000e+00,7.00000000000000e-01,1.84802222425291e-04
1.80885840310837e-08,0.00000000000000e+00,7.00000000000000e-01,-5.07630516763061e-05
1.95593089801985e-08,0.00000000000000e+00,7.00000000000000e-01,-2.13466516625167e-05
2.23832230378834e-08,0.00000000000000e+00,7.00000000000000e-01,5.23501414939971e-05
2.50000000000000e-08,0.00000000000000e+00,7.00000000000000e-01,-7.36456626259747e-05
2.50100000000000e-08,6.99999999999867e-02,7.00000000000000e-01,7.91632871581308e-05
2.50300000000000e-08,2.10000000000007e-01,7.00000000000000e-01,3.26319908763126e-04
2.50700000000000e-08,4.90000000000000e-01,7.00000000000000e-01,5.82758365207464e-04
2.51000000000000e-08,7.00000000000000e-01,7.00000000000000e-01,4.47948564493497e-04
2.51080000000000e-08,7.00000000000000e-01,7.00000000000000e-01,2.40517177024224e-04
2.51240000000000e-08,7.00000000000000e-01,7.00000000000000e-01,-3.25318628739135e-04
2.51560000000000e-08,7.00000000000000e-01,7.00000000000000e-01,-1.92387542167659e-03
2.52200000000000e-08,7.00000000000000e-01,7.00000000000000e-01,-4.78211184092040e-03
2.53480000000000e-08,7.00000000000000e-01,7.00000000000000e-01,1.20388284126068e-03
2.56040000000000e-08,7.00000000000000e-01,7.00000000000000e-01,3.17077108399892e-01
2.61160000000000e-08,7.00000000000000e-01,7.00000000000000e-01,7.14937825681570e-01
2.68006679684537e-08,7.00000000000000e-01,7.00000000000000e-01,6.89083859798342e-01
2.80006164314744e-08,7.00000000000000e-01,7.00000000000000e-01,7.11017641493773e-01
2.94966133724986e-08,7.00000000000000e-01,7.00000000000000e-01,6.89781545241936e-01
3.17468377181757e-08,7.00000000000000e-01,7.00000000000000e-01,7.10054606672619e-01
3.51000000000000e-08,6.99999999999965e-01,7.00000000000000e-01,6.90275117330050e-01
3.51100000000000e-08,6.29999999999979e-01,7.00000000000000e-01,6.93280045672992e-01
3.51300000000000e-08,4.89999999999959e-01,7.00000000000000e-01,6.97397424322181e-01
3.51700000000000e-08,2.09999999999966e-01,7.00000000000000e-01,7.00416394597843e-01
3.52000000000000e-08,0.00000000000000e+00,7.00000000000000e-01,7.02189056152936e-01
3.52080000000000e-08,0.00000000000000e+00,7.00000000000000e-01,7.02668733832448e-01
3.52240000000000e-08,0.00000000000000e+00,7.00000000000000e-01,7.03297386502916e-01
3.52560000000000e-08,0.00000000000000e+00,7.00000000000000e-01,7.03016545008478e-01
3.53200000000000e-08,0.00000000000000e+00,7.00000000000000e-01,6.94799581783087e-01
3.54480000000000e-08,0.00000000000000e+00,7.00000000000000e-01,6.72874405634874e-01
3.57040000000000e-08,0.00000000000000e+00,7.00000000000000e-01,6.86732439747044e-01
3.62160000000000e-08,0.00000000000000e+00,7.00000000000000e-01,7.05583988327041e-01
3.68612666666440e-08,0.00000000000000e+00,7.00000000000000e-01,6.94803113199366e-01
3.81517999999318e-08,0.00000000000000e+00,7.00000000000000e-01,7.03770413864424e-01
4.07328666665076e-08,0.00000000000000e+00,7.00000000000000e-01,6.96075233500569e-01
4.45328666665076e-08,0.00000000000000e+00,7.00000000000000e-01,7.03467616145076e-01
4.50000000000000e-08,0.00000000000000e+00,7.00000000000000e-01,6.97468981966463e-01
4.50100000000000e-08,6.99999999999867e-02,7.00000000000000e-01,6.98010638990253e-01
4.50300000000000e-08,2.10000000000007e-01,7.00000000000000e-01,6.98872460297382e-01
4.50700000000000e-08,4.90000000000000e-01,7.00000000000000e-01,6.99743257892157e-01
4.51000000000000e-08,7.00000000000000e-01,7.00000000000000e-01,6.99781324365537e-01
4.51080000000000e-08,7.00000000000000e-01,6.44000000000029e-01,6.99624288931681e-01
4.51240000000000e-08,7.00000000000000e-01,5.31999999999995e-01,6.99248409247424e-01
4.51560000000000e-08,7.00000000000000e-01,3.08000000000019e-01,6.98435852107504e-01
4.52000000000000e-08,7.00000000000000e-01,4.00790511889682e-14,6.97675014701632e-01
4.52064000000000e-08,7.00000000000000e-01,0.00000000000000e+00,6.97612293356068e-01
4.52192000000000e-08,7.00000000000000e-01,0.00000000000000e+00,6.97487206246117e-01
4.52448000000000e-08,7.00000000000000e-01,0.00000000000000e+00,6.97266226518502e-01
4.52960000000000e-08,7.00000000000000e-01,0.00000000000000e+00,6.97006961281780e-01
4.53984000000000e-08,7.00000000000000e-01,0.00000000000000e+00,6.97331177437845e-01
4.56032000000000e-08,7.00000000000000e-01,0.00000000000000e+00,6.98716864385026e-01
4.59295191686780e-08,7.00000000000000e-01,0.00000000000000e+00,6.99801235372207e-01
4.65577788681604e-08,7.00000000000000e-01,0.00000000000000e+00,7.00001693333349e-01
4.72073467251157e-08,7.00000000000000e-01,0.00000000000000e+00,7.00032331822398e-01
4.85064824390264e-08,7.00000000000000e-01,0.00000000000000e+00,6.99965434583185e-01
5.11047538668476e-08,7.00000000000000e-01,0.00000000000000e+00,7.00034360735924e-01
5.49047538668476e-08,7.00000000000000e-01,0.00000000000000e+00,6.99966236264088e-01
5.51000000000000e-08,7.00000000000000e-01,0.00000000000000e+00,7.00015957394041e-01
5.51100000000000e-08,6.30000000000025e-01,0.00000000000000e+00,6.99947593408706e-01
5.51300000000000e-08,4.90000000000005e-01,0.00000000000000e+00,6.99856647941513e-01
5.51700000000000e-08,2.10000000000012e-01,0.00000000000000e+00,7.00481512051064e-01
5.52000000000000e-08,0.00000000000000e+00,0.00000000000000e+00,7.02171863039073e-01
5.52080000000000e-08,0.00000000000000e+00,0.00000000000000e+00,7.02676634538126e-01
5.52240000000000e-08,0.00000000000000e+00,0.00000000000000e+00,7.03419342823396e-01
5.52560000000000e-08,0.00000000000000e+00,0.00000000000000e+00,7.04093284105907e-01
5.53200000000000e-08,0.00000000000000e+00,0.00000000000000e+00,7.04866990257003e-01
5.54480000000000e-08,0.00000000000000e+00,0.00000000000000e+00,7.03580320876653e-01
5.57040000000000e-08,0.00000000000000e+00,0.00000000000000e+00,6.99246119419998e-01
5.61014763604937e-08,0.00000000000000e+00,0.00000000000000e+00,7.00084931695858e-01
5.67216611733960e-08,0.00000000000000e+00,0.00000000000000e+00,6.99725905601347e-01
5.76340031343589e-08,0.00000000000000e+00,0.00000000000000e+00,6.99933022538832e-01
5.92956270563618e-08,0.00000000000000e+00,0.00000000000000e+00,6.99855717542563e-01
6.26188749003676e-08,0.00000000000000e+00,0.00000000000000e+00,6.99934842474958e-01
6.50000000000000e-08,0.00000000000000e+00,0.00000000000000e+00,6.99918810507694e-01
6.50100000000000e-08,6.99999999999867e-02,0.00000000000000e+00,6.99962611443143e-01
6.50300000000000e-08,2.09999999999960e-01,0.00000000000000e+00,7.00022659828560e-01
6.50700000000000e-08,4.89999999999907e-01,0.00000000000000e+00,7.00036882577824e-01
6.51000000000000e-08,6.99999999999960e-01,0.00000000000000e+00,6.99897061116033e-01
6.51080000000000e-08,7.00000000000000e-01,0.00000000000000e+00,6.99824065991708e-01
6.51240000000000e-08,7.00000000000000e-01,0.00000000000000e+00,6.99718090617284e-01
6.51560000000000e-08,7.00000000000000e-01,0.00000000000000e+00,6.99650536773626e-01
6.52200000000000e-08,7.00000000000000e-01,0.00000000000000e+00,6.99658555558307e-01
6.53480000000000e-08,7.00000000000000e-01,0.00000000000000e+00,7.00494939941492e-01
6.56040000000000e-08,7.00000000000000e-01,0.00000000000000e+00,7.13270006801422e-01
6.61159999999999e-08,7.00000000000000e-01,0.00000000000000e+00,2.03336983410442e-01
6.67381105831990e-08,7.00000000000000e-01,0.00000000000000e+00,-7.73962566772638e-02
6.76205123430178e-08,7.00000000000000e-01,0.00000000000000e+00,6.35387881377143e-02
6.89538151241007e-08,7.00000000000000e-01,0.00000000000000e+00,-4.46103527322252e-02
7.05794427462278e-08,7.00000000000000e-01,0.00000000000000e+00,4.05204683924990e-02
7.36834616862660e-08,7.00000000000000e-01,0.00000000000000e+00,-3.39479088957715e-02
7.51000000000000e-08,7.00000000000000e-01,0.00000000000000e+00,2.93360220414736e-02
7.51100000000000e-08,6.30000000000071e-01,0.00000000000000e+00,2.58231037859727e-02
7.51300000000000e-08,4.90000000000098e-01,0.00000000000000e+00,1.96719941504317e-02
7.51700000000000e-08,2.10000000000151e-01,0.00000000000000e+00,1.13477695718140e-02
7.52000000000000e-08,9.80326930744013e-14,0.00000000000000e+00,7.75009731412665e-03
7.52080000000000e-08,0.00000000000000e+00,0.00000000000000e+00,7.15887280829243e-03
7.52240000000000e-08,0.00000000000000e+00,0.00000000000000e+00,6.00950306933296e-03
7.52560000000000e-08,0.00000000000000e+00,0.00000000000000e+00,4.09302928456542e-03
7.53200000000000e-08,0.00000000000000e+00,0.00000000000000e+00,1.25248757788145e-03
7.54480000000000e-08,0.00000000000000e+00,0.00000000000000e+00,-1.77720716429915e-03
7.57040000000000e-08,0.00000000000000e+00,0.00000000000000e+00,-4.86780494166568e-04
7.60910065646089e-08,0.00000000000000e+00,0.00000000000000e+00,4.63145852080734e-04
7.67680726654425e-08,0.00000000000000e+00,0.00000000000000e+00,-3.74191104205741e-04
7.77021994211677e-08,0.00000000000000e+00,0.00000000000000e+00,3.37535027772768e-04
7.95704529326180e-08,0.00000000000000e+00,0.00000000000000e+00,-3.11504260342678e-04
8.33069599555187e-08,0.00000000000000e+00,0.00000000000000e+00,3.03986919217954e-04
8.50000000000000e-08,0.00000000000000e+00,0.00000000000000e+00,-2.78616496088948e-04
8.50100000000000e-08,6.99999999999867e-02,0.00000000000000e+00,-9.12517139657343e-05
8.50300000000000e-08,2.09999999999960e-01,0.00000000000000e+00,1.62754068413914e-04
8.50700000000000e-08,4.89999999999907e-01,0.00000000000000e+00,2.82790901805982e-04
8.51000000000000e-08,6.99999999999960e-01,0.00000000000000e+00,1.10992335492582e-04
8.51080000000000e-08,7.00000000000000e-01,0.00000000000000e+00,2.09872450586401e-06
8.51240000000000e-08,7.00000000000000e-01,0.00000000000000e+00,-1.68351070207531e-04
8.51560000000000e-08,7.00000000000000e-01,0.00000000000000e+00,-3.09549162042330e-04
8.52200000000000e-08,7.00000000000000e-01,0.00000000000000e+00,-2.85051891830070e-04
8.53480000000000e-08,7.00000000000000e-01,0.00000000000000e+00,-9.63728293404131e-05
8.56040000000000e-08,7.00000000000000e-01,0.00000000000000e+00,8.47639711331442e-05
8.61159999999999e-08,7.00000000000000e-01,0.00000000000000e+00,1.60355500215190e-05
8.71399999999999e-08,7.00000000000000e-01,0.00000000000000e+00,-9.65351225332665e-06
8.85298773503807e-08,7.00000000000000e-01,0.00000000000000e+00,1.99892223327440e-05
9.00000000000000e-08,7.00000000000000e-01,0.00000000000000e+00,-1.11747634393864e-05
9.00100000000000e-08,7.00000000000000e-01,6.99999999999867e-02,-5.22311080568272e-06
9.00300000000000e-08,7.00000000000000e-01,2.09999999999960e-01,-1.15266521854424e-06
9.00700000000000e-08,7.00000000000000e-01,4.89999999999907e-01,2.01485147099945e-06
9.01000000000000e-08,7.00000000000000e-01,6.99999999999960e-01,-1.06546401362762e-06
9.01080000000000e-08,7.00000000000000e-01,7.00000000000000e-01,-1.69215319691801e-06
9.01240000000000e-08,7.00000000000000e-01,7.00000000000000e-01,-1.61994714976965e-06
9.01560000000000e-08,7.00000000000000e-01,7.00000000000000e-01,1.43116008528843e-06
9.02200000000000e-08,7.00000000000000e-01,7.00000000000000e-01,6.64987371679082e-06
9.03480000000000e-08,7.00000000000000e-01,7.00000000000000e-01,6.41591028125582e-06
9.06040000000000e-08,7.00000000000000e-01,7.00000000000000e-01,2.94021806844513e-06
9.10955896130958e-08,7.00000000000000e-01,7.00000000000000e-01,4.16519057678741e-06
9.20787688392873e-08,7.00000000000000e-01,7.00000000000000e-01,3.51882147975671e-06
9.40451272916705e-08,7.00000000000000e-01,7.00000000000000e-01,3.42712533675429e-06
9.51000000000000e-08,7.00000000000000e-01,7.00000000000000e-01,3.20589903469483e-06
9.51100000000000e-08,6.30000000000071e-01,7.00000000000000e-01,-6.89068259111317e-05
9.51300000000000e-08,4.90000000000098e-01,7.00000000000000e-01,-1.91656910902636e-04
9.51700000000000e-08,2.10000000000151e-01,7.00000000000000e-01,-2.43369077430229e-04
9.52000000000000e-08,9.80326930744013e-14,7.00000000000000e-01,-1.82793218534566e-06
9.52080000000000e-08,0.00000000000000e+00,7.00000000000000e-01,1.54725965913996e-04
9.52240000000000e-08,0.00000000000000e+00,7.00000000000000e-01,3.77193246659913e-04
9.52560000000000e-08,0.00000000000000e+00,7.00000000000000e-01,4.90436284912354e-04
9.53200000000000e-08,0.00000000000000e+00,7.00000000000000e-01,2.86359740627531e-04
9.54480000000000e-08,0.00000000000000e+00,7.00000000000000e-01,-1.99779195530575e-04
9.57040000000000e-08,0.00000000000000e+00,7.00000000000000e-01,-1.20290475611334e-04
9.62159999999999e-08,0.00000000000000e+00,7.00000000000000e-01,-1.47734257870624e-04
9.68401793807456e-08,0.00000000000000e+00,7.00000000000000e-01,1.84785644493026e-04
9.80885381422369e-08,0.00000000000000e+00,7.00000000000000e-01,-5.07410540523546e-05
9.95592891436150e-08,0.00000000000000e+00,7.00000000000000e-01,-2.13675669224513e-05
1.02383087460624e-07,0.00000000000000e+00,7.00000000000000e-01,5.23715973339057e-05
1.05000000000000e-07,0.00000000000000e+00,7.00000000000000e-01,-7.36652404652979e-05
1.05010000000000e-07,6.99999999999867e-02,7.00000000000000e-01,7.91462287633854e-05
1.05030000000000e-07,2.09999999999960e-01,7.00000000000000e-01,3.26305740382428e-04
1.05070000000000e-07,4.89999999999907e-01,7.00000000000000e-01,5.82748321224763e-04
1.05100000000000e-07,6.99999999999960e-01,7.00000000000000e-01,4.47933190010838e-04
1.05108000000000e-07,7.00000000000000e-01,7.00000000000000e-01,2.40496527534412e-04
1.05124000000000e-07,7.00000000000000e-01,7.00000000000000e-01,-3.25349650137904e-04
1.05156000000000e-07,7.00000000000000e-01,7.00000000000000e-01,-1.92391454639308e-03
1.05220000000000e-07,7.00000000000000e-01,7.00000000000000e-01,-4.78213622758823e-03
1.05348000000000e-07,7.00000000000000e-01,7.00000000000000e-01,1.20409960342236e-03
1.05604000000000e-07,7.00000000000000e-01,7.00000000000000e-01,3.17078565736942e-01
1.06116000000000e-07,7.00000000000000e-01,7.00000000000000e-01,7.14938075732220e-01
1.06800666616512e-07,7.00000000000000e-01,7.00000000000000e-01,6.89083688982405e-01
1.08000616257047e-07,7.00000000000000e-01,7.00000000000000e-01,7.11017801484879e-01
1.09496611945078e-07,7.00000000000000e-01,7.00000000000000e-01,6.89781394808417e-01
1.11746838414217e-07,7.00000000000000e-01,7.00000000000000e-01,7.10054749073746e-01
1.15100000000000e-07,7.00000000000000e-01,7.00000000000000e-01,6.90274976476539e-01
1.15110000000000e-07,6.30000000000071e-01,7.00000000000000e-01,6.93279946995931e-01
1.15130000000000e-07,4.90000000000098e-01,7.00000000000000e-01,6.97397384236219e-01
1.15170000000000e-07,2.10000000000151e-01,7.00000000000000e-01,7.00416390946753e-01
1.15200000000000e-07,9.80326930744013e-14,7.00000000000000e-01,7.02189055083406e-01
1.15208000000000e-07,0.00000000000000e+00,7.00000000000000e-01,7.02668732855748e-01
1.15224000000000e-07,0.00000000000000e+00,7.00000000000000e-01,7.03297385539765e-01
1.15256000000000e-07,0.00000000000000e+00,7.00000000000000e-01,7.03016542694378e-01
1.15320000000000e-07,0.00000000000000e+00,7.00000000000000e-01,6.94799573621796e-01
1.15448000000000e-07,0.00000000000000e+00,7.00000000000000e-01,6.72874398526583e-01
1.15704000000000e-07,0.00000000000000e+00,7.00000000000000e-01,6.86732442615117e-01
1.16216000000000e-07,0.00000000000000e+00,7.00000000000000e-01,7.05583986155051e-01
1.16861266670432e-07,0.00000000000000e+00,7.00000000000000e-01,6.94803114959112e-01
1.18151800011295e-07,0.00000000000000e+00,7.00000000000000e-01,7.03770412363935e-01
1.20732866693021e-07,0.00000000000000e+00,7.00000000000000e-01,6.96075234938972e-01
1.24532866693021e-07,0.00000000000000e+00,7.00000000000000e-01,7.03467614800509e-01
1.25000000000000e-07,0.00000000000000e+00,7.00000000000000e-01,6.97468982963900e-01
1.25010000000000e-07,6.99999999998941e-02,7.00000000000000e-01,6.98010639836173e-01
1.25030000000000e-07,2.09999999999868e-01,7.00000000000000e-01,6.98872460852909e-01
1.25070000000000e-07,4.89999999999815e-01,7.00000000000000e-01,6.99743258069975e-01
1.25100000000000e-07,6.99999999999867e-01,7.00000000000000e-01,6.99781324417689e-01
1.25108000000000e-07,7.00000000000000e-01,6.43999999999937e-01,6.99624288970236e-01
1.25124000000000e-07,7.00000000000000e-01,5.31999999999995e-01,6.99248409245398e-01
1.25156000000000e-07,7.00000000000000e-01,3.07999999999926e-01,6.98435852090008e-01
1.25200000000000e-07,7.00000000000000e-01,0.00000000000000e+00,6.97675014732114e-01
1.25206400000000e-07,7.00000000000000e-01,0.00000000000000e+00,6.97612293388060e-01
1.25219200000000e-07,7.00000000000000e-01,0.00000000000000e+00,6.97487206281082e-01
1.25244800000000e-07,7.00000000000000e-01,0.00000000000000e+00,6.97266226559309e-01
1.25296000000000e-07,7.00000000000000e-01,0.00000000000000e+00,6.97006961412507e-01
1.25398400000000e-07,7.00000000000000e-01,0.00000000000000e+00,6.97331177810938e-01
1.25603200000000e-07,7.00000000000000e-01,0.00000000000000e+00,6.98716864341942e-01
1.25929519099260e-07,7.00000000000000e-01,0.00000000000000e+00,6.99801235068156e-01
1.26557778847653e-07,7.00000000000000e-01,0.00000000000000e+00,7.00001693436706e-01
1.27207346670121e-07,7.00000000000000e-01,0.00000000000000e+00,7.00032331769791e-01
1.28506482315057e-07,7.00000000000000e-01,0.00000000000000e+00,6.99965434627444e-01
1.31104753604929e-07,7.00000000000000e-01,0.00000000000000e+00,7.00034360694664e-01
1.34904753604929e-07,7.00000000000000e-01,0.00000000000000e+00,6.99966236304123e-01
1.35100000000000e-07,6.99999999999873e-01,0.00000000000000e+00,7.00015957388235e-01
1.35110000000000e-07,6.29999999999793e-01,0.00000000000000e+00,6.99947593418907e-01
1.35130000000000e-07,4.89999999999820e-01,0.00000000000000e+00,6.99856647954893e-01
1.35170000000000e-07,2.09999999999873e-01,0.00000000000000e+00,7.00481512031604e-01
1.35200000000000e-07,0.00000000000000e+00,0.00000000000000e+00,7.02171863035329e-01
1.35208000000000e-07,0.00000000000000e+00,0.00000000000000e+00,7.02676634535869e-01
1.35224000000000e-07,0.00000000000000e+00,0.00000000000000e+00,7.03419342817634e-01
1.35256000000000e-07,0.00000000000000e+00,0.00000000000000e+00,7.04093284107228e-01
