Time,v(clk),v(data),v(out)
1.00000000000000e-08,7.00000000000000e-01,0.00000000000000e+00,-2.50980494484639e-06
1.00100000000000e-08,7.00000000000000e-01,6.99999999999983e-02,9.00577771405231e-07
1.00300000000000e-08,7.00000000000000e-01,2.09999999999995e-01,5.17958231906895e-06
1.00700000000000e-08,7.00000000000000e-01,4.89999999999988e-01,6.26940637884349e-06
1.01000000000000e-08,7.00000000000000e-01,6.99999999999995e-01,5.29616617599149e-06
1.01080000000000e-08,7.00000000000000e-01,7.00000000000000e-01,5.21962242972657e-06
1.01240000000000e-08,7.00000000000000e-01,7.00000000000000e-01,5.30931065328977e-06
1.01560000000000e-08,7.00000000000000e-01,7.00000000000000e-01,7.34083423380161e-06
1.02200000000000e-08,7.00000000000000e-01,7.00000000000000e-01,9.03965506854343e-06
1.03480000000000e-08,7.00000000000000e-01,7.00000000000000e-01,1.43710878010364e-05
1.06040000000000e-08,7.00000000000000e-01,7.00000000000000e-01,1.17788555259457e-05
1.11160000000000e-08,7.00000000000000e-01,7.00000000000000e-01,1.15185435863065e-05
1.20229922038717e-08,7.00000000000000e-01,7.00000000000000e-01,1.19454464638478e-05
1.38369766116151e-08,7.00000000000000e-01,7.00000000000000e-01,1.04695726547317e-05
1.51000000000000e-08,7.00000000000000e-01,7.00000000000000e-01,1.08433648528198e-05
1.51100000000000e-08,6.29999999999990e-01,7.00000000000000e-01,-6.24247347079596e-05
1.51300000000000e-08,4.89999999999994e-01,7.00000000000000e-01,-1.94909946785012e-04
1.51700000000000e-08,2.10000000000000e-01,7.00000000000000e-01,-2.76995197366875e-04
1.52000000000000e-08,0.00000000000000e+00,7.00000000000000e-01,-6.71399323087588e-05
1.52080000000000e-08,0.00000000000000e+00,7.00000000000000e-01,8.77576847326533e-05
1.52240000000000e-08,0.00000000000000e+00,7.00000000000000e-01,3.21870651620412e-04
1.52560000000000e-08,0.00000000000000e+00,7.00000000000000e-01,4.94831593462863e-04
1.53200000000000e-08,0.00000000000000e+00,7.00000000000000e-01,3.74754333024113e-04
1.54480000000000e-08,0.00000000000000e+00,7.00000000000000e-01,-1.34351313556179e-04
1.57040000000000e-08,0.00000000000000e+00,7.00000000000000e-01,-2.40414717239821e-04
1.62160000000000e-08,0.00000000000000e+00,7.00000000000000e-01,-1.09378078891435e-04
1.68742042355252e-08,0.00000000000000e+00,7.00000000000000e-01,1.14335693247695e-04
1.79453950430913e-08,0.00000000000000e+00,7.00000000000000e-01,1.07579219108932e-04
1.97936960910723e-08,0.00000000000000e+00,7.00000000000000e-01,-1.51337406542816e-04
2.22405683287648e-08,0.00000000000000e+00,7.00000000000000e-01,1.92084190497148e-04
2.50000000000000e-08,0.00000000000000e+00,7.00000000000000e-01,-1.90923604705738e-04
2.50100000000000e-08,6.99999999999867e-02,7.00000000000000e-01,-3.57848000667876e-05
2.50300000000000e-08,2.10000000000007e-01,7.00000000000000e-01,2.20747382369012e-04
2.50700000000000e-08,4.90000000000000e-01,7.00000000000000e-01,5.30067235943545e-04
2.51000000000000e-08,7.00000000000000e-01,7.00000000000000e-01,4.66311449865579e-04
2.51080000000000e-08,7.00000000000000e-01,7.00000000000000e-01,2.98431687919196e-04
2.51240000000000e-08,7.00000000000000e-01,7.00000000000000e-01,-1.30244433756289e-04
2.51560000000000e-08,7.00000000000000e-01,7.00000000000000e-01,-1.34401711235218e-03
2.52200000000000e-08,7.00000000000000e-01,7.00000000000000e-01,-3.79768747474529e-03
2.53480000000000e-08,7.00000000000000e-01,7.00000000000000e-01,-4.05419512528388e-03
2.56040000000000e-08,7.00000000000000e-01,7.00000000000000e-01,1.73152512338908e-01
2.61160000000000e-08,7.00000000000000e-01,7.00000000000000e-01,6.68413153994375e-01
2.71347921859648e-08,7.00000000000000e-01,7.00000000000000e-01,7.10837275608918e-01
2.82635361128851e-08,7.00000000000000e-01,7.00000000000000e-01,6.89095143591378e-01
3.01000000000000e-08,7.00000000000000e-01,7.00000000000000e-01,7.09197306686669e-01
3.01100000000000e-08,7.00000000000000e-01,6.30000000000037e-01,7.06707172622442e-01
3.01300000000000e-08,7.00000000000000e-01,4.90000000000017e-01,7.03098225571129e-01
3.01700000000000e-08,7.00000000000000e-01,2.10000000000023e-01,7.00525612555752e-01
3.02000000000000e-08,7.00000000000000e-01,1.68753899743024e-14,7.00216201076929e-01
3.02080000000000e-08,7.00000000000000e-01,0.00000000000000e+00,7.00180498040840e-01
3.02240000000000e-08,7.00000000000000e-01,0.00000000000000e+00,7.00124342373480e-01
3.02560000000000e-08,7.00000000000000e-01,0.00000000000000e+00,7.00064675216800e-01
3.03200000000000e-08,7.00000000000000e-01,0.00000000000000e+00,7.00034033385783e-01
3.04480000000000e-08,7.00000000000000e-01,0.00000000000000e+00,6.99961948031405e-01
3.07040000000000e-08,7.00000000000000e-01,0.00000000000000e+00,6.99995484257106e-01
3.11114479985013e-08,7.00000000000000e-01,0.00000000000000e+00,6.99940944678251e-01
3.18184736444145e-08,7.00000000000000e-01,0.00000000000000e+00,6.99963711503047e-01
3.27208373654858e-08,7.00000000000000e-01,0.00000000000000e+00,6.99955592353104e-01
3.45255648076283e-08,7.00000000000000e-01,0.00000000000000e+00,6.99966849965204e-01
3.51000000000000e-08,6.99999999999965e-01,0.00000000000000e+00,6.99964482864668e-01
3.51100000000000e-08,6.29999999999979e-01,0.00000000000000e+00,6.99885904289905e-01
3.51300000000000e-08,4.89999999999959e-01,0.00000000000000e+00,6.99792198129956e-01
3.51700000000000e-08,2.09999999999966e-01,0.00000000000000e+00,7.00397117313690e-01
3.52000000000000e-08,0.00000000000000e+00,0.00000000000000e+00,7.02014887745215e-01
3.52080000000000e-08,0.00000000000000e+00,0.00000000000000e+00,7.02489331388645e-01
3.52240000000000e-08,0.00000000000000e+00,0.00000000000000e+00,7.03146933915254e-01
3.52560000000000e-08,0.00000000000000e+00,0.00000000000000e+00,7.03254668386376e-01
3.53200000000000e-08,0.00000000000000e+00,0.00000000000000e+00,6.98295708143021e-01
3.54480000000000e-08,0.00000000000000e+00,0.00000000000000e+00,6.77078793666842e-01
3.57040000000000e-08,0.00000000000000e+00,0.00000000000000e+00,6.80306683793783e-01
3.61407334585353e-08,0.00000000000000e+00,0.00000000000000e+00,7.04825829769688e-01
3.67459885781253e-08,0.00000000000000e+00,0.00000000000000e+00,6.94783107509428e-01
3.79564988173053e-08,0.00000000000000e+00,0.00000000000000e+00,7.03272059560545e-01
3.91000000000000e-08,0.00000000000000e+00,0.00000000000000e+00,6.96607682183933e-01
3.92311737691231e-08,0.00000000000000e+00,0.00000000000000e+00,6.98817133619709e-01
3.94935213073693e-08,0.00000000000000e+00,0.00000000000000e+00,7.00103428324665e-01
4.00182163838617e-08,0.00000000000000e+00,0.00000000000000e+00,6.99493946255283e-01
4.10676065368465e-08,0.00000000000000e+00,0.00000000000000e+00,6.99987906544611e-01
4.31663868428161e-08,0.00000000000000e+00,0.00000000000000e+00,6.99640566242964e-01
4.50000000000000e-08,0.00000000000000e+00,0.00000000000000e+00,7.00010672876958e-01
4.50100000000000e-08,6.99999999999867e-02,0.00000000000000e+00,7.00062990421066e-01
4.50300000000000e-08,2.10000000000007e-01,0.00000000000000e+00,7.00120053320682e-01
4.50700000000000e-08,4.90000000000000e-01,0.00000000000000e+00,7.00076105525910e-01
4.51000000000000e-08,7.00000000000000e-01,0.00000000000000e+00,6.99926703055876e-01
4.51080000000000e-08,7.00000000000000e-01,0.00000000000000e+00,6.99846122494663e-01
4.51240000000000e-08,7.00000000000000e-01,0.00000000000000e+00,6.99721850616090e-01
4.51560000000000e-08,7.00000000000000e-01,0.00000000000000e+00,6.99617768936943e-01
4.52200000000000e-08,7.00000000000000e-01,0.00000000000000e+00,6.99591164076746e-01
4.53480000000000e-08,7.00000000000000e-01,0.00000000000000e+00,6.99889572648270e-01
4.56040000000000e-08,7.00000000000000e-01,0.00000000000000e+00,7.05759136954315e-01
4.61160000000000e-08,7.00000000000000e-01,0.00000000000000e+00,3.02240399588531e-01
4.70212093607655e-08,7.00000000000000e-01,0.00000000000000e+00,-8.50569530402204e-02
4.78652749146773e-08,7.00000000000000e-01,0.00000000000000e+00,6.36305834344726e-02
4.95534060225011e-08,7.00000000000000e-01,0.00000000000000e+00,-4.18415510588616e-02
5.00000000000000e-08,7.00000000000000e-01,0.00000000000000e+00,1.71679095693309e-02
5.00100000000000e-08,7.00000000000000e-01,6.99999999999867e-02,1.63229941944572e-02
5.00300000000000e-08,7.00000000000000e-01,2.09999999999960e-01,1.42421377830894e-02
5.00700000000000e-08,7.00000000000000e-01,4.90000000000000e-01,9.79322654976739e-03
5.01000000000000e-08,7.00000000000000e-01,7.00000000000000e-01,7.23925844822110e-03
5.01080000000000e-08,7.00000000000000e-01,7.00000000000000e-01,6.69805646444554e-03
5.01240000000000e-08,7.00000000000000e-01,7.00000000000000e-01,5.69259995444166e-03
5.01560000000000e-08,7.00000000000000e-01,7.00000000000000e-01,4.10422380438553e-03
5.02200000000000e-08,7.00000000000000e-01,7.00000000000000e-01,2.07856422912866e-03
5.03480000000000e-08,7.00000000000000e-01,7.00000000000000e-01,4.36975402829637e-04
5.06040000000000e-08,7.00000000000000e-01,7.00000000000000e-01,-5.24535990687643e-05
5.11160000000001e-08,7.00000000000000e-01,7.00000000000000e-01,3.16795113293362e-05
5.20708379403560e-08,7.00000000000000e-01,7.00000000000000e-01,-1.12019021299530e-05
5.39805138210677e-08,7.00000000000000e-01,7.00000000000000e-01,2.12386663887834e-05
5.51000000000000e-08,7.00000000000000e-01,7.00000000000000e-01,-4.78507657486124e-06
5.51100000000000e-08,6.30000000000025e-01,7.00000000000000e-01,-7.87724596831574e-05
5.51300000000000e-08,4.90000000000005e-01,7.00000000000000e-01,-2.10488607223738e-04
5.51700000000000e-08,2.10000000000012e-01,7.00000000000000e-01,-2.82445669721861e-04
5.52000000000000e-08,0.00000000000000e+00,7.00000000000000e-01,-7.90640711553700e-05
5.52080000000000e-08,0.00000000000000e+00,7.00000000000000e-01,7.46806206532030e-05
5.52240000000000e-08,0.00000000000000e+00,7.00000000000000e-01,3.01302735562795e-04
5.52560000000000e-08,0.00000000000000e+00,7.00000000000000e-01,4.48543756639302e-04
5.53200000000000e-08,0.00000000000000e+00,7.00000000000000e-01,1.58820559957029e-04
5.54480000000000e-08,0.00000000000000e+00,7.00000000000000e-01,-1.03689237217686e-03
5.57040000000000e-08,0.00000000000000e+00,7.00000000000000e-01,-6.79976217414009e-04
5.62160000000000e-08,0.00000000000000e+00,7.00000000000000e-01,1.89632966926406e-04
5.68733378418977e-08,0.00000000000000e+00,7.00000000000000e-01,-1.04445993117102e-04
5.79447338127214e-08,0.00000000000000e+00,7.00000000000000e-01,2.86000650920630e-04
5.97926290689021e-08,0.00000000000000e+00,7.00000000000000e-01,-3.14294295188916e-04
6.22377069249152e-08,0.00000000000000e+00,7.00000000000000e-01,3.41450890775347e-04
6.50000000000000e-08,0.00000000000000e+00,7.00000000000000e-01,-3.32435570579222e-04
6.50100000000000e-08,6.99999999999867e-02,7.00000000000000e-01,-1.45325111682054e-04
6.50300000000000e-08,2.09999999999960e-01,7.00000000000000e-01,1.58177009211967e-04
6.50700000000000e-08,4.89999999999907e-01,7.00000000000000e-01,4.96775157910426e-04
6.51000000000000e-08,6.99999999999960e-01,7.00000000000000e-01,4.45143664891692e-04
6.51080000000000e-08,7.00000000000000e-01,7.00000000000000e-01,2.79259632921747e-04
6.51240000000000e-08,7.00000000000000e-01,7.00000000000000e-01,-1.46077511174791e-04
6.51560000000000e-08,7.00000000000000e-01,7.00000000000000e-01,-1.35482012174622e-03
6.52200000000000e-08,7.00000000000000e-01,7.00000000000000e-01,-3.80244025078128e-03
6.53480000000000e-08,7.00000000000000e-01,7.00000000000000e-01,-4.05142000013808e-03
6.56040000000000e-08,7.00000000000000e-01,7.00000000000000e-01,1.73208736013316e-01
6.61159999999999e-08,7.00000000000000e-01,7.00000000000000e-01,6.68436268810245e-01
6.71345750790997e-08,7.00000000000000e-01,7.00000000000000e-01,7.10828842036156e-01
6.82633755863092e-08,7.00000000000000e-01,7.00000000000000e-01,6.89104224922829e-01
7.01000000000000e-08,7.00000000000000e-01,7.00000000000000e-01,7.09189813417079e-01
7.01100000000000e-08,7.00000000000000e-01,6.30000000000013e-01,7.06701919146058e-01
7.01300000000000e-08,7.00000000000000e-01,4.90000000000040e-01,7.03095896994540e-01
7.01700000000000e-08,7.00000000000000e-01,2.10000000000093e-01,7.00525317266741e-01
7.02000000000000e-08,7.00000000000000e-01,4.00790511889682e-14,7.00216110679756e-01
7.02080000000000e-08,7.00000000000000e-01,0.00000000000000e+00,7.00180425049166e-01
7.02240000000000e-08,7.00000000000000e-01,0.00000000000000e+00,7.00124296586490e-01
7.02560000000000e-08,7.00000000000000e-01,0.00000000000000e+00,7.00064654754109e-01
7.03200000000000e-08,7.00000000000000e-01,0.00000000000000e+00,7.00034013908142e-01
7.04480000000000e-08,7.00000000000000e-01,0.00000000000000e+00,6.99961953848326e-01
7.07040000000000e-08,7.00000000000000e-01,0.00000000000000e+00,6.99995484423281e-01
7.11114453112669e-08,7.00000000000000e-01,0.00000000000000e+00,6.99940945088620e-01
7.18184966695049e-08,7.00000000000000e-01,0.00000000000000e+00,6.99963719956115e-01
7.27208976447439e-08,7.00000000000000e-01,0.00000000000000e+00,6.99955591740139e-01
7.45256995952220e-08,7.00000000000000e-01,0.00000000000000e+00,6.99966857052788e-01
7.51000000000000e-08,7.00000000000000e-01,0.00000000000000e+00,6.99964482201998e-01
7.51100000000000e-08,6.30000000000071e-01,0.00000000000000e+00,6.99885905291113e-01
7.51300000000000e-08,4.90000000000098e-01,0.00000000000000e+00,6.99792198388039e-01
7.51700000000000e-08,2.10000000000151e-01,0.00000000000000e+00,7.00397119231545e-01
7.52000000000000e-08,9.80326930744013e-14,0.00000000000000e+00,7.02014892508744e-01
7.52080000000000e-08,0.00000000000000e+00,0.00000000000000e+00,7.02489337642744e-01
7.52240000000000e-08,0.00000000000000e+00,0.00000000000000e+00,7.03146945468422e-01
7.52560000000000e-08,0.00000000000000e+00,0.00000000000000e+00,7.03254713601839e-01
7.53200000000000e-08,0.00000000000000e+00,0.00000000000000e+00,6.98295924157759e-01
7.54480000000000e-08,0.00000000000000e+00,0.00000000000000e+00,6.77079105581313e-01
7.57040000000000e-08,0.00000000000000e+00,0.00000000000000e+00,6.80306644046263e-01
7.61407334746924e-08,0.00000000000000e+00,0.00000000000000e+00,7.04825831748756e-01
7.67459885965124e-08,0.00000000000000e+00,0.00000000000000e+00,6.94783107414713e-01
7.79564988401522e-08,0.00000000000000e+00,0.00000000000000e+00,7.03272060101061e-01
7.81000000000000e-08,0.00000000000000e+00,0.00000000000000e+00,6.98991721536073e-01
7.82311737765542e-08,0.00000000000000e+00,0.00000000000000e+00,6.99434873110910e-01
7.84935213296626e-08,0.00000000000000e+00,0.00000000000000e+00,6.99723010808883e-01
7.90182164358794e-08,0.00000000000000e+00,0.00000000000000e+00,6.99642249677444e-01
8.00676066483129e-08,0.00000000000000e+00,0.00000000000000e+00,6.99787578475634e-01
8.21663870731800e-08,0.00000000000000e+00,0.00000000000000e+00,6.99774483510168e-01
8.50000000000000e-08,0.00000000000000e+00,0.00000000000000e+00,6.99879088596468e-01
8.50100000000000e-08,6.99999999999867e-02,0.00000000000000e+00,6.99937390286656e-01
8.50300000000000e-08,2.09999999999960e-01,0.00000000000000e+00,7.00013595029014e-01
8.50700000000000e-08,4.89999999999907e-01,0.00000000000000e+00,7.00020041959434e-01
8.51000000000000e-08,6.99999999999960e-01,0.00000000000000e+00,6.99896315005440e-01
8.51080000000000e-08,7.00000000000000e-01,0.00000000000000e+00,6.99816264270677e-01
8.51240000000000e-08,7.00000000000000e-01,0.00000000000000e+00,6.99694926662895e-01
8.51560000000000e-08,7.00000000000000e-01,0.00000000000000e+00,6.99602390927713e-01
8.52200000000000e-08,7.00000000000000e-01,0.00000000000000e+00,6.99620131247139e-01
8.53480000000000e-08,7.00000000000000e-01,0.00000000000000e+00,6.99885069857804e-01
8.56040000000000e-08,7.00000000000000e-01,0.00000000000000e+00,7.05765196977938e-01
8.61159999999999e-08,7.00000000000000e-01,0.00000000000000e+00,3.02302969324330e-01
8.70217509830678e-08,7.00000000000000e-01,0.00000000000000e+00,-8.50720804518861e-02
8.78656714906965e-08,7.00000000000000e-01,0.00000000000000e+00,6.36409758357322e-02
8.95535125059540e-08,7.00000000000000e-01,0.00000000000000e+00,-4.18405700916553e-02
9.00000000000000e-08,7.00000000000000e-01,0.00000000000000e+00,1.71296445390997e-02
9.00100000000000e-08,7.00000000000000e-01,6.99999999999867e-02,1.62893096526880e-02
9.00300000000000e-08,7.00000000000000e-01,2.09999999999960e-01,1.42159370888175e-02
9.00700000000000e-08,7.00000000000000e-01,4.89999999999907e-01,9.77628276804898e-03
9.01000000000000e-08,7.00000000000000e-01,6.99999999999960e-01,7.22683704518273e-03
9.01080000000000e-08,7.00000000000000e-01,7.00000000000000e-01,6.68657836808032e-03
9.01240000000000e-08,7.00000000000000e-01,7.00000000000000e-01,5.68287807291887e-03
9.01560000000000e-08,7.00000000000000e-01,7.00000000000000e-01,4.09723534203055e-03
9.02200000000000e-08,7.00000000000000e-01,7.00000000000000e-01,2.07503175382130e-03
9.03480000000000e-08,7.00000000000000e-01,7.00000000000000e-01,4.36234242729712e-04
9.06040000000000e-08,7.00000000000000e-01,7.00000000000000e-01,-5.23580133063688e-05
9.11159999999999e-08,7.00000000000000e-01,7.00000000000000e-01,3.16312267742008e-05
9.20705698769223e-08,7.00000000000000e-01,7.00000000000000e-01,-1.11729732575165e-05
9.39797096307671e-08,7.00000000000000e-01,7.00000000000000e-01,2.12055826292051e-05
9.51000000000000e-08,7.00000000000000e-01,7.00000000000000e-01,-4.77020915451085e-06
9.51100000000000e-08,6.30000000000071e-01,7.00000000000000e-01,-7.87578812893874e-05
9.51300000000000e-08,4.90000000000098e-01,7.00000000000000e-01,-2.10474713704778e-04
9.51700000000000e-08,2.10000000000151e-01,7.00000000000000e-01,-2.82435005450152e-04
9.52000000000000e-08,9.80326930744013e-14,7.00000000000000e-01,-7.90595880978753e-05
9.52080000000000e-08,0.00000000000000e+00,7.00000000000000e-01,7.46827688799523e-05
9.52240000000000e-08,0.00000000000000e+00,7.00000000000000e-01,3.01297902664380e-04
9.52560000000000e-08,0.00000000000000e+00,7.00000000000000e-01,4.48501865293528e-04
9.53200000000000e-08,0.00000000000000e+00,7.00000000000000e-01,1.58540069091932e-04
9.54480000000000e-08,0.00000000000000e+00,7.00000000000000e-01,-1.03880059606846e-03
9.57040000000000e-08,0.00000000000000e+00,7.00000000000000e-01,-6.81197479249048e-04
9.62159999999999e-08,0.00000000000000e+00,7.00000000000000e-01,1.90369451248892e-04
9.68733341348937e-08,0.00000000000000e+00,7.00000000000000e-01,-1.04952129172829e-04
9.79447312071877e-08,0.00000000000000e+00,7.00000000000000e-01,2.86406867741382e-04
9.97926238582007e-08,0.00000000000000e+00,7.00000000000000e-01,-3.14661881819479e-04
1.02237696394936e-07,0.00000000000000e+00,7.00000000000000e-01,3.41787011562082e-04
1.05000000000000e-07,0.00000000000000e+00,7.00000000000000e-01,-3.32751509800287e-04
1.05010000000000e-07,6.99999999999867e-02,7.00000000000000e-01,-1.45549453876348e-04
1.05030000000000e-07,2.09999999999960e-01,7.00000000000000e-01,1.58058849917854e-04
1.05070000000000e-07,4.89999999999907e-01,7.00000000000000e-01,4.96706662901261e-04
1.05100000000000e-07,6.99999999999960e-01,7.00000000000000e-01,4.45097120308914e-04
1.05108000000000e-07,7.00000000000000e-01,7.00000000000000e-01,2.79216482594082e-04
1.05124000000000e-07,7.00000000000000e-01,7.00000000000000e-01,-1.46115128828450e-04
1.05156000000000e-07,7.00000000000000e-01,7.00000000000000e-01,-1.35484871980932e-03
1.05220000000000e-07,7.00000000000000e-01,7.00000000000000e-01,-3.80245553441806e-03
1.05348000000000e-07,7.00000000000000e-01,7.00000000000000e-01,-4.05141002562849e-03
1.05604000000000e-07,7.00000000000000e-01,7.00000000000000e-01,1.73208956911138e-01
1.06116000000000e-07,7.00000000000000e-01,7.00000000000000e-01,6.68436359796551e-01
1.07134574190354e-07,7.00000000000000e-01,7.00000000000000e-01,7.10828808774047e-01
1.08263374930374e-07,7.00000000000000e-01,7.00000000000000e-01,6.89104260764304e-01
1.10100000000000e-07,7.00000000000000e-01,7.00000000000000e-01,7.09189783882130e-01
1.10110000000000e-07,7.00000000000000e-01,6.30000000000106e-01,7.06701898116860e-01
1.10130000000000e-07,7.00000000000000e-01,4.90000000000132e-01,7.03095887987653e-01
1.10170000000000e-07,7.00000000000000e-01,2.10000000000186e-01,7.00525316136476e-01
1.10200000000000e-07,7.00000000000000e-01,1.32671651442706e-13,7.00216110286004e-01
