Time,v(clk),v(data),v(out)
1.00000000000000e-08,7.00000000000000e-01,0.00000000000000e+00,2.34579387528963e-05
1.00100000000000e-08,7.00000000000000e-01,6.99999999999983e-02,1.53146123734876e-05
1.00300000000000e-08,7.00000000000000e-01,2.09999999999995e-01,5.83344433875005e-06
1.00700000000000e-08,7.00000000000000e-01,4.89999999999988e-01,-1.23460025591021e-06
1.01000000000000e-08,7.00000000000000e-01,6.99999999999995e-01,-1.44631966705888e-06
1.01080000000000e-08,7.00000000000000e-01,7.00000000000000e-01,-5.77064019860463e-07
1.01240000000000e-08,7.00000000000000e-01,7.00000000000000e-01,1.92767888105433e-06
1.01560000000000e-08,7.00000000000000e-01,7.00000000000000e-01,4.68812941933211e-06
1.02200000000000e-08,7.00000000000000e-01,7.00000000000000e-01,3.02160589770589e-06
1.03480000000000e-08,7.00000000000000e-01,7.00000000000000e-01,1.05457755625663e-06
1.06040000000000e-08,7.00000000000000e-01,7.00000000000000e-01,1.35310342249187e-06
1.11160000000000e-08,7.00000000000000e-01,7.00000000000000e-01,1.95304530811215e-06
1.21400000000000e-08,7.00000000000000e-01,7.00000000000000e-01,1.32409155676524e-06
1.41880000000000e-08,7.00000000000000e-01,7.00000000000000e-01,1.74733941435672e-06
1.51000000000000e-08,7.00000000000000e-01,7.00000000000000e-01,9.91261235418379e-07
1.51100000000000e-08,6.29999999999990e-01,7.00000000000000e-01,-6.00879844623453e-05
1.51300000000000e-08,4.89999999999994e-01,7.00000000000000e-01,-1.44016760220543e-04
1.51700000000000e-08,2.10000000000000e-01,7.00000000000000e-01,-8.10408489664849e-05
1.52000000000000e-08,0.00000000000000e+00,7.00000000000000e-01,1.90895465846080e-04
1.52080000000000e-08,0.00000000000000e+00,7.00000000000000e-01,3.09283743325561e-04
1.52240000000000e-08,0.00000000000000e+00,7.00000000000000e-01,4.22790349719357e-04
1.52560000000000e-08,0.00000000000000e+00,7.00000000000000e-01,2.77567851790818e-04
1.53200000000000e-08,0.00000000000000e+00,7.00000000000000e-01,-1.30519292837493e-04
1.54480000000000e-08,0.00000000000000e+00,7.00000000000000e-01,-1.74532773907759e-04
1.57040000000000e-08,0.00000000000000e+00,7.00000000000000e-01,-1.41786178403616e-04
1.60682189655159e-08,0.00000000000000e+00,7.00000000000000e-01,1.38637084477646e-04
1.66165960489952e-08,0.00000000000000e+00,7.00000000000000e-01,4.90792653922798e-05
1.75439628427936e-08,0.00000000000000e+00,7.00000000000000e-01,-1.18688325678677e-04
1.88351794341099e-08,0.00000000000000e+00,7.00000000000000e-01,1.47884095972210e-04
2.13962180409151e-08,0.00000000000000e+00,7.00000000000000e-01,-1.58894512900338e-04
2.50000000000000e-08,0.00000000000000e+00,7.00000000000000e-01,1.65319988940805e-04
2.50100000000000e-08,6.99999999999867e-02,7.00000000000000e-01,2.21502822221532e-04
2.50300000000000e-08,2.10000000000007e-01,7.00000000000000e-01,2.96149032242531e-04
2.50700000000000e-08,4.90000000000000e-01,7.00000000000000e-01,3.63587793943500e-04
2.51000000000000e-08,7.00000000000000e-01,7.00000000000000e-01,-5.96924397720223e-04
2.51080000000000e-08,7.00000000000000e-01,7.00000000000000e-01,-1.27987313822035e-03
2.51240000000000e-08,7.00000000000000e-01,7.00000000000000e-01,-2.71367401969241e-03
2.51560000000000e-08,7.00000000000000e-01,7.00000000000000e-01,-5.09020587537345e-03
2.52200000000000e-08,7.00000000000000e-01,7.00000000000000e-01,-1.57541280499512e-03
2.53480000000000e-08,7.00000000000000e-01,7.00000000000000e-01,2.45399534081438e-01
2.56040000000000e-08,7.00000000000000e-01,7.00000000000000e-01,6.96168187895642e-01
2.60160768836938e-08,7.00000000000000e-01,7.00000000000000e-01,6.99772037824576e-01
2.66004978039980e-08,7.00000000000000e-01,7.00000000000000e-01,7.00650492215420e-01
2.74348758044981e-08,7.00000000000000e-01,7.00000000000000e-01,6.99195470668508e-01
2.85918747737533e-08,7.00000000000000e-01,7.00000000000000e-01,7.00882176822539e-01
3.01000000000000e-08,7.00000000000000e-01,7.00000000000000e-01,6.99086051822048e-01
3.01100000000000e-08,7.00000000000000e-01,6.30000000000037e-01,6.99686117159577e-01
3.01300000000000e-08,7.00000000000000e-01,4.90000000000017e-01,7.00218198960781e-01
3.01700000000000e-08,7.00000000000000e-01,2.10000000000023e-01,7.00082593971893e-01
3.02000000000000e-08,7.00000000000000e-01,1.68753899743024e-14,7.00077943386302e-01
3.02080000000000e-08,7.00000000000000e-01,0.00000000000000e+00,7.00067612784291e-01
3.02240000000000e-08,7.00000000000000e-01,0.00000000000000e+00,7.00052807922541e-01
3.02560000000000e-08,7.00000000000000e-01,0.00000000000000e+00,7.00007015136733e-01
3.03200000000000e-08,7.00000000000000e-01,0.00000000000000e+00,6.99983728248858e-01
3.04480000000000e-08,7.00000000000000e-01,0.00000000000000e+00,7.00005101818646e-01
3.06466089193072e-08,7.00000000000000e-01,0.00000000000000e+00,6.99979682110806e-01
3.10425450234675e-08,7.00000000000000e-01,0.00000000000000e+00,6.99985766691131e-01
3.14814943496191e-08,7.00000000000000e-01,0.00000000000000e+00,6.99988572737134e-01
3.23593930019223e-08,7.00000000000000e-01,0.00000000000000e+00,6.99983861401428e-01
3.41151903065287e-08,7.00000000000000e-01,0.00000000000000e+00,6.99991908804998e-01
3.51000000000000e-08,6.99999999999965e-01,0.00000000000000e+00,6.99984617661322e-01
3.51100000000000e-08,6.29999999999979e-01,0.00000000000000e+00,6.99926818457812e-01
3.51300000000000e-08,4.89999999999959e-01,0.00000000000000e+00,6.99865404291429e-01
3.51700000000000e-08,2.09999999999966e-01,0.00000000000000e+00,7.00659207865257e-01
3.52000000000000e-08,0.00000000000000e+00,0.00000000000000e+00,7.02511961078399e-01
3.52080000000000e-08,0.00000000000000e+00,0.00000000000000e+00,7.02890408941825e-01
3.52240000000000e-08,0.00000000000000e+00,0.00000000000000e+00,7.02956071325321e-01
3.52560000000000e-08,0.00000000000000e+00,0.00000000000000e+00,6.97927283847022e-01
3.53200000000000e-08,0.00000000000000e+00,0.00000000000000e+00,6.77892953871090e-01
3.54480000000000e-08,0.00000000000000e+00,0.00000000000000e+00,6.80887852043195e-01
3.56795505887416e-08,0.00000000000000e+00,0.00000000000000e+00,7.04646203742307e-01
3.59764049267021e-08,0.00000000000000e+00,0.00000000000000e+00,6.95490926498114e-01
3.65701136026232e-08,0.00000000000000e+00,0.00000000000000e+00,7.03034390047288e-01
3.72378034485536e-08,0.00000000000000e+00,0.00000000000000e+00,6.96931768059436e-01
3.85731831404146e-08,0.00000000000000e+00,0.00000000000000e+00,7.02524315969494e-01
3.91000000000000e-08,0.00000000000000e+00,0.00000000000000e+00,6.97699769309890e-01
3.93670759383722e-08,0.00000000000000e+00,0.00000000000000e+00,6.99706089808116e-01
3.99012278151166e-08,0.00000000000000e+00,0.00000000000000e+00,7.00068404957052e-01
4.09695315686053e-08,0.00000000000000e+00,0.00000000000000e+00,6.99776853362830e-01
4.31061390755828e-08,0.00000000000000e+00,0.00000000000000e+00,7.00076939671927e-01
4.50000000000000e-08,0.00000000000000e+00,0.00000000000000e+00,6.99815186588286e-01
4.50100000000000e-08,6.99999999999867e-02,0.00000000000000e+00,6.99909193152588e-01
4.50300000000000e-08,2.10000000000007e-01,0.00000000000000e+00,7.00011947094369e-01
4.50700000000000e-08,4.90000000000000e-01,0.00000000000000e+00,6.99977938861512e-01
4.51000000000000e-08,7.00000000000000e-01,0.00000000000000e+00,6.99800579539331e-01
4.51080000000000e-08,7.00000000000000e-01,0.00000000000000e+00,6.99748400148858e-01
4.51240000000000e-08,7.00000000000000e-01,0.00000000000000e+00,6.99671125161075e-01
4.51560000000000e-08,7.00000000000000e-01,0.00000000000000e+00,6.99686200125450e-01
4.52200000000000e-08,7.00000000000000e-01,0.00000000000000e+00,7.00445229686949e-01
4.53480000000000e-08,7.00000000000000e-01,0.00000000000000e+00,7.10620436671156e-01
4.56040000000000e-08,7.00000000000000e-01,0.00000000000000e+00,2.38499607114540e-01
4.59665848840548e-08,7.00000000000000e-01,0.00000000000000e+00,-7.99645985377753e-02
4.63938751127512e-08,7.00000000000000e-01,0.00000000000000e+00,6.41829814342458e-02
4.71585071002303e-08,7.00000000000000e-01,0.00000000000000e+00,-4.46250086984973e-02
4.79766493884514e-08,7.00000000000000e-01,0.00000000000000e+00,4.06133628332389e-02
4.96129339648935e-08,7.00000000000000e-01,0.00000000000000e+00,-3.33549271953271e-02
5.00000000000000e-08,7.00000000000000e-01,0.00000000000000e+00,2.34662190931523e-02
5.00100000000000e-08,7.00000000000000e-01,6.99999999999867e-02,1.92083338372721e-02
5.00300000000000e-08,7.00000000000000e-01,2.09999999999960e-01,1.18052126460532e-02
5.00700000000000e-08,7.00000000000000e-01,4.90000000000000e-01,3.76060539508023e-03
5.01000000000000e-08,7.00000000000000e-01,7.00000000000000e-01,1.69556965240679e-03
5.01080000000000e-08,7.00000000000000e-01,7.00000000000000e-01,1.39696421158150e-03
5.01240000000000e-08,7.00000000000000e-01,7.00000000000000e-01,8.99176242178300e-04
5.01560000000000e-08,7.00000000000000e-01,7.00000000000000e-01,3.18889774708474e-04
5.02200000000000e-08,7.00000000000000e-01,7.00000000000000e-01,3.53252972634666e-05
5.03480000000000e-08,7.00000000000000e-01,7.00000000000000e-01,-1.05911135322677e-05
5.06040000000000e-08,7.00000000000000e-01,7.00000000000000e-01,5.90869969548102e-06
5.11160000000001e-08,7.00000000000000e-01,7.00000000000000e-01,-5.83566893749832e-06
5.21400000000002e-08,7.00000000000000e-01,7.00000000000000e-01,3.71414823382293e-06
5.41880000000003e-08,7.00000000000000e-01,7.00000000000000e-01,-3.77566513142013e-06
5.51000000000000e-08,7.00000000000000e-01,7.00000000000000e-01,3.13722646188511e-06
5.51100000000000e-08,6.30000000000025e-01,7.00000000000000e-01,-5.95500218048967e-05
5.51300000000000e-08,4.90000000000005e-01,7.00000000000000e-01,-1.43754915004943e-04
5.51700000000000e-08,2.10000000000012e-01,7.00000000000000e-01,-7.75547495264275e-05
5.52000000000000e-08,0.00000000000000e+00,7.00000000000000e-01,1.84176282345759e-04
5.52080000000000e-08,0.00000000000000e+00,7.00000000000000e-01,2.97715950962500e-04
5.52240000000000e-08,0.00000000000000e+00,7.00000000000000e-01,3.80841541863512e-04
5.52560000000000e-08,0.00000000000000e+00,7.00000000000000e-01,-1.32008213255749e-05
5.53200000000000e-08,0.00000000000000e+00,7.00000000000000e-01,-1.41385399592184e-03
5.54480000000000e-08,0.00000000000000e+00,7.00000000000000e-01,-5.58360008058124e-04
5.56659737201693e-08,0.00000000000000e+00,7.00000000000000e-01,1.60166120682443e-04
5.60488070736913e-08,0.00000000000000e+00,7.00000000000000e-01,-1.39050287990130e-04
5.65244626838007e-08,0.00000000000000e+00,7.00000000000000e-01,3.28419567814986e-04
5.74418256272064e-08,0.00000000000000e+00,7.00000000000000e-01,-3.75482746588103e-04
5.86294782015578e-08,0.00000000000000e+00,7.00000000000000e-01,3.92539976950046e-04
6.08503481274401e-08,0.00000000000000e+00,7.00000000000000e-01,-4.00084297211647e-04
6.43912052398503e-08,0.00000000000000e+00,7.00000000000000e-01,4.01381875500555e-04
6.50000000000000e-08,0.00000000000000e+00,7.00000000000000e-01,-3.99030110819536e-04
6.50100000000000e-08,6.99999999999867e-02,7.00000000000000e-01,-1.47145602414064e-04
6.50300000000000e-08,2.09999999999960e-01,7.00000000000000e-01,1.78460749324198e-04
6.50700000000000e-08,4.89999999999907e-01,7.00000000000000e-01,3.71605008394907e-04
6.51000000000000e-08,6.99999999999960e-01,7.00000000000000e-01,-4.81534223268541e-04
6.51080000000000e-08,7.00000000000000e-01,7.00000000000000e-01,-1.13668674861993e-03
6.51240000000000e-08,7.00000000000000e-01,7.00000000000000e-01,-2.55139951764162e-03
6.51560000000000e-08,7.00000000000000e-01,7.00000000000000e-01,-4.98459072803713e-03
6.52200000000000e-08,7.00000000000000e-01,7.00000000000000e-01,-1.53909515646167e-03
6.53480000000000e-08,7.00000000000000e-01,7.00000000000000e-01,2.45550710043453e-01
6.56040000000000e-08,7.00000000000000e-01,7.00000000000000e-01,6.96209987250452e-01
6.60158022666552e-08,7.00000000000000e-01,7.00000000000000e-01,6.99750685201574e-01
6.66003403587176e-08,7.00000000000000e-01,7.00000000000000e-01,7.00671657243921e-01
6.74343905914509e-08,7.00000000000000e-01,7.00000000000000e-01,6.99176746054286e-01
6.85912689137177e-08,7.00000000000000e-01,7.00000000000000e-01,7.00901004039970e-01
7.01000000000000e-08,7.00000000000000e-01,7.00000000000000e-01,6.99068565932083e-01
7.01100000000000e-08,7.00000000000000e-01,6.30000000000013e-01,6.99676245121745e-01
7.01300000000000e-08,7.00000000000000e-01,4.90000000000040e-01,7.00216698073895e-01
7.01700000000000e-08,7.00000000000000e-01,2.10000000000093e-01,7.00083001476653e-01
7.02000000000000e-08,7.00000000000000e-01,4.00790511889682e-14,7.00077974212144e-01
7.02080000000000e-08,7.00000000000000e-01,0.00000000000000e+00,7.00067648893420e-01
7.02240000000000e-08,7.00000000000000e-01,0.00000000000000e+00,7.00052848926582e-01
7.02560000000000e-08,7.00000000000000e-01,0.00000000000000e+00,7.00007015849808e-01
7.03200000000000e-08,7.00000000000000e-01,0.00000000000000e+00,6.99983737782101e-01
7.04480000000000e-08,7.00000000000000e-01,0.00000000000000e+00,7.00005088256089e-01
7.06467336155983e-08,7.00000000000000e-01,0.00000000000000e+00,6.99979660553018e-01
7.10425797990229e-08,7.00000000000000e-01,0.00000000000000e+00,6.99985780071173e-01
7.14820825647044e-08,7.00000000000000e-01,0.00000000000000e+00,6.99988546503302e-01
7.23610880960675e-08,7.00000000000000e-01,0.00000000000000e+00,6.99983882953981e-01
7.41190991587935e-08,7.00000000000000e-01,0.00000000000000e+00,6.99991885706463e-01
7.51000000000000e-08,7.00000000000000e-01,0.00000000000000e+00,6.99984635011068e-01
7.51100000000000e-08,6.30000000000071e-01,0.00000000000000e+00,6.99926827903036e-01
7.51300000000000e-08,4.90000000000098e-01,0.00000000000000e+00,6.99865402428555e-01
7.51700000000000e-08,2.10000000000151e-01,0.00000000000000e+00,7.00659201307031e-01
7.52000000000000e-08,9.80326930744013e-14,0.00000000000000e+00,7.02511936803358e-01
7.52080000000000e-08,0.00000000000000e+00,0.00000000000000e+00,7.02890361930395e-01
7.52240000000000e-08,0.00000000000000e+00,0.00000000000000e+00,7.02955928576035e-01
7.52560000000000e-08,0.00000000000000e+00,0.00000000000000e+00,6.97926739004518e-01
7.53200000000000e-08,0.00000000000000e+00,0.00000000000000e+00,6.77892296471405e-01
7.54480000000000e-08,0.00000000000000e+00,0.00000000000000e+00,6.80888018195568e-01
7.56795495206582e-08,0.00000000000000e+00,0.00000000000000e+00,7.04646123607184e-01
7.59764037516004e-08,0.00000000000000e+00,0.00000000000000e+00,6.95490971225839e-01
7.65701122134848e-08,0.00000000000000e+00,0.00000000000000e+00,7.03034346569371e-01
7.72378006070200e-08,0.00000000000000e+00,0.00000000000000e+00,6.96931805185635e-01
7.81000000000000e-08,0.00000000000000e+00,0.00000000000000e+00,7.02398021264882e-01
7.82335376787071e-08,0.00000000000000e+00,0.00000000000000e+00,7.00260675124853e-01
7.85006130361211e-08,0.00000000000000e+00,0.00000000000000e+00,6.99604121303890e-01
7.90347637509493e-08,0.00000000000000e+00,0.00000000000000e+00,7.00113309713129e-01
8.01030651806055e-08,0.00000000000000e+00,0.00000000000000e+00,6.99708560153810e-01
8.22396680399181e-08,0.00000000000000e+00,0.00000000000000e+00,7.00125762856449e-01
8.50000000000000e-08,0.00000000000000e+00,0.00000000000000e+00,6.99760634696885e-01
8.50100000000000e-08,6.99999999999867e-02,0.00000000000000e+00,6.99867356295329e-01
8.50300000000000e-08,2.09999999999960e-01,0.00000000000000e+00,6.99989882806321e-01
8.50700000000000e-08,4.89999999999907e-01,0.00000000000000e+00,6.99974317298292e-01
8.51000000000000e-08,6.99999999999960e-01,0.00000000000000e+00,6.99799841085905e-01
8.51080000000000e-08,7.00000000000000e-01,0.00000000000000e+00,6.99747060681127e-01
8.51240000000000e-08,7.00000000000000e-01,0.00000000000000e+00,6.99671949551987e-01
8.51560000000000e-08,7.00000000000000e-01,0.00000000000000e+00,6.99687926270005e-01
8.52200000000000e-08,7.00000000000000e-01,0.00000000000000e+00,7.00446642952887e-01
8.53480000000000e-08,7.00000000000000e-01,0.00000000000000e+00,7.10620029776194e-01
8.56040000000000e-08,7.00000000000000e-01,0.00000000000000e+00,2.38498264425926e-01
8.59666136520024e-08,7.00000000000000e-01,0.00000000000000e+00,-7.99690584946491e-02
8.63938976429881e-08,7.00000000000000e-01,0.00000000000000e+00,6.41867413174519e-02
8.71585606533421e-08,7.00000000000000e-01,0.00000000000000e+00,-4.46277556016685e-02
8.79767165621719e-08,7.00000000000000e-01,0.00000000000000e+00,4.06161976556635e-02
8.96130283798315e-08,7.00000000000000e-01,0.00000000000000e+00,-3.33571636391556e-02
9.00000000000000e-08,7.00000000000000e-01,0.00000000000000e+00,2.34653709041542e-02
9.00100000000000e-08,7.00000000000000e-01,6.99999999999867e-02,1.92075993990051e-02
9.00300000000000e-08,7.00000000000000e-01,2.09999999999960e-01,1.18047218187437e-02
9.00700000000000e-08,7.00000000000000e-01,4.89999999999907e-01,3.76044323255503e-03
9.01000000000000e-08,7.00000000000000e-01,6.99999999999960e-01,1.69549337284342e-03
9.01080000000000e-08,7.00000000000000e-01,7.00000000000000e-01,1.39690196422781e-03
9.01240000000000e-08,7.00000000000000e-01,7.00000000000000e-01,8.99137092389757e-04
9.01560000000000e-08,7.00000000000000e-01,7.00000000000000e-01,3.18877011132472e-04
9.02200000000000e-08,7.00000000000000e-01,7.00000000000000e-01,3.53244657267937e-05
9.03480000000000e-08,7.00000000000000e-01,7.00000000000000e-01,-1.05911243965980e-05
9.06040000000000e-08,7.00000000000000e-01,7.00000000000000e-01,5.90871841568003e-06
9.11159999999999e-08,7.00000000000000e-01,7.00000000000000e-01,-5.83561965007001e-06
9.21399999999999e-08,7.00000000000000e-01,7.00000000000000e-01,3.71423344417907e-06
9.41879999999998e-08,7.00000000000000e-01,7.00000000000000e-01,-3.77569110700986e-06
9.51000000000000e-08,7.00000000000000e-01,7.00000000000000e-01,3.13731215148723e-06
9.51100000000000e-08,6.30000000000071e-01,7.00000000000000e-01,-5.95500027854162e-05
9.51300000000000e-08,4.90000000000098e-01,7.00000000000000e-01,-1.43754891156242e-04
9.51700000000000e-08,2.10000000000151e-01,7.00000000000000e-01,-7.75547034648841e-05
9.52000000000000e-08,9.80326930744013e-14,7.00000000000000e-01,1.84176497527007e-04
9.52080000000000e-08,0.00000000000000e+00,7.00000000000000e-01,2.97716356534992e-04
9.52240000000000e-08,0.00000000000000e+00,7.00000000000000e-01,3.80843072914819e-04
9.52560000000000e-08,0.00000000000000e+00,7.00000000000000e-01,-1.31940310970705e-05
9.53200000000000e-08,0.00000000000000e+00,7.00000000000000e-01,-1.41382373979217e-03
9.54480000000000e-08,0.00000000000000e+00,7.00000000000000e-01,-5.58345789281264e-04
9.56659757287760e-08,0.00000000000000e+00,7.00000000000000e-01,1.60160245566206e-04
9.60488079127826e-08,0.00000000000000e+00,7.00000000000000e-01,-1.39045022168032e-04
9.65244672320722e-08,0.00000000000000e+00,7.00000000000000e-01,3.28413333825396e-04
9.74418309431297e-08,0.00000000000000e+00,7.00000000000000e-01,-3.75477070809909e-04
9.86294882166117e-08,0.00000000000000e+00,7.00000000000000e-01,3.92534798251129e-04
1.00850375323000e-07,0.00000000000000e+00,7.00000000000000e-01,-4.00079295275990e-04
1.04391252664298e-07,0.00000000000000e+00,7.00000000000000e-01,4.01376928808386e-04
1.05000000000000e-07,0.00000000000000e+00,7.00000000000000e-01,-3.99024981165012e-04
1.05010000000000e-07,6.99999999999867e-02,7.00000000000000e-01,-1.47142853278485e-04
1.05030000000000e-07,2.09999999999960e-01,7.00000000000000e-01,1.78461050589669e-04
1.05070000000000e-07,4.89999999999907e-01,7.00000000000000e-01,3.71604465863498e-04
1.05100000000000e-07,6.99999999999960e-01,7.00000000000000e-01,-4.81539975717031e-04
1.05108000000000e-07,7.00000000000000e-01,7.00000000000000e-01,-1.13669409117454e-03
1.05124000000000e-07,7.00000000000000e-01,7.00000000000000e-01,-2.55140795648717e-03
1.05156000000000e-07,7.00000000000000e-01,7.00000000000000e-01,-4.98459624171090e-03
1.05220000000000e-07,7.00000000000000e-01,7.00000000000000e-01,-1.53907083358911e-03
1.05348000000000e-07,7.00000000000000e-01,7.00000000000000e-01,2.45550910095481e-01
1.05604000000000e-07,7.00000000000000e-01,7.00000000000000e-01,6.96210039675977e-01
1.06015802099196e-07,7.00000000000000e-01,7.00000000000000e-01,6.99750659099151e-01
1.06600340324986e-07,7.00000000000000e-01,7.00000000000000e-01,7.00671683084729e-01
