Time,v(clk),v(data),v(out),v(reset)
1.00000000000000e-08,7.00000000000000e-01,0.00000000000000e+00,2.30660148739094e-05,0.00000000000000e+00
1.00100000000000e-08,7.00000000000000e-01,6.99999999999983e-02,1.59769449861805e-05,0.00000000000000e+00
1.00300000000000e-08,7.00000000000000e-01,2.09999999999995e-01,7.12804178047005e-06,0.00000000000000e+00
1.00700000000000e-08,7.00000000000000e-01,4.89999999999988e-01,2.20504576813052e-06,0.00000000000000e+00
1.01000000000000e-08,7.00000000000000e-01,6.99999999999995e-01,2.10622787755882e-06,0.00000000000000e+00
1.01080000000000e-08,7.00000000000000e-01,7.00000000000000e-01,2.22025201692538e-06,0.00000000000000e+00
1.01240000000000e-08,7.00000000000000e-01,7.00000000000000e-01,3.08012490840559e-06,0.00000000000000e+00
1.01560000000000e-08,7.00000000000000e-01,7.00000000000000e-01,4.00247005991061e-06,0.00000000000000e+00
1.02200000000000e-08,7.00000000000000e-01,7.00000000000000e-01,2.80735976256746e-06,0.00000000000000e+00
1.03480000000000e-08,7.00000000000000e-01,7.00000000000000e-01,1.89825208569624e-06,0.00000000000000e+00
1.06040000000000e-08,7.00000000000000e-01,7.00000000000000e-01,2.39992457700712e-06,0.00000000000000e+00
1.11160000000000e-08,7.00000000000000e-01,7.00000000000000e-01,2.19039942473201e-06,0.00000000000000e+00
1.21400000000000e-08,7.00000000000000e-01,7.00000000000000e-01,1.92591841105538e-06,0.00000000000000e+00
1.41880000000000e-08,7.00000000000000e-01,7.00000000000000e-01,1.70990106980939e-06,0.00000000000000e+00
1.51000000000000e-08,7.00000000000000e-01,7.00000000000000e-01,1.47661468112743e-06,0.00000000000000e+00
1.51100000000000e-08,6.29999999999990e-01,7.00000000000000e-01,1.64815998466891e-04,7.00000000000099e-02
1.51300000000000e-08,4.89999999999994e-01,7.00000000000000e-01,2.88409174246267e-04,2.10000000000007e-01
1.51700000000000e-08,2.10000000000000e-01,7.00000000000000e-01,1.52561424853759e-04,4.90000000000000e-01
1.52000000000000e-08,0.00000000000000e+00,7.00000000000000e-01,1.27851329526592e-04,7.00000000000000e-01
1.52080000000000e-08,0.00000000000000e+00,7.00000000000000e-01,1.19142320836450e-04,7.00000000000000e-01
1.52240000000000e-08,0.00000000000000e+00,7.00000000000000e-01,1.04229144004299e-04,7.00000000000000e-01
1.52560000000000e-08,0.00000000000000e+00,7.00000000000000e-01,5.93257485893076e-05,7.00000000000000e-01
1.53200000000000e-08,0.00000000000000e+00,7.00000000000000e-01,-1.27976294286847e-04,7.00000000000000e-01
1.54480000000000e-08,0.00000000000000e+00,7.00000000000000e-01,-1.63703323512898e-04,7.00000000000000e-01
1.56701946822435e-08,0.00000000000000e+00,7.00000000000000e-01,-1.34387866430857e-04,7.00000000000000e-01
1.60521908917252e-08,0.00000000000000e+00,7.00000000000000e-01,9.89694114388873e-05,7.00000000000000e-01
1.65301252402755e-08,0.00000000000000e+00,7.00000000000000e-01,9.40098192030621e-05,7.00000000000000e-01
1.74624085973986e-08,0.00000000000000e+00,7.00000000000000e-01,-1.55483595358489e-04,7.00000000000000e-01
1.86419731398742e-08,0.00000000000000e+00,7.00000000000000e-01,1.79422732040988e-04,7.00000000000000e-01
2.08663897207396e-08,0.00000000000000e+00,7.00000000000000e-01,-1.87785441578947e-04,7.00000000000000e-01
2.43724612993041e-08,0.00000000000000e+00,7.00000000000000e-01,1.91671866690912e-04,7.00000000000000e-01
2.50000000000000e-08,0.00000000000000e+00,7.00000000000000e-01,-2.00713109283622e-04,7.00000000000000e-01
2.50100000000000e-08,6.99999999999867e-02,7.00000000000000e-01,-3.69824111446787e-05,7.00000000000000e-01
2.50300000000000e-08,2.10000000000007e-01,7.00000000000000e-01,2.01372666453509e-04,7.00000000000000e-01
2.50700000000000e-08,4.90000000000000e-01,7.00000000000000e-01,3.57285404147173e-04,7.00000000000000e-01
2.51000000000000e-08,7.00000000000000e-01,7.00000000000000e-01,-6.98876877043335e-04,7.00000000000000e-01
2.51080000000000e-08,7.00000000000000e-01,7.00000000000000e-01,-1.40724926859259e-03,7.00000000000000e-01
2.51240000000000e-08,7.00000000000000e-01,7.00000000000000e-01,-2.85631600865958e-03,7.00000000000000e-01
2.51560000000000e-08,7.00000000000000e-01,7.00000000000000e-01,-5.18005059857672e-03,7.00000000000000e-01
2.52200000000000e-08,7.00000000000000e-01,7.00000000000000e-01,-3.05420309593740e-04,7.00000000000000e-01
2.53480000000000e-08,7.00000000000000e-01,7.00000000000000e-01,2.54995984810489e-01,7.00000000000000e-01
2.56040000000000e-08,7.00000000000000e-01,7.00000000000000e-01,6.98603022392691e-01,7.00000000000000e-01
2.60082427796549e-08,7.00000000000000e-01,7.00000000000000e-01,6.98541533169236e-01,7.00000000000000e-01
2.65971265318930e-08,7.00000000000000e-01,7.00000000000000e-01,7.01872652290444e-01,7.00000000000000e-01
2.74218021863582e-08,7.00000000000000e-01,7.00000000000000e-01,6.98120357698176e-01,7.00000000000000e-01
2.85799200624257e-08,7.00000000000000e-01,7.00000000000000e-01,7.01953146996848e-01,7.00000000000000e-01
3.08961558145606e-08,7.00000000000000e-01,7.00000000000000e-01,6.98090952114165e-01,7.00000000000000e-01
3.46961558145606e-08,7.00000000000000e-01,7.00000000000000e-01,7.01949457363247e-01,7.00000000000000e-01
3.51000000000000e-08,6.99999999999965e-01,7.00000000000000e-01,6.98155266371826e-01,7.00000000000000e-01
3.51100000000000e-08,6.29999999999979e-01,7.00000000000000e-01,6.99006857029677e-01,7.00000000000000e-01
3.51300000000000e-08,4.89999999999959e-01,7.00000000000000e-01,6.99890313181850e-01,7.00000000000000e-01
3.51700000000000e-08,2.09999999999966e-01,7.00000000000000e-01,7.00705793416498e-01,7.00000000000000e-01
3.52000000000000e-08,0.00000000000000e+00,7.00000000000000e-01,7.02553529887488e-01,7.00000000000000e-01
3.52080000000000e-08,0.00000000000000e+00,7.00000000000000e-01,7.02926106512700e-01,7.00000000000000e-01
3.52240000000000e-08,0.00000000000000e+00,7.00000000000000e-01,7.02990727243206e-01,7.00000000000000e-01
3.52560000000000e-08,0.00000000000000e+00,7.00000000000000e-01,6.97847800376293e-01,7.00000000000000e-01
3.53200000000000e-08,0.00000000000000e+00,7.00000000000000e-01,6.77802970681510e-01,7.00000000000000e-01
3.54480000000000e-08,0.00000000000000e+00,7.00000000000000e-01,6.80831768079198e-01,7.00000000000000e-01
3.57040000000000e-08,0.00000000000000e+00,7.00000000000000e-01,7.04988146320955e-01,7.00000000000000e-01
3.60942680467141e-08,0.00000000000000e+00,7.00000000000000e-01,6.95269258311905e-01,7.00000000000000e-01
3.67210800712039e-08,0.00000000000000e+00,7.00000000000000e-01,7.03418540939309e-01,7.00000000000000e-01
3.79747041201834e-08,0.00000000000000e+00,7.00000000000000e-01,6.96461882794813e-01,7.00000000000000e-01
4.04819522181426e-08,0.00000000000000e+00,7.00000000000000e-01,7.03162137127964e-01,7.00000000000000e-01
4.42819522181426e-08,0.00000000000000e+00,7.00000000000000e-01,6.96768696326008e-01,7.00000000000000e-01
4.50000000000000e-08,0.00000000000000e+00,7.00000000000000e-01,7.02695814803432e-01,7.00000000000000e-01
4.50100000000000e-08,6.99999999999867e-02,7.00000000000000e-01,7.01797892630953e-01,6.30000000000013e-01
4.50300000000000e-08,2.10000000000007e-01,7.00000000000000e-01,7.00516507755273e-01,4.89999999999994e-01
4.50700000000000e-08,4.90000000000000e-01,7.00000000000000e-01,7.02004072269286e-01,2.10000000000000e-01
4.51000000000000e-08,7.00000000000000e-01,7.00000000000000e-01,7.07954055707224e-01,0.00000000000000e+00
4.51080000000000e-08,7.00000000000000e-01,7.00000000000000e-01,7.09948160338230e-01,0.00000000000000e+00
4.51240000000000e-08,7.00000000000000e-01,7.00000000000000e-01,7.13532019491964e-01,0.00000000000000e+00
4.51560000000000e-08,7.00000000000000e-01,7.00000000000000e-01,7.21105999605216e-01,0.00000000000000e+00
4.52200000000000e-08,7.00000000000000e-01,7.00000000000000e-01,6.55402076232554e-01,0.00000000000000e+00
4.53480000000000e-08,7.00000000000000e-01,7.00000000000000e-01,1.91324435485415e-01,0.00000000000000e+00
4.55646640835798e-08,7.00000000000000e-01,7.00000000000000e-01,-5.37767061949103e-02,0.00000000000000e+00
4.58651333124853e-08,7.00000000000000e-01,7.00000000000000e-01,3.64330584744166e-02,0.00000000000000e+00
4.64631824214411e-08,7.00000000000000e-01,7.00000000000000e-01,-2.70594925715134e-02,0.00000000000000e+00
4.71309457879847e-08,7.00000000000000e-01,7.00000000000000e-01,2.34028682830957e-02,0.00000000000000e+00
4.84664725210719e-08,7.00000000000000e-01,7.00000000000000e-01,-2.03215121681584e-02,0.00000000000000e+00
5.01000000000000e-08,7.00000000000000e-01,6.99999999999960e-01,1.95827534638542e-02,0.00000000000000e+00
5.03671053466174e-08,7.00000000000000e-01,7.00000000000000e-01,1.98834721158617e-03,0.00000000000000e+00
5.09013160398523e-08,7.00000000000000e-01,7.00000000000000e-01,-1.50007428282200e-03,0.00000000000000e+00
5.19697374263220e-08,7.00000000000000e-01,7.00000000000000e-01,1.31671676209375e-03,0.00000000000000e+00
5.41065801992615e-08,7.00000000000000e-01,7.00000000000000e-01,-1.22672276096028e-03,0.00000000000000e+00
5.51000000000000e-08,7.00000000000000e-01,7.00000000000000e-01,1.06230335872847e-03,0.00000000000000e+00
5.51100000000000e-08,6.30000000000025e-01,7.00000000000000e-01,9.71326270491041e-04,6.99999999999752e-02
5.51300000000000e-08,4.90000000000005e-01,7.00000000000000e-01,7.36672453105436e-04,2.09999999999995e-01
5.51700000000000e-08,2.10000000000012e-01,7.00000000000000e-01,2.95668993759247e-04,4.89999999999988e-01
5.52000000000000e-08,0.00000000000000e+00,7.00000000000000e-01,1.80320806557062e-04,7.00000000000000e-01
5.52080000000000e-08,0.00000000000000e+00,7.00000000000000e-01,1.58283209476404e-04,7.00000000000000e-01
5.52240000000000e-08,0.00000000000000e+00,7.00000000000000e-01,1.13554426178906e-04,7.00000000000000e-01
5.52560000000000e-08,0.00000000000000e+00,7.00000000000000e-01,-1.60307668151352e-04,7.00000000000000e-01
5.53200000000000e-08,0.00000000000000e+00,7.00000000000000e-01,-1.10317836916436e-03,7.00000000000000e-01
5.54480000000000e-08,0.00000000000000e+00,7.00000000000000e-01,-4.14729413815654e-04,7.00000000000000e-01
5.56478963072769e-08,0.00000000000000e+00,7.00000000000000e-01,3.81926505953371e-04,7.00000000000000e-01
5.60430440356682e-08,0.00000000000000e+00,7.00000000000000e-01,-4.46164874860969e-04,7.00000000000000e-01
5.64814330502269e-08,0.00000000000000e+00,7.00000000000000e-01,4.31100914724427e-04,7.00000000000000e-01
5.73582110793442e-08,0.00000000000000e+00,7.00000000000000e-01,-3.83888919901799e-04,7.00000000000000e-01
5.84428430480653e-08,0.00000000000000e+00,7.00000000000000e-01,3.49210959789484e-04,7.00000000000000e-01
6.04421325495342e-08,0.00000000000000e+00,7.00000000000000e-01,-3.28739600465686e-04,7.00000000000000e-01
6.36104758658726e-08,0.00000000000000e+00,7.00000000000000e-01,3.18175835866210e-04,7.00000000000000e-01
6.50000000000000e-08,0.00000000000000e+00,7.00000000000000e-01,-2.90792085886203e-04,7.00000000000000e-01
6.50100000000000e-08,6.99999999999867e-02,7.00000000000000e-01,-1.10419610470376e-04,7.00000000000000e-01
6.50300000000000e-08,2.09999999999960e-01,7.00000000000000e-01,1.37361469061993e-04,7.00000000000000e-01
6.50700000000000e-08,4.89999999999907e-01,7.00000000000000e-01,3.31014757656511e-04,7.00000000000000e-01
6.51000000000000e-08,6.99999999999960e-01,7.00000000000000e-01,-9.15969908920733e-04,7.00000000000000e-01
6.51080000000000e-08,7.00000000000000e-01,7.00000000000000e-01,-1.66616974427208e-03,7.00000000000000e-01
6.51240000000000e-08,7.00000000000000e-01,7.00000000000000e-01,-3.13545481526958e-03,7.00000000000000e-01
6.51560000000000e-08,7.00000000000000e-01,7.00000000000000e-01,-5.35044336746408e-03,7.00000000000000e-01
6.52200000000000e-08,7.00000000000000e-01,7.00000000000000e-01,9.33008618693679e-04,7.00000000000000e-01
6.53480000000000e-08,7.00000000000000e-01,7.00000000000000e-01,2.63536251904905e-01,7.00000000000000e-01
6.56040000000000e-08,7.00000000000000e-01,7.00000000000000e-01,7.00642460211398e-01,7.00000000000000e-01
6.60021024479853e-08,7.00000000000000e-01,7.00000000000000e-01,6.97482881395091e-01,7.00000000000000e-01
6.65929675475918e-08,7.00000000000000e-01,7.00000000000000e-01,7.02918452695991e-01,7.00000000000000e-01
6.74109167502217e-08,7.00000000000000e-01,7.00000000000000e-01,6.97194642093703e-01,7.00000000000000e-01
6.85686612104658e-08,7.00000000000000e-01,7.00000000000000e-01,7.02869538585344e-01,7.00000000000000e-01
7.08841501309542e-08,7.00000000000000e-01,7.00000000000000e-01,6.97223531025610e-01,7.00000000000000e-01
7.46841501309541e-08,7.00000000000000e-01,7.00000000000000e-01,7.02827273335570e-01,7.00000000000000e-01
7.51000000000000e-08,7.00000000000000e-01,7.00000000000000e-01,6.97397115932834e-01,7.00000000000000e-01
7.51100000000000e-08,6.30000000000071e-01,7.00000000000000e-01,6.98563028569323e-01,7.00000000000000e-01
7.51300000000000e-08,4.90000000000098e-01,7.00000000000000e-01,6.99823431293594e-01,7.00000000000000e-01
7.51700000000000e-08,2.10000000000151e-01,7.00000000000000e-01,7.00720905731084e-01,7.00000000000000e-01
7.52000000000000e-08,9.80326930744013e-14,7.00000000000000e-01,7.02551947357079e-01,7.00000000000000e-01
7.52080000000000e-08,0.00000000000000e+00,7.00000000000000e-01,7.02925246006734e-01,7.00000000000000e-01
7.52240000000000e-08,0.00000000000000e+00,7.00000000000000e-01,7.02985020882153e-01,7.00000000000000e-01
7.52560000000000e-08,0.00000000000000e+00,7.00000000000000e-01,6.97828122873448e-01,7.00000000000000e-01
7.53200000000000e-08,0.00000000000000e+00,7.00000000000000e-01,6.77778730028205e-01,7.00000000000000e-01
7.54480000000000e-08,0.00000000000000e+00,7.00000000000000e-01,6.80837722528499e-01,7.00000000000000e-01
7.57040000000000e-08,0.00000000000000e+00,7.00000000000000e-01,7.04985743471072e-01,7.00000000000000e-01
7.60942907846020e-08,0.00000000000000e+00,7.00000000000000e-01,6.95271119647322e-01,7.00000000000000e-01
7.67210912221696e-08,0.00000000000000e+00,7.00000000000000e-01,7.03416973453302e-01,7.00000000000000e-01
7.79746920973049e-08,0.00000000000000e+00,7.00000000000000e-01,6.96463363596482e-01,7.00000000000000e-01
8.04818938475753e-08,0.00000000000000e+00,7.00000000000000e-01,7.03160730138144e-01,7.00000000000000e-01
8.42818938475753e-08,0.00000000000000e+00,7.00000000000000e-01,6.96770089061976e-01,7.00000000000000e-01
8.50000000000000e-08,0.00000000000000e+00,7.00000000000000e-01,7.02694647363536e-01,7.00000000000000e-01
8.50100000000000e-08,6.99999999999867e-02,7.00000000000000e-01,7.01797077081681e-01,6.30000000000013e-01
8.50300000000000e-08,2.09999999999960e-01,7.00000000000000e-01,7.00516169221355e-01,4.90000000000040e-01
8.50700000000000e-08,4.89999999999907e-01,7.00000000000000e-01,7.02004024437488e-01,2.10000000000093e-01
8.51000000000000e-08,6.99999999999960e-01,7.00000000000000e-01,7.07953946995763e-01,4.00790511889682e-14
8.51080000000000e-08,7.00000000000000e-01,7.00000000000000e-01,7.09948035567289e-01,0.00000000000000e+00
8.51240000000000e-08,7.00000000000000e-01,7.00000000000000e-01,7.13531894656335e-01,0.00000000000000e+00
8.51560000000000e-08,7.00000000000000e-01,7.00000000000000e-01,7.21105957659641e-01,0.00000000000000e+00
8.52200000000000e-08,7.00000000000000e-01,7.00000000000000e-01,6.55404830698097e-01,0.00000000000000e+00
8.53480000000000e-08,7.00000000000000e-01,7.00000000000000e-01,1.91328244206945e-01,0.00000000000000e+00
8.55649741084159e-08,7.00000000000000e-01,7.00000000000000e-01,-5.38601784371640e-02,0.00000000000000e+00
8.58653631247582e-08,7.00000000000000e-01,7.00000000000000e-01,3.64892015630418e-02,0.00000000000000e+00
8.64637415783882e-08,7.00000000000000e-01,7.00000000000000e-01,-2.71003819164546e-02,0.00000000000000e+00
8.71316589527231e-08,7.00000000000000e-01,7.00000000000000e-01,2.34399408036114e-02,0.00000000000000e+00
8.84674937013930e-08,7.00000000000000e-01,7.00000000000000e-01,-2.03523077233305e-02,0.00000000000000e+00
9.01000000000000e-08,7.00000000000000e-01,6.99999999999960e-01,1.96121999223414e-02,0.00000000000000e+00
9.03671669497340e-08,7.00000000000000e-01,7.00000000000000e-01,1.99147636334152e-03,0.00000000000000e+00
9.09015008492019e-08,7.00000000000000e-01,7.00000000000000e-01,-1.50249451030041e-03,0.00000000000000e+00
9.19701686481377e-08,7.00000000000000e-01,7.00000000000000e-01,1.31887457779624e-03,0.00000000000000e+00
9.41075042460094e-08,7.00000000000000e-01,7.00000000000000e-01,-1.22874137539955e-03,0.00000000000000e+00
9.51000000000000e-08,7.00000000000000e-01,7.00000000000000e-01,1.06388996041218e-03,0.00000000000000e+00
9.51100000000000e-08,6.30000000000071e-01,7.00000000000000e-01,9.72573251534513e-04,6.99999999999288e-02
9.51300000000000e-08,4.90000000000098e-01,7.00000000000000e-01,7.37400668771433e-04,2.09999999999902e-01
9.51700000000000e-08,2.10000000000151e-01,7.00000000000000e-01,2.95897073212877e-04,4.89999999999849e-01
9.52000000000000e-08,9.80326930744013e-14,7.00000000000000e-01,1.80420996131254e-04,6.99999999999902e-01
9.52080000000000e-08,0.00000000000000e+00,7.00000000000000e-01,1.58366541715534e-04,7.00000000000000e-01
9.52240000000000e-08,0.00000000000000e+00,7.00000000000000e-01,1.13608265935025e-04,7.00000000000000e-01
9.52560000000000e-08,0.00000000000000e+00,7.00000000000000e-01,-1.60288456819244e-04,7.00000000000000e-01
9.53200000000000e-08,0.00000000000000e+00,7.00000000000000e-01,-1.10319223045095e-03,7.00000000000000e-01
9.54480000000000e-08,0.00000000000000e+00,7.00000000000000e-01,-4.14733029917836e-04,7.00000000000000e-01
9.56479297944489e-08,0.00000000000000e+00,7.00000000000000e-01,3.81909946529934e-04,7.00000000000000e-01
9.60430533378868e-08,0.00000000000000e+00,7.00000000000000e-01,-4.46134247038840e-04,7.00000000000000e-01
9.64814994018107e-08,0.00000000000000e+00,7.00000000000000e-01,4.31080436224135e-04,7.00000000000000e-01
9.73583915296585e-08,0.00000000000000e+00,7.00000000000000e-01,-3.83885972403687e-04,7.00000000000000e-01
9.84431540910914e-08,0.00000000000000e+00,7.00000000000000e-01,3.49218615093294e-04,7.00000000000000e-01
1.00442824705181e-07,0.00000000000000e+00,7.00000000000000e-01,-3.28753996716795e-04,7.00000000000000e-01
1.03611691814035e-07,0.00000000000000e+00,7.00000000000000e-01,3.18193421958341e-04,7.00000000000000e-01
1.05000000000000e-07,0.00000000000000e+00,7.00000000000000e-01,-2.90790397841462e-04,7.00000000000000e-01
1.05010000000000e-07,6.99999999999867e-02,7.00000000000000e-01,-1.10409058884466e-04,7.00000000000000e-01
1.05030000000000e-07,2.09999999999960e-01,7.00000000000000e-01,1.37377530756974e-04,7.00000000000000e-01
1.05070000000000e-07,4.89999999999907e-01,7.00000000000000e-01,3.31024521542191e-04,7.00000000000000e-01
1.05100000000000e-07,6.99999999999960e-01,7.00000000000000e-01,-9.15971290003412e-04,7.00000000000000e-01
1.05108000000000e-07,7.00000000000000e-01,7.00000000000000e-01,-1.66617301764900e-03,7.00000000000000e-01
1.05124000000000e-07,7.00000000000000e-01,7.00000000000000e-01,-3.13545987396440e-03,7.00000000000000e-01
1.05156000000000e-07,7.00000000000000e-01,7.00000000000000e-01,-5.35044685138893e-03,7.00000000000000e-01
1.05220000000000e-07,7.00000000000000e-01,7.00000000000000e-01,9.33057593467866e-04,7.00000000000000e-01
1.05348000000000e-07,7.00000000000000e-01,7.00000000000000e-01,2.63536568138925e-01,7.00000000000000e-01
1.05604000000000e-07,7.00000000000000e-01,7.00000000000000e-01,7.00642534075510e-01,7.00000000000000e-01
1.06002102227700e-07,7.00000000000000e-01,7.00000000000000e-01,6.97482842307299e-01,7.00000000000000e-01
1.06592967426388e-07,7.00000000000000e-01,7.00000000000000e-01,7.02918490995034e-01,7.00000000000000e-01
1.07410916395981e-07,7.00000000000000e-01,7.00000000000000e-01,6.97194608091351e-01,7.00000000000000e-01
1.08568660905387e-07,7.00000000000000e-01,7.00000000000000e-01,7.02869572078604e-01,7.00000000000000e-01
1.10884149924199e-07,7.00000000000000e-01,7.00000000000000e-01,6.97223499224333e-01,7.00000000000000e-01
1.14684149924199e-07,7.00000000000000e-01,7.00000000000000e-01,7.02827305399201e-01,7.00000000000000e-01
1.15100000000000e-07,7.00000000000000e-01,7.00000000000000e-01,6.97397088207681e-01,7.00000000000000e-01
