Time,v(clk),v(data),v(out)
1.00000000000000e-08,6.00000000000000e-01,0.00000000000000e+00,1.99560212997066e-05
1.00100000000000e-08,6.00000000000000e-01,5.99999999999985e-02,2.92456916332895e-05
1.00300000000000e-08,6.00000000000000e-01,1.79999999999996e-01,3.21875793686810e-05
1.00700000000000e-08,6.00000000000000e-01,4.19999999999990e-01,2.20734336841000e-05
1.01000000000000e-08,6.00000000000000e-01,5.99999999999995e-01,2.04088995889723e-05
1.01080000000000e-08,6.00000000000000e-01,6.00000000000000e-01,1.74790161509147e-05
1.01240000000000e-08,6.00000000000000e-01,6.00000000000000e-01,1.85348126894996e-05
1.01560000000000e-08,6.00000000000000e-01,6.00000000000000e-01,2.65198045222986e-05
1.02200000000000e-08,6.00000000000000e-01,6.00000000000000e-01,2.98766618120061e-05
1.03480000000000e-08,6.00000000000000e-01,6.00000000000000e-01,2.16544972069313e-05
1.06040000000000e-08,6.00000000000000e-01,6.00000000000000e-01,2.34650313485976e-05
1.11160000000000e-08,6.00000000000000e-01,6.00000000000000e-01,2.21444496900855e-05
1.21400000000000e-08,6.00000000000000e-01,6.00000000000000e-01,2.29957027284861e-05
1.41880000000000e-08,6.00000000000000e-01,6.00000000000000e-01,2.12641092285828e-05
1.51000000000000e-08,6.00000000000000e-01,6.00000000000000e-01,2.23411648314579e-05
1.51100000000000e-08,5.39999999999991e-01,6.00000000000000e-01,-1.28078152390743e-04
1.51300000000000e-08,4.19999999999994e-01,6.00000000000000e-01,-3.13548179289233e-04
1.51700000000000e-08,1.80000000000000e-01,6.00000000000000e-01,-1.40902852000940e-05
1.52000000000000e-08,0.00000000000000e+00,6.00000000000000e-01,8.93564923460252e-04
1.52080000000000e-08,0.00000000000000e+00,6.00000000000000e-01,1.20538366549444e-03
1.52240000000000e-08,0.00000000000000e+00,6.00000000000000e-01,1.40911805745278e-03
1.52560000000000e-08,0.00000000000000e+00,6.00000000000000e-01,3.97543538283765e-04
1.53200000000000e-08,0.00000000000000e+00,6.00000000000000e-01,-9.67383458103821e-04
1.54480000000000e-08,0.00000000000000e+00,6.00000000000000e-01,-9.01246488838048e-06
1.56608194143325e-08,0.00000000000000e+00,6.00000000000000e-01,7.45307236987638e-05
1.59582739459664e-08,0.00000000000000e+00,6.00000000000000e-01,-2.06758493782121e-04
1.63901926420804e-08,0.00000000000000e+00,6.00000000000000e-01,3.60839897077688e-04
1.71978280715051e-08,0.00000000000000e+00,6.00000000000000e-01,-3.23820514708398e-04
1.80376549938551e-08,0.00000000000000e+00,6.00000000000000e-01,3.51170818749261e-04
1.97173088385551e-08,0.00000000000000e+00,6.00000000000000e-01,-3.01235205436585e-04
2.25028096625798e-08,0.00000000000000e+00,6.00000000000000e-01,3.33893292883730e-04
2.50000000000000e-08,0.00000000000000e+00,6.00000000000000e-01,-2.85655806164834e-04
2.50100000000000e-08,5.99999999999886e-02,6.00000000000000e-01,2.75351094150833e-05
2.50300000000000e-08,1.80000000000006e-01,6.00000000000000e-01,5.24658721189203e-04
2.50700000000000e-08,4.20000000000000e-01,6.00000000000000e-01,1.08173049981698e-03
2.51000000000000e-08,6.00000000000000e-01,6.00000000000000e-01,6.76660123906034e-04
2.51080000000000e-08,6.00000000000000e-01,6.00000000000000e-01,9.29138567167670e-05
2.51240000000000e-08,6.00000000000000e-01,6.00000000000000e-01,-1.12691662060420e-03
2.51560000000000e-08,6.00000000000000e-01,6.00000000000000e-01,-3.38523608140524e-03
2.52200000000000e-08,6.00000000000000e-01,6.00000000000000e-01,-6.05224413701584e-03
2.53480000000000e-08,6.00000000000000e-01,6.00000000000000e-01,1.52734509029793e-02
2.56040000000000e-08,6.00000000000000e-01,6.00000000000000e-01,4.91320559477998e-01
2.60541513085784e-08,6.00000000000000e-01,6.00000000000000e-01,6.16147865218676e-01
2.65132822890316e-08,6.00000000000000e-01,6.00000000000000e-01,5.85876457905476e-01
2.74315442499379e-08,6.00000000000000e-01,6.00000000000000e-01,6.13568823331958e-01
2.87128633331535e-08,6.00000000000000e-01,6.00000000000000e-01,5.86454837917355e-01
3.01000000000000e-08,6.00000000000000e-01,6.00000000000000e-01,6.12887184559568e-01
3.01100000000000e-08,6.00000000000000e-01,5.40000000000031e-01,6.05516426838978e-01
3.01300000000000e-08,6.00000000000000e-01,4.20000000000014e-01,5.99247693262775e-01
3.01700000000000e-08,6.00000000000000e-01,1.80000000000020e-01,6.00273706704877e-01
3.02000000000000e-08,6.00000000000000e-01,1.44328993201270e-14,5.99912019505208e-01
3.02080000000000e-08,6.00000000000000e-01,0.00000000000000e+00,5.99946259009116e-01
3.02240000000000e-08,6.00000000000000e-01,0.00000000000000e+00,5.99955943577570e-01
3.02560000000000e-08,6.00000000000000e-01,0.00000000000000e+00,5.99909163318304e-01
3.03200000000000e-08,6.00000000000000e-01,0.00000000000000e+00,5.99968082249207e-01
3.04480000000000e-08,6.00000000000000e-01,0.00000000000000e+00,6.00009710541596e-01
3.06595218353094e-08,6.00000000000000e-01,0.00000000000000e+00,5.99964279490502e-01
3.09532757175600e-08,6.00000000000000e-01,0.00000000000000e+00,6.00001789147477e-01
3.15407834820611e-08,6.00000000000000e-01,0.00000000000000e+00,5.99970200487817e-01
3.27157990110633e-08,6.00000000000000e-01,0.00000000000000e+00,6.00003041126489e-01
3.50658300690678e-08,6.00000000000000e-01,0.00000000000000e+00,5.99974762806560e-01
3.51000000000000e-08,5.99999999999970e-01,0.00000000000000e+00,5.99993114267068e-01
3.51100000000000e-08,5.39999999999982e-01,0.00000000000000e+00,5.99871892227053e-01
3.51300000000000e-08,4.19999999999965e-01,0.00000000000000e+00,5.99793694958891e-01
3.51700000000000e-08,1.79999999999970e-01,0.00000000000000e+00,6.01201447719860e-01
3.52000000000000e-08,0.00000000000000e+00,0.00000000000000e+00,6.04882311609299e-01
3.52080000000000e-08,0.00000000000000e+00,0.00000000000000e+00,6.05687476912191e-01
3.52240000000000e-08,0.00000000000000e+00,0.00000000000000e+00,6.05602047004873e-01
3.52560000000000e-08,0.00000000000000e+00,0.00000000000000e+00,5.97509607195620e-01
3.53200000000000e-08,0.00000000000000e+00,0.00000000000000e+00,5.88822042964516e-01
3.54480000000000e-08,0.00000000000000e+00,0.00000000000000e+00,5.99423360441371e-01
3.56771841331108e-08,0.00000000000000e+00,0.00000000000000e+00,5.99358267661831e-01
3.59565745756668e-08,0.00000000000000e+00,0.00000000000000e+00,5.99886373831167e-01
3.65153554607790e-08,0.00000000000000e+00,0.00000000000000e+00,5.99688442870132e-01
3.72985367075750e-08,0.00000000000000e+00,0.00000000000000e+00,6.00036337941245e-01
3.88648992011669e-08,0.00000000000000e+00,0.00000000000000e+00,5.99790083954054e-01
3.91000000000000e-08,0.00000000000000e+00,0.00000000000000e+00,6.00048608622599e-01
3.94132724987184e-08,0.00000000000000e+00,0.00000000000000e+00,5.99938455697296e-01
4.00398174961552e-08,0.00000000000000e+00,0.00000000000000e+00,5.99935914966677e-01
4.12929074910287e-08,0.00000000000000e+00,0.00000000000000e+00,5.99948498801650e-01
4.37990874807757e-08,0.00000000000000e+00,0.00000000000000e+00,5.99947754211075e-01
4.50000000000000e-08,0.00000000000000e+00,0.00000000000000e+00,5.99955343932563e-01
4.50100000000000e-08,5.99999999999886e-02,0.00000000000000e+00,6.00083546530306e-01
4.50300000000000e-08,1.80000000000006e-01,0.00000000000000e+00,6.00142211827111e-01
4.50700000000000e-08,4.20000000000000e-01,0.00000000000000e+00,5.99986479286020e-01
4.51000000000000e-08,6.00000000000000e-01,0.00000000000000e+00,5.99866657351928e-01
4.51080000000000e-08,6.00000000000000e-01,0.00000000000000e+00,5.99753349186818e-01
4.51240000000000e-08,6.00000000000000e-01,0.00000000000000e+00,5.99663366828690e-01
4.51560000000000e-08,6.00000000000000e-01,0.00000000000000e+00,5.99709739451717e-01
4.52200000000000e-08,6.00000000000000e-01,0.00000000000000e+00,5.99837420532892e-01
4.53480000000000e-08,6.00000000000000e-01,0.00000000000000e+00,6.01411386073824e-01
4.56040000000000e-08,6.00000000000000e-01,0.00000000000000e+00,4.38561875454321e-01
4.61160000000000e-08,6.00000000000000e-01,0.00000000000000e+00,-1.89601708775856e-02
4.65773709848410e-08,6.00000000000000e-01,0.00000000000000e+00,9.98971040078581e-03
4.75001129545229e-08,6.00000000000000e-01,0.00000000000000e+00,-5.33321016283771e-03
4.86239447149125e-08,6.00000000000000e-01,0.00000000000000e+00,4.08388768229193e-03
5.00000000000000e-08,6.00000000000000e-01,0.00000000000000e+00,-1.94361332056783e-03
5.00100000000000e-08,6.00000000000000e-01,5.99999999999886e-02,-3.81119859326699e-03
5.00300000000000e-08,6.00000000000000e-01,1.79999999999966e-01,-4.55875281763020e-03
5.00700000000000e-08,6.00000000000000e-01,4.20000000000000e-01,-2.08567641895577e-03
5.01000000000000e-08,6.00000000000000e-01,6.00000000000000e-01,-1.41255017607821e-03
5.01080000000000e-08,6.00000000000000e-01,6.00000000000000e-01,-1.23351410772847e-03
5.01240000000000e-08,6.00000000000000e-01,6.00000000000000e-01,-9.33652519843939e-04
5.01560000000000e-08,6.00000000000000e-01,6.00000000000000e-01,-5.42113990069384e-04
5.02200000000000e-08,6.00000000000000e-01,6.00000000000000e-01,-1.59329797432606e-04
5.03480000000000e-08,6.00000000000000e-01,6.00000000000000e-01,1.46447528868027e-05
5.06040000000000e-08,6.00000000000000e-01,6.00000000000000e-01,1.95065380996506e-05
5.11160000000001e-08,6.00000000000000e-01,6.00000000000000e-01,1.97545422115399e-05
5.21400000000002e-08,6.00000000000000e-01,6.00000000000000e-01,1.66113154762837e-05
5.41880000000003e-08,6.00000000000000e-01,6.00000000000000e-01,1.86612738009070e-05
5.51000000000000e-08,6.00000000000000e-01,6.00000000000000e-01,1.74651265170220e-05
5.51100000000000e-08,5.40000000000021e-01,6.00000000000000e-01,-1.35594567632819e-04
5.51300000000000e-08,4.20000000000004e-01,6.00000000000000e-01,-3.16049779200606e-04
5.51700000000000e-08,1.80000000000010e-01,6.00000000000000e-01,-6.37173400526436e-06
5.52000000000000e-08,0.00000000000000e+00,6.00000000000000e-01,8.76111845723629e-04
5.52080000000000e-08,0.00000000000000e+00,6.00000000000000e-01,1.17154732327651e-03
5.52240000000000e-08,0.00000000000000e+00,6.00000000000000e-01,1.28470455769664e-03
5.52560000000000e-08,0.00000000000000e+00,6.00000000000000e-01,-2.14232279627496e-04
5.53200000000000e-08,0.00000000000000e+00,6.00000000000000e-01,-1.88823345012405e-03
5.54480000000000e-08,0.00000000000000e+00,6.00000000000000e-01,-2.05013699790785e-04
5.56600337004409e-08,0.00000000000000e+00,6.00000000000000e-01,1.61882495164078e-04
5.59591569132665e-08,0.00000000000000e+00,6.00000000000000e-01,-2.53228930395741e-04
5.63897560763543e-08,0.00000000000000e+00,6.00000000000000e-01,3.86642864386680e-04
5.71994738288088e-08,0.00000000000000e+00,6.00000000000000e-01,-3.42949455521140e-04
5.80384478949036e-08,0.00000000000000e+00,6.00000000000000e-01,3.64869671877693e-04
5.97163960270934e-08,0.00000000000000e+00,6.00000000000000e-01,-3.12584762363578e-04
6.25032387001169e-08,0.00000000000000e+00,6.00000000000000e-01,3.43926217329375e-04
6.50000000000000e-08,0.00000000000000e+00,6.00000000000000e-01,-2.94292513074440e-04
6.50100000000000e-08,5.99999999999886e-02,6.00000000000000e-01,1.30006798632482e-05
6.50300000000000e-08,1.79999999999966e-01,6.00000000000000e-01,5.11435232166804e-04
6.50700000000000e-08,4.19999999999920e-01,6.00000000000000e-01,1.08003475520659e-03
6.51000000000000e-08,5.99999999999966e-01,6.00000000000000e-01,6.74932879570794e-04
6.51080000000000e-08,6.00000000000000e-01,6.00000000000000e-01,9.18099034741826e-05
6.51240000000000e-08,6.00000000000000e-01,6.00000000000000e-01,-1.12737003122942e-03
6.51560000000000e-08,6.00000000000000e-01,6.00000000000000e-01,-3.38539668913231e-03
6.52200000000000e-08,6.00000000000000e-01,6.00000000000000e-01,-6.05224038866638e-03
6.53480000000000e-08,6.00000000000000e-01,6.00000000000000e-01,1.52709991055769e-02
6.56040000000000e-08,6.00000000000000e-01,6.00000000000000e-01,4.91316269239501e-01
6.60541506863889e-08,6.00000000000000e-01,6.00000000000000e-01,6.16147775722498e-01
6.65132812310004e-08,6.00000000000000e-01,6.00000000000000e-01,5.85876459751788e-01
6.74315423202235e-08,6.00000000000000e-01,6.00000000000000e-01,6.13568834344509e-01
6.87128510663977e-08,6.00000000000000e-01,6.00000000000000e-01,5.86454836281349e-01
7.01000000000000e-08,6.00000000000000e-01,6.00000000000000e-01,6.12887193707431e-01
7.01100000000000e-08,6.00000000000000e-01,5.40000000000011e-01,6.05516429585207e-01
7.01300000000000e-08,6.00000000000000e-01,4.20000000000034e-01,5.99247694773336e-01
7.01700000000000e-08,6.00000000000000e-01,1.80000000000080e-01,6.00273706507900e-01
7.02000000000000e-08,6.00000000000000e-01,3.44169137633799e-14,5.99912017972705e-01
7.02080000000000e-08,6.00000000000000e-01,0.00000000000000e+00,5.99946259308788e-01
7.02240000000000e-08,6.00000000000000e-01,0.00000000000000e+00,5.99955944915158e-01
7.02560000000000e-08,6.00000000000000e-01,0.00000000000000e+00,5.99909163445061e-01
7.03200000000000e-08,6.00000000000000e-01,0.00000000000000e+00,5.99968082366624e-01
7.04480000000000e-08,6.00000000000000e-01,0.00000000000000e+00,6.00009710437011e-01
7.06595219778567e-08,6.00000000000000e-01,0.00000000000000e+00,5.99964279300688e-01
7.09532764859774e-08,6.00000000000000e-01,0.00000000000000e+00,6.00001789345503e-01
7.15407855022189e-08,6.00000000000000e-01,0.00000000000000e+00,5.99970200406456e-01
7.27158035347020e-08,6.00000000000000e-01,0.00000000000000e+00,6.00003041489056e-01
7.50658395996681e-08,6.00000000000000e-01,0.00000000000000e+00,5.99974762537719e-01
7.51000000000000e-08,6.00000000000000e-01,0.00000000000000e+00,5.99993112340199e-01
7.51100000000000e-08,5.40000000000061e-01,0.00000000000000e+00,5.99871891540406e-01
7.51300000000000e-08,4.20000000000084e-01,0.00000000000000e+00,5.99793694850089e-01
7.51700000000000e-08,1.80000000000129e-01,0.00000000000000e+00,6.01201447398900e-01
7.52000000000000e-08,8.40438829641244e-14,0.00000000000000e+00,6.04882312164818e-01
7.52080000000000e-08,0.00000000000000e+00,0.00000000000000e+00,6.05687478171132e-01
7.52240000000000e-08,0.00000000000000e+00,0.00000000000000e+00,6.05602051231082e-01
7.52560000000000e-08,0.00000000000000e+00,0.00000000000000e+00,5.97509615883401e-01
7.53200000000000e-08,0.00000000000000e+00,0.00000000000000e+00,5.88822045881462e-01
7.54480000000000e-08,0.00000000000000e+00,0.00000000000000e+00,5.99423358349846e-01
7.56771841346798e-08,0.00000000000000e+00,0.00000000000000e+00,5.99358269319050e-01
7.59565745782160e-08,0.00000000000000e+00,0.00000000000000e+00,5.99886372516450e-01
7.65153554652884e-08,0.00000000000000e+00,0.00000000000000e+00,5.99688444061073e-01
7.72985367134348e-08,0.00000000000000e+00,0.00000000000000e+00,6.00036336836637e-01
7.81000000000000e-08,0.00000000000000e+00,0.00000000000000e+00,5.99780404536386e-01
7.82566362496293e-08,0.00000000000000e+00,0.00000000000000e+00,5.99910368400932e-01
7.85699087488879e-08,0.00000000000000e+00,0.00000000000000e+00,5.99931648439499e-01
7.91964537474050e-08,0.00000000000000e+00,0.00000000000000e+00,5.99924871111188e-01
8.04495437444393e-08,0.00000000000000e+00,0.00000000000000e+00,5.99947857960372e-01
8.29557237385079e-08,0.00000000000000e+00,0.00000000000000e+00,5.99942908649435e-01
8.50000000000000e-08,0.00000000000000e+00,0.00000000000000e+00,5.99958668249091e-01
8.50100000000000e-08,5.99999999999886e-02,0.00000000000000e+00,6.00086664476123e-01
8.50300000000000e-08,1.79999999999966e-01,0.00000000000000e+00,6.00144207934434e-01
8.50700000000000e-08,4.19999999999920e-01,0.00000000000000e+00,5.99986735474812e-01
8.51000000000000e-08,5.99999999999966e-01,0.00000000000000e+00,5.99865749535364e-01
8.51080000000000e-08,6.00000000000000e-01,0.00000000000000e+00,5.99752515155745e-01
8.51240000000000e-08,6.00000000000000e-01,0.00000000000000e+00,5.99662636405969e-01
8.51560000000000e-08,6.00000000000000e-01,0.00000000000000e+00,5.99709237318279e-01
8.52200000000000e-08,6.00000000000000e-01,0.00000000000000e+00,5.99837091236306e-01
8.53480000000000e-08,6.00000000000000e-01,0.00000000000000e+00,6.01411498678737e-01
8.56040000000000e-08,6.00000000000000e-01,0.00000000000000e+00,4.38541338628162e-01
8.61159999999999e-08,6.00000000000000e-01,0.00000000000000e+00,-1.89479492028193e-02
8.65773691491061e-08,6.00000000000000e-01,0.00000000000000e+00,9.99537116487755e-03
8.75001074473183e-08,6.00000000000000e-01,0.00000000000000e+00,-5.33736490297637e-03
8.86239412110932e-08,6.00000000000000e-01,0.00000000000000e+00,4.08736209794630e-03
9.00000000000000e-08,6.00000000000000e-01,0.00000000000000e+00,-1.94654848978485e-03
9.00100000000000e-08,6.00000000000000e-01,5.99999999999886e-02,-3.81352051166303e-03
9.00300000000000e-08,6.00000000000000e-01,1.79999999999966e-01,-4.56027184741072e-03
9.00700000000000e-08,6.00000000000000e-01,4.19999999999920e-01,-2.08650620352688e-03
9.01000000000000e-08,6.00000000000000e-01,5.99999999999966e-01,-1.41303842630668e-03
9.01080000000000e-08,6.00000000000000e-01,6.00000000000000e-01,-1.23395155984397e-03
9.01240000000000e-08,6.00000000000000e-01,6.00000000000000e-01,-9.33994792251022e-04
9.01560000000000e-08,6.00000000000000e-01,6.00000000000000e-01,-5.42313532476357e-04
9.02200000000000e-08,6.00000000000000e-01,6.00000000000000e-01,-1.59397353950305e-04
9.03480000000000e-08,6.00000000000000e-01,6.00000000000000e-01,1.46457304689568e-05
9.06040000000000e-08,6.00000000000000e-01,6.00000000000000e-01,1.95071003008113e-05
9.11159999999999e-08,6.00000000000000e-01,6.00000000000000e-01,1.97564584882362e-05
9.21399999999999e-08,6.00000000000000e-01,6.00000000000000e-01,1.66104391627463e-05
9.41879999999998e-08,6.00000000000000e-01,6.00000000000000e-01,1.86627623024564e-05
9.51000000000000e-08,6.00000000000000e-01,6.00000000000000e-01,1.74641679598474e-05
9.51100000000000e-08,5.40000000000061e-01,6.00000000000000e-01,-1.35596644943170e-04
9.51300000000000e-08,4.20000000000084e-01,6.00000000000000e-01,-3.16051117055641e-04
9.51700000000000e-08,1.80000000000129e-01,6.00000000000000e-01,-6.37236913092476e-06
9.52000000000000e-08,8.40438829641244e-14,6.00000000000000e-01,8.76113759027575e-04
9.52080000000000e-08,0.00000000000000e+00,6.00000000000000e-01,1.17155183556569e-03
9.52240000000000e-08,0.00000000000000e+00,6.00000000000000e-01,1.28471819617137e-03
9.52560000000000e-08,0.00000000000000e+00,6.00000000000000e-01,-2.14175037593883e-04
9.53200000000000e-08,0.00000000000000e+00,6.00000000000000e-01,-1.88811551461285e-03
9.54480000000000e-08,0.00000000000000e+00,6.00000000000000e-01,-2.04960738603842e-04
9.56600337409861e-08,0.00000000000000e+00,6.00000000000000e-01,1.61855374597543e-04
9.59591569320672e-08,0.00000000000000e+00,6.00000000000000e-01,-2.53211416743580e-04
9.63897561372501e-08,0.00000000000000e+00,6.00000000000000e-01,3.86629837699218e-04
9.71994738052158e-08,0.00000000000000e+00,6.00000000000000e-01,-3.42938103412776e-04
9.80384479686350e-08,0.00000000000000e+00,6.00000000000000e-01,3.64859829900871e-04
9.97163962954736e-08,0.00000000000000e+00,6.00000000000000e-01,-3.12575501070349e-04
1.02503238764590e-07,0.00000000000000e+00,6.00000000000000e-01,3.43917360425562e-04
1.05000000000000e-07,0.00000000000000e+00,6.00000000000000e-01,-2.94283989716026e-04
1.05010000000000e-07,5.99999999999886e-02,6.00000000000000e-01,1.30062695243710e-05
1.05030000000000e-07,1.79999999999966e-01,6.00000000000000e-01,5.11437586964980e-04
1.05070000000000e-07,4.19999999999920e-01,6.00000000000000e-01,1.08003558888242e-03
1.05100000000000e-07,5.99999999999966e-01,6.00000000000000e-01,6.74933089425164e-04
1.05108000000000e-07,6.00000000000000e-01,6.00000000000000e-01,9.18101048411890e-05
1.05124000000000e-07,6.00000000000000e-01,6.00000000000000e-01,-1.12736987885044e-03
1.05156000000000e-07,6.00000000000000e-01,6.00000000000000e-01,-3.38539663588008e-03
1.05220000000000e-07,6.00000000000000e-01,6.00000000000000e-01,-6.05224037812736e-03
1.05348000000000e-07,6.00000000000000e-01,6.00000000000000e-01,1.52709992920846e-02
1.05604000000000e-07,6.00000000000000e-01,6.00000000000000e-01,4.91316269747435e-01
1.06054150686981e-07,6.00000000000000e-01,6.00000000000000e-01,6.16147775648375e-01
1.06513281232097e-07,6.00000000000000e-01,6.00000000000000e-01,5.85876459800161e-01
1.07431542322328e-07,6.00000000000000e-01,6.00000000000000e-01,6.13568834282888e-01
