Time,v(clk),v(data),v(out)
1.00000000000000e-08,7.50000000000000e-01,0.00000000000000e+00,-2.06230534519837e-05
1.00100000000000e-08,7.50000000000000e-01,7.49999999999982e-02,-1.15627399429052e-05
1.00300000000000e-08,7.50000000000000e-01,2.24999999999995e-01,-3.29506140269581e-06
1.00700000000000e-08,7.50000000000000e-01,5.24999999999987e-01,-2.43005596119172e-06
1.01000000000000e-08,7.50000000000000e-01,7.49999999999994e-01,3.92702398092915e-07
1.01080000000000e-08,7.50000000000000e-01,7.50000000000000e-01,1.07995382334775e-06
1.01240000000000e-08,7.50000000000000e-01,7.50000000000000e-01,2.44811802310035e-06
1.01560000000000e-08,7.50000000000000e-01,7.50000000000000e-01,4.10007295579412e-06
1.02200000000000e-08,7.50000000000000e-01,7.50000000000000e-01,1.23677902368752e-06
1.03480000000000e-08,7.50000000000000e-01,7.50000000000000e-01,1.31237466374431e-06
1.06040000000000e-08,7.50000000000000e-01,7.50000000000000e-01,1.81194142869975e-06
1.11160000000000e-08,7.50000000000000e-01,7.50000000000000e-01,1.51190428452058e-06
1.21400000000000e-08,7.50000000000000e-01,7.50000000000000e-01,1.46709869864583e-06
1.41880000000000e-08,7.50000000000000e-01,7.50000000000000e-01,1.26943709365503e-06
1.51000000000000e-08,7.50000000000000e-01,7.50000000000000e-01,1.16549915236486e-06
1.51100000000000e-08,6.74999999999989e-01,7.50000000000000e-01,-5.25631868299944e-05
1.51300000000000e-08,5.24999999999993e-01,7.50000000000000e-01,-1.11072387767239e-04
1.51700000000000e-08,2.25000000000000e-01,7.50000000000000e-01,2.06357884417752e-05
1.52000000000000e-08,0.00000000000000e+00,7.50000000000000e-01,2.55022501121326e-04
1.52080000000000e-08,0.00000000000000e+00,7.50000000000000e-01,3.15750277367875e-04
1.52240000000000e-08,0.00000000000000e+00,7.50000000000000e-01,2.78188699509012e-04
1.52560000000000e-08,0.00000000000000e+00,7.50000000000000e-01,-5.77586233184296e-05
1.53200000000000e-08,0.00000000000000e+00,7.50000000000000e-01,-2.69501633664154e-04
1.54480000000000e-08,0.00000000000000e+00,7.50000000000000e-01,-1.45101519813295e-04
1.56938755090506e-08,0.00000000000000e+00,7.50000000000000e-01,9.31363532850320e-05
1.59483794820688e-08,0.00000000000000e+00,7.50000000000000e-01,1.46920135905690e-04
1.64573874281052e-08,0.00000000000000e+00,7.50000000000000e-01,-1.93774947834948e-04
1.70164802022257e-08,0.00000000000000e+00,7.50000000000000e-01,2.15330366603865e-04
1.80871580739164e-08,0.00000000000000e+00,7.50000000000000e-01,-2.19518941942240e-04
1.96731660694974e-08,0.00000000000000e+00,7.50000000000000e-01,2.21366028649275e-04
2.22201226149706e-08,0.00000000000000e+00,7.50000000000000e-01,-2.21296021321814e-04
2.50000000000000e-08,0.00000000000000e+00,7.50000000000000e-01,2.21353863998841e-04
2.50100000000000e-08,7.49999999999858e-02,7.50000000000000e-01,2.40621226398674e-04
2.50300000000000e-08,2.25000000000007e-01,7.50000000000000e-01,2.41574382407107e-04
2.50700000000000e-08,5.25000000000000e-01,7.50000000000000e-01,-1.91924601668302e-04
2.51000000000000e-08,7.50000000000000e-01,7.50000000000000e-01,-2.86884376897785e-03
2.51080000000000e-08,7.50000000000000e-01,7.50000000000000e-01,-3.95607450670814e-03
2.51240000000000e-08,7.50000000000000e-01,7.50000000000000e-01,-5.65575960783061e-03
2.51560000000000e-08,7.50000000000000e-01,7.50000000000000e-01,-1.10284195187137e-03
2.52200000000000e-08,7.50000000000000e-01,7.50000000000000e-01,1.74493124740039e-01
2.53480000000000e-08,7.50000000000000e-01,7.50000000000000e-01,6.93722828755131e-01
2.56040000000000e-08,7.50000000000000e-01,7.50000000000000e-01,7.66483518194198e-01
2.58935949665416e-08,7.50000000000000e-01,7.50000000000000e-01,7.34339461444440e-01
2.63890333027193e-08,7.50000000000000e-01,7.50000000000000e-01,7.63384352110923e-01
2.70370935305306e-08,7.50000000000000e-01,7.50000000000000e-01,7.36667933092675e-01
2.83332139861532e-08,7.50000000000000e-01,7.50000000000000e-01,7.62281176302031e-01
3.01000000000000e-08,7.50000000000000e-01,7.50000000000000e-01,7.37370218499088e-01
3.01100000000000e-08,7.50000000000000e-01,6.75000000000039e-01,7.43825735968085e-01
3.01300000000000e-08,7.50000000000000e-01,5.25000000000018e-01,7.50087310625526e-01
3.01700000000000e-08,7.50000000000000e-01,2.25000000000025e-01,7.49889007139128e-01
3.02000000000000e-08,7.50000000000000e-01,1.80966353013901e-14,7.49987116347569e-01
3.02080000000000e-08,7.50000000000000e-01,0.00000000000000e+00,7.49987019289300e-01
3.02240000000000e-08,7.50000000000000e-01,0.00000000000000e+00,7.49970610797288e-01
3.02560000000000e-08,7.50000000000000e-01,0.00000000000000e+00,7.49956274262896e-01
3.03200000000000e-08,7.50000000000000e-01,0.00000000000000e+00,7.49991184239146e-01
3.04443110537730e-08,7.50000000000000e-01,0.00000000000000e+00,7.49999277498980e-01
3.06901082349538e-08,7.50000000000000e-01,0.00000000000000e+00,7.49972055597315e-01
3.09398180542941e-08,7.50000000000000e-01,0.00000000000000e+00,7.50003248149268e-01
3.14392376929746e-08,7.50000000000000e-01,0.00000000000000e+00,7.49974091549055e-01
3.24380769703355e-08,7.50000000000000e-01,0.00000000000000e+00,7.50003441876918e-01
3.44357555250575e-08,7.50000000000000e-01,0.00000000000000e+00,7.49976903457893e-01
3.51000000000000e-08,7.49999999999963e-01,0.00000000000000e+00,7.50004474212816e-01
3.51100000000000e-08,6.74999999999977e-01,0.00000000000000e+00,7.49946431170347e-01
3.51300000000000e-08,5.24999999999956e-01,0.00000000000000e+00,7.49899618618481e-01
3.51700000000000e-08,2.24999999999963e-01,0.00000000000000e+00,7.50968252838536e-01
3.52000000000000e-08,0.00000000000000e+00,0.00000000000000e+00,7.52662849489150e-01
3.52080000000000e-08,0.00000000000000e+00,0.00000000000000e+00,7.52351730310700e-01
3.52240000000000e-08,0.00000000000000e+00,0.00000000000000e+00,7.48999997925295e-01
3.52560000000000e-08,0.00000000000000e+00,0.00000000000000e+00,7.33286554331118e-01
3.53200000000000e-08,0.00000000000000e+00,0.00000000000000e+00,7.23583668784005e-01
3.54480000000000e-08,0.00000000000000e+00,0.00000000000000e+00,7.48892246466956e-01
3.56085405440615e-08,0.00000000000000e+00,0.00000000000000e+00,7.49540728417173e-01
3.59296216321845e-08,0.00000000000000e+00,0.00000000000000e+00,7.49723692766404e-01
3.62551540579489e-08,0.00000000000000e+00,0.00000000000000e+00,7.49711587219311e-01
3.69062189094776e-08,0.00000000000000e+00,0.00000000000000e+00,7.49931325655943e-01
3.82083486125351e-08,0.00000000000000e+00,0.00000000000000e+00,7.49823913379958e-01
3.91000000000000e-08,0.00000000000000e+00,0.00000000000000e+00,7.50012788657170e-01
3.93604259406115e-08,0.00000000000000e+00,0.00000000000000e+00,7.49925592961230e-01
3.98812778218345e-08,0.00000000000000e+00,0.00000000000000e+00,7.49932093142422e-01
4.09229815842805e-08,0.00000000000000e+00,0.00000000000000e+00,7.49939293341663e-01
4.30063891091725e-08,0.00000000000000e+00,0.00000000000000e+00,7.49947131457852e-01
4.50000000000000e-08,0.00000000000000e+00,0.00000000000000e+00,7.49951929496788e-01
4.50100000000000e-08,7.49999999999858e-02,0.00000000000000e+00,7.50002451339051e-01
4.50300000000000e-08,2.25000000000007e-01,0.00000000000000e+00,7.50026649677088e-01
4.50700000000000e-08,5.25000000000000e-01,0.00000000000000e+00,7.49911879737225e-01
4.51000000000000e-08,7.50000000000000e-01,0.00000000000000e+00,7.49739913767641e-01
4.51080000000000e-08,7.50000000000000e-01,0.00000000000000e+00,7.49697754424362e-01
4.51240000000000e-08,7.50000000000000e-01,0.00000000000000e+00,7.49693896573329e-01
4.51560000000000e-08,7.50000000000000e-01,0.00000000000000e+00,7.50396325283210e-01
4.52200000000000e-08,7.50000000000000e-01,0.00000000000000e+00,7.57333934686740e-01
4.53480000000000e-08,7.50000000000000e-01,0.00000000000000e+00,3.83660882481281e-01
4.55876485418245e-08,7.50000000000000e-01,0.00000000000000e+00,-7.13895930937191e-02
4.58083977648493e-08,7.50000000000000e-01,0.00000000000000e+00,5.02385537376381e-02
4.62498962108988e-08,7.50000000000000e-01,0.00000000000000e+00,-3.42943390391486e-02
4.66985438612885e-08,7.50000000000000e-01,0.00000000000000e+00,2.95175507762896e-02
4.75958391620680e-08,7.50000000000000e-01,0.00000000000000e+00,-2.38460176541058e-02
4.90719345608252e-08,7.50000000000000e-01,0.00000000000000e+00,2.39866595994721e-02
5.00000000000000e-08,7.50000000000000e-01,0.00000000000000e+00,-1.96453520252560e-02
5.00100000000000e-08,7.50000000000000e-01,7.49999999999858e-02,-1.50667890124028e-02
5.00300000000000e-08,7.50000000000000e-01,2.24999999999957e-01,-6.91910689017602e-03
5.00700000000000e-08,7.50000000000000e-01,5.25000000000000e-01,-4.11589440010546e-04
5.01000000000000e-08,7.50000000000000e-01,7.50000000000000e-01,-2.36967241031873e-04
5.01080000000000e-08,7.50000000000000e-01,7.50000000000000e-01,-1.31935185069855e-04
5.01240000000000e-08,7.50000000000000e-01,7.50000000000000e-01,-4.00863997574441e-05
5.01560000000000e-08,7.50000000000000e-01,7.50000000000000e-01,-1.23891913949223e-05
5.02200000000000e-08,7.50000000000000e-01,7.50000000000000e-01,1.07944285388240e-05
5.03480000000000e-08,7.50000000000000e-01,7.50000000000000e-01,-1.33390031865875e-05
5.06040000000000e-08,7.50000000000000e-01,7.50000000000000e-01,1.11214255931486e-05
5.11160000000001e-08,7.50000000000000e-01,7.50000000000000e-01,-9.55927565375950e-06
5.21400000000002e-08,7.50000000000000e-01,7.50000000000000e-01,9.88312929629679e-06
5.41880000000003e-08,7.50000000000000e-01,7.50000000000000e-01,-8.82825228336391e-06
5.51000000000000e-08,7.50000000000000e-01,7.50000000000000e-01,8.85601486486781e-06
5.51100000000000e-08,6.75000000000027e-01,7.50000000000000e-01,-5.14374746182419e-05
5.51300000000000e-08,5.25000000000005e-01,7.50000000000000e-01,-1.14551150076532e-04
5.51700000000000e-08,2.25000000000013e-01,7.50000000000000e-01,1.90420427987129e-05
5.52000000000000e-08,0.00000000000000e+00,7.50000000000000e-01,2.34129688269906e-04
5.52080000000000e-08,0.00000000000000e+00,7.50000000000000e-01,2.71589475122666e-04
5.52240000000000e-08,0.00000000000000e+00,7.50000000000000e-01,9.89640548216472e-05
5.52560000000000e-08,0.00000000000000e+00,7.50000000000000e-01,-8.37745549614771e-04
5.53200000000000e-08,0.00000000000000e+00,7.50000000000000e-01,-6.98870025705331e-04
5.54480000000000e-08,0.00000000000000e+00,7.50000000000000e-01,9.79593821000165e-05
5.56924213051898e-08,0.00000000000000e+00,7.50000000000000e-01,-9.10484588082221e-05
5.59472625274898e-08,0.00000000000000e+00,7.50000000000000e-01,2.87944245710211e-04
5.64569449720898e-08,0.00000000000000e+00,7.50000000000000e-01,-3.20040476535360e-04
5.70149379082767e-08,0.00000000000000e+00,7.50000000000000e-01,3.28463185207391e-04
5.80892485959449e-08,0.00000000000000e+00,7.50000000000000e-01,-3.28073079825440e-04
5.96760856084112e-08,0.00000000000000e+00,7.50000000000000e-01,3.25447369538680e-04
6.22298461700628e-08,0.00000000000000e+00,7.50000000000000e-01,-3.23546950510219e-04
6.50000000000000e-08,0.00000000000000e+00,7.50000000000000e-01,3.21263275344738e-04
6.50100000000000e-08,7.49999999999858e-02,7.50000000000000e-01,2.90294273899337e-04
6.50300000000000e-08,2.24999999999957e-01,7.50000000000000e-01,2.50819746829174e-04
6.50700000000000e-08,5.24999999999900e-01,7.50000000000000e-01,-1.91524169999645e-04
6.51000000000000e-08,7.49999999999957e-01,7.50000000000000e-01,-2.87470815978682e-03
6.51080000000000e-08,7.50000000000000e-01,7.50000000000000e-01,-3.95960878050058e-03
6.51240000000000e-08,7.50000000000000e-01,7.50000000000000e-01,-5.65694984531703e-03
6.51560000000000e-08,7.50000000000000e-01,7.50000000000000e-01,-1.08425679984079e-03
6.52200000000000e-08,7.50000000000000e-01,7.50000000000000e-01,1.74642403564730e-01
6.53480000000000e-08,7.50000000000000e-01,7.50000000000000e-01,6.93800834072376e-01
6.56040000000000e-08,7.50000000000000e-01,7.50000000000000e-01,7.66464333346782e-01
6.58935899073550e-08,7.50000000000000e-01,7.50000000000000e-01,7.34358636145982e-01
6.63889740059987e-08,7.50000000000000e-01,7.50000000000000e-01,7.63367911944028e-01
6.70370038081531e-08,7.50000000000000e-01,7.50000000000000e-01,7.36684704244259e-01
6.83330634124620e-08,7.50000000000000e-01,7.50000000000000e-01,7.62265889198075e-01
7.01000000000000e-08,7.50000000000000e-01,7.50000000000000e-01,7.37386208371164e-01
7.01100000000000e-08,7.50000000000000e-01,6.75000000000014e-01,7.43833388900286e-01
7.01300000000000e-08,7.50000000000000e-01,5.25000000000043e-01,7.50086969456323e-01
7.01700000000000e-08,7.50000000000000e-01,2.25000000000100e-01,7.49889121419264e-01
7.02000000000000e-08,7.50000000000000e-01,4.29656310529936e-14,7.49987081764460e-01
7.02080000000000e-08,7.50000000000000e-01,0.00000000000000e+00,7.49987001434653e-01
7.02240000000000e-08,7.50000000000000e-01,0.00000000000000e+00,7.49970606735550e-01
7.02560000000000e-08,7.50000000000000e-01,0.00000000000000e+00,7.49956275184236e-01
7.03200000000000e-08,7.50000000000000e-01,0.00000000000000e+00,7.49991190358091e-01
7.04443119472520e-08,7.50000000000000e-01,0.00000000000000e+00,7.49999289161695e-01
7.06901076051955e-08,7.50000000000000e-01,0.00000000000000e+00,7.49972059459246e-01
7.09398284187059e-08,7.50000000000000e-01,0.00000000000000e+00,7.50003259490989e-01
7.14392700457267e-08,7.50000000000000e-01,0.00000000000000e+00,7.49974094188911e-01
7.24381532997682e-08,7.50000000000000e-01,0.00000000000000e+00,7.50003451490673e-01
7.44359198078513e-08,7.50000000000000e-01,0.00000000000000e+00,7.49976903610570e-01
7.51000000000000e-08,7.50000000000000e-01,0.00000000000000e+00,7.50004481937076e-01
7.51100000000000e-08,6.75000000000076e-01,0.00000000000000e+00,7.49946435951711e-01
7.51300000000000e-08,5.25000000000105e-01,0.00000000000000e+00,7.49899620033755e-01
7.51700000000000e-08,2.25000000000162e-01,0.00000000000000e+00,7.50968262740666e-01
7.52000000000000e-08,1.05027098129540e-13,0.00000000000000e+00,7.52663021773954e-01
7.52080000000000e-08,0.00000000000000e+00,0.00000000000000e+00,7.52352103212106e-01
7.52240000000000e-08,0.00000000000000e+00,0.00000000000000e+00,7.49000890861611e-01
7.52560000000000e-08,0.00000000000000e+00,0.00000000000000e+00,7.33287874966045e-01
7.53200000000000e-08,0.00000000000000e+00,0.00000000000000e+00,7.23583750310305e-01
7.54480000000000e-08,0.00000000000000e+00,0.00000000000000e+00,7.48892088914599e-01
7.56085405513689e-08,0.00000000000000e+00,0.00000000000000e+00,7.49540852252217e-01
7.59296216541067e-08,0.00000000000000e+00,0.00000000000000e+00,7.49723600033594e-01
7.62551540889783e-08,0.00000000000000e+00,0.00000000000000e+00,7.49711666723881e-01
7.69062189587215e-08,0.00000000000000e+00,0.00000000000000e+00,7.49931255423354e-01
7.81000000000000e-08,0.00000000000000e+00,0.00000000000000e+00,7.49820959118953e-01
7.82302129739487e-08,0.00000000000000e+00,0.00000000000000e+00,7.49912268691046e-01
7.84906389218459e-08,0.00000000000000e+00,0.00000000000000e+00,7.49914810499182e-01
7.90114908176404e-08,0.00000000000000e+00,0.00000000000000e+00,7.49920614508822e-01
8.00531946092295e-08,0.00000000000000e+00,0.00000000000000e+00,7.49935506689250e-01
8.21366021924075e-08,0.00000000000000e+00,0.00000000000000e+00,7.49942272253564e-01
8.50000000000000e-08,0.00000000000000e+00,0.00000000000000e+00,7.49954196974237e-01
8.50100000000000e-08,7.49999999999858e-02,0.00000000000000e+00,7.50004107572253e-01
8.50300000000000e-08,2.24999999999957e-01,0.00000000000000e+00,7.50027413501036e-01
8.50700000000000e-08,5.24999999999900e-01,0.00000000000000e+00,7.49911892639622e-01
8.51000000000000e-08,7.49999999999957e-01,0.00000000000000e+00,7.49739823959989e-01
8.51080000000000e-08,7.50000000000000e-01,0.00000000000000e+00,7.49697394639852e-01
8.51240000000000e-08,7.50000000000000e-01,0.00000000000000e+00,7.49693037242975e-01
8.51560000000000e-08,7.50000000000000e-01,0.00000000000000e+00,7.50395114175217e-01
8.52200000000000e-08,7.50000000000000e-01,0.00000000000000e+00,7.57334250525490e-01
8.53480000000000e-08,7.50000000000000e-01,0.00000000000000e+00,3.83676671185810e-01
8.55876176134904e-08,7.50000000000000e-01,0.00000000000000e+00,-7.13754592176906e-02
8.58083710631089e-08,7.50000000000000e-01,0.00000000000000e+00,5.02283217826208e-02
8.62498779623459e-08,7.50000000000000e-01,0.00000000000000e+00,-3.42878617081855e-02
8.66985047547089e-08,7.50000000000000e-01,0.00000000000000e+00,2.95117923778722e-02
8.75957583394348e-08,7.50000000000000e-01,0.00000000000000e+00,-2.38412230367352e-02
8.90719460794479e-08,7.50000000000000e-01,0.00000000000000e+00,2.39818409981214e-02
9.00000000000000e-08,7.50000000000000e-01,0.00000000000000e+00,-1.96413158251002e-02
9.00100000000000e-08,7.50000000000000e-01,7.49999999999858e-02,-1.50641573645109e-02
9.00300000000000e-08,7.50000000000000e-01,2.24999999999957e-01,-6.91814576307877e-03
9.00700000000000e-08,7.50000000000000e-01,5.24999999999900e-01,-4.11470855999511e-04
9.01000000000000e-08,7.50000000000000e-01,7.49999999999957e-01,-2.36970289101419e-04
9.01080000000000e-08,7.50000000000000e-01,7.50000000000000e-01,-1.31924054979977e-04
9.01240000000000e-08,7.50000000000000e-01,7.50000000000000e-01,-4.00761634098620e-05
9.01560000000000e-08,7.50000000000000e-01,7.50000000000000e-01,-1.23954232470191e-05
9.02200000000000e-08,7.50000000000000e-01,7.50000000000000e-01,1.07968615083165e-05
9.03480000000000e-08,7.50000000000000e-01,7.50000000000000e-01,-1.33365840246265e-05
9.06040000000000e-08,7.50000000000000e-01,7.50000000000000e-01,1.11201979841359e-05
9.11159999999999e-08,7.50000000000000e-01,7.50000000000000e-01,-9.55850018321235e-06
9.21399999999999e-08,7.50000000000000e-01,7.50000000000000e-01,9.88248942943807e-06
9.41879999999998e-08,7.50000000000000e-01,7.50000000000000e-01,-8.82776143440065e-06
9.51000000000000e-08,7.50000000000000e-01,7.50000000000000e-01,8.85568901280677e-06
9.51100000000000e-08,6.75000000000076e-01,7.50000000000000e-01,-5.14382029952326e-05
9.51300000000000e-08,5.25000000000105e-01,7.50000000000000e-01,-1.14551307321936e-04
9.51700000000000e-08,2.25000000000162e-01,7.50000000000000e-01,1.90426599118651e-05
9.52000000000000e-08,1.05027098129540e-13,7.50000000000000e-01,2.34129318684315e-04
9.52080000000000e-08,0.00000000000000e+00,7.50000000000000e-01,2.71588564544026e-04
9.52240000000000e-08,0.00000000000000e+00,7.50000000000000e-01,9.89611994978226e-05
9.52560000000000e-08,0.00000000000000e+00,7.50000000000000e-01,-8.37760022761064e-04
9.53200000000000e-08,0.00000000000000e+00,7.50000000000000e-01,-6.98880903898601e-04
9.54480000000000e-08,0.00000000000000e+00,7.50000000000000e-01,9.79639891440544e-05
9.56924212733174e-08,0.00000000000000e+00,7.50000000000000e-01,-9.10514390225717e-05
9.59472625025547e-08,0.00000000000000e+00,7.50000000000000e-01,2.87946203164715e-04
9.64569449610294e-08,0.00000000000000e+00,7.50000000000000e-01,-3.20042100975831e-04
9.70149378729448e-08,0.00000000000000e+00,7.50000000000000e-01,3.28464545281140e-04
9.80892486356608e-08,0.00000000000000e+00,7.50000000000000e-01,-3.28074332032627e-04
9.96760856620550e-08,0.00000000000000e+00,7.50000000000000e-01,3.25448546631241e-04
1.02229846360878e-07,0.00000000000000e+00,7.50000000000000e-01,-3.23548090785554e-04
1.05000000000000e-07,0.00000000000000e+00,7.50000000000000e-01,3.21264375578038e-04
1.05010000000000e-07,7.49999999999858e-02,7.50000000000000e-01,2.90294908309278e-04
1.05030000000000e-07,2.24999999999957e-01,7.50000000000000e-01,2.50820030494515e-04
1.05070000000000e-07,5.24999999999900e-01,7.50000000000000e-01,-1.91524108747315e-04
1.05100000000000e-07,7.49999999999957e-01,7.50000000000000e-01,-2.87470825570437e-03
1.05108000000000e-07,7.50000000000000e-01,7.50000000000000e-01,-3.95960883972357e-03
1.05124000000000e-07,7.50000000000000e-01,7.50000000000000e-01,-5.65694986576199e-03
1.05156000000000e-07,7.50000000000000e-01,7.50000000000000e-01,-1.08425645531262e-03
1.05220000000000e-07,7.50000000000000e-01,7.50000000000000e-01,1.74642406274115e-01
1.05348000000000e-07,7.50000000000000e-01,7.50000000000000e-01,6.93800835477848e-01
1.05604000000000e-07,7.50000000000000e-01,7.50000000000000e-01,7.66464333004594e-01
