Time,v(clk),v(data),v(out),v(reset)
1.00000000000000e-08,7.50000000000000e-01,0.00000000000000e+00,2.17532523553560e-05,0.00000000000000e+00
1.00100000000000e-08,7.50000000000000e-01,7.49999999999982e-02,1.87397766795508e-05,0.00000000000000e+00
1.00300000000000e-08,7.50000000000000e-01,2.24999999999995e-01,1.57872443627347e-05,0.00000000000000e+00
1.00700000000000e-08,7.50000000000000e-01,5.24999999999987e-01,1.16176650825570e-05,0.00000000000000e+00
1.01000000000000e-08,7.50000000000000e-01,7.49999999999994e-01,1.15182303342953e-05,0.00000000000000e+00
1.01080000000000e-08,7.50000000000000e-01,7.50000000000000e-01,1.07582172918647e-05,0.00000000000000e+00
1.01240000000000e-08,7.50000000000000e-01,7.50000000000000e-01,1.16981259208407e-05,0.00000000000000e+00
1.01560000000000e-08,7.50000000000000e-01,7.50000000000000e-01,1.20232966041717e-05,0.00000000000000e+00
1.02200000000000e-08,7.50000000000000e-01,7.50000000000000e-01,1.12999198392458e-05,0.00000000000000e+00
1.03480000000000e-08,7.50000000000000e-01,7.50000000000000e-01,1.20144001376464e-05,0.00000000000000e+00
1.06040000000000e-08,7.50000000000000e-01,7.50000000000000e-01,1.20533323096986e-05,0.00000000000000e+00
1.11160000000000e-08,7.50000000000000e-01,7.50000000000000e-01,1.16529085887693e-05,0.00000000000000e+00
1.21400000000000e-08,7.50000000000000e-01,7.50000000000000e-01,1.14939791057179e-05,0.00000000000000e+00
1.41880000000000e-08,7.50000000000000e-01,7.50000000000000e-01,1.07506786721692e-05,0.00000000000000e+00
1.51000000000000e-08,7.50000000000000e-01,7.50000000000000e-01,1.08362301657200e-05,0.00000000000000e+00
1.51100000000000e-08,6.74999999999989e-01,7.50000000000000e-01,1.59753075785647e-04,7.50000000000106e-02
1.51300000000000e-08,5.24999999999993e-01,7.50000000000000e-01,2.46199258708675e-04,2.25000000000007e-01
1.51700000000000e-08,2.25000000000000e-01,7.50000000000000e-01,1.71371778802158e-04,5.25000000000000e-01
1.52000000000000e-08,0.00000000000000e+00,7.50000000000000e-01,2.04871096971412e-04,7.50000000000000e-01
1.52080000000000e-08,0.00000000000000e+00,7.50000000000000e-01,1.69247650966702e-04,7.50000000000000e-01
1.52240000000000e-08,0.00000000000000e+00,7.50000000000000e-01,7.97404150901099e-05,7.50000000000000e-01
1.52560000000000e-08,0.00000000000000e+00,7.50000000000000e-01,-1.49659536579125e-04,7.50000000000000e-01
1.53200000000000e-08,0.00000000000000e+00,7.50000000000000e-01,-3.89291875580476e-04,7.50000000000000e-01
1.54480000000000e-08,0.00000000000000e+00,7.50000000000000e-01,-4.88701949775648e-05,7.50000000000000e-01
1.56749596570272e-08,0.00000000000000e+00,7.50000000000000e-01,-2.04118635259060e-04,7.50000000000000e-01
1.59964990128934e-08,0.00000000000000e+00,7.50000000000000e-01,2.58391917272482e-04,7.50000000000000e-01
1.66149547020712e-08,0.00000000000000e+00,7.50000000000000e-01,-9.58894476040893e-05,7.50000000000000e-01
1.72380807037330e-08,0.00000000000000e+00,7.50000000000000e-01,2.66885130862250e-05,7.50000000000000e-01
1.84843327070566e-08,0.00000000000000e+00,7.50000000000000e-01,2.33747216043683e-05,7.50000000000000e-01
2.09768367137039e-08,0.00000000000000e+00,7.50000000000000e-01,-1.79585981760044e-05,7.50000000000000e-01
2.47768367137039e-08,0.00000000000000e+00,7.50000000000000e-01,4.43627097100384e-05,7.50000000000000e-01
2.50000000000000e-08,0.00000000000000e+00,7.50000000000000e-01,-9.55088214678601e-05,7.50000000000000e-01
2.50100000000000e-08,7.49999999999858e-02,7.50000000000000e-01,5.23216189277920e-05,7.50000000000000e-01
2.50300000000000e-08,2.25000000000007e-01,7.50000000000000e-01,2.53546691414336e-04,7.50000000000000e-01
2.50700000000000e-08,5.25000000000000e-01,7.50000000000000e-01,1.81691861451561e-04,7.50000000000000e-01
2.51000000000000e-08,7.50000000000000e-01,7.50000000000000e-01,-1.54314967786338e-03,7.50000000000000e-01
2.51080000000000e-08,7.50000000000000e-01,7.50000000000000e-01,-2.43477207047287e-03,7.50000000000000e-01
2.51240000000000e-08,7.50000000000000e-01,7.50000000000000e-01,-4.05643872267469e-03,7.50000000000000e-01
2.51560000000000e-08,7.50000000000000e-01,7.50000000000000e-01,-5.48027607413954e-03,7.50000000000000e-01
2.52200000000000e-08,7.50000000000000e-01,7.50000000000000e-01,3.19663737439499e-02,7.50000000000000e-01
2.53480000000000e-08,7.50000000000000e-01,7.50000000000000e-01,4.70382418109003e-01,7.50000000000000e-01
2.56040000000000e-08,7.50000000000000e-01,7.50000000000000e-01,7.78227828598179e-01,7.50000000000000e-01
2.58976102126900e-08,7.50000000000000e-01,7.50000000000000e-01,7.26970039854470e-01,7.50000000000000e-01
2.64848306380700e-08,7.50000000000000e-01,7.50000000000000e-01,7.71303662560024e-01,7.50000000000000e-01
2.71792131634763e-08,7.50000000000000e-01,7.50000000000000e-01,7.29525822055271e-01,7.50000000000000e-01
2.83811956910746e-08,7.50000000000000e-01,7.50000000000000e-01,7.69288224225088e-01,7.50000000000000e-01
3.07851607462711e-08,7.50000000000000e-01,7.50000000000000e-01,7.30587356741879e-01,7.50000000000000e-01
3.45851607462711e-08,7.50000000000000e-01,7.50000000000000e-01,7.68745386531529e-01,7.50000000000000e-01
3.51000000000000e-08,7.49999999999963e-01,7.50000000000000e-01,7.32342311050385e-01,7.50000000000000e-01
3.51100000000000e-08,6.74999999999977e-01,7.50000000000000e-01,7.40551094672468e-01,7.50000000000000e-01
3.51300000000000e-08,5.24999999999956e-01,7.50000000000000e-01,7.49287703205178e-01,7.50000000000000e-01
3.51700000000000e-08,2.24999999999963e-01,7.50000000000000e-01,7.51187240063279e-01,7.50000000000000e-01
3.52000000000000e-08,0.00000000000000e+00,7.50000000000000e-01,7.52831542598620e-01,7.50000000000000e-01
3.52080000000000e-08,0.00000000000000e+00,7.50000000000000e-01,7.52915770326108e-01,7.50000000000000e-01
3.52240000000000e-08,0.00000000000000e+00,7.50000000000000e-01,7.51539370757654e-01,7.50000000000000e-01
3.52560000000000e-08,0.00000000000000e+00,7.50000000000000e-01,7.40651323641863e-01,7.50000000000000e-01
3.53200000000000e-08,0.00000000000000e+00,7.50000000000000e-01,7.22450083257845e-01,7.50000000000000e-01
3.54480000000000e-08,0.00000000000000e+00,7.50000000000000e-01,7.40367804765954e-01,7.50000000000000e-01
3.57040000000000e-08,0.00000000000000e+00,7.50000000000000e-01,7.53352440394195e-01,7.50000000000000e-01
3.60204549749617e-08,0.00000000000000e+00,7.50000000000000e-01,7.46434260408984e-01,7.50000000000000e-01
3.66533649248851e-08,0.00000000000000e+00,7.50000000000000e-01,7.52275171073684e-01,7.50000000000000e-01
3.79191848247318e-08,0.00000000000000e+00,7.50000000000000e-01,7.47393444616184e-01,7.50000000000000e-01
4.04508246244254e-08,0.00000000000000e+00,7.50000000000000e-01,7.52155814270809e-01,7.50000000000000e-01
4.42508246244254e-08,0.00000000000000e+00,7.50000000000000e-01,7.47604717464194e-01,7.50000000000000e-01
4.50000000000000e-08,0.00000000000000e+00,7.50000000000000e-01,7.51855587415274e-01,7.50000000000000e-01
4.50100000000000e-08,7.49999999999858e-02,7.50000000000000e-01,7.51113306639812e-01,6.75000000000014e-01
4.50300000000000e-08,2.25000000000007e-01,7.50000000000000e-01,7.50175698389324e-01,5.24999999999993e-01
4.50700000000000e-08,5.25000000000000e-01,7.50000000000000e-01,7.52981240018477e-01,2.25000000000000e-01
4.51000000000000e-08,7.50000000000000e-01,7.50000000000000e-01,7.60319347836586e-01,0.00000000000000e+00
4.51080000000000e-08,7.50000000000000e-01,7.50000000000000e-01,7.62671571056404e-01,0.00000000000000e+00
4.51240000000000e-08,7.50000000000000e-01,7.50000000000000e-01,7.67117111882710e-01,0.00000000000000e+00
4.51560000000000e-08,7.50000000000000e-01,7.50000000000000e-01,7.69167372981667e-01,0.00000000000000e+00
4.52200000000000e-08,7.50000000000000e-01,7.50000000000000e-01,5.65229298837550e-01,0.00000000000000e+00
4.53480000000000e-08,7.50000000000000e-01,7.50000000000000e-01,6.44489160864165e-02,0.00000000000000e+00
4.55553199688398e-08,7.50000000000000e-01,7.50000000000000e-01,-2.65236899650360e-02,0.00000000000000e+00
4.58684323807446e-08,7.50000000000000e-01,7.50000000000000e-01,1.67570482254213e-02,0.00000000000000e+00
4.63023505037399e-08,7.50000000000000e-01,7.50000000000000e-01,-1.16108983623596e-02,0.00000000000000e+00
4.71041781189186e-08,7.50000000000000e-01,7.50000000000000e-01,9.75368044128002e-03,0.00000000000000e+00
4.86507804533018e-08,7.50000000000000e-01,7.50000000000000e-01,-8.77460157426487e-03,0.00000000000000e+00
5.01000000000000e-08,7.50000000000000e-01,7.49999999999957e-01,7.98745551551351e-03,0.00000000000000e+00
5.04021135282494e-08,7.50000000000000e-01,7.50000000000000e-01,8.77833540724108e-04,0.00000000000000e+00
5.10063405847481e-08,7.50000000000000e-01,7.50000000000000e-01,-6.70463407882731e-04,0.00000000000000e+00
5.22147946977457e-08,7.50000000000000e-01,7.50000000000000e-01,6.12252880859955e-04,0.00000000000000e+00
5.46317029237408e-08,7.50000000000000e-01,7.50000000000000e-01,-5.57667657817161e-04,0.00000000000000e+00
5.51000000000000e-08,7.50000000000000e-01,7.50000000000000e-01,4.22711512104504e-04,0.00000000000000e+00
5.51100000000000e-08,6.75000000000027e-01,7.50000000000000e-01,4.83964075229160e-04,7.49999999999734e-02
5.51300000000000e-08,5.25000000000005e-01,7.50000000000000e-01,4.34576148430198e-04,2.24999999999995e-01
5.51700000000000e-08,2.25000000000013e-01,7.50000000000000e-01,2.22602803939834e-04,5.24999999999987e-01
5.52000000000000e-08,0.00000000000000e+00,7.50000000000000e-01,2.17195875608228e-04,7.50000000000000e-01
5.52080000000000e-08,0.00000000000000e+00,7.50000000000000e-01,1.68465831114406e-04,7.50000000000000e-01
5.52240000000000e-08,0.00000000000000e+00,7.50000000000000e-01,1.11959743004653e-05,7.50000000000000e-01
5.52560000000000e-08,0.00000000000000e+00,7.50000000000000e-01,-6.76707379507445e-04,7.50000000000000e-01
5.53200000000000e-08,0.00000000000000e+00,7.50000000000000e-01,-1.20869387223849e-03,7.50000000000000e-01
5.54480000000000e-08,0.00000000000000e+00,7.50000000000000e-01,3.66577379028801e-05,7.50000000000000e-01
5.56486479473223e-08,0.00000000000000e+00,7.50000000000000e-01,-4.30605149668167e-05,7.50000000000000e-01
5.59821435863918e-08,0.00000000000000e+00,7.50000000000000e-01,1.73689180582234e-06,7.50000000000000e-01
5.65179758393321e-08,0.00000000000000e+00,7.50000000000000e-01,9.13943805227434e-05,7.50000000000000e-01
5.71417166045327e-08,0.00000000000000e+00,7.50000000000000e-01,-1.06886177483586e-04,7.50000000000000e-01
5.83891981349338e-08,0.00000000000000e+00,7.50000000000000e-01,1.35230611371215e-04,7.50000000000000e-01
6.08841611957361e-08,0.00000000000000e+00,7.50000000000000e-01,-1.20133222265811e-04,7.50000000000000e-01
6.46841611957361e-08,0.00000000000000e+00,7.50000000000000e-01,1.40436067800120e-04,7.50000000000000e-01
6.50000000000000e-08,0.00000000000000e+00,7.50000000000000e-01,-1.25098869183516e-04,7.50000000000000e-01
6.50100000000000e-08,7.49999999999858e-02,7.50000000000000e-01,2.32078749103776e-05,7.50000000000000e-01
6.50300000000000e-08,2.24999999999957e-01,7.50000000000000e-01,2.31361797604808e-04,7.50000000000000e-01
6.50700000000000e-08,5.24999999999900e-01,7.50000000000000e-01,1.47646960226559e-04,7.50000000000000e-01
6.51000000000000e-08,7.49999999999957e-01,7.50000000000000e-01,-1.60882743085334e-03,7.50000000000000e-01
6.51080000000000e-08,7.50000000000000e-01,7.50000000000000e-01,-2.49909450796568e-03,7.50000000000000e-01
6.51240000000000e-08,7.50000000000000e-01,7.50000000000000e-01,-4.11017734914502e-03,7.50000000000000e-01
6.51560000000000e-08,7.50000000000000e-01,7.50000000000000e-01,-5.45877430965685e-03,7.50000000000000e-01
6.52200000000000e-08,7.50000000000000e-01,7.50000000000000e-01,3.29903190422325e-02,7.50000000000000e-01
6.53480000000000e-08,7.50000000000000e-01,7.50000000000000e-01,4.73292022722374e-01,7.50000000000000e-01
6.56040000000000e-08,7.50000000000000e-01,7.50000000000000e-01,7.78398931775398e-01,7.50000000000000e-01
6.58969670590862e-08,7.50000000000000e-01,7.50000000000000e-01,7.26792860016679e-01,7.50000000000000e-01
6.64829011772588e-08,7.50000000000000e-01,7.50000000000000e-01,7.71435338662511e-01,7.50000000000000e-01
6.71781156925755e-08,7.50000000000000e-01,7.50000000000000e-01,7.29383475189981e-01,7.50000000000000e-01
6.83834533715793e-08,7.50000000000000e-01,7.50000000000000e-01,7.69410165749330e-01,7.50000000000000e-01
7.07941287295868e-08,7.50000000000000e-01,7.50000000000000e-01,7.30452630257245e-01,7.50000000000000e-01
7.45941287295868e-08,7.50000000000000e-01,7.50000000000000e-01,7.68864371488087e-01,7.50000000000000e-01
7.51000000000000e-08,7.50000000000000e-01,7.50000000000000e-01,7.32249655953299e-01,7.50000000000000e-01
7.51100000000000e-08,6.75000000000076e-01,7.50000000000000e-01,7.40500246172726e-01,7.50000000000000e-01
7.51300000000000e-08,5.25000000000105e-01,7.50000000000000e-01,7.49280898639702e-01,7.50000000000000e-01
7.51700000000000e-08,2.25000000000162e-01,7.50000000000000e-01,7.51188212883124e-01,7.50000000000000e-01
7.52000000000000e-08,1.05027098129540e-13,7.50000000000000e-01,7.52830619162411e-01,7.50000000000000e-01
7.52080000000000e-08,0.00000000000000e+00,7.50000000000000e-01,7.52914892868777e-01,7.50000000000000e-01
7.52240000000000e-08,0.00000000000000e+00,7.50000000000000e-01,7.51538201565290e-01,7.50000000000000e-01
7.52560000000000e-08,0.00000000000000e+00,7.50000000000000e-01,7.40649414119386e-01,7.50000000000000e-01
7.53200000000000e-08,0.00000000000000e+00,7.50000000000000e-01,7.22449083301737e-01,7.50000000000000e-01
7.54480000000000e-08,0.00000000000000e+00,7.50000000000000e-01,7.40367916002859e-01,7.50000000000000e-01
7.57040000000000e-08,0.00000000000000e+00,7.50000000000000e-01,7.53352253006773e-01,7.50000000000000e-01
7.60204564836443e-08,0.00000000000000e+00,7.50000000000000e-01,7.46434444207976e-01,7.50000000000000e-01
7.66533694509329e-08,0.00000000000000e+00,7.50000000000000e-01,7.52275021449952e-01,7.50000000000000e-01
7.79191953855102e-08,0.00000000000000e+00,7.50000000000000e-01,7.47393593058791e-01,7.50000000000000e-01
8.04508472546648e-08,0.00000000000000e+00,7.50000000000000e-01,7.52155674545478e-01,7.50000000000000e-01
8.42508472546648e-08,0.00000000000000e+00,7.50000000000000e-01,7.47604858171110e-01,7.50000000000000e-01
8.50000000000000e-08,0.00000000000000e+00,7.50000000000000e-01,7.51855457531641e-01,7.50000000000000e-01
8.50100000000000e-08,7.49999999999858e-02,7.50000000000000e-01,7.51113243214468e-01,6.75000000000014e-01
8.50300000000000e-08,2.24999999999957e-01,7.50000000000000e-01,7.50175585826641e-01,5.25000000000043e-01
8.50700000000000e-08,5.24999999999900e-01,7.50000000000000e-01,7.52981287265659e-01,2.25000000000100e-01
8.51000000000000e-08,7.49999999999957e-01,7.50000000000000e-01,7.60319333384329e-01,4.29656310529936e-14
8.51080000000000e-08,7.50000000000000e-01,7.50000000000000e-01,7.62671554620792e-01,0.00000000000000e+00
8.51240000000000e-08,7.50000000000000e-01,7.50000000000000e-01,7.67117095456464e-01,0.00000000000000e+00
8.51560000000000e-08,7.50000000000000e-01,7.50000000000000e-01,7.69167533065662e-01,0.00000000000000e+00
8.52200000000000e-08,7.50000000000000e-01,7.50000000000000e-01,5.65229633035582e-01,0.00000000000000e+00
8.53480000000000e-08,7.50000000000000e-01,7.50000000000000e-01,6.44490411661983e-02,0.00000000000000e+00
8.55553966376053e-08,7.50000000000000e-01,7.50000000000000e-01,-2.65324014755113e-02,0.00000000000000e+00
8.58684807754791e-08,7.50000000000000e-01,7.50000000000000e-01,1.67618377125363e-02,0.00000000000000e+00
8.63024732413439e-08,7.50000000000000e-01,7.50000000000000e-01,-1.16148108990518e-02,0.00000000000000e+00
8.71042070029055e-08,7.50000000000000e-01,7.50000000000000e-01,9.75679202803724e-03,0.00000000000000e+00
8.86517167466710e-08,7.50000000000000e-01,7.50000000000000e-01,-8.77784902720853e-03,0.00000000000000e+00
9.01000000000000e-08,7.50000000000000e-01,7.49999999999957e-01,7.98990928406151e-03,0.00000000000000e+00
9.04022007354532e-08,7.50000000000000e-01,7.50000000000000e-01,8.77879457233785e-04,0.00000000000000e+00
9.10066022063596e-08,7.50000000000000e-01,7.50000000000000e-01,-6.70547843880412e-04,0.00000000000000e+00
9.22154051481724e-08,7.50000000000000e-01,7.50000000000000e-01,6.12348832771505e-04,0.00000000000000e+00
9.46330110317981e-08,7.50000000000000e-01,7.50000000000000e-01,-5.57767613630554e-04,0.00000000000000e+00
9.51000000000000e-08,7.50000000000000e-01,7.50000000000000e-01,4.22411698270205e-04,0.00000000000000e+00
9.51100000000000e-08,6.75000000000076e-01,7.50000000000000e-01,4.83729453948305e-04,7.49999999999237e-02
9.51300000000000e-08,5.25000000000105e-01,7.50000000000000e-01,4.34442095872373e-04,2.24999999999895e-01
9.51700000000000e-08,2.25000000000162e-01,7.50000000000000e-01,2.22562815778295e-04,5.24999999999838e-01
9.52000000000000e-08,1.05027098129540e-13,7.50000000000000e-01,2.17178332692684e-04,7.49999999999895e-01
9.52080000000000e-08,0.00000000000000e+00,7.50000000000000e-01,1.68450662716556e-04,7.50000000000000e-01
9.52240000000000e-08,0.00000000000000e+00,7.50000000000000e-01,1.11841843145055e-05,7.50000000000000e-01
9.52560000000000e-08,0.00000000000000e+00,7.50000000000000e-01,-6.76718965803867e-04,7.50000000000000e-01
9.53200000000000e-08,0.00000000000000e+00,7.50000000000000e-01,-1.20871024662547e-03,7.50000000000000e-01
9.54480000000000e-08,0.00000000000000e+00,7.50000000000000e-01,3.66559545467299e-05,7.50000000000000e-01
9.56486582846464e-08,0.00000000000000e+00,7.50000000000000e-01,-4.30667885005509e-05,7.50000000000000e-01
9.59821488772066e-08,0.00000000000000e+00,7.50000000000000e-01,1.74696662076125e-06,7.50000000000000e-01
9.65180130333394e-08,0.00000000000000e+00,7.50000000000000e-01,9.13831776134556e-05,7.50000000000000e-01
9.71417530438026e-08,0.00000000000000e+00,7.50000000000000e-01,-1.06878562232009e-04,7.50000000000000e-01
9.83892330647289e-08,0.00000000000000e+00,7.50000000000000e-01,1.35224530224722e-04,7.50000000000000e-01
1.00884193106582e-07,0.00000000000000e+00,7.50000000000000e-01,-1.20127857833265e-04,7.50000000000000e-01
1.04684193106582e-07,0.00000000000000e+00,7.50000000000000e-01,1.40431156367941e-04,7.50000000000000e-01
1.05000000000000e-07,0.00000000000000e+00,7.50000000000000e-01,-1.25097475397561e-04,7.50000000000000e-01
1.05010000000000e-07,7.49999999999858e-02,7.50000000000000e-01,2.32105543355315e-05,7.50000000000000e-01
1.05030000000000e-07,2.24999999999957e-01,7.50000000000000e-01,2.31364864931985e-04,7.50000000000000e-01
1.05070000000000e-07,5.24999999999900e-01,7.50000000000000e-01,1.47648391053211e-04,7.50000000000000e-01
1.05100000000000e-07,7.49999999999957e-01,7.50000000000000e-01,-1.60882603574576e-03,7.50000000000000e-01
1.05108000000000e-07,7.50000000000000e-01,7.50000000000000e-01,-2.49909323563512e-03,7.50000000000000e-01
1.05124000000000e-07,7.50000000000000e-01,7.50000000000000e-01,-4.11017640573309e-03,7.50000000000000e-01
1.05156000000000e-07,7.50000000000000e-01,7.50000000000000e-01,-5.45877570449178e-03,7.50000000000000e-01
1.05220000000000e-07,7.50000000000000e-01,7.50000000000000e-01,3.29902812287486e-02,7.50000000000000e-01
1.05348000000000e-07,7.50000000000000e-01,7.50000000000000e-01,4.73291916265214e-01,7.50000000000000e-01
1.05604000000000e-07,7.50000000000000e-01,7.50000000000000e-01,7.78398925581687e-01,7.50000000000000e-01
1.05896967082558e-07,7.50000000000000e-01,7.50000000000000e-01,7.26792866371167e-01,7.50000000000000e-01
1.06482901247676e-07,7.50000000000000e-01,7.50000000000000e-01,7.71435333757671e-01,7.50000000000000e-01
1.07178115731466e-07,7.50000000000000e-01,7.50000000000000e-01,7.29383480390651e-01,7.50000000000000e-01
1.08383453307948e-07,7.50000000000000e-01,7.50000000000000e-01,7.69410161227263e-01,7.50000000000000e-01
1.10794128460911e-07,7.50000000000000e-01,7.50000000000000e-01,7.30452635175575e-01,7.50000000000000e-01
1.14594128460911e-07,7.50000000000000e-01,7.50000000000000e-01,7.68864367082940e-01,7.50000000000000e-01
1.15100000000000e-07,7.50000000000000e-01,7.50000000000000e-01,7.32249659501949e-01,7.50000000000000e-01
