Time,v(clk),v(data),v(out)
1.00000000000000e-08,7.50000000000000e-01,0.00000000000000e+00,3.75479379515040e-06
1.00100000000000e-08,7.50000000000000e-01,7.49999999999982e-02,7.55573794676556e-07
1.00300000000000e-08,7.50000000000000e-01,2.24999999999995e-01,-2.44794078053945e-06
1.00700000000000e-08,7.50000000000000e-01,5.24999999999987e-01,-4.74129542409746e-06
1.01000000000000e-08,7.50000000000000e-01,7.49999999999994e-01,-4.95282228551303e-06
1.01080000000000e-08,7.50000000000000e-01,7.50000000000000e-01,-3.64387406299321e-06
1.01240000000000e-08,7.50000000000000e-01,7.50000000000000e-01,-7.77985461740405e-07
1.01560000000000e-08,7.50000000000000e-01,7.50000000000000e-01,3.53512229715747e-06
1.02200000000000e-08,7.50000000000000e-01,7.50000000000000e-01,5.03214180051781e-06
1.03480000000000e-08,7.50000000000000e-01,7.50000000000000e-01,4.29838340663957e-07
1.06040000000000e-08,7.50000000000000e-01,7.50000000000000e-01,2.90601684514377e-06
1.11160000000000e-08,7.50000000000000e-01,7.50000000000000e-01,1.53070256267256e-06
1.21400000000000e-08,7.50000000000000e-01,7.50000000000000e-01,2.23929883150968e-06
1.41880000000000e-08,7.50000000000000e-01,7.50000000000000e-01,1.20589565507333e-06
1.51000000000000e-08,7.50000000000000e-01,7.50000000000000e-01,1.76115000776432e-06
1.51100000000000e-08,6.74999999999989e-01,7.50000000000000e-01,-6.58415869437962e-05
1.51300000000000e-08,5.24999999999993e-01,7.50000000000000e-01,-1.60427383699556e-04
1.51700000000000e-08,2.25000000000000e-01,7.50000000000000e-01,-1.20945066664095e-04
1.52000000000000e-08,0.00000000000000e+00,7.50000000000000e-01,1.22362096585879e-04
1.52080000000000e-08,0.00000000000000e+00,7.50000000000000e-01,2.46040801136181e-04
1.52240000000000e-08,0.00000000000000e+00,7.50000000000000e-01,3.74618850347862e-04
1.52560000000000e-08,0.00000000000000e+00,7.50000000000000e-01,2.62881792214516e-04
1.53200000000000e-08,0.00000000000000e+00,7.50000000000000e-01,-1.10237127282406e-04
1.54480000000000e-08,0.00000000000000e+00,7.50000000000000e-01,-1.36956350226942e-04
1.57040000000000e-08,0.00000000000000e+00,7.50000000000000e-01,-2.42063151162071e-04
1.60880574143722e-08,0.00000000000000e+00,7.50000000000000e-01,2.03020014411512e-04
1.66134694552901e-08,0.00000000000000e+00,7.50000000000000e-01,4.11289830521957e-05
1.74411766299984e-08,0.00000000000000e+00,7.50000000000000e-01,-1.20170453705157e-04
1.85707498580630e-08,0.00000000000000e+00,7.50000000000000e-01,1.54179956415474e-04
2.05563495217630e-08,0.00000000000000e+00,7.50000000000000e-01,-1.66544515735698e-04
2.36563266970295e-08,0.00000000000000e+00,7.50000000000000e-01,1.73124350911294e-04
2.50000000000000e-08,0.00000000000000e+00,7.50000000000000e-01,-1.82468551099688e-04
2.50100000000000e-08,7.49999999999858e-02,7.50000000000000e-01,-3.68719696788866e-08
2.50300000000000e-08,2.25000000000007e-01,7.50000000000000e-01,2.41283843322004e-04
2.50700000000000e-08,5.25000000000000e-01,7.50000000000000e-01,5.44252777717122e-05
2.51000000000000e-08,7.50000000000000e-01,7.50000000000000e-01,-2.28427943657432e-03
2.51080000000000e-08,7.50000000000000e-01,7.50000000000000e-01,-3.33099778086941e-03
2.51240000000000e-08,7.50000000000000e-01,7.50000000000000e-01,-5.12002688809977e-03
2.51560000000000e-08,7.50000000000000e-01,7.50000000000000e-01,-6.25104292549063e-03
2.52200000000000e-08,7.50000000000000e-01,7.50000000000000e-01,4.02908685303520e-02
2.53480000000000e-08,7.50000000000000e-01,7.50000000000000e-01,4.11437413273615e-01
2.56040000000000e-08,7.50000000000000e-01,7.50000000000000e-01,7.70510407747471e-01
2.59521867369785e-08,7.50000000000000e-01,7.50000000000000e-01,7.33578711043693e-01
2.65564344947193e-08,7.50000000000000e-01,7.50000000000000e-01,7.65210470123299e-01
2.73208471441580e-08,7.50000000000000e-01,7.50000000000000e-01,7.36135238512772e-01
2.85870862295916e-08,7.50000000000000e-01,7.50000000000000e-01,7.63172937623685e-01
3.09882512239294e-08,7.50000000000000e-01,7.50000000000000e-01,7.37220742817970e-01
3.47882512239294e-08,7.50000000000000e-01,7.50000000000000e-01,7.62584953031377e-01
3.51000000000000e-08,7.49999999999963e-01,7.50000000000000e-01,7.39979119003270e-01
3.51100000000000e-08,6.74999999999977e-01,7.50000000000000e-01,7.43264053746720e-01
3.51300000000000e-08,5.24999999999956e-01,7.50000000000000e-01,7.47634077867919e-01
3.51700000000000e-08,2.24999999999963e-01,7.50000000000000e-01,7.50608666431892e-01
3.52000000000000e-08,0.00000000000000e+00,7.50000000000000e-01,7.52345533318802e-01
3.52080000000000e-08,0.00000000000000e+00,7.50000000000000e-01,7.52778989063758e-01
3.52240000000000e-08,0.00000000000000e+00,7.50000000000000e-01,7.53193071869539e-01
3.52560000000000e-08,0.00000000000000e+00,7.50000000000000e-01,7.50836891385536e-01
3.53200000000000e-08,0.00000000000000e+00,7.50000000000000e-01,7.34382463360751e-01
3.54480000000000e-08,0.00000000000000e+00,7.50000000000000e-01,7.17087181810856e-01
3.57040000000000e-08,0.00000000000000e+00,7.50000000000000e-01,7.45101577728118e-01
3.62160000000000e-08,0.00000000000000e+00,7.50000000000000e-01,7.51511787205372e-01
3.67909242270615e-08,0.00000000000000e+00,7.50000000000000e-01,7.48220599696125e-01
3.79407726811845e-08,0.00000000000000e+00,7.50000000000000e-01,7.50839745784327e-01
4.02404695894305e-08,0.00000000000000e+00,7.50000000000000e-01,7.48797954772118e-01
4.40404695894305e-08,0.00000000000000e+00,7.50000000000000e-01,7.50777220149306e-01
4.50000000000000e-08,0.00000000000000e+00,7.50000000000000e-01,7.49080248661492e-01
4.50100000000000e-08,7.49999999999858e-02,7.50000000000000e-01,7.49287330062205e-01
4.50300000000000e-08,2.25000000000007e-01,7.50000000000000e-01,7.49611430884168e-01
4.50700000000000e-08,5.25000000000000e-01,7.50000000000000e-01,7.49679419507653e-01
4.51000000000000e-08,7.50000000000000e-01,7.50000000000000e-01,7.48123763965235e-01
4.51080000000000e-08,7.50000000000000e-01,6.90000000000031e-01,7.47370089744758e-01
4.51240000000000e-08,7.50000000000000e-01,5.69999999999994e-01,7.45985320694865e-01
4.51560000000000e-08,7.50000000000000e-01,3.30000000000020e-01,7.43972167336160e-01
4.52000000000000e-08,7.50000000000000e-01,4.29656310529936e-14,7.43210371345499e-01
4.52064000000000e-08,7.50000000000000e-01,0.00000000000000e+00,7.43384922593197e-01
4.52192000000000e-08,7.50000000000000e-01,0.00000000000000e+00,7.43835921143866e-01
4.52448000000000e-08,7.50000000000000e-01,0.00000000000000e+00,7.45027958400850e-01
4.52960000000000e-08,7.50000000000000e-01,0.00000000000000e+00,7.47238286412725e-01
4.53984000000000e-08,7.50000000000000e-01,0.00000000000000e+00,7.49437898719580e-01
4.56032000000000e-08,7.50000000000000e-01,0.00000000000000e+00,7.50105779026056e-01
4.58276346818944e-08,7.50000000000000e-01,0.00000000000000e+00,7.49967315738504e-01
4.62765040456832e-08,7.50000000000000e-01,0.00000000000000e+00,7.50016864838579e-01
4.68593912910219e-08,7.50000000000000e-01,0.00000000000000e+00,7.49990783249719e-01
4.80056116906174e-08,7.50000000000000e-01,0.00000000000000e+00,7.50006174357393e-01
4.99440998231674e-08,7.50000000000000e-01,0.00000000000000e+00,7.49995343115212e-01
5.33396855849887e-08,7.50000000000000e-01,0.00000000000000e+00,7.50003814658286e-01
5.51000000000000e-08,7.50000000000000e-01,0.00000000000000e+00,7.49997578405265e-01
5.51100000000000e-08,6.75000000000027e-01,0.00000000000000e+00,7.49917247883885e-01
5.51300000000000e-08,5.25000000000005e-01,0.00000000000000e+00,7.49824043184594e-01
5.51700000000000e-08,2.25000000000013e-01,0.00000000000000e+00,7.50546719823856e-01
5.52000000000000e-08,0.00000000000000e+00,0.00000000000000e+00,7.52375725409889e-01
5.52080000000000e-08,0.00000000000000e+00,0.00000000000000e+00,7.52886898693254e-01
5.52240000000000e-08,0.00000000000000e+00,0.00000000000000e+00,7.53640003677151e-01
5.52560000000000e-08,0.00000000000000e+00,0.00000000000000e+00,7.54354376536091e-01
5.53200000000000e-08,0.00000000000000e+00,0.00000000000000e+00,7.55207073507281e-01
5.54480000000000e-08,0.00000000000000e+00,0.00000000000000e+00,7.53222232287902e-01
5.57040000000000e-08,0.00000000000000e+00,0.00000000000000e+00,7.47719850595541e-01
5.59681607840296e-08,0.00000000000000e+00,0.00000000000000e+00,7.49324203090507e-01
5.64964823520888e-08,0.00000000000000e+00,0.00000000000000e+00,7.49637313343963e-01
5.70562812949568e-08,0.00000000000000e+00,0.00000000000000e+00,7.49412204329366e-01
5.81758791806930e-08,0.00000000000000e+00,0.00000000000000e+00,7.49964318667995e-01
6.00226420115554e-08,0.00000000000000e+00,0.00000000000000e+00,7.49552454478438e-01
6.30877231865474e-08,0.00000000000000e+00,0.00000000000000e+00,7.50074236336281e-01
6.50000000000000e-08,0.00000000000000e+00,0.00000000000000e+00,7.49591365351922e-01
6.50100000000000e-08,7.49999999999858e-02,0.00000000000000e+00,7.49734201978357e-01
6.50300000000000e-08,2.24999999999957e-01,0.00000000000000e+00,7.49924451115321e-01
6.50700000000000e-08,5.24999999999900e-01,0.00000000000000e+00,7.49906375482689e-01
6.51000000000000e-08,7.49999999999957e-01,0.00000000000000e+00,7.49612459356235e-01
6.51080000000000e-08,7.50000000000000e-01,0.00000000000000e+00,7.49512139503830e-01
6.51240000000000e-08,7.50000000000000e-01,0.00000000000000e+00,7.49391088044453e-01
6.51560000000000e-08,7.50000000000000e-01,0.00000000000000e+00,7.49500624493394e-01
6.52200000000000e-08,7.50000000000000e-01,0.00000000000000e+00,7.52740928748834e-01
6.53480000000000e-08,7.50000000000000e-01,0.00000000000000e+00,7.59877316139791e-01
6.56040000000000e-08,7.50000000000000e-01,0.00000000000000e+00,1.54913547980788e-01
6.59259187182703e-08,7.50000000000000e-01,0.00000000000000e+00,-7.65776869143337e-02
6.63599249541455e-08,7.50000000000000e-01,0.00000000000000e+00,6.58967906352730e-02
6.70863550587744e-08,7.50000000000000e-01,0.00000000000000e+00,-5.00016964908426e-02
6.79463776439750e-08,7.50000000000000e-01,0.00000000000000e+00,4.75459776718176e-02
6.95629708749040e-08,7.50000000000000e-01,0.00000000000000e+00,-4.08798028525104e-02
7.19068889870573e-08,7.50000000000000e-01,0.00000000000000e+00,4.17797131585680e-02
7.51000000000000e-08,7.50000000000000e-01,0.00000000000000e+00,-3.76223162866410e-02
7.51100000000000e-08,6.75000000000076e-01,0.00000000000000e+00,-2.70702509501935e-02
7.51300000000000e-08,5.25000000000105e-01,0.00000000000000e+00,-1.25839861102076e-02
7.51700000000000e-08,2.25000000000162e-01,0.00000000000000e+00,-2.39712679101225e-03
7.52000000000000e-08,1.05027098129540e-13,0.00000000000000e+00,-5.61301435907199e-04
7.52080000000000e-08,0.00000000000000e+00,0.00000000000000e+00,-3.28909210009519e-04
7.52240000000000e-08,0.00000000000000e+00,0.00000000000000e+00,8.70724643847048e-06
7.52560000000000e-08,0.00000000000000e+00,0.00000000000000e+00,2.39933478197243e-05
7.53200000000000e-08,0.00000000000000e+00,0.00000000000000e+00,-1.02547712655683e-03
7.54480000000000e-08,0.00000000000000e+00,0.00000000000000e+00,-6.37582561434254e-04
7.56746633507043e-08,0.00000000000000e+00,0.00000000000000e+00,3.38072443008319e-04
7.61279900521129e-08,0.00000000000000e+00,0.00000000000000e+00,-2.63834208782912e-04
7.66266443456711e-08,0.00000000000000e+00,0.00000000000000e+00,2.18431723156841e-04
7.76239529327873e-08,0.00000000000000e+00,0.00000000000000e+00,-1.97969556405404e-04
7.96185701070199e-08,0.00000000000000e+00,0.00000000000000e+00,1.90905928056465e-04
8.34185701070199e-08,0.00000000000000e+00,0.00000000000000e+00,-1.85187722583768e-04
8.50000000000000e-08,0.00000000000000e+00,0.00000000000000e+00,1.76875263851311e-04
8.50100000000000e-08,7.49999999999858e-02,0.00000000000000e+00,2.11096452527378e-04
8.50300000000000e-08,2.24999999999957e-01,0.00000000000000e+00,2.47545311622258e-04
8.50700000000000e-08,5.24999999999900e-01,0.00000000000000e+00,9.23660621524949e-05
8.51000000000000e-08,7.49999999999957e-01,0.00000000000000e+00,-2.02118730454906e-04
8.51080000000000e-08,7.50000000000000e-01,0.00000000000000e+00,-2.81546174108561e-04
8.51240000000000e-08,7.50000000000000e-01,0.00000000000000e+00,-3.72158572577344e-04
8.51560000000000e-08,7.50000000000000e-01,0.00000000000000e+00,-3.42065437170087e-04
8.52200000000000e-08,7.50000000000000e-01,0.00000000000000e+00,-9.33078394234760e-05
8.53480000000000e-08,7.50000000000000e-01,0.00000000000000e+00,1.82007600164392e-04
8.56040000000000e-08,7.50000000000000e-01,0.00000000000000e+00,-2.46421189218984e-05
8.61159999999999e-08,7.50000000000000e-01,0.00000000000000e+00,1.66940997199782e-05
8.66841315884885e-08,7.50000000000000e-01,0.00000000000000e+00,2.47548616541440e-06
8.78203947654656e-08,7.50000000000000e-01,0.00000000000000e+00,2.56455064538480e-06
9.00000000000000e-08,7.50000000000000e-01,0.00000000000000e+00,4.15716550370218e-06
9.00100000000000e-08,7.50000000000000e-01,7.49999999999858e-02,1.01174009734667e-06
9.00300000000000e-08,7.50000000000000e-01,2.24999999999957e-01,-2.34367351551606e-06
9.00700000000000e-08,7.50000000000000e-01,5.24999999999900e-01,-4.68632980696326e-06
9.01000000000000e-08,7.50000000000000e-01,7.49999999999957e-01,-4.86719773385574e-06
9.01080000000000e-08,7.50000000000000e-01,7.50000000000000e-01,-3.61042977593123e-06
9.01240000000000e-08,7.50000000000000e-01,7.50000000000000e-01,-8.30928225975525e-07
9.01560000000000e-08,7.50000000000000e-01,7.50000000000000e-01,3.33023448238767e-06
9.02200000000000e-08,7.50000000000000e-01,7.50000000000000e-01,5.03235704291116e-06
9.03480000000000e-08,7.50000000000000e-01,7.50000000000000e-01,4.28516173881649e-07
9.06040000000000e-08,7.50000000000000e-01,7.50000000000000e-01,2.92703365696242e-06
9.11159999999999e-08,7.50000000000000e-01,7.50000000000000e-01,1.50612491793892e-06
9.21399999999999e-08,7.50000000000000e-01,7.50000000000000e-01,2.26477323415604e-06
9.41879999999998e-08,7.50000000000000e-01,7.50000000000000e-01,1.18018387688067e-06
9.51000000000000e-08,7.50000000000000e-01,7.50000000000000e-01,1.78728666000091e-06
9.51100000000000e-08,6.75000000000076e-01,7.50000000000000e-01,-6.57611785268089e-05
9.51300000000000e-08,5.25000000000105e-01,7.50000000000000e-01,-1.57960812328897e-04
9.51700000000000e-08,2.25000000000162e-01,7.50000000000000e-01,-1.19485212936636e-04
9.52000000000000e-08,1.05027098129540e-13,7.50000000000000e-01,1.22010086158510e-04
9.52080000000000e-08,0.00000000000000e+00,7.50000000000000e-01,2.45690712023600e-04
9.52240000000000e-08,0.00000000000000e+00,7.50000000000000e-01,3.74306291934239e-04
9.52560000000000e-08,0.00000000000000e+00,7.50000000000000e-01,2.62671522103894e-04
9.53200000000000e-08,0.00000000000000e+00,7.50000000000000e-01,-1.10433894330020e-04
9.54480000000000e-08,0.00000000000000e+00,7.50000000000000e-01,-1.36958415136081e-04
9.57040000000000e-08,0.00000000000000e+00,7.50000000000000e-01,-2.42048103121270e-04
9.60880609356698e-08,0.00000000000000e+00,7.50000000000000e-01,2.03001716675952e-04
9.66134750023232e-08,0.00000000000000e+00,7.50000000000000e-01,4.11522923050318e-05
9.74411856565881e-08,0.00000000000000e+00,7.50000000000000e-01,-1.20195256620643e-04
9.85707791154692e-08,0.00000000000000e+00,7.50000000000000e-01,1.54205106394048e-04
1.00556403442891e-07,0.00000000000000e+00,7.50000000000000e-01,-1.66570231568041e-04
1.03656454500070e-07,0.00000000000000e+00,7.50000000000000e-01,1.73150181342399e-04
1.05000000000000e-07,0.00000000000000e+00,7.50000000000000e-01,-1.82495760868217e-04
1.05010000000000e-07,7.49999999999858e-02,7.50000000000000e-01,-4.77312379065786e-08
1.05030000000000e-07,2.24999999999957e-01,7.50000000000000e-01,2.41287500333649e-04
1.05070000000000e-07,5.24999999999900e-01,7.50000000000000e-01,5.44445213805367e-05
1.05100000000000e-07,7.49999999999957e-01,7.50000000000000e-01,-2.28424867159299e-03
1.05108000000000e-07,7.50000000000000e-01,7.50000000000000e-01,-3.33097000000498e-03
1.05124000000000e-07,7.50000000000000e-01,7.50000000000000e-01,-5.12000652449314e-03
1.05156000000000e-07,7.50000000000000e-01,7.50000000000000e-01,-6.25106137241591e-03
1.05220000000000e-07,7.50000000000000e-01,7.50000000000000e-01,4.02903378527729e-02
1.05348000000000e-07,7.50000000000000e-01,7.50000000000000e-01,4.11436085956574e-01
1.05604000000000e-07,7.50000000000000e-01,7.50000000000000e-01,7.70510271297799e-01
1.05952187105893e-07,7.50000000000000e-01,7.50000000000000e-01,7.33578813035387e-01
1.06556433974331e-07,7.50000000000000e-01,7.50000000000000e-01,7.65210388565909e-01
1.07320846710653e-07,7.50000000000000e-01,7.50000000000000e-01,7.36135314697735e-01
1.08587081815333e-07,7.50000000000000e-01,7.50000000000000e-01,7.63172869317052e-01
1.10988240777993e-07,7.50000000000000e-01,7.50000000000000e-01,7.37220813205924e-01
1.14788240777993e-07,7.50000000000000e-01,7.50000000000000e-01,7.62584888101296e-01
1.15100000000000e-07,7.50000000000000e-01,7.50000000000000e-01,7.39979091489663e-01
1.15110000000000e-07,6.75000000000076e-01,7.50000000000000e-01,7.43264039027048e-01
1.15130000000000e-07,5.25000000000105e-01,7.50000000000000e-01,7.47634078815013e-01
1.15170000000000e-07,2.25000000000162e-01,7.50000000000000e-01,7.50608671389206e-01
1.15200000000000e-07,1.05027098129540e-13,7.50000000000000e-01,7.52345536126827e-01
1.15208000000000e-07,0.00000000000000e+00,7.50000000000000e-01,7.52778991742315e-01
1.15224000000000e-07,0.00000000000000e+00,7.50000000000000e-01,7.53193074254248e-01
1.15256000000000e-07,0.00000000000000e+00,7.50000000000000e-01,7.50836890819887e-01
1.15320000000000e-07,0.00000000000000e+00,7.50000000000000e-01,7.34382459988335e-01
1.15448000000000e-07,0.00000000000000e+00,7.50000000000000e-01,7.17087182663866e-01
1.15704000000000e-07,0.00000000000000e+00,7.50000000000000e-01,7.45101578940035e-01
1.16216000000000e-07,0.00000000000000e+00,7.50000000000000e-01,7.51511786019215e-01
1.16790924232379e-07,0.00000000000000e+00,7.50000000000000e-01,7.48220600628879e-01
1.17940772697136e-07,0.00000000000000e+00,7.50000000000000e-01,7.50839744920330e-01
1.20240469626651e-07,0.00000000000000e+00,7.50000000000000e-01,7.48797955584767e-01
1.24040469626651e-07,0.00000000000000e+00,7.50000000000000e-01,7.50777219358172e-01
1.25000000000000e-07,0.00000000000000e+00,7.50000000000000e-01,7.49080249366542e-01
1.25010000000000e-07,7.49999999998865e-02,7.50000000000000e-01,7.49287330527785e-01
1.25030000000000e-07,2.24999999999858e-01,7.50000000000000e-01,7.49611431041834e-01
1.25070000000000e-07,5.24999999999801e-01,7.50000000000000e-01,7.49679419546586e-01
1.25100000000000e-07,7.49999999999858e-01,7.50000000000000e-01,7.48123764002837e-01
1.25108000000000e-07,7.50000000000000e-01,6.89999999999932e-01,7.47370089760414e-01
1.25124000000000e-07,7.50000000000000e-01,5.69999999999994e-01,7.45985320695478e-01
1.25156000000000e-07,7.50000000000000e-01,3.29999999999921e-01,7.43972167327950e-01
1.25200000000000e-07,7.50000000000000e-01,0.00000000000000e+00,7.43210371342343e-01
1.25206400000000e-07,7.50000000000000e-01,0.00000000000000e+00,7.43384922577599e-01
1.25219200000000e-07,7.50000000000000e-01,0.00000000000000e+00,7.43835921122446e-01
1.25244800000000e-07,7.50000000000000e-01,0.00000000000000e+00,7.45027958402610e-01
1.25296000000000e-07,7.50000000000000e-01,0.00000000000000e+00,7.47238286454148e-01
1.25398400000000e-07,7.50000000000000e-01,0.00000000000000e+00,7.49437898726492e-01
1.25603200000000e-07,7.50000000000000e-01,0.00000000000000e+00,7.50105779032172e-01
1.25827634653814e-07,7.50000000000000e-01,0.00000000000000e+00,7.49967315745208e-01
1.26276503961443e-07,7.50000000000000e-01,0.00000000000000e+00,7.50016864832586e-01
1.26859391084656e-07,7.50000000000000e-01,0.00000000000000e+00,7.49990783254200e-01
1.28005611217147e-07,7.50000000000000e-01,0.00000000000000e+00,7.50006174353225e-01
1.29944098829156e-07,7.50000000000000e-01,0.00000000000000e+00,7.49995343118971e-01
1.33339683544500e-07,7.50000000000000e-01,0.00000000000000e+00,7.50003814654637e-01
1.35100000000000e-07,7.49999999999864e-01,0.00000000000000e+00,7.49997578406390e-01
1.35110000000000e-07,6.74999999999778e-01,0.00000000000000e+00,7.49917247877831e-01
1.35130000000000e-07,5.24999999999807e-01,0.00000000000000e+00,7.49824043173630e-01
