Time,v(clk),v(data),v(out),v(reset)
1.00000000000000e-08,7.50000000000000e-01,0.00000000000000e+00,4.66835782623283e-06,0.00000000000000e+00
1.00100000000000e-08,7.50000000000000e-01,7.49999999999982e-02,1.85043690358738e-06,0.00000000000000e+00
1.00300000000000e-08,7.50000000000000e-01,2.24999999999995e-01,-1.74289561588603e-06,0.00000000000000e+00
1.00700000000000e-08,7.50000000000000e-01,5.24999999999987e-01,-2.86676385104906e-06,0.00000000000000e+00
1.01000000000000e-08,7.50000000000000e-01,7.49999999999994e-01,-9.44635561890561e-07,0.00000000000000e+00
1.01080000000000e-08,7.50000000000000e-01,7.50000000000000e-01,-4.28068034769025e-08,0.00000000000000e+00
1.01240000000000e-08,7.50000000000000e-01,7.50000000000000e-01,1.62195314917790e-06,0.00000000000000e+00
1.01560000000000e-08,7.50000000000000e-01,7.50000000000000e-01,2.70181300822403e-06,0.00000000000000e+00
1.02200000000000e-08,7.50000000000000e-01,7.50000000000000e-01,2.59172530229362e-06,0.00000000000000e+00
1.03480000000000e-08,7.50000000000000e-01,7.50000000000000e-01,2.32015209689768e-06,0.00000000000000e+00
1.06040000000000e-08,7.50000000000000e-01,7.50000000000000e-01,2.42048508395515e-06,0.00000000000000e+00
1.11160000000000e-08,7.50000000000000e-01,7.50000000000000e-01,2.28332456280941e-06,0.00000000000000e+00
1.21400000000000e-08,7.50000000000000e-01,7.50000000000000e-01,1.98784377344191e-06,0.00000000000000e+00
1.41880000000000e-08,7.50000000000000e-01,7.50000000000000e-01,1.73829869948620e-06,0.00000000000000e+00
1.51000000000000e-08,7.50000000000000e-01,7.50000000000000e-01,1.56066021638531e-06,0.00000000000000e+00
1.51100000000000e-08,6.74999999999989e-01,7.50000000000000e-01,1.77622384145711e-04,7.50000000000106e-02
1.51300000000000e-08,5.24999999999993e-01,7.50000000000000e-01,3.18987886404852e-04,2.25000000000007e-01
1.51700000000000e-08,2.25000000000000e-01,7.50000000000000e-01,1.75728217100803e-04,5.25000000000000e-01
1.52000000000000e-08,0.00000000000000e+00,7.50000000000000e-01,7.90511285175821e-05,7.50000000000000e-01
1.52080000000000e-08,0.00000000000000e+00,7.50000000000000e-01,4.81749709540166e-05,7.50000000000000e-01
1.52240000000000e-08,0.00000000000000e+00,7.50000000000000e-01,9.88198710527577e-06,7.50000000000000e-01
1.52560000000000e-08,0.00000000000000e+00,7.50000000000000e-01,-2.73221716133934e-05,7.50000000000000e-01
1.53200000000000e-08,0.00000000000000e+00,7.50000000000000e-01,-1.33738763771381e-04,7.50000000000000e-01
1.54480000000000e-08,0.00000000000000e+00,7.50000000000000e-01,-1.16650245747384e-04,7.50000000000000e-01
1.57040000000000e-08,0.00000000000000e+00,7.50000000000000e-01,-2.14242065890746e-04,7.50000000000000e-01
1.60882068660424e-08,0.00000000000000e+00,7.50000000000000e-01,1.69716212333221e-04,7.50000000000000e-01
1.66120492329244e-08,0.00000000000000e+00,7.50000000000000e-01,4.51669354593195e-05,7.50000000000000e-01
1.74383526858548e-08,0.00000000000000e+00,7.50000000000000e-01,-1.11489319586429e-04,7.50000000000000e-01
1.85559029031524e-08,0.00000000000000e+00,7.50000000000000e-01,1.41145568356485e-04,7.50000000000000e-01
2.05236788887054e-08,0.00000000000000e+00,7.50000000000000e-01,-1.51152156665715e-04,7.50000000000000e-01
2.35786258811644e-08,0.00000000000000e+00,7.50000000000000e-01,1.56866126279571e-04,7.50000000000000e-01
2.50000000000000e-08,0.00000000000000e+00,7.50000000000000e-01,-1.63588513152789e-04,7.50000000000000e-01
2.50100000000000e-08,7.49999999999858e-02,7.50000000000000e-01,8.60023581200631e-06,7.50000000000000e-01
2.50300000000000e-08,2.25000000000007e-01,7.50000000000000e-01,2.38086173806773e-04,7.50000000000000e-01
2.50700000000000e-08,5.25000000000000e-01,7.50000000000000e-01,2.65124829030433e-06,7.50000000000000e-01
2.51000000000000e-08,7.50000000000000e-01,7.50000000000000e-01,-2.36840333169423e-03,7.50000000000000e-01
2.51080000000000e-08,7.50000000000000e-01,7.50000000000000e-01,-3.40716066753490e-03,7.50000000000000e-01
2.51240000000000e-08,7.50000000000000e-01,7.50000000000000e-01,-5.17562428395126e-03,7.50000000000000e-01
2.51560000000000e-08,7.50000000000000e-01,7.50000000000000e-01,-6.20264067199592e-03,7.50000000000000e-01
2.52200000000000e-08,7.50000000000000e-01,7.50000000000000e-01,4.15302443599219e-02,7.50000000000000e-01
2.53480000000000e-08,7.50000000000000e-01,7.50000000000000e-01,4.14441724262658e-01,7.50000000000000e-01
2.56040000000000e-08,7.50000000000000e-01,7.50000000000000e-01,7.70815651592910e-01,7.50000000000000e-01
2.59514092154966e-08,7.50000000000000e-01,7.50000000000000e-01,7.33350188922357e-01,7.50000000000000e-01
2.65552475380078e-08,7.50000000000000e-01,7.50000000000000e-01,7.65386182119274e-01,7.50000000000000e-01
2.73201991047454e-08,7.50000000000000e-01,7.50000000000000e-01,7.35968932872658e-01,7.50000000000000e-01
2.85923731808788e-08,7.50000000000000e-01,7.50000000000000e-01,7.63319221609129e-01,7.50000000000000e-01
3.10057922084836e-08,7.50000000000000e-01,7.50000000000000e-01,7.37069051962303e-01,7.50000000000000e-01
3.48057922084836e-08,7.50000000000000e-01,7.50000000000000e-01,7.62723812860678e-01,7.50000000000000e-01
3.51000000000000e-08,7.49999999999963e-01,7.50000000000000e-01,7.40011345251244e-01,7.50000000000000e-01
3.51100000000000e-08,6.74999999999977e-01,7.50000000000000e-01,7.43278260682951e-01,7.50000000000000e-01
3.51300000000000e-08,5.24999999999956e-01,7.50000000000000e-01,7.47627325333829e-01,7.50000000000000e-01
3.51700000000000e-08,2.24999999999963e-01,7.50000000000000e-01,7.50599367536807e-01,7.50000000000000e-01
3.52000000000000e-08,0.00000000000000e+00,7.50000000000000e-01,7.52340417143190e-01,7.50000000000000e-01
3.52080000000000e-08,0.00000000000000e+00,7.50000000000000e-01,7.52774251166658e-01,7.50000000000000e-01
3.52240000000000e-08,0.00000000000000e+00,7.50000000000000e-01,7.53189097893305e-01,7.50000000000000e-01
3.52560000000000e-08,0.00000000000000e+00,7.50000000000000e-01,7.50838662942603e-01,7.50000000000000e-01
3.53200000000000e-08,0.00000000000000e+00,7.50000000000000e-01,7.34390349798634e-01,7.50000000000000e-01
3.54480000000000e-08,0.00000000000000e+00,7.50000000000000e-01,7.17086237264118e-01,7.50000000000000e-01
3.57040000000000e-08,0.00000000000000e+00,7.50000000000000e-01,7.45098334655096e-01,7.50000000000000e-01
3.62160000000000e-08,0.00000000000000e+00,7.50000000000000e-01,7.51514728004920e-01,7.50000000000000e-01
3.67909155253555e-08,0.00000000000000e+00,7.50000000000000e-01,7.48218365240651e-01,7.50000000000000e-01
3.79407465760666e-08,0.00000000000000e+00,7.50000000000000e-01,7.50841783914160e-01,7.50000000000000e-01
4.02404086774888e-08,0.00000000000000e+00,7.50000000000000e-01,7.48796047678556e-01,7.50000000000000e-01
4.40404086774888e-08,0.00000000000000e+00,7.50000000000000e-01,7.50779068374688e-01,7.50000000000000e-01
4.50000000000000e-08,0.00000000000000e+00,7.50000000000000e-01,7.49078626814390e-01,7.50000000000000e-01
4.50100000000000e-08,7.49999999999858e-02,7.50000000000000e-01,7.49092267488135e-01,6.75000000000014e-01
4.50300000000000e-08,2.25000000000007e-01,7.50000000000000e-01,7.49154977493731e-01,5.24999999999993e-01
4.50700000000000e-08,5.25000000000000e-01,7.50000000000000e-01,7.51227243569809e-01,2.25000000000000e-01
4.51000000000000e-08,7.50000000000000e-01,7.50000000000000e-01,7.56005558962399e-01,0.00000000000000e+00
4.51080000000000e-08,7.50000000000000e-01,7.50000000000000e-01,7.57590857024818e-01,0.00000000000000e+00
4.51240000000000e-08,7.50000000000000e-01,7.50000000000000e-01,7.60405926339027e-01,0.00000000000000e+00
4.51560000000000e-08,7.50000000000000e-01,7.50000000000000e-01,7.65164624753617e-01,0.00000000000000e+00
4.52200000000000e-08,7.50000000000000e-01,7.50000000000000e-01,7.46791782678910e-01,0.00000000000000e+00
4.53480000000000e-08,7.50000000000000e-01,7.50000000000000e-01,2.70974866091728e-01,0.00000000000000e+00
4.56038108047248e-08,7.50000000000000e-01,7.50000000000000e-01,-7.98459342205185e-02,0.00000000000000e+00
4.58677783584913e-08,7.50000000000000e-01,7.50000000000000e-01,5.75779754582871e-02,0.00000000000000e+00
4.63957134660244e-08,7.50000000000000e-01,7.50000000000000e-01,-4.21986483315794e-02,0.00000000000000e+00
4.69472787437217e-08,7.50000000000000e-01,7.50000000000000e-01,3.68646077588117e-02,0.00000000000000e+00
4.80504092991162e-08,7.50000000000000e-01,7.50000000000000e-01,-3.14984956176209e-02,0.00000000000000e+00
4.98955578814435e-08,7.50000000000000e-01,7.50000000000000e-01,3.12657769276635e-02,0.00000000000000e+00
5.01000000000000e-08,7.50000000000000e-01,7.49999999999957e-01,-1.76562831715589e-02,0.00000000000000e+00
5.04037435351790e-08,7.50000000000000e-01,7.50000000000000e-01,-1.28807510389772e-03,0.00000000000000e+00
5.10112306055371e-08,7.50000000000000e-01,7.50000000000000e-01,1.07403191780458e-03,0.00000000000000e+00
5.22262047462533e-08,7.50000000000000e-01,7.50000000000000e-01,-9.77038938106051e-04,0.00000000000000e+00
5.46561530276856e-08,7.50000000000000e-01,7.50000000000000e-01,9.36306113621632e-04,0.00000000000000e+00
5.51000000000000e-08,7.50000000000000e-01,7.50000000000000e-01,-7.27180326266919e-04,0.00000000000000e+00
5.51100000000000e-08,6.75000000000027e-01,7.50000000000000e-01,-3.44757735471407e-04,7.49999999999734e-02
5.51300000000000e-08,5.25000000000005e-01,7.50000000000000e-01,8.07676249627506e-05,2.24999999999995e-01
5.51700000000000e-08,2.25000000000013e-01,7.50000000000000e-01,1.26221570496549e-04,5.24999999999987e-01
5.52000000000000e-08,0.00000000000000e+00,7.50000000000000e-01,6.03532606866866e-05,7.50000000000000e-01
5.52080000000000e-08,0.00000000000000e+00,7.50000000000000e-01,2.99242529830934e-05,7.50000000000000e-01
5.52240000000000e-08,0.00000000000000e+00,7.50000000000000e-01,-1.24418995400208e-05,7.50000000000000e-01
5.52560000000000e-08,0.00000000000000e+00,7.50000000000000e-01,-1.20953878152079e-04,7.50000000000000e-01
5.53200000000000e-08,0.00000000000000e+00,7.50000000000000e-01,-8.55025126451400e-04,7.50000000000000e-01
5.54480000000000e-08,0.00000000000000e+00,7.50000000000000e-01,-4.45671493362360e-04,7.50000000000000e-01
5.56895468698582e-08,0.00000000000000e+00,7.50000000000000e-01,3.25693682040579e-04,7.50000000000000e-01
5.60769300355886e-08,0.00000000000000e+00,7.50000000000000e-01,-4.08286195647360e-04,7.50000000000000e-01
5.65780161272823e-08,0.00000000000000e+00,7.50000000000000e-01,3.92362229677440e-04,7.50000000000000e-01
5.74057658156804e-08,0.00000000000000e+00,7.50000000000000e-01,-3.28640272996209e-04,7.50000000000000e-01
5.84730559122841e-08,0.00000000000000e+00,7.50000000000000e-01,2.89716634309318e-04,7.50000000000000e-01
6.03947996728187e-08,0.00000000000000e+00,7.50000000000000e-01,-2.66425037569052e-04,7.50000000000000e-01
6.33515489860676e-08,0.00000000000000e+00,7.50000000000000e-01,2.55624617994370e-04,7.50000000000000e-01
6.50000000000000e-08,0.00000000000000e+00,7.50000000000000e-01,-2.32269645165030e-04,7.50000000000000e-01
6.50100000000000e-08,7.49999999999858e-02,7.50000000000000e-01,-5.11483101151428e-05,7.50000000000000e-01
6.50300000000000e-08,2.24999999999957e-01,7.50000000000000e-01,1.76096218501051e-04,7.50000000000000e-01
6.50700000000000e-08,5.24999999999900e-01,7.50000000000000e-01,-4.70295128837880e-05,7.50000000000000e-01
6.51000000000000e-08,7.49999999999957e-01,7.50000000000000e-01,-2.39689983110757e-03,7.50000000000000e-01
6.51080000000000e-08,7.50000000000000e-01,7.50000000000000e-01,-3.43260831053367e-03,7.50000000000000e-01
6.51240000000000e-08,7.50000000000000e-01,7.50000000000000e-01,-5.19423891636670e-03,7.50000000000000e-01
6.51560000000000e-08,7.50000000000000e-01,7.50000000000000e-01,-6.25906756611926e-03,7.50000000000000e-01
6.52200000000000e-08,7.50000000000000e-01,7.50000000000000e-01,4.06818371331880e-02,7.50000000000000e-01
6.53480000000000e-08,7.50000000000000e-01,7.50000000000000e-01,4.12404820066522e-01,7.50000000000000e-01
6.56040000000000e-08,7.50000000000000e-01,7.50000000000000e-01,7.70609343479208e-01,7.50000000000000e-01
6.59519452254298e-08,7.50000000000000e-01,7.50000000000000e-01,7.33504663751258e-01,7.50000000000000e-01
6.65564272687000e-08,7.50000000000000e-01,7.50000000000000e-01,7.65268593166365e-01,7.50000000000000e-01
6.73209205435229e-08,7.50000000000000e-01,7.50000000000000e-01,7.36080593803512e-01,7.50000000000000e-01
6.85895720626400e-08,7.50000000000000e-01,7.50000000000000e-01,7.63221505596724e-01,7.50000000000000e-01
7.09949338049886e-08,7.50000000000000e-01,7.50000000000000e-01,7.37170570107571e-01,7.50000000000000e-01
7.47949338049886e-08,7.50000000000000e-01,7.50000000000000e-01,7.62631092969257e-01,7.50000000000000e-01
7.51000000000000e-08,7.50000000000000e-01,7.50000000000000e-01,7.39994424942911e-01,7.50000000000000e-01
7.51100000000000e-08,6.75000000000076e-01,7.50000000000000e-01,7.43271713836759e-01,7.50000000000000e-01
7.51300000000000e-08,5.25000000000105e-01,7.50000000000000e-01,7.47632585517365e-01,7.50000000000000e-01
7.51700000000000e-08,2.25000000000162e-01,7.50000000000000e-01,7.50605387093862e-01,7.50000000000000e-01
7.52000000000000e-08,1.05027098129540e-13,7.50000000000000e-01,7.52343661595940e-01,7.50000000000000e-01
7.52080000000000e-08,0.00000000000000e+00,7.50000000000000e-01,7.52777217151497e-01,7.50000000000000e-01
7.52240000000000e-08,0.00000000000000e+00,7.50000000000000e-01,7.53191521472930e-01,7.50000000000000e-01
7.52560000000000e-08,0.00000000000000e+00,7.50000000000000e-01,7.50837410621019e-01,7.50000000000000e-01
7.53200000000000e-08,0.00000000000000e+00,7.50000000000000e-01,7.34385040602946e-01,7.50000000000000e-01
7.54480000000000e-08,0.00000000000000e+00,7.50000000000000e-01,7.17086686287263e-01,7.50000000000000e-01
7.57040000000000e-08,0.00000000000000e+00,7.50000000000000e-01,7.45100595699378e-01,7.50000000000000e-01
7.62159999999999e-08,0.00000000000000e+00,7.50000000000000e-01,7.51512717984296e-01,7.50000000000000e-01
7.67909206735328e-08,0.00000000000000e+00,7.50000000000000e-01,7.48219880556104e-01,7.50000000000000e-01
7.79407620205985e-08,0.00000000000000e+00,7.50000000000000e-01,7.50840407046976e-01,7.50000000000000e-01
8.02404447147300e-08,0.00000000000000e+00,7.50000000000000e-01,7.48797334276082e-01,7.50000000000000e-01
8.40404447147300e-08,0.00000000000000e+00,7.50000000000000e-01,7.50777823197917e-01,7.50000000000000e-01
8.50000000000000e-08,0.00000000000000e+00,7.50000000000000e-01,7.49079715516545e-01,7.50000000000000e-01
8.50100000000000e-08,7.49999999999858e-02,7.50000000000000e-01,7.49093007195571e-01,6.75000000000014e-01
8.50300000000000e-08,2.24999999999957e-01,7.50000000000000e-01,7.49155433420954e-01,5.25000000000043e-01
8.50700000000000e-08,5.24999999999900e-01,7.50000000000000e-01,7.51227453419789e-01,2.25000000000100e-01
8.51000000000000e-08,7.49999999999957e-01,7.50000000000000e-01,7.56005656038596e-01,4.29656310529936e-14
8.51080000000000e-08,7.50000000000000e-01,7.50000000000000e-01,7.57590958702617e-01,0.00000000000000e+00
8.51240000000000e-08,7.50000000000000e-01,7.50000000000000e-01,7.60406030056519e-01,0.00000000000000e+00
8.51560000000000e-08,7.50000000000000e-01,7.50000000000000e-01,7.65164723793301e-01,0.00000000000000e+00
8.52200000000000e-08,7.50000000000000e-01,7.50000000000000e-01,7.46790791519945e-01,0.00000000000000e+00
8.53480000000000e-08,7.50000000000000e-01,7.50000000000000e-01,2.70972306339483e-01,0.00000000000000e+00
8.56038115612185e-08,7.50000000000000e-01,7.50000000000000e-01,-7.98462135067439e-02,0.00000000000000e+00
8.58677789082930e-08,7.50000000000000e-01,7.50000000000000e-01,5.75783557198957e-02,0.00000000000000e+00
8.63957136024420e-08,7.50000000000000e-01,7.50000000000000e-01,-4.21987154910375e-02,0.00000000000000e+00
8.69472796619733e-08,7.50000000000000e-01,7.50000000000000e-01,3.68647500570088e-02,0.00000000000000e+00
8.80504117810359e-08,7.50000000000000e-01,7.50000000000000e-01,-3.14985141053698e-02,0.00000000000000e+00
8.98955563798790e-08,7.50000000000000e-01,7.50000000000000e-01,3.12658762762028e-02,0.00000000000000e+00
9.01000000000000e-08,7.50000000000000e-01,7.49999999999957e-01,-1.76563322277603e-02,0.00000000000000e+00
9.04037434686341e-08,7.50000000000000e-01,7.50000000000000e-01,-1.28808307046240e-03,0.00000000000000e+00
9.10112304059022e-08,7.50000000000000e-01,7.50000000000000e-01,1.07403846565761e-03,0.00000000000000e+00
9.22262042804384e-08,7.50000000000000e-01,7.50000000000000e-01,-9.77044561947867e-04,0.00000000000000e+00
9.46561520295109e-08,7.50000000000000e-01,7.50000000000000e-01,9.36311426950241e-04,0.00000000000000e+00
9.51000000000000e-08,7.50000000000000e-01,7.50000000000000e-01,-7.27184336471126e-04,0.00000000000000e+00
9.51100000000000e-08,6.75000000000076e-01,7.50000000000000e-01,-3.44763596913121e-04,7.49999999999237e-02
9.51300000000000e-08,5.25000000000105e-01,7.50000000000000e-01,8.07667005686546e-05,2.24999999999895e-01
9.51700000000000e-08,2.25000000000162e-01,7.50000000000000e-01,1.26221438093835e-04,5.24999999999838e-01
9.52000000000000e-08,1.05027098129540e-13,7.50000000000000e-01,6.03528448813104e-05,7.49999999999895e-01
9.52080000000000e-08,0.00000000000000e+00,7.50000000000000e-01,2.99238110134312e-05,7.50000000000000e-01
9.52240000000000e-08,0.00000000000000e+00,7.50000000000000e-01,-1.24418404225113e-05,7.50000000000000e-01
9.52560000000000e-08,0.00000000000000e+00,7.50000000000000e-01,-1.20951168651649e-04,7.50000000000000e-01
9.53200000000000e-08,0.00000000000000e+00,7.50000000000000e-01,-8.55014565066210e-04,7.50000000000000e-01
9.54480000000000e-08,0.00000000000000e+00,7.50000000000000e-01,-4.45666489358211e-04,7.50000000000000e-01
9.56895263277073e-08,0.00000000000000e+00,7.50000000000000e-01,3.25686789349664e-04,7.50000000000000e-01
9.60769154254233e-08,0.00000000000000e+00,7.50000000000000e-01,-4.08294342482124e-04,7.50000000000000e-01
9.65779684989015e-08,0.00000000000000e+00,7.50000000000000e-01,3.92360641005785e-04,7.50000000000000e-01
9.74057214337401e-08,0.00000000000000e+00,7.50000000000000e-01,-3.28635790030518e-04,7.50000000000000e-01
9.84729361759305e-08,0.00000000000000e+00,7.50000000000000e-01,2.89707517077040e-04,7.50000000000000e-01
1.00394594818758e-07,0.00000000000000e+00,7.50000000000000e-01,-2.66414359649967e-04,7.50000000000000e-01
1.03351173345179e-07,0.00000000000000e+00,7.50000000000000e-01,2.55612887632478e-04,7.50000000000000e-01
1.05000000000000e-07,0.00000000000000e+00,7.50000000000000e-01,-2.32262285631333e-04,7.50000000000000e-01
1.05010000000000e-07,7.49999999999858e-02,7.50000000000000e-01,-5.11460793884491e-05,7.50000000000000e-01
1.05030000000000e-07,2.24999999999957e-01,7.50000000000000e-01,1.76093721673043e-04,7.50000000000000e-01
1.05070000000000e-07,5.24999999999900e-01,7.50000000000000e-01,-4.70274366890580e-05,7.50000000000000e-01
1.05100000000000e-07,7.49999999999957e-01,7.50000000000000e-01,-2.39689343844665e-03,7.50000000000000e-01
1.05108000000000e-07,7.50000000000000e-01,7.50000000000000e-01,-3.43260242239801e-03,7.50000000000000e-01
1.05124000000000e-07,7.50000000000000e-01,7.50000000000000e-01,-5.19423455570555e-03,7.50000000000000e-01
1.05156000000000e-07,7.50000000000000e-01,7.50000000000000e-01,-6.25907417965337e-03,7.50000000000000e-01
1.05220000000000e-07,7.50000000000000e-01,7.50000000000000e-01,4.06816926451361e-02,7.50000000000000e-01
1.05348000000000e-07,7.50000000000000e-01,7.50000000000000e-01,4.12404471117214e-01,7.50000000000000e-01
1.05604000000000e-07,7.50000000000000e-01,7.50000000000000e-01,7.70609307800241e-01,7.50000000000000e-01
1.05951945315925e-07,7.50000000000000e-01,7.50000000000000e-01,7.33504690426617e-01,7.50000000000000e-01
1.06556427475633e-07,7.50000000000000e-01,7.50000000000000e-01,7.65268572814794e-01,7.50000000000000e-01
1.07320920669852e-07,7.50000000000000e-01,7.50000000000000e-01,7.36080613112559e-01,7.50000000000000e-01
1.08589571591839e-07,7.50000000000000e-01,7.50000000000000e-01,7.63221488681156e-01,7.50000000000000e-01
1.10994931960093e-07,7.50000000000000e-01,7.50000000000000e-01,7.37170587647210e-01,7.50000000000000e-01
