Time,v(clk),v(data),v(out)
1.00000000000000e-08,7.50000000000000e-01,0.00000000000000e+00,1.60275764196178e-05
1.00100000000000e-08,7.50000000000000e-01,7.49999999999982e-02,1.57568605581304e-05
1.00300000000000e-08,7.50000000000000e-01,2.24999999999995e-01,1.31168011904131e-05
1.00700000000000e-08,7.50000000000000e-01,5.24999999999987e-01,5.80140488572189e-06
1.01000000000000e-08,7.50000000000000e-01,7.49999999999994e-01,1.67658398274317e-06
1.01080000000000e-08,7.50000000000000e-01,7.50000000000000e-01,1.08960657027590e-06
1.01240000000000e-08,7.50000000000000e-01,7.50000000000000e-01,1.60226704305766e-06
1.01560000000000e-08,7.50000000000000e-01,7.50000000000000e-01,4.84340374764386e-06
1.02200000000000e-08,7.50000000000000e-01,7.50000000000000e-01,7.80412923394314e-06
1.03480000000000e-08,7.50000000000000e-01,7.50000000000000e-01,3.01378441509154e-06
1.06040000000000e-08,7.50000000000000e-01,7.50000000000000e-01,9.39989336260633e-07
1.10646996101646e-08,7.50000000000000e-01,7.50000000000000e-01,2.74942597825595e-06
1.19860988304939e-08,7.50000000000000e-01,7.50000000000000e-01,1.31755783208589e-06
1.38288972711524e-08,7.50000000000000e-01,7.50000000000000e-01,2.23095940886809e-06
1.51000000000000e-08,7.50000000000000e-01,7.50000000000000e-01,1.20977682825651e-06
1.51100000000000e-08,6.74999999999989e-01,7.50000000000000e-01,-7.20510529690008e-05
1.51300000000000e-08,5.24999999999993e-01,7.50000000000000e-01,-1.89450898928349e-04
1.51700000000000e-08,2.25000000000000e-01,7.50000000000000e-01,-1.84895533747662e-04
1.52000000000000e-08,0.00000000000000e+00,7.50000000000000e-01,1.08878823334733e-04
1.52080000000000e-08,0.00000000000000e+00,7.50000000000000e-01,2.65155548316673e-04
1.52240000000000e-08,0.00000000000000e+00,7.50000000000000e-01,4.61880243801865e-04
1.52560000000000e-08,0.00000000000000e+00,7.50000000000000e-01,4.77629595219381e-04
1.53200000000000e-08,0.00000000000000e+00,7.50000000000000e-01,1.46316319195108e-04
1.54480000000000e-08,0.00000000000000e+00,7.50000000000000e-01,-2.88582792450434e-04
1.57040000000000e-08,0.00000000000000e+00,7.50000000000000e-01,-1.29528079069366e-04
1.61828993327022e-08,0.00000000000000e+00,7.50000000000000e-01,4.14508058034745e-05
1.67225919172479e-08,0.00000000000000e+00,7.50000000000000e-01,1.53502070402352e-04
1.78019770863391e-08,0.00000000000000e+00,7.50000000000000e-01,-1.69708025228416e-04
1.89457967608501e-08,0.00000000000000e+00,7.50000000000000e-01,1.72863542517088e-04
2.12334361098720e-08,0.00000000000000e+00,7.50000000000000e-01,-1.69471307819804e-04
2.49204667991322e-08,0.00000000000000e+00,7.50000000000000e-01,1.67433206157578e-04
2.50000000000000e-08,0.00000000000000e+00,7.50000000000000e-01,1.64406595332817e-06
2.50100000000000e-08,7.49999999999858e-02,7.50000000000000e-01,1.24635814200802e-04
2.50300000000000e-08,2.25000000000007e-01,7.50000000000000e-01,3.18027670071760e-04
2.50700000000000e-08,5.25000000000000e-01,7.50000000000000e-01,4.98305721524955e-04
2.51000000000000e-08,7.50000000000000e-01,7.50000000000000e-01,-2.00966838473704e-04
2.51080000000000e-08,7.50000000000000e-01,7.50000000000000e-01,-7.33773748545288e-04
2.51240000000000e-08,7.50000000000000e-01,7.50000000000000e-01,-1.89437730494067e-03
2.51560000000000e-08,7.50000000000000e-01,7.50000000000000e-01,-4.11519535983498e-03
2.52200000000000e-08,7.50000000000000e-01,7.50000000000000e-01,-6.41896957783292e-03
2.53480000000000e-08,7.50000000000000e-01,7.50000000000000e-01,7.12900580268095e-02
2.56040000000000e-08,7.50000000000000e-01,7.50000000000000e-01,6.05939320146339e-01
2.61160000000000e-08,7.50000000000000e-01,7.50000000000000e-01,7.81702780299928e-01
2.66463984366255e-08,7.50000000000000e-01,7.50000000000000e-01,7.20662850885580e-01
2.77071953098765e-08,7.50000000000000e-01,7.50000000000000e-01,7.75829980564764e-01
2.91946950948992e-08,7.50000000000000e-01,7.50000000000000e-01,7.24025862805754e-01
3.21696946649448e-08,7.50000000000000e-01,7.50000000000000e-01,7.74005677153697e-01
3.51000000000000e-08,7.49999999999963e-01,7.50000000000000e-01,7.25330874891299e-01
3.51100000000000e-08,6.74999999999977e-01,7.50000000000000e-01,7.33753897707501e-01
3.51300000000000e-08,5.24999999999956e-01,7.50000000000000e-01,7.44800223283524e-01
3.51700000000000e-08,2.24999999999963e-01,7.50000000000000e-01,7.50796717393323e-01
3.52000000000000e-08,0.00000000000000e+00,7.50000000000000e-01,7.52561591826461e-01
3.52080000000000e-08,0.00000000000000e+00,7.50000000000000e-01,7.53014454180994e-01
3.52240000000000e-08,0.00000000000000e+00,7.50000000000000e-01,7.53408445158781e-01
3.52560000000000e-08,0.00000000000000e+00,7.50000000000000e-01,7.50740304323295e-01
3.53200000000000e-08,0.00000000000000e+00,7.50000000000000e-01,7.33811911133521e-01
3.54480000000000e-08,0.00000000000000e+00,7.50000000000000e-01,7.19021202286478e-01
3.57040000000000e-08,0.00000000000000e+00,7.50000000000000e-01,7.47694588671644e-01
3.62160000000000e-08,0.00000000000000e+00,7.50000000000000e-01,7.50355723011307e-01
3.67976124108831e-08,0.00000000000000e+00,7.50000000000000e-01,7.49221152640794e-01
3.79608372326494e-08,0.00000000000000e+00,7.50000000000000e-01,7.50180537982781e-01
4.02872868761820e-08,0.00000000000000e+00,7.50000000000000e-01,7.49576153563310e-01
4.40872868761820e-08,0.00000000000000e+00,7.50000000000000e-01,7.50219820537384e-01
4.50000000000000e-08,0.00000000000000e+00,7.50000000000000e-01,7.49721814867338e-01
4.50100000000000e-08,7.49999999999858e-02,7.50000000000000e-01,7.49838564697414e-01
4.50300000000000e-08,2.25000000000007e-01,7.50000000000000e-01,7.50010704376923e-01
4.50700000000000e-08,5.25000000000000e-01,7.50000000000000e-01,7.50155057384969e-01
4.51000000000000e-08,7.50000000000000e-01,7.50000000000000e-01,7.49731327514680e-01
4.51080000000000e-08,7.50000000000000e-01,6.90000000000031e-01,7.49417581322210e-01
4.51240000000000e-08,7.50000000000000e-01,5.69999999999994e-01,7.48774079820910e-01
4.51560000000000e-08,7.50000000000000e-01,3.30000000000020e-01,7.47726627783031e-01
4.52000000000000e-08,7.50000000000000e-01,4.29656310529936e-14,7.46957940389627e-01
4.52064000000000e-08,7.50000000000000e-01,0.00000000000000e+00,7.46895264759112e-01
4.52192000000000e-08,7.50000000000000e-01,0.00000000000000e+00,7.46748762939230e-01
4.52448000000000e-08,7.50000000000000e-01,0.00000000000000e+00,7.46508631601236e-01
4.52960000000000e-08,7.50000000000000e-01,0.00000000000000e+00,7.46498831299393e-01
4.53984000000000e-08,7.50000000000000e-01,0.00000000000000e+00,7.47755435581686e-01
4.56032000000000e-08,7.50000000000000e-01,0.00000000000000e+00,7.49510019412615e-01
4.58589401195826e-08,7.50000000000000e-01,0.00000000000000e+00,7.49866591152631e-01
4.63704203587477e-08,7.50000000000000e-01,0.00000000000000e+00,7.50067412858990e-01
4.69256786831317e-08,7.50000000000000e-01,0.00000000000000e+00,7.49956407734488e-01
4.80361953318995e-08,7.50000000000000e-01,0.00000000000000e+00,7.50036437680997e-01
5.02572286294352e-08,7.50000000000000e-01,0.00000000000000e+00,7.49966440043095e-01
5.40572286294352e-08,7.50000000000000e-01,0.00000000000000e+00,7.50032010206242e-01
5.51000000000000e-08,7.50000000000000e-01,0.00000000000000e+00,7.49972806903580e-01
5.51100000000000e-08,6.75000000000027e-01,0.00000000000000e+00,7.49907018764314e-01
5.51300000000000e-08,5.25000000000005e-01,0.00000000000000e+00,7.49823818145519e-01
5.51700000000000e-08,2.25000000000013e-01,0.00000000000000e+00,7.50622831784054e-01
5.52000000000000e-08,0.00000000000000e+00,0.00000000000000e+00,7.52610426335991e-01
5.52080000000000e-08,0.00000000000000e+00,0.00000000000000e+00,7.53140181413034e-01
5.52240000000000e-08,0.00000000000000e+00,0.00000000000000e+00,7.53899844076212e-01
5.52560000000000e-08,0.00000000000000e+00,0.00000000000000e+00,7.54592273492776e-01
5.53200000000000e-08,0.00000000000000e+00,0.00000000000000e+00,7.55376848440331e-01
5.54480000000000e-08,0.00000000000000e+00,0.00000000000000e+00,7.52233829378671e-01
5.57040000000000e-08,0.00000000000000e+00,0.00000000000000e+00,7.49123341286356e-01
5.60585743292373e-08,0.00000000000000e+00,0.00000000000000e+00,7.50331174139774e-01
5.66738568060318e-08,0.00000000000000e+00,0.00000000000000e+00,7.49605029544376e-01
5.73707010484254e-08,0.00000000000000e+00,0.00000000000000e+00,7.50137463591139e-01
5.87643895332127e-08,0.00000000000000e+00,0.00000000000000e+00,7.49740449682004e-01
6.15517665027871e-08,0.00000000000000e+00,0.00000000000000e+00,7.50111575423501e-01
6.50000000000000e-08,0.00000000000000e+00,0.00000000000000e+00,7.49792336281868e-01
6.50100000000000e-08,7.49999999999858e-02,0.00000000000000e+00,7.49879324593773e-01
6.50300000000000e-08,2.24999999999957e-01,0.00000000000000e+00,7.49993080323166e-01
6.50700000000000e-08,5.24999999999900e-01,0.00000000000000e+00,7.50017282394315e-01
6.51000000000000e-08,7.49999999999957e-01,0.00000000000000e+00,7.49852315215210e-01
6.51080000000000e-08,7.50000000000000e-01,0.00000000000000e+00,7.49780199992893e-01
6.51240000000000e-08,7.50000000000000e-01,0.00000000000000e+00,7.49687250829588e-01
6.51560000000000e-08,7.50000000000000e-01,0.00000000000000e+00,7.49623843396774e-01
6.52200000000000e-08,7.50000000000000e-01,0.00000000000000e+00,7.49757869106510e-01
6.53480000000000e-08,7.50000000000000e-01,0.00000000000000e+00,7.53312834428404e-01
6.56040000000000e-08,7.50000000000000e-01,0.00000000000000e+00,5.23404938105795e-01
6.61159999999999e-08,7.50000000000000e-01,0.00000000000000e+00,-1.76959346662226e-02
6.66435631787590e-08,7.50000000000000e-01,0.00000000000000e+00,1.13551835717295e-02
6.76986895362772e-08,7.50000000000000e-01,0.00000000000000e+00,-6.81673523754315e-03
6.87750656826429e-08,7.50000000000000e-01,0.00000000000000e+00,5.63486339441636e-03
7.09278179753741e-08,7.50000000000000e-01,0.00000000000000e+00,-3.73805443604028e-03
7.47278179753741e-08,7.50000000000000e-01,0.00000000000000e+00,4.09309572387163e-03
7.51000000000000e-08,7.50000000000000e-01,0.00000000000000e+00,1.64309118492197e-04
7.51100000000000e-08,6.75000000000076e-01,0.00000000000000e+00,-1.31477593310834e-03
7.51300000000000e-08,5.25000000000105e-01,0.00000000000000e+00,-2.43795326029991e-03
7.51700000000000e-08,2.25000000000162e-01,0.00000000000000e+00,-1.35824923471854e-03
7.52000000000000e-08,1.05027098129540e-13,0.00000000000000e+00,-6.65246836522214e-04
7.52080000000000e-08,0.00000000000000e+00,0.00000000000000e+00,-4.00296229332436e-04
7.52240000000000e-08,0.00000000000000e+00,0.00000000000000e+00,-3.46049134518911e-05
7.52560000000000e-08,0.00000000000000e+00,0.00000000000000e+00,1.17799684093506e-04
7.53200000000000e-08,0.00000000000000e+00,0.00000000000000e+00,-7.52546818778017e-04
7.54480000000000e-08,0.00000000000000e+00,0.00000000000000e+00,-1.18844218356343e-03
7.57040000000000e-08,0.00000000000000e+00,0.00000000000000e+00,2.75603453289201e-04
7.61733074745378e-08,0.00000000000000e+00,0.00000000000000e+00,-1.11797838443482e-04
7.67756447381454e-08,0.00000000000000e+00,0.00000000000000e+00,4.80454991229895e-05
7.79803192653607e-08,0.00000000000000e+00,0.00000000000000e+00,-2.72305361590655e-05
8.03896683197912e-08,0.00000000000000e+00,0.00000000000000e+00,2.06243437453619e-05
8.41896683197912e-08,0.00000000000000e+00,0.00000000000000e+00,-1.54158242251872e-05
8.50000000000000e-08,0.00000000000000e+00,0.00000000000000e+00,1.78641173722432e-06
8.50100000000000e-08,7.49999999999858e-02,0.00000000000000e+00,1.09372542899652e-04
8.50300000000000e-08,2.24999999999957e-01,0.00000000000000e+00,2.60758049084264e-04
8.50700000000000e-08,5.24999999999900e-01,0.00000000000000e+00,2.73774587582501e-04
8.51000000000000e-08,7.49999999999957e-01,0.00000000000000e+00,9.49157662676753e-06
8.51080000000000e-08,7.50000000000000e-01,0.00000000000000e+00,-1.03265848860959e-04
8.51240000000000e-08,7.50000000000000e-01,0.00000000000000e+00,-2.63351008353382e-04
8.51560000000000e-08,7.50000000000000e-01,0.00000000000000e+00,-3.41450076288982e-04
8.52200000000000e-08,7.50000000000000e-01,0.00000000000000e+00,-2.34916173481883e-04
8.53480000000000e-08,7.50000000000000e-01,0.00000000000000e+00,-1.28876667053468e-05
8.56040000000000e-08,7.50000000000000e-01,0.00000000000000e+00,1.00259420718139e-04
8.61159999999999e-08,7.50000000000000e-01,0.00000000000000e+00,-3.55439664743631e-05
8.71255242810470e-08,7.50000000000000e-01,0.00000000000000e+00,2.82186728201381e-05
8.82360867706436e-08,7.50000000000000e-01,0.00000000000000e+00,-1.53906959881522e-05
9.00000000000000e-08,7.50000000000000e-01,0.00000000000000e+00,1.65040045901196e-05
9.00100000000000e-08,7.50000000000000e-01,7.49999999999858e-02,1.60074891672468e-05
9.00300000000000e-08,7.50000000000000e-01,2.24999999999957e-01,1.31069054251573e-05
9.00700000000000e-08,7.50000000000000e-01,5.24999999999900e-01,5.83963236999718e-06
9.01000000000000e-08,7.50000000000000e-01,7.49999999999957e-01,1.88472543419943e-06
9.01080000000000e-08,7.50000000000000e-01,7.50000000000000e-01,1.33379820431434e-06
9.01240000000000e-08,7.50000000000000e-01,7.50000000000000e-01,1.80836391781847e-06
9.01560000000000e-08,7.50000000000000e-01,7.50000000000000e-01,4.79787788506408e-06
9.02200000000000e-08,7.50000000000000e-01,7.50000000000000e-01,7.56901676811361e-06
9.03480000000000e-08,7.50000000000000e-01,7.50000000000000e-01,2.92049886194135e-06
9.06040000000000e-08,7.50000000000000e-01,7.50000000000000e-01,1.06030362049050e-06
9.10949836719599e-08,7.50000000000000e-01,7.50000000000000e-01,2.70276874205638e-06
9.20769510158797e-08,7.50000000000000e-01,7.50000000000000e-01,1.32747817591095e-06
9.40408857037193e-08,7.50000000000000e-01,7.50000000000000e-01,2.20686789436557e-06
9.51000000000000e-08,7.50000000000000e-01,7.50000000000000e-01,1.23060016968182e-06
9.51100000000000e-08,6.75000000000076e-01,7.50000000000000e-01,-7.18869422154933e-05
9.51300000000000e-08,5.25000000000105e-01,7.50000000000000e-01,-1.89239429367168e-04
9.51700000000000e-08,2.25000000000162e-01,7.50000000000000e-01,-1.84763006325445e-04
9.52000000000000e-08,1.05027098129540e-13,7.50000000000000e-01,1.08946307824993e-04
9.52080000000000e-08,0.00000000000000e+00,7.50000000000000e-01,2.65213841613876e-04
9.52240000000000e-08,0.00000000000000e+00,7.50000000000000e-01,4.61924934985439e-04
9.52560000000000e-08,0.00000000000000e+00,7.50000000000000e-01,4.77681265500456e-04
9.53200000000000e-08,0.00000000000000e+00,7.50000000000000e-01,1.46435243110712e-04
9.54480000000000e-08,0.00000000000000e+00,7.50000000000000e-01,-2.88520597131997e-04
9.57040000000000e-08,0.00000000000000e+00,7.50000000000000e-01,-1.29498370280045e-04
9.61829053800239e-08,0.00000000000000e+00,7.50000000000000e-01,4.14504055836606e-05
9.67226008346420e-08,0.00000000000000e+00,7.50000000000000e-01,1.53483187656204e-04
9.78019917438783e-08,0.00000000000000e+00,7.50000000000000e-01,-1.69682973559520e-04
9.89458218785279e-08,0.00000000000000e+00,7.50000000000000e-01,1.72835507918268e-04
1.01233482147827e-07,0.00000000000000e+00,7.50000000000000e-01,-1.69442397634193e-04
1.04920585101065e-07,0.00000000000000e+00,7.50000000000000e-01,1.67404189933679e-04
1.05000000000000e-07,0.00000000000000e+00,7.50000000000000e-01,1.80882569912610e-06
1.05010000000000e-07,7.49999999999858e-02,7.50000000000000e-01,1.24776580761383e-04
1.05030000000000e-07,2.24999999999957e-01,7.50000000000000e-01,3.18127860667594e-04
1.05070000000000e-07,5.24999999999900e-01,7.50000000000000e-01,4.98362313463965e-04
1.05100000000000e-07,7.49999999999957e-01,7.50000000000000e-01,-2.00924478198763e-04
1.05108000000000e-07,7.50000000000000e-01,7.50000000000000e-01,-7.33734821549092e-04
1.05124000000000e-07,7.50000000000000e-01,7.50000000000000e-01,-1.89434474125512e-03
1.05156000000000e-07,7.50000000000000e-01,7.50000000000000e-01,-4.11517507571908e-03
1.05220000000000e-07,7.50000000000000e-01,7.50000000000000e-01,-6.41898865794660e-03
1.05348000000000e-07,7.50000000000000e-01,7.50000000000000e-01,7.12887769988821e-02
1.05604000000000e-07,7.50000000000000e-01,7.50000000000000e-01,6.05937924708286e-01
1.06116000000000e-07,7.50000000000000e-01,7.50000000000000e-01,7.81702947349024e-01
1.06646397847927e-07,7.50000000000000e-01,7.50000000000000e-01,7.20662711063599e-01
1.07707193543782e-07,7.50000000000000e-01,7.50000000000000e-01,7.75830106300552e-01
1.09194695491887e-07,7.50000000000000e-01,7.50000000000000e-01,7.24025735047717e-01
1.12169699388096e-07,7.50000000000000e-01,7.50000000000000e-01,7.74005796751866e-01
1.15100000000000e-07,7.50000000000000e-01,7.50000000000000e-01,7.25330752761591e-01
1.15110000000000e-07,6.75000000000076e-01,7.50000000000000e-01,7.33753819335686e-01
1.15130000000000e-07,5.25000000000105e-01,7.50000000000000e-01,7.44800200560253e-01
1.15170000000000e-07,2.25000000000162e-01,7.50000000000000e-01,7.50796718586903e-01
1.15200000000000e-07,1.05027098129540e-13,7.50000000000000e-01,7.52561592038922e-01
1.15208000000000e-07,0.00000000000000e+00,7.50000000000000e-01,7.53014454159523e-01
1.15224000000000e-07,0.00000000000000e+00,7.50000000000000e-01,7.53408443765825e-01
1.15256000000000e-07,0.00000000000000e+00,7.50000000000000e-01,7.50740294739589e-01
1.15320000000000e-07,0.00000000000000e+00,7.50000000000000e-01,7.33811891806676e-01
1.15448000000000e-07,0.00000000000000e+00,7.50000000000000e-01,7.19021198515442e-01
1.15704000000000e-07,0.00000000000000e+00,7.50000000000000e-01,7.47694593608837e-01
1.16216000000000e-07,0.00000000000000e+00,7.50000000000000e-01,7.50355718240058e-01
1.16797612538429e-07,0.00000000000000e+00,7.50000000000000e-01,7.49221157086043e-01
1.17960837615286e-07,0.00000000000000e+00,7.50000000000000e-01,7.50180533162951e-01
1.20287287769000e-07,0.00000000000000e+00,7.50000000000000e-01,7.49576158498596e-01
1.24087287769000e-07,0.00000000000000e+00,7.50000000000000e-01,7.50219815473290e-01
1.25000000000000e-07,0.00000000000000e+00,7.50000000000000e-01,7.49721820014937e-01
1.25010000000000e-07,7.49999999998865e-02,7.50000000000000e-01,7.49838593257328e-01
1.25030000000000e-07,2.24999999999858e-01,7.50000000000000e-01,7.50010733340299e-01
1.25070000000000e-07,5.24999999999801e-01,7.50000000000000e-01,7.50155033590450e-01
1.25100000000000e-07,7.49999999999858e-01,7.50000000000000e-01,7.49731313294002e-01
1.25108000000000e-07,7.50000000000000e-01,6.89999999999932e-01,7.49417575389112e-01
1.25124000000000e-07,7.50000000000000e-01,5.69999999999994e-01,7.48774065930376e-01
1.25156000000000e-07,7.50000000000000e-01,3.29999999999921e-01,7.47726626323624e-01
1.25200000000000e-07,7.50000000000000e-01,0.00000000000000e+00,7.46957980629164e-01
1.25206400000000e-07,7.50000000000000e-01,0.00000000000000e+00,7.46895300228454e-01
1.25219200000000e-07,7.50000000000000e-01,0.00000000000000e+00,7.46748797760030e-01
1.25244800000000e-07,7.50000000000000e-01,0.00000000000000e+00,7.46508672287965e-01
1.25296000000000e-07,7.50000000000000e-01,0.00000000000000e+00,7.46498929327770e-01
1.25398400000000e-07,7.50000000000000e-01,0.00000000000000e+00,7.47755499195898e-01
1.25603200000000e-07,7.50000000000000e-01,0.00000000000000e+00,7.49509932918028e-01
1.25858949676311e-07,7.50000000000000e-01,0.00000000000000e+00,7.49866598498999e-01
1.26370449028934e-07,7.50000000000000e-01,0.00000000000000e+00,7.50067408920058e-01
1.26925748204081e-07,7.50000000000000e-01,0.00000000000000e+00,7.49956410755356e-01
1.28036346554375e-07,7.50000000000000e-01,0.00000000000000e+00,7.50036434846565e-01
1.30257543254963e-07,7.50000000000000e-01,0.00000000000000e+00,7.49966442838743e-01
1.34057543254963e-07,7.50000000000000e-01,0.00000000000000e+00,7.50032007376779e-01
1.35100000000000e-07,7.49999999999864e-01,0.00000000000000e+00,7.49972811172824e-01
1.35110000000000e-07,6.74999999999778e-01,0.00000000000000e+00,7.49907021862444e-01
1.35130000000000e-07,5.24999999999807e-01,0.00000000000000e+00,7.49823819033488e-01
1.35170000000000e-07,2.24999999999864e-01,0.00000000000000e+00,7.50622831358725e-01
1.35200000000000e-07,0.00000000000000e+00,0.00000000000000e+00,7.52610426120128e-01
1.35208000000000e-07,0.00000000000000e+00,0.00000000000000e+00,7.53140181237885e-01
