Time,v(clk),v(data),v(out),v(reset)
1.00000000000000e-08,7.50000000000000e-01,0.00000000000000e+00,-1.10337306133183e-02,0.00000000000000e+00
1.00100000000000e-08,7.50000000000000e-01,7.49999999999982e-02,-8.65446868906483e-03,0.00000000000000e+00
1.00300000000000e-08,7.50000000000000e-01,2.24999999999995e-01,-5.54642810294970e-03,0.00000000000000e+00
1.00700000000000e-08,7.50000000000000e-01,5.24999999999987e-01,-3.34037475198624e-03,0.00000000000000e+00
1.01000000000000e-08,7.50000000000000e-01,7.49999999999994e-01,-2.36997092071450e-03,0.00000000000000e+00
1.01080000000000e-08,7.50000000000000e-01,7.50000000000000e-01,-2.16971251140814e-03,0.00000000000000e+00
1.01240000000000e-08,7.50000000000000e-01,7.50000000000000e-01,-1.80004260762757e-03,0.00000000000000e+00
1.01560000000000e-08,7.50000000000000e-01,7.50000000000000e-01,-1.22558883937667e-03,0.00000000000000e+00
1.02200000000000e-08,7.50000000000000e-01,7.50000000000000e-01,-5.63328685702039e-04,0.00000000000000e+00
1.03480000000000e-08,7.50000000000000e-01,7.50000000000000e-01,-7.62908094164710e-05,0.00000000000000e+00
1.06040000000000e-08,7.50000000000000e-01,7.50000000000000e-01,2.40973893187411e-05,0.00000000000000e+00
1.11160000000000e-08,7.50000000000000e-01,7.50000000000000e-01,5.85951037794519e-08,0.00000000000000e+00
1.21400000000000e-08,7.50000000000000e-01,7.50000000000000e-01,1.58478518603577e-05,0.00000000000000e+00
1.41880000000000e-08,7.50000000000000e-01,7.50000000000000e-01,1.65734675880956e-06,0.00000000000000e+00
1.51000000000000e-08,7.50000000000000e-01,7.50000000000000e-01,1.25577613596106e-05,0.00000000000000e+00
1.51100000000000e-08,6.74999999999989e-01,7.50000000000000e-01,2.23513270290729e-04,7.50000000000106e-02
1.51300000000000e-08,5.24999999999993e-01,7.50000000000000e-01,4.67805661912124e-04,2.25000000000007e-01
1.51700000000000e-08,2.25000000000000e-01,7.50000000000000e-01,4.98142795113427e-04,5.25000000000000e-01
1.52000000000000e-08,0.00000000000000e+00,7.50000000000000e-01,4.03502062739106e-04,7.50000000000000e-01
1.52080000000000e-08,0.00000000000000e+00,7.50000000000000e-01,3.38691781250372e-04,7.50000000000000e-01
1.52240000000000e-08,0.00000000000000e+00,7.50000000000000e-01,2.37066077605194e-04,7.50000000000000e-01
1.52560000000000e-08,0.00000000000000e+00,7.50000000000000e-01,1.05370717468120e-04,7.50000000000000e-01
1.53200000000000e-08,0.00000000000000e+00,7.50000000000000e-01,-4.04809203490501e-04,7.50000000000000e-01
1.54480000000000e-08,0.00000000000000e+00,7.50000000000000e-01,-1.46939167845554e-03,7.50000000000000e-01
1.57040000000000e-08,0.00000000000000e+00,7.50000000000000e-01,-4.80826515765802e-04,7.50000000000000e-01
1.60808441404792e-08,0.00000000000000e+00,7.50000000000000e-01,3.14569506723802e-05,7.50000000000000e-01
1.67384788846597e-08,0.00000000000000e+00,7.50000000000000e-01,-2.28730398677060e-05,7.50000000000000e-01
1.76073667205956e-08,0.00000000000000e+00,7.50000000000000e-01,2.82239847536689e-04,7.50000000000000e-01
1.90755952140003e-08,0.00000000000000e+00,7.50000000000000e-01,-3.29617845499549e-04,7.50000000000000e-01
2.12321782175719e-08,0.00000000000000e+00,7.50000000000000e-01,3.63108865713617e-04,7.50000000000000e-01
2.50000000000000e-08,0.00000000000000e+00,7.50000000000000e-01,-3.54622216286936e-04,7.50000000000000e-01
2.50100000000000e-08,7.49999999999858e-02,7.50000000000000e-01,-1.50369992629087e-04,7.50000000000000e-01
2.50300000000000e-08,2.25000000000007e-01,7.50000000000000e-01,1.77989114641348e-04,7.50000000000000e-01
2.50700000000000e-08,5.25000000000000e-01,7.50000000000000e-01,5.40012343222963e-04,7.50000000000000e-01
2.51000000000000e-08,7.50000000000000e-01,7.50000000000000e-01,4.68824771226159e-04,7.50000000000000e-01
2.51080000000000e-08,7.50000000000000e-01,7.50000000000000e-01,2.76862868893724e-04,7.50000000000000e-01
2.51240000000000e-08,7.50000000000000e-01,7.50000000000000e-01,-2.32789458299618e-04,7.50000000000000e-01
2.51560000000000e-08,7.50000000000000e-01,7.50000000000000e-01,-1.69686697323447e-03,7.50000000000000e-01
2.52200000000000e-08,7.50000000000000e-01,7.50000000000000e-01,-4.50937284474640e-03,7.50000000000000e-01
2.53480000000000e-08,7.50000000000000e-01,7.50000000000000e-01,4.97773345339923e-04,7.50000000000000e-01
2.56040000000000e-08,7.50000000000000e-01,7.50000000000000e-01,2.90638807060319e-01,7.50000000000000e-01
2.61160000000000e-08,7.50000000000000e-01,7.50000000000000e-01,7.53767385072004e-01,7.50000000000000e-01
2.68340955788807e-08,7.50000000000000e-01,7.50000000000000e-01,7.45573240021401e-01,7.50000000000000e-01
2.80150098522815e-08,7.50000000000000e-01,7.50000000000000e-01,7.54497561794739e-01,7.50000000000000e-01
2.94885228146683e-08,7.50000000000000e-01,7.50000000000000e-01,7.45699068957613e-01,7.50000000000000e-01
3.16886383363607e-08,7.50000000000000e-01,7.50000000000000e-01,7.54193465658204e-01,7.50000000000000e-01
3.51000000000000e-08,7.49999999999963e-01,7.50000000000000e-01,7.45890305423724e-01,7.50000000000000e-01
3.51100000000000e-08,6.74999999999977e-01,7.50000000000000e-01,7.47128003411259e-01,7.50000000000000e-01
3.51300000000000e-08,5.24999999999956e-01,7.50000000000000e-01,7.48820296975458e-01,7.50000000000000e-01
3.51700000000000e-08,2.24999999999963e-01,7.50000000000000e-01,7.50587978445560e-01,7.50000000000000e-01
3.52000000000000e-08,0.00000000000000e+00,7.50000000000000e-01,7.52432758842026e-01,7.50000000000000e-01
3.52080000000000e-08,0.00000000000000e+00,7.50000000000000e-01,7.52924921259470e-01,7.50000000000000e-01
3.52240000000000e-08,0.00000000000000e+00,7.50000000000000e-01,7.53553654939089e-01,7.50000000000000e-01
3.52560000000000e-08,0.00000000000000e+00,7.50000000000000e-01,7.53083532252679e-01,7.50000000000000e-01
3.53200000000000e-08,0.00000000000000e+00,7.50000000000000e-01,7.44109038583070e-01,7.50000000000000e-01
3.54480000000000e-08,0.00000000000000e+00,7.50000000000000e-01,7.21112451006973e-01,7.50000000000000e-01
3.57040000000000e-08,0.00000000000000e+00,7.50000000000000e-01,7.34947897071395e-01,7.50000000000000e-01
3.62160000000000e-08,0.00000000000000e+00,7.50000000000000e-01,7.55643099191637e-01,7.50000000000000e-01
3.68356679707081e-08,0.00000000000000e+00,7.50000000000000e-01,7.44620687107748e-01,7.50000000000000e-01
3.80750039121244e-08,0.00000000000000e+00,7.50000000000000e-01,7.53687594954388e-01,7.50000000000000e-01
4.05536757949569e-08,0.00000000000000e+00,7.50000000000000e-01,7.46045215806066e-01,7.50000000000000e-01
4.43536757949569e-08,0.00000000000000e+00,7.50000000000000e-01,7.53389718170880e-01,7.50000000000000e-01
4.50000000000000e-08,0.00000000000000e+00,7.50000000000000e-01,7.47205253414485e-01,7.50000000000000e-01
4.50100000000000e-08,7.49999999999858e-02,7.50000000000000e-01,7.47562104088986e-01,6.75000000000014e-01
4.50300000000000e-08,2.25000000000007e-01,7.50000000000000e-01,7.48165616348732e-01,5.24999999999993e-01
4.50700000000000e-08,5.25000000000000e-01,7.50000000000000e-01,7.50962735456633e-01,2.25000000000000e-01
4.51000000000000e-08,7.50000000000000e-01,7.50000000000000e-01,7.56357308296465e-01,0.00000000000000e+00
4.51080000000000e-08,7.50000000000000e-01,7.50000000000000e-01,7.58106912287511e-01,0.00000000000000e+00
4.51240000000000e-08,7.50000000000000e-01,7.50000000000000e-01,7.61113299397239e-01,0.00000000000000e+00
4.51560000000000e-08,7.50000000000000e-01,7.50000000000000e-01,7.65641708189025e-01,0.00000000000000e+00
4.52200000000000e-08,7.50000000000000e-01,7.50000000000000e-01,7.74259423674234e-01,0.00000000000000e+00
4.53480000000000e-08,7.50000000000000e-01,7.50000000000000e-01,6.44915052982659e-01,0.00000000000000e+00
4.56040000000000e-08,7.50000000000000e-01,7.50000000000000e-01,1.39037278329249e-01,0.00000000000000e+00
4.59731217980081e-08,7.50000000000000e-01,7.50000000000000e-01,-3.67554067465711e-02,0.00000000000000e+00
4.66021410837902e-08,7.50000000000000e-01,7.50000000000000e-01,2.33122293693352e-02,0.00000000000000e+00
4.75491686128277e-08,7.50000000000000e-01,7.50000000000000e-01,-1.63201488003042e-02,0.00000000000000e+00
4.90439240170524e-08,7.50000000000000e-01,7.50000000000000e-01,1.39313959512172e-02,0.00000000000000e+00
5.01000000000000e-08,7.50000000000000e-01,7.49999999999957e-01,-1.04956860113272e-02,0.00000000000000e+00
5.03488061022123e-08,7.50000000000000e-01,7.50000000000000e-01,-1.97293538998100e-03,0.00000000000000e+00
5.08464183066370e-08,7.50000000000000e-01,7.50000000000000e-01,1.02431046218717e-03,0.00000000000000e+00
5.18416427154864e-08,7.50000000000000e-01,7.50000000000000e-01,-7.36850362385974e-04,0.00000000000000e+00
5.38320915331851e-08,7.50000000000000e-01,7.50000000000000e-01,6.51137665696110e-04,0.00000000000000e+00
5.51000000000000e-08,7.50000000000000e-01,7.50000000000000e-01,-5.04902929215787e-04,0.00000000000000e+00
5.51100000000000e-08,6.75000000000027e-01,7.50000000000000e-01,-1.94543834358088e-04,7.49999999999734e-02
5.51300000000000e-08,5.25000000000005e-01,7.50000000000000e-01,1.86835810248615e-04,2.24999999999995e-01
5.51700000000000e-08,2.25000000000013e-01,7.50000000000000e-01,3.28291762609158e-04,5.24999999999987e-01
5.52000000000000e-08,0.00000000000000e+00,7.50000000000000e-01,2.82449504573193e-04,7.50000000000000e-01
5.52080000000000e-08,0.00000000000000e+00,7.50000000000000e-01,2.27704343036220e-04,7.50000000000000e-01
5.52240000000000e-08,0.00000000000000e+00,7.50000000000000e-01,1.45808360713678e-04,7.50000000000000e-01
5.52560000000000e-08,0.00000000000000e+00,7.50000000000000e-01,5.48492352016317e-05,7.50000000000000e-01
5.53200000000000e-08,0.00000000000000e+00,7.50000000000000e-01,-3.76061728367384e-04,7.50000000000000e-01
5.54480000000000e-08,0.00000000000000e+00,7.50000000000000e-01,-1.30089211028184e-03,7.50000000000000e-01
5.57040000000000e-08,0.00000000000000e+00,7.50000000000000e-01,-3.93625128508032e-04,7.50000000000000e-01
5.60484728401587e-08,0.00000000000000e+00,7.50000000000000e-01,3.14125048382616e-04,7.50000000000000e-01
5.67249814785245e-08,0.00000000000000e+00,7.50000000000000e-01,-3.52506336572000e-04,7.50000000000000e-01
5.75298309016029e-08,0.00000000000000e+00,7.50000000000000e-01,3.65239937145784e-04,7.50000000000000e-01
5.89904527353174e-08,0.00000000000000e+00,7.50000000000000e-01,-3.05031854678714e-04,7.50000000000000e-01
6.10930586194755e-08,0.00000000000000e+00,7.50000000000000e-01,2.91705419187838e-04,7.50000000000000e-01
6.48324110536047e-08,0.00000000000000e+00,7.50000000000000e-01,-2.58078099372628e-04,7.50000000000000e-01
6.50000000000000e-08,0.00000000000000e+00,7.50000000000000e-01,2.59147699647119e-05,7.50000000000000e-01
6.50100000000000e-08,7.49999999999858e-02,7.50000000000000e-01,1.58677605951237e-04,7.50000000000000e-01
6.50300000000000e-08,2.24999999999957e-01,7.50000000000000e-01,3.84607407752056e-04,7.50000000000000e-01
6.50700000000000e-08,5.24999999999900e-01,7.50000000000000e-01,6.45126579027232e-04,7.50000000000000e-01
6.51000000000000e-08,7.49999999999957e-01,7.50000000000000e-01,4.20972460241142e-04,7.50000000000000e-01
6.51080000000000e-08,7.50000000000000e-01,7.50000000000000e-01,1.46779091620114e-04,7.50000000000000e-01
6.51240000000000e-08,7.50000000000000e-01,7.50000000000000e-01,-5.13579756997479e-04,7.50000000000000e-01
6.51560000000000e-08,7.50000000000000e-01,7.50000000000000e-01,-2.12531130383776e-03,7.50000000000000e-01
6.52200000000000e-08,7.50000000000000e-01,7.50000000000000e-01,-4.82948888929812e-03,7.50000000000000e-01
6.53480000000000e-08,7.50000000000000e-01,7.50000000000000e-01,1.98020231222818e-03,7.50000000000000e-01
6.56040000000000e-08,7.50000000000000e-01,7.50000000000000e-01,3.02399184425161e-01,7.50000000000000e-01
6.61159999999999e-08,7.50000000000000e-01,7.50000000000000e-01,7.56359049257123e-01,7.50000000000000e-01
6.68208164648737e-08,7.50000000000000e-01,7.50000000000000e-01,7.44105531509093e-01,7.50000000000000e-01
6.80083823747167e-08,7.50000000000000e-01,7.50000000000000e-01,7.55894705273286e-01,7.50000000000000e-01
6.94680431880634e-08,7.50000000000000e-01,7.50000000000000e-01,7.44420194190150e-01,7.50000000000000e-01
7.16706841357236e-08,7.50000000000000e-01,7.50000000000000e-01,7.55422246519023e-01,7.50000000000000e-01
7.51000000000000e-08,7.50000000000000e-01,7.50000000000000e-01,7.44700190630866e-01,7.50000000000000e-01
7.51100000000000e-08,6.75000000000076e-01,7.50000000000000e-01,7.46279943407328e-01,7.50000000000000e-01
7.51300000000000e-08,5.25000000000105e-01,7.50000000000000e-01,7.48459898663542e-01,7.50000000000000e-01
7.51700000000000e-08,2.25000000000162e-01,7.50000000000000e-01,7.50546949411559e-01,7.50000000000000e-01
7.52000000000000e-08,1.05027098129540e-13,7.50000000000000e-01,7.52422393262745e-01,7.50000000000000e-01
7.52080000000000e-08,0.00000000000000e+00,7.50000000000000e-01,7.52916480476746e-01,7.50000000000000e-01
7.52240000000000e-08,0.00000000000000e+00,7.50000000000000e-01,7.53548999197007e-01,7.50000000000000e-01
7.52560000000000e-08,0.00000000000000e+00,7.50000000000000e-01,7.53083435293218e-01,7.50000000000000e-01
7.53200000000000e-08,0.00000000000000e+00,7.50000000000000e-01,7.44115606476759e-01,7.50000000000000e-01
7.54480000000000e-08,0.00000000000000e+00,7.50000000000000e-01,7.21119693737877e-01,7.50000000000000e-01
7.57040000000000e-08,0.00000000000000e+00,7.50000000000000e-01,7.34945834616547e-01,7.50000000000000e-01
7.62159999999999e-08,0.00000000000000e+00,7.50000000000000e-01,7.55644063226185e-01,7.50000000000000e-01
7.68357195477229e-08,0.00000000000000e+00,7.50000000000000e-01,7.44620041291831e-01,7.50000000000000e-01
7.80751586431688e-08,0.00000000000000e+00,7.50000000000000e-01,7.53688316724130e-01,7.50000000000000e-01
8.05540368340605e-08,0.00000000000000e+00,7.50000000000000e-01,7.46044571722914e-01,7.50000000000000e-01
8.43540368340605e-08,0.00000000000000e+00,7.50000000000000e-01,7.53390359850501e-01,7.50000000000000e-01
8.50000000000000e-08,0.00000000000000e+00,7.50000000000000e-01,7.47205201469644e-01,7.50000000000000e-01
8.50100000000000e-08,7.49999999999858e-02,7.50000000000000e-01,7.47562168149874e-01,6.75000000000014e-01
8.50300000000000e-08,2.24999999999957e-01,7.50000000000000e-01,7.48165618601535e-01,5.25000000000043e-01
8.50700000000000e-08,5.24999999999900e-01,7.50000000000000e-01,7.50962694890606e-01,2.25000000000100e-01
8.51000000000000e-08,7.49999999999957e-01,7.50000000000000e-01,7.56357162561853e-01,4.29656310529936e-14
8.51080000000000e-08,7.50000000000000e-01,7.50000000000000e-01,7.58106733761109e-01,0.00000000000000e+00
8.51240000000000e-08,7.50000000000000e-01,7.50000000000000e-01,7.61113089903990e-01,0.00000000000000e+00
8.51560000000000e-08,7.50000000000000e-01,7.50000000000000e-01,7.65641574427967e-01,0.00000000000000e+00
8.52200000000000e-08,7.50000000000000e-01,7.50000000000000e-01,7.74259608610178e-01,0.00000000000000e+00
8.53480000000000e-08,7.50000000000000e-01,7.50000000000000e-01,6.44916734465605e-01,0.00000000000000e+00
8.56040000000000e-08,7.50000000000000e-01,7.50000000000000e-01,1.39039522217147e-01,0.00000000000000e+00
8.59739484356436e-08,7.50000000000000e-01,7.50000000000000e-01,-3.68818038436296e-02,0.00000000000000e+00
8.66027152908841e-08,7.50000000000000e-01,7.50000000000000e-01,2.33760198064137e-02,0.00000000000000e+00
8.75504634751183e-08,7.50000000000000e-01,7.50000000000000e-01,-1.63649287718285e-02,0.00000000000000e+00
8.90455956088260e-08,7.50000000000000e-01,7.50000000000000e-01,1.39692993212708e-02,0.00000000000000e+00
9.01000000000000e-08,7.50000000000000e-01,7.49999999999957e-01,-1.05177062555335e-02,0.00000000000000e+00
9.03495382026708e-08,7.50000000000000e-01,7.50000000000000e-01,-1.97407778647317e-03,0.00000000000000e+00
9.08486146080123e-08,7.50000000000000e-01,7.50000000000000e-01,1.02679659391238e-03,0.00000000000000e+00
9.18467674186954e-08,7.50000000000000e-01,7.50000000000000e-01,-7.39182175589962e-04,0.00000000000000e+00
9.38430730400616e-08,7.50000000000000e-01,7.50000000000000e-01,6.53333346785461e-04,0.00000000000000e+00
9.51000000000000e-08,7.50000000000000e-01,7.50000000000000e-01,-5.05506215596486e-04,0.00000000000000e+00
9.51100000000000e-08,6.75000000000076e-01,7.50000000000000e-01,-1.95183897916312e-04,7.49999999999237e-02
9.51300000000000e-08,5.25000000000105e-01,7.50000000000000e-01,1.86212084441847e-04,2.24999999999895e-01
9.51700000000000e-08,2.25000000000162e-01,7.50000000000000e-01,3.27887444602104e-04,5.24999999999838e-01
9.52000000000000e-08,1.05027098129540e-13,7.50000000000000e-01,2.82163831593060e-04,7.49999999999895e-01
9.52080000000000e-08,0.00000000000000e+00,7.50000000000000e-01,2.27442724138133e-04,7.50000000000000e-01
9.52240000000000e-08,0.00000000000000e+00,7.50000000000000e-01,1.45591240857584e-04,7.50000000000000e-01
9.52560000000000e-08,0.00000000000000e+00,7.50000000000000e-01,5.05698658677944e-05,7.50000000000000e-01
9.53200000000000e-08,0.00000000000000e+00,7.50000000000000e-01,-3.84499237341851e-04,7.50000000000000e-01
9.54480000000000e-08,0.00000000000000e+00,7.50000000000000e-01,-1.30019370294180e-03,7.50000000000000e-01
9.57040000000000e-08,0.00000000000000e+00,7.50000000000000e-01,-3.94918288379960e-04,7.50000000000000e-01
9.60485472581730e-08,0.00000000000000e+00,7.50000000000000e-01,3.15289252494761e-04,7.50000000000000e-01
9.67250065825977e-08,0.00000000000000e+00,7.50000000000000e-01,-3.53651831064795e-04,7.50000000000000e-01
9.75300021895719e-08,0.00000000000000e+00,7.50000000000000e-01,3.66310147206910e-04,7.50000000000000e-01
9.89906239195302e-08,0.00000000000000e+00,7.50000000000000e-01,-3.06129552601920e-04,7.50000000000000e-01
1.01093750868138e-07,0.00000000000000e+00,7.50000000000000e-01,2.92795709928317e-04,7.50000000000000e-01
1.04833841176966e-07,0.00000000000000e+00,7.50000000000000e-01,-2.59176862895268e-04,7.50000000000000e-01
1.05000000000000e-07,0.00000000000000e+00,7.50000000000000e-01,2.55680272705991e-05,7.50000000000000e-01
1.05010000000000e-07,7.49999999999858e-02,7.50000000000000e-01,1.58047503944582e-04,7.50000000000000e-01
1.05030000000000e-07,2.24999999999957e-01,7.50000000000000e-01,3.83780898921514e-04,7.50000000000000e-01
1.05070000000000e-07,5.24999999999900e-01,7.50000000000000e-01,6.44569089472337e-04,7.50000000000000e-01
1.05100000000000e-07,7.49999999999957e-01,7.50000000000000e-01,4.20543235763869e-04,7.50000000000000e-01
1.05108000000000e-07,7.50000000000000e-01,7.50000000000000e-01,1.46372642879117e-04,7.50000000000000e-01
1.05124000000000e-07,7.50000000000000e-01,7.50000000000000e-01,-5.13937288237801e-04,7.50000000000000e-01
1.05156000000000e-07,7.50000000000000e-01,7.50000000000000e-01,-2.12558066136201e-03,7.50000000000000e-01
1.05220000000000e-07,7.50000000000000e-01,7.50000000000000e-01,-4.82958620207265e-03,7.50000000000000e-01
1.05348000000000e-07,7.50000000000000e-01,7.50000000000000e-01,1.98153158957916e-03,7.50000000000000e-01
1.05604000000000e-07,7.50000000000000e-01,7.50000000000000e-01,3.02408919408039e-01,7.50000000000000e-01
1.06116000000000e-07,7.50000000000000e-01,7.50000000000000e-01,7.56361142872937e-01,7.50000000000000e-01
1.06820805747648e-07,7.50000000000000e-01,7.50000000000000e-01,7.44104327594579e-01,7.50000000000000e-01
1.08008377332045e-07,7.50000000000000e-01,7.50000000000000e-01,7.55895845634062e-01,7.50000000000000e-01
1.09468027101809e-07,7.50000000000000e-01,7.50000000000000e-01,7.44419147190781e-01,7.50000000000000e-01
1.11670670913816e-07,7.50000000000000e-01,7.50000000000000e-01,7.55423252670869e-01,7.50000000000000e-01
1.15100000000000e-07,7.50000000000000e-01,7.50000000000000e-01,7.44699216238056e-01,7.50000000000000e-01
1.15110000000000e-07,6.75000000000076e-01,7.50000000000000e-01,7.46279249125532e-01,7.50000000000000e-01
1.15130000000000e-07,5.25000000000105e-01,7.50000000000000e-01,7.48459603720597e-01,7.50000000000000e-01
1.15170000000000e-07,2.25000000000162e-01,7.50000000000000e-01,7.50546915780475e-01,7.50000000000000e-01
1.15200000000000e-07,1.05027098129540e-13,7.50000000000000e-01,7.52422384800618e-01,7.50000000000000e-01
