Time,v(clk),v(data),v(out)
1.00000000000000e-08,7.50000000000000e-01,0.00000000000000e+00,1.04021145297061e-05
1.00100000000000e-08,7.50000000000000e-01,7.49999999999982e-02,5.72957254672823e-06
1.00300000000000e-08,7.50000000000000e-01,2.24999999999995e-01,9.48123326169337e-07
1.00700000000000e-08,7.50000000000000e-01,5.24999999999987e-01,-2.16163530623870e-06
1.01000000000000e-08,7.50000000000000e-01,7.49999999999994e-01,-3.99765141746722e-06
1.01080000000000e-08,7.50000000000000e-01,7.50000000000000e-01,-2.98992007721766e-06
1.01240000000000e-08,7.50000000000000e-01,7.50000000000000e-01,-2.61563817278987e-07
1.01560000000000e-08,7.50000000000000e-01,7.50000000000000e-01,3.51946715027723e-06
1.02200000000000e-08,7.50000000000000e-01,7.50000000000000e-01,4.63894784483165e-06
1.03480000000000e-08,7.50000000000000e-01,7.50000000000000e-01,-3.51678673633782e-07
1.06040000000000e-08,7.50000000000000e-01,7.50000000000000e-01,3.09848659249198e-06
1.11160000000000e-08,7.50000000000000e-01,7.50000000000000e-01,8.59397900954129e-07
1.21400000000000e-08,7.50000000000000e-01,7.50000000000000e-01,2.48595918227699e-06
1.41880000000000e-08,7.50000000000000e-01,7.50000000000000e-01,6.95987916067738e-07
1.51000000000000e-08,7.50000000000000e-01,7.50000000000000e-01,2.07151015841310e-06
1.51100000000000e-08,6.74999999999989e-01,7.50000000000000e-01,-6.13873640888385e-05
1.51300000000000e-08,5.24999999999993e-01,7.50000000000000e-01,-1.46008274839626e-04
1.51700000000000e-08,2.25000000000000e-01,7.50000000000000e-01,-5.09338523336511e-05
1.52000000000000e-08,0.00000000000000e+00,7.50000000000000e-01,2.35982947132021e-04
1.52080000000000e-08,0.00000000000000e+00,7.50000000000000e-01,3.46487183713287e-04
1.52240000000000e-08,0.00000000000000e+00,7.50000000000000e-01,4.31827472603785e-04
1.52560000000000e-08,0.00000000000000e+00,7.50000000000000e-01,2.15125024236484e-04
1.53200000000000e-08,0.00000000000000e+00,7.50000000000000e-01,-2.16898527656495e-04
1.54480000000000e-08,0.00000000000000e+00,7.50000000000000e-01,-1.23955184361861e-04
1.57040000000000e-08,0.00000000000000e+00,7.50000000000000e-01,-1.72611769278217e-04
1.60307382902037e-08,0.00000000000000e+00,7.50000000000000e-01,2.19844739551162e-04
1.66672346392018e-08,0.00000000000000e+00,7.50000000000000e-01,-8.40860537548380e-05
1.73818045309442e-08,0.00000000000000e+00,7.50000000000000e-01,2.05263512890411e-06
1.88109443144288e-08,0.00000000000000e+00,7.50000000000000e-01,2.93949703067632e-05
2.16692238813982e-08,0.00000000000000e+00,7.50000000000000e-01,-4.14381825552144e-05
2.50000000000000e-08,0.00000000000000e+00,7.50000000000000e-01,5.22645867972087e-05
2.50100000000000e-08,7.49999999999858e-02,7.50000000000000e-01,1.22564433440497e-04
2.50300000000000e-08,2.25000000000007e-01,7.50000000000000e-01,2.22307376840550e-04
2.50700000000000e-08,5.25000000000000e-01,7.50000000000000e-01,3.06357204228024e-04
2.51000000000000e-08,7.50000000000000e-01,7.50000000000000e-01,-1.08431184355304e-03
2.51080000000000e-08,7.50000000000000e-01,7.50000000000000e-01,-1.94551349182857e-03
2.51240000000000e-08,7.50000000000000e-01,7.50000000000000e-01,-3.62394539277099e-03
2.51560000000000e-08,7.50000000000000e-01,7.50000000000000e-01,-5.99391716130088e-03
2.52200000000000e-08,7.50000000000000e-01,7.50000000000000e-01,1.38741080097137e-02
2.53480000000000e-08,7.50000000000000e-01,7.50000000000000e-01,3.92149422523217e-01
2.56040000000000e-08,7.50000000000000e-01,7.50000000000000e-01,7.71829089236346e-01
2.59258549728070e-08,7.50000000000000e-01,7.50000000000000e-01,7.33186950385330e-01
2.65381468142091e-08,7.50000000000000e-01,7.50000000000000e-01,7.66362036199475e-01
2.72530860206152e-08,7.50000000000000e-01,7.50000000000000e-01,7.34720735563257e-01
2.84130818612994e-08,7.50000000000000e-01,7.50000000000000e-01,7.64763201466643e-01
3.07330735426679e-08,7.50000000000000e-01,7.50000000000000e-01,7.35487020420391e-01
3.45330735426679e-08,7.50000000000000e-01,7.50000000000000e-01,7.64314423172872e-01
3.51000000000000e-08,7.49999999999963e-01,7.50000000000000e-01,7.36682117650951e-01
3.51100000000000e-08,6.74999999999977e-01,7.50000000000000e-01,7.42711840912677e-01
3.51300000000000e-08,5.24999999999956e-01,7.50000000000000e-01,7.49269323528838e-01
3.51700000000000e-08,2.24999999999963e-01,7.50000000000000e-01,7.51060373628342e-01
3.52000000000000e-08,0.00000000000000e+00,7.50000000000000e-01,7.52777329435137e-01
3.52080000000000e-08,0.00000000000000e+00,7.50000000000000e-01,7.52984033081917e-01
3.52240000000000e-08,0.00000000000000e+00,7.50000000000000e-01,7.52023364627325e-01
3.52560000000000e-08,0.00000000000000e+00,7.50000000000000e-01,7.42367314471328e-01
3.53200000000000e-08,0.00000000000000e+00,7.50000000000000e-01,7.21368379674959e-01
3.54480000000000e-08,0.00000000000000e+00,7.50000000000000e-01,7.35982869349547e-01
3.57040000000000e-08,0.00000000000000e+00,7.50000000000000e-01,7.54926005182363e-01
3.60453344109973e-08,0.00000000000000e+00,7.50000000000000e-01,7.45414268038997e-01
3.66975415205416e-08,0.00000000000000e+00,7.50000000000000e-01,7.53324378003813e-01
3.80019557396302e-08,0.00000000000000e+00,7.50000000000000e-01,7.46558791154665e-01
4.06107841778074e-08,0.00000000000000e+00,7.50000000000000e-01,7.53095640401811e-01
4.44107841778074e-08,0.00000000000000e+00,7.50000000000000e-01,7.46842088080060e-01
4.50000000000000e-08,0.00000000000000e+00,7.50000000000000e-01,7.52583814631635e-01
4.50100000000000e-08,7.49999999999858e-02,7.50000000000000e-01,7.51830729044413e-01
4.50300000000000e-08,2.25000000000007e-01,7.50000000000000e-01,7.50780868523280e-01
4.50700000000000e-08,5.25000000000000e-01,7.50000000000000e-01,7.50086554211203e-01
4.51000000000000e-08,7.50000000000000e-01,7.50000000000000e-01,7.49118468191664e-01
4.51080000000000e-08,7.50000000000000e-01,6.90000000000031e-01,7.48641763789663e-01
4.51240000000000e-08,7.50000000000000e-01,5.69999999999994e-01,7.47814315455229e-01
4.51560000000000e-08,7.50000000000000e-01,3.30000000000020e-01,7.46826040083175e-01
4.52000000000000e-08,7.50000000000000e-01,4.29656310529936e-14,7.46259661574658e-01
4.52064000000000e-08,7.50000000000000e-01,0.00000000000000e+00,7.46279840921552e-01
4.52192000000000e-08,7.50000000000000e-01,0.00000000000000e+00,7.46380694501284e-01
4.52448000000000e-08,7.50000000000000e-01,0.00000000000000e+00,7.46891036538924e-01
4.52960000000000e-08,7.50000000000000e-01,0.00000000000000e+00,7.48086243932787e-01
4.53984000000000e-08,7.50000000000000e-01,0.00000000000000e+00,7.49411328818589e-01
4.55580043981554e-08,7.50000000000000e-01,0.00000000000000e+00,7.49923734222225e-01
4.58772131944663e-08,7.50000000000000e-01,0.00000000000000e+00,7.50023773681873e-01
4.61911597189228e-08,7.50000000000000e-01,0.00000000000000e+00,7.49992744719008e-01
4.68190527678358e-08,7.50000000000000e-01,0.00000000000000e+00,7.50003590851893e-01
4.80748388656618e-08,7.50000000000000e-01,0.00000000000000e+00,7.49997657551202e-01
5.05864110613138e-08,7.50000000000000e-01,0.00000000000000e+00,7.50001821334734e-01
5.43864110613138e-08,7.50000000000000e-01,0.00000000000000e+00,7.49998486317758e-01
5.51000000000000e-08,7.50000000000000e-01,0.00000000000000e+00,7.50000170940041e-01
5.51100000000000e-08,6.75000000000027e-01,0.00000000000000e+00,7.49936337375544e-01
5.51300000000000e-08,5.25000000000005e-01,0.00000000000000e+00,7.49877078293474e-01
5.51700000000000e-08,2.25000000000013e-01,0.00000000000000e+00,7.50846787244646e-01
5.52000000000000e-08,0.00000000000000e+00,0.00000000000000e+00,7.52995371134516e-01
5.52080000000000e-08,0.00000000000000e+00,0.00000000000000e+00,7.53495999764287e-01
5.52240000000000e-08,0.00000000000000e+00,0.00000000000000e+00,7.54218860126000e-01
5.52560000000000e-08,0.00000000000000e+00,0.00000000000000e+00,7.55007574875141e-01
5.53200000000000e-08,0.00000000000000e+00,0.00000000000000e+00,7.54062645329551e-01
5.54480000000000e-08,0.00000000000000e+00,0.00000000000000e+00,7.49420632320573e-01
5.56606516650838e-08,0.00000000000000e+00,0.00000000000000e+00,7.50057541275276e-01
5.59663807077708e-08,0.00000000000000e+00,0.00000000000000e+00,7.49804213890744e-01
5.64304036175266e-08,0.00000000000000e+00,0.00000000000000e+00,7.49926198709763e-01
5.72376206813960e-08,0.00000000000000e+00,0.00000000000000e+00,7.49906509055945e-01
5.88254059654081e-08,0.00000000000000e+00,0.00000000000000e+00,7.49924066908352e-01
6.18424520540050e-08,0.00000000000000e+00,0.00000000000000e+00,7.49959278601133e-01
6.50000000000000e-08,0.00000000000000e+00,0.00000000000000e+00,7.49936103658566e-01
6.50100000000000e-08,7.49999999999858e-02,0.00000000000000e+00,7.50037962811761e-01
6.50300000000000e-08,2.24999999999957e-01,0.00000000000000e+00,7.50117159422999e-01
6.50700000000000e-08,5.24999999999900e-01,0.00000000000000e+00,7.49987064843324e-01
6.51000000000000e-08,7.49999999999957e-01,0.00000000000000e+00,7.49783984149927e-01
6.51080000000000e-08,7.50000000000000e-01,0.00000000000000e+00,7.49724009917340e-01
6.51240000000000e-08,7.50000000000000e-01,0.00000000000000e+00,7.49672808895163e-01
6.51560000000000e-08,7.50000000000000e-01,0.00000000000000e+00,7.49720094201054e-01
6.52200000000000e-08,7.50000000000000e-01,0.00000000000000e+00,7.51503674935623e-01
6.53480000000000e-08,7.50000000000000e-01,0.00000000000000e+00,7.63928796802358e-01
6.56040000000000e-08,7.50000000000000e-01,0.00000000000000e+00,1.87582082770659e-01
6.58952827747334e-08,7.50000000000000e-01,0.00000000000000e+00,-7.62660804000892e-02
6.63608038652961e-08,7.50000000000000e-01,0.00000000000000e+00,6.29885566008566e-02
6.69934574260239e-08,7.50000000000000e-01,0.00000000000000e+00,-4.53837820664930e-02
6.78510859088713e-08,7.50000000000000e-01,0.00000000000000e+00,4.15415058597504e-02
6.94439253022948e-08,7.50000000000000e-01,0.00000000000000e+00,-3.56422888431488e-02
7.17815348719340e-08,7.50000000000000e-01,0.00000000000000e+00,3.56705282834029e-02
7.51000000000000e-08,7.50000000000000e-01,0.00000000000000e+00,-3.23287571255114e-02
7.51100000000000e-08,6.75000000000076e-01,0.00000000000000e+00,-2.41944157891074e-02
7.51300000000000e-08,5.25000000000105e-01,0.00000000000000e+00,-1.28493643526654e-02
7.51700000000000e-08,2.25000000000162e-01,0.00000000000000e+00,-3.58518559854631e-03
7.52000000000000e-08,1.05027098129540e-13,0.00000000000000e+00,-1.10559553781307e-03
7.52080000000000e-08,0.00000000000000e+00,0.00000000000000e+00,-7.94367658035242e-04
7.52240000000000e-08,0.00000000000000e+00,0.00000000000000e+00,-4.03261155990792e-04
7.52560000000000e-08,0.00000000000000e+00,0.00000000000000e+00,-7.24730442442256e-04
7.53200000000000e-08,0.00000000000000e+00,0.00000000000000e+00,-2.06527101803746e-03
7.54480000000000e-08,0.00000000000000e+00,0.00000000000000e+00,-3.41854584987610e-04
7.56414088440358e-08,0.00000000000000e+00,0.00000000000000e+00,4.01266260804545e-04
7.59971266105282e-08,0.00000000000000e+00,0.00000000000000e+00,-3.50734644193433e-04
7.64544460315495e-08,0.00000000000000e+00,0.00000000000000e+00,3.25088515524478e-04
7.73690848735920e-08,0.00000000000000e+00,0.00000000000000e+00,-3.06074581189584e-04
7.91983625576770e-08,0.00000000000000e+00,0.00000000000000e+00,2.98612153992933e-04
8.28569179258471e-08,0.00000000000000e+00,0.00000000000000e+00,-2.92702869261523e-04
8.50000000000000e-08,0.00000000000000e+00,0.00000000000000e+00,2.86434394225425e-04
8.50100000000000e-08,7.49999999999858e-02,0.00000000000000e+00,2.63614920225905e-04
8.50300000000000e-08,2.24999999999957e-01,0.00000000000000e+00,2.27020883255435e-04
8.50700000000000e-08,5.24999999999900e-01,0.00000000000000e+00,8.37089490608803e-05
8.51000000000000e-08,7.49999999999957e-01,0.00000000000000e+00,-1.75873891307451e-04
8.51080000000000e-08,7.50000000000000e-01,0.00000000000000e+00,-2.45839077998987e-04
8.51240000000000e-08,7.50000000000000e-01,0.00000000000000e+00,-3.13585874629867e-04
8.51560000000000e-08,7.50000000000000e-01,0.00000000000000e+00,-2.55628742589990e-04
8.52200000000000e-08,7.50000000000000e-01,0.00000000000000e+00,-7.52093520243052e-05
8.53480000000000e-08,7.50000000000000e-01,0.00000000000000e+00,1.07151156556792e-04
8.56040000000000e-08,7.50000000000000e-01,0.00000000000000e+00,-1.13518290854875e-06
8.61159999999999e-08,7.50000000000000e-01,0.00000000000000e+00,-9.80038640697664e-07
8.67614555411218e-08,7.50000000000000e-01,0.00000000000000e+00,1.00985706747471e-05
8.80523666233654e-08,7.50000000000000e-01,0.00000000000000e+00,-5.52648379005321e-06
9.00000000000000e-08,7.50000000000000e-01,0.00000000000000e+00,1.02184882433800e-05
9.00100000000000e-08,7.50000000000000e-01,7.49999999999858e-02,5.66340680124844e-06
9.00300000000000e-08,7.50000000000000e-01,2.24999999999957e-01,9.98353179265665e-07
9.00700000000000e-08,7.50000000000000e-01,5.24999999999900e-01,-2.05692461188040e-06
9.01000000000000e-08,7.50000000000000e-01,7.49999999999957e-01,-3.73682732517089e-06
9.01080000000000e-08,7.50000000000000e-01,7.50000000000000e-01,-2.75140174419569e-06
9.01240000000000e-08,7.50000000000000e-01,7.50000000000000e-01,-1.97238693364077e-07
9.01560000000000e-08,7.50000000000000e-01,7.50000000000000e-01,3.37617110842542e-06
9.02200000000000e-08,7.50000000000000e-01,7.50000000000000e-01,4.42972022271504e-06
9.03480000000000e-08,7.50000000000000e-01,7.50000000000000e-01,-2.17579673399831e-07
9.06040000000000e-08,7.50000000000000e-01,7.50000000000000e-01,3.08007953800371e-06
9.11159999999999e-08,7.50000000000000e-01,7.50000000000000e-01,8.45463007359201e-07
9.21399999999999e-08,7.50000000000000e-01,7.50000000000000e-01,2.51424320825162e-06
9.41879999999998e-08,7.50000000000000e-01,7.50000000000000e-01,6.63789244203551e-07
9.51000000000000e-08,7.50000000000000e-01,7.50000000000000e-01,2.11629413644776e-06
9.51100000000000e-08,6.75000000000076e-01,7.50000000000000e-01,-6.16732633551553e-05
9.51300000000000e-08,5.25000000000105e-01,7.50000000000000e-01,-1.45944396242319e-04
9.51700000000000e-08,2.25000000000162e-01,7.50000000000000e-01,-5.08862479672509e-05
9.52000000000000e-08,1.05027098129540e-13,7.50000000000000e-01,2.35990092153970e-04
9.52080000000000e-08,0.00000000000000e+00,7.50000000000000e-01,3.46492288362546e-04
9.52240000000000e-08,0.00000000000000e+00,7.50000000000000e-01,4.31843575764410e-04
9.52560000000000e-08,0.00000000000000e+00,7.50000000000000e-01,2.15199782330103e-04
9.53200000000000e-08,0.00000000000000e+00,7.50000000000000e-01,-2.16816492331559e-04
9.54480000000000e-08,0.00000000000000e+00,7.50000000000000e-01,-1.23988184174324e-04
9.57040000000000e-08,0.00000000000000e+00,7.50000000000000e-01,-1.72598858466225e-04
9.60307312410145e-08,0.00000000000000e+00,7.50000000000000e-01,2.19826808387001e-04
9.66671962882232e-08,0.00000000000000e+00,7.50000000000000e-01,-8.40562788663258e-05
9.73817863787333e-08,0.00000000000000e+00,7.50000000000000e-01,2.02319004719270e-06
9.88109665597537e-08,0.00000000000000e+00,7.50000000000000e-01,2.94235773950894e-05
1.01669326921795e-07,0.00000000000000e+00,7.50000000000000e-01,-4.14665396785687e-05
1.05000000000000e-07,0.00000000000000e+00,7.50000000000000e-01,5.22930300217795e-05
1.05010000000000e-07,7.49999999999858e-02,7.50000000000000e-01,1.07565629398530e-04
1.05030000000000e-07,2.24999999999957e-01,7.50000000000000e-01,2.14843276632327e-04
1.05070000000000e-07,5.24999999999900e-01,7.50000000000000e-01,3.03822247810281e-04
1.05100000000000e-07,7.49999999999957e-01,7.50000000000000e-01,-1.08505643137683e-03
1.05108000000000e-07,7.50000000000000e-01,7.50000000000000e-01,-1.94621236398665e-03
1.05124000000000e-07,7.50000000000000e-01,7.50000000000000e-01,-3.62444652167323e-03
1.05156000000000e-07,7.50000000000000e-01,7.50000000000000e-01,-5.99411028792731e-03
1.05220000000000e-07,7.50000000000000e-01,7.50000000000000e-01,1.38738212887166e-02
1.05348000000000e-07,7.50000000000000e-01,7.50000000000000e-01,3.92148532329711e-01
1.05604000000000e-07,7.50000000000000e-01,7.50000000000000e-01,7.71828991105309e-01
1.05925855245849e-07,7.50000000000000e-01,7.50000000000000e-01,7.33187033184945e-01
1.06538146559066e-07,7.50000000000000e-01,7.50000000000000e-01,7.66361963620262e-01
1.07253085926292e-07,7.50000000000000e-01,7.50000000000000e-01,7.34720806239456e-01
1.08413080199722e-07,7.50000000000000e-01,7.50000000000000e-01,7.64763136531787e-01
1.10733068746582e-07,7.50000000000000e-01,7.50000000000000e-01,7.35487087457941e-01
1.14533068746582e-07,7.50000000000000e-01,7.50000000000000e-01,7.64314360052227e-01
1.15100000000000e-07,7.50000000000000e-01,7.50000000000000e-01,7.36682169395599e-01
1.15110000000000e-07,6.75000000000076e-01,7.50000000000000e-01,7.42711870300187e-01
1.15130000000000e-07,5.25000000000105e-01,7.50000000000000e-01,7.49269327831862e-01
1.15170000000000e-07,2.25000000000162e-01,7.50000000000000e-01,7.51060373143655e-01
1.15200000000000e-07,1.05027098129540e-13,7.50000000000000e-01,7.52777330357288e-01
1.15208000000000e-07,0.00000000000000e+00,7.50000000000000e-01,7.52984034490964e-01
1.15224000000000e-07,0.00000000000000e+00,7.50000000000000e-01,7.52023368200799e-01
1.15256000000000e-07,0.00000000000000e+00,7.50000000000000e-01,7.42367322810262e-01
1.15320000000000e-07,0.00000000000000e+00,7.50000000000000e-01,7.21368385015176e-01
1.15448000000000e-07,0.00000000000000e+00,7.50000000000000e-01,7.35982867087540e-01
1.15704000000000e-07,0.00000000000000e+00,7.50000000000000e-01,7.54926006981002e-01
1.16045334408719e-07,0.00000000000000e+00,7.50000000000000e-01,7.45414266609721e-01
1.16697541528009e-07,0.00000000000000e+00,7.50000000000000e-01,7.53324379230853e-01
1.18001955766588e-07,0.00000000000000e+00,7.50000000000000e-01,7.46558789987043e-01
1.20610784243745e-07,0.00000000000000e+00,7.50000000000000e-01,7.53095641520288e-01
1.24410784243745e-07,0.00000000000000e+00,7.50000000000000e-01,7.46842086980287e-01
1.25000000000000e-07,0.00000000000000e+00,7.50000000000000e-01,7.52583815526405e-01
1.25010000000000e-07,7.49999999998865e-02,7.50000000000000e-01,7.51830729653984e-01
1.25030000000000e-07,2.24999999999858e-01,7.50000000000000e-01,7.50780868745002e-01
1.25070000000000e-07,5.24999999999801e-01,7.50000000000000e-01,7.50086554220710e-01
1.25100000000000e-07,7.49999999999858e-01,7.50000000000000e-01,7.49118468217566e-01
1.25108000000000e-07,7.50000000000000e-01,6.89999999999932e-01,7.48641763817812e-01
1.25124000000000e-07,7.50000000000000e-01,5.69999999999994e-01,7.47814315481643e-01
1.25156000000000e-07,7.50000000000000e-01,3.29999999999921e-01,7.46826040096978e-01
1.25200000000000e-07,7.50000000000000e-01,0.00000000000000e+00,7.46259661575692e-01
1.25206400000000e-07,7.50000000000000e-01,0.00000000000000e+00,7.46279840919618e-01
1.25219200000000e-07,7.50000000000000e-01,0.00000000000000e+00,7.46380694493319e-01
1.25244800000000e-07,7.50000000000000e-01,0.00000000000000e+00,7.46891036523490e-01
1.25296000000000e-07,7.50000000000000e-01,0.00000000000000e+00,7.48086243913851e-01
1.25398400000000e-07,7.50000000000000e-01,0.00000000000000e+00,7.49411328815306e-01
1.25558004397470e-07,7.50000000000000e-01,0.00000000000000e+00,7.49923734224514e-01
1.25877213192411e-07,7.50000000000000e-01,0.00000000000000e+00,7.50023773680739e-01
1.26191159684361e-07,7.50000000000000e-01,0.00000000000000e+00,7.49992744720223e-01
1.26819052668261e-07,7.50000000000000e-01,0.00000000000000e+00,7.50003590851326e-01
1.28074838636060e-07,7.50000000000000e-01,0.00000000000000e+00,7.49997657551438e-01
1.30586410571659e-07,7.50000000000000e-01,0.00000000000000e+00,7.50001821334643e-01
1.34386410571659e-07,7.50000000000000e-01,0.00000000000000e+00,7.49998486317838e-01
1.35100000000000e-07,7.49999999999864e-01,0.00000000000000e+00,7.50000170941256e-01
1.35110000000000e-07,6.74999999999778e-01,0.00000000000000e+00,7.49936337374376e-01
1.35130000000000e-07,5.24999999999807e-01,0.00000000000000e+00,7.49877078290900e-01
1.35170000000000e-07,2.24999999999864e-01,0.00000000000000e+00,7.50846787243394e-01
1.35200000000000e-07,0.00000000000000e+00,0.00000000000000e+00,7.52995371133649e-01
1.35208000000000e-07,0.00000000000000e+00,0.00000000000000e+00,7.53495999778301e-01
