Time,v(clk),v(data),v(out),v(reset)
1.00000000000000e-08,7.50000000000000e-01,0.00000000000000e+00,2.67717521472742e-05,0.00000000000000e+00
1.00100000000000e-08,7.50000000000000e-01,7.49999999999982e-02,2.42367339232316e-05,0.00000000000000e+00
1.00300000000000e-08,7.50000000000000e-01,2.24999999999995e-01,1.99044198363682e-05,0.00000000000000e+00
1.00700000000000e-08,7.50000000000000e-01,5.24999999999987e-01,1.48022352704641e-05,0.00000000000000e+00
1.01000000000000e-08,7.50000000000000e-01,7.49999999999994e-01,1.35594721161411e-05,0.00000000000000e+00
1.01080000000000e-08,7.50000000000000e-01,7.50000000000000e-01,1.35990468459884e-05,0.00000000000000e+00
1.01240000000000e-08,7.50000000000000e-01,7.50000000000000e-01,1.41219251301519e-05,0.00000000000000e+00
1.01560000000000e-08,7.50000000000000e-01,7.50000000000000e-01,1.53782506067818e-05,0.00000000000000e+00
1.02200000000000e-08,7.50000000000000e-01,7.50000000000000e-01,1.47817460909791e-05,0.00000000000000e+00
1.03480000000000e-08,7.50000000000000e-01,7.50000000000000e-01,1.39319245817740e-05,0.00000000000000e+00
1.06040000000000e-08,7.50000000000000e-01,7.50000000000000e-01,1.22038286119383e-05,0.00000000000000e+00
1.11160000000000e-08,7.50000000000000e-01,7.50000000000000e-01,1.32549006453750e-05,0.00000000000000e+00
1.21400000000000e-08,7.50000000000000e-01,7.50000000000000e-01,1.14967037940037e-05,0.00000000000000e+00
1.41880000000000e-08,7.50000000000000e-01,7.50000000000000e-01,1.19505428067181e-05,0.00000000000000e+00
1.51000000000000e-08,7.50000000000000e-01,7.50000000000000e-01,1.06345665912208e-05,0.00000000000000e+00
1.51100000000000e-08,6.74999999999989e-01,7.50000000000000e-01,1.87996812134335e-04,7.50000000000106e-02
1.51300000000000e-08,5.24999999999993e-01,7.50000000000000e-01,3.42568181826840e-04,2.25000000000007e-01
1.51700000000000e-08,2.25000000000000e-01,7.50000000000000e-01,2.89072503751285e-04,5.25000000000000e-01
1.52000000000000e-08,0.00000000000000e+00,7.50000000000000e-01,2.64332117794454e-04,7.50000000000000e-01
1.52080000000000e-08,0.00000000000000e+00,7.50000000000000e-01,2.26324374418413e-04,7.50000000000000e-01
1.52240000000000e-08,0.00000000000000e+00,7.50000000000000e-01,1.62394455227755e-04,7.50000000000000e-01
1.52560000000000e-08,0.00000000000000e+00,7.50000000000000e-01,3.96524155411165e-05,7.50000000000000e-01
1.53200000000000e-08,0.00000000000000e+00,7.50000000000000e-01,-2.25765614330860e-04,7.50000000000000e-01
1.54480000000000e-08,0.00000000000000e+00,7.50000000000000e-01,-3.06104877909143e-04,7.50000000000000e-01
1.56729355845077e-08,0.00000000000000e+00,7.50000000000000e-01,-9.04193347027911e-05,7.50000000000000e-01
1.60585900805832e-08,0.00000000000000e+00,7.50000000000000e-01,2.69241608535052e-05,7.50000000000000e-01
1.65238593716430e-08,0.00000000000000e+00,7.50000000000000e-01,2.01832048965588e-04,7.50000000000000e-01
1.74543979537626e-08,0.00000000000000e+00,7.50000000000000e-01,-2.12785932213131e-04,7.50000000000000e-01
1.84180854949883e-08,0.00000000000000e+00,7.50000000000000e-01,2.36484684323539e-04,7.50000000000000e-01
2.03454605774397e-08,0.00000000000000e+00,7.50000000000000e-01,-2.14767989878610e-04,7.50000000000000e-01
2.32630464314644e-08,0.00000000000000e+00,7.50000000000000e-01,2.28751939672749e-04,7.50000000000000e-01
2.50000000000000e-08,0.00000000000000e+00,7.50000000000000e-01,-2.02619783663951e-04,7.50000000000000e-01
2.50100000000000e-08,7.49999999999858e-02,7.50000000000000e-01,-5.19048039210809e-05,7.50000000000000e-01
2.50300000000000e-08,2.25000000000007e-01,7.50000000000000e-01,1.88007445049938e-04,7.50000000000000e-01
2.50700000000000e-08,5.25000000000000e-01,7.50000000000000e-01,3.78155481211909e-04,7.50000000000000e-01
2.51000000000000e-08,7.50000000000000e-01,7.50000000000000e-01,-4.44916004745492e-04,7.50000000000000e-01
2.51080000000000e-08,7.50000000000000e-01,7.50000000000000e-01,-1.02985997830191e-03,7.50000000000000e-01
2.51240000000000e-08,7.50000000000000e-01,7.50000000000000e-01,-2.26638070267713e-03,7.50000000000000e-01
2.51560000000000e-08,7.50000000000000e-01,7.50000000000000e-01,-4.44758894989059e-03,7.50000000000000e-01
2.52200000000000e-08,7.50000000000000e-01,7.50000000000000e-01,-3.74359667922352e-03,7.50000000000000e-01
2.53480000000000e-08,7.50000000000000e-01,7.50000000000000e-01,1.44177789041269e-01,7.50000000000000e-01
2.56040000000000e-08,7.50000000000000e-01,7.50000000000000e-01,6.84267006303578e-01,7.50000000000000e-01
2.61160000000000e-08,7.50000000000000e-01,7.50000000000000e-01,7.69513541867742e-01,7.50000000000000e-01
2.66664019373352e-08,7.50000000000000e-01,7.50000000000000e-01,7.30963830772781e-01,7.50000000000000e-01
2.76565798586087e-08,7.50000000000000e-01,7.50000000000000e-01,7.66454270091474e-01,7.50000000000000e-01
2.89398772459536e-08,7.50000000000000e-01,7.50000000000000e-01,7.33355785073180e-01,7.50000000000000e-01
3.15064720206435e-08,7.50000000000000e-01,7.50000000000000e-01,7.65313755318304e-01,7.50000000000000e-01
3.51000000000000e-08,7.49999999999963e-01,7.50000000000000e-01,7.34137582141811e-01,7.50000000000000e-01
3.51100000000000e-08,6.74999999999977e-01,7.50000000000000e-01,7.40046917647930e-01,7.50000000000000e-01
3.51300000000000e-08,5.24999999999956e-01,7.50000000000000e-01,7.47409566487105e-01,7.50000000000000e-01
3.51700000000000e-08,2.24999999999963e-01,7.50000000000000e-01,7.51018545380687e-01,7.50000000000000e-01
3.52000000000000e-08,0.00000000000000e+00,7.50000000000000e-01,7.52750123816160e-01,7.50000000000000e-01
3.52080000000000e-08,0.00000000000000e+00,7.50000000000000e-01,7.53113102122730e-01,7.50000000000000e-01
3.52240000000000e-08,0.00000000000000e+00,7.50000000000000e-01,7.53156867523457e-01,7.50000000000000e-01
3.52560000000000e-08,0.00000000000000e+00,7.50000000000000e-01,7.48587948734319e-01,7.50000000000000e-01
3.53200000000000e-08,0.00000000000000e+00,7.50000000000000e-01,7.28977406675026e-01,7.50000000000000e-01
3.54480000000000e-08,0.00000000000000e+00,7.50000000000000e-01,7.25540096283116e-01,7.50000000000000e-01
3.57040000000000e-08,0.00000000000000e+00,7.50000000000000e-01,7.53066945075966e-01,7.50000000000000e-01
3.60999506343362e-08,0.00000000000000e+00,7.50000000000000e-01,7.46316673900496e-01,7.50000000000000e-01
3.67132535984871e-08,0.00000000000000e+00,7.50000000000000e-01,7.52165437987400e-01,7.50000000000000e-01
3.79398595267889e-08,0.00000000000000e+00,7.50000000000000e-01,7.47411035020290e-01,7.50000000000000e-01
4.03930713833925e-08,0.00000000000000e+00,7.50000000000000e-01,7.52072493088748e-01,7.50000000000000e-01
4.41930713833925e-08,0.00000000000000e+00,7.50000000000000e-01,7.47692231542393e-01,7.50000000000000e-01
4.50000000000000e-08,0.00000000000000e+00,7.50000000000000e-01,7.51756015994763e-01,7.50000000000000e-01
4.50100000000000e-08,7.49999999999858e-02,7.50000000000000e-01,7.51145888246131e-01,6.75000000000014e-01
4.50300000000000e-08,2.25000000000007e-01,7.50000000000000e-01,7.50291419693624e-01,5.24999999999993e-01
4.50700000000000e-08,5.25000000000000e-01,7.50000000000000e-01,7.52475845641022e-01,2.25000000000000e-01
4.51000000000000e-08,7.50000000000000e-01,7.50000000000000e-01,7.58769662402782e-01,0.00000000000000e+00
4.51080000000000e-08,7.50000000000000e-01,7.50000000000000e-01,7.60774779347213e-01,0.00000000000000e+00
4.51240000000000e-08,7.50000000000000e-01,7.50000000000000e-01,7.64295611367940e-01,0.00000000000000e+00
4.51560000000000e-08,7.50000000000000e-01,7.50000000000000e-01,7.70754386421072e-01,0.00000000000000e+00
4.52200000000000e-08,7.50000000000000e-01,7.50000000000000e-01,7.26842958411550e-01,0.00000000000000e+00
4.53480000000000e-08,7.50000000000000e-01,7.50000000000000e-01,3.16896956747101e-01,0.00000000000000e+00
4.55819484447202e-08,7.50000000000000e-01,7.50000000000000e-01,-4.07862118544818e-02,0.00000000000000e+00
4.58903445046293e-08,7.50000000000000e-01,7.50000000000000e-01,2.30349013571573e-02,0.00000000000000e+00
4.64864110289123e-08,7.50000000000000e-01,7.50000000000000e-01,-1.67076042225153e-02,0.00000000000000e+00
4.71330455395753e-08,7.50000000000000e-01,7.50000000000000e-01,1.33913387581425e-02,0.00000000000000e+00
4.84263145609013e-08,7.50000000000000e-01,7.50000000000000e-01,-1.16888168952727e-02,0.00000000000000e+00
5.01000000000000e-08,7.50000000000000e-01,7.49999999999957e-01,1.09444264591510e-02,0.00000000000000e+00
5.03586538042652e-08,7.50000000000000e-01,7.50000000000000e-01,1.25193495316924e-03,0.00000000000000e+00
5.08759614127956e-08,7.50000000000000e-01,7.50000000000000e-01,-8.35681758424899e-04,0.00000000000000e+00
5.19105766298564e-08,7.50000000000000e-01,7.50000000000000e-01,7.13069599705275e-04,0.00000000000000e+00
5.39798070639779e-08,7.50000000000000e-01,7.50000000000000e-01,-6.33975788133234e-04,0.00000000000000e+00
5.51000000000000e-08,7.50000000000000e-01,7.50000000000000e-01,5.53758005404606e-04,0.00000000000000e+00
5.51100000000000e-08,6.75000000000027e-01,7.50000000000000e-01,6.03890705787716e-04,7.49999999999734e-02
5.51300000000000e-08,5.25000000000005e-01,7.50000000000000e-01,5.94455285239145e-04,2.24999999999995e-01
5.51700000000000e-08,2.25000000000013e-01,7.50000000000000e-01,4.06869982793413e-04,5.24999999999987e-01
5.52000000000000e-08,0.00000000000000e+00,7.50000000000000e-01,3.20829359062962e-04,7.50000000000000e-01
5.52080000000000e-08,0.00000000000000e+00,7.50000000000000e-01,2.72314610274757e-04,7.50000000000000e-01
5.52240000000000e-08,0.00000000000000e+00,7.50000000000000e-01,1.79881928730100e-04,7.50000000000000e-01
5.52560000000000e-08,0.00000000000000e+00,7.50000000000000e-01,-1.43530650709892e-04,7.50000000000000e-01
5.53200000000000e-08,0.00000000000000e+00,7.50000000000000e-01,-1.18291606548731e-03,7.50000000000000e-01
5.54480000000000e-08,0.00000000000000e+00,7.50000000000000e-01,-9.70923947175635e-04,7.50000000000000e-01
5.56575372620374e-08,0.00000000000000e+00,7.50000000000000e-01,5.01903396864435e-04,7.50000000000000e-01
5.57067932311177e-08,0.00000000000000e+00,7.50000000000000e-01,1.21378494052735e-04,7.50000000000000e-01
5.58053051692783e-08,0.00000000000000e+00,7.50000000000000e-01,-3.00930528252835e-04,7.50000000000000e-01
5.60023290455995e-08,0.00000000000000e+00,7.50000000000000e-01,1.14080378520721e-04,7.50000000000000e-01
5.63963767982419e-08,0.00000000000000e+00,7.50000000000000e-01,5.12069796896348e-05,7.50000000000000e-01
5.69339131301027e-08,0.00000000000000e+00,7.50000000000000e-01,-6.13159279795415e-05,7.50000000000000e-01
5.80089857938242e-08,0.00000000000000e+00,7.50000000000000e-01,8.74934419103444e-05,7.50000000000000e-01
6.01591311212673e-08,0.00000000000000e+00,7.50000000000000e-01,-7.06338653950517e-05,7.50000000000000e-01
6.39591311212673e-08,0.00000000000000e+00,7.50000000000000e-01,9.72765701450276e-05,7.50000000000000e-01
6.50000000000000e-08,0.00000000000000e+00,7.50000000000000e-01,-7.79601230824741e-05,7.50000000000000e-01
6.50100000000000e-08,7.49999999999858e-02,7.50000000000000e-01,6.59990556533402e-05,7.50000000000000e-01
6.50300000000000e-08,2.24999999999957e-01,7.50000000000000e-01,2.84104489023940e-04,7.50000000000000e-01
6.50700000000000e-08,5.24999999999900e-01,7.50000000000000e-01,4.20030437756576e-04,7.50000000000000e-01
6.51000000000000e-08,7.49999999999957e-01,7.50000000000000e-01,-4.54717439339551e-04,7.50000000000000e-01
6.51080000000000e-08,7.50000000000000e-01,7.50000000000000e-01,-1.05163853408651e-03,7.50000000000000e-01
6.51240000000000e-08,7.50000000000000e-01,7.50000000000000e-01,-2.30309967106447e-03,7.50000000000000e-01
6.51560000000000e-08,7.50000000000000e-01,7.50000000000000e-01,-4.48278823611029e-03,7.50000000000000e-01
6.52200000000000e-08,7.50000000000000e-01,7.50000000000000e-01,-3.74036139502743e-03,7.50000000000000e-01
6.53480000000000e-08,7.50000000000000e-01,7.50000000000000e-01,1.44418777402005e-01,7.50000000000000e-01
6.56040000000000e-08,7.50000000000000e-01,7.50000000000000e-01,6.84405250656240e-01,7.50000000000000e-01
6.61159999999999e-08,7.50000000000000e-01,7.50000000000000e-01,7.69480533282309e-01,7.50000000000000e-01
6.66666448884160e-08,7.50000000000000e-01,7.50000000000000e-01,7.30995749249637e-01,7.50000000000000e-01
6.76564491816391e-08,7.50000000000000e-01,7.50000000000000e-01,7.66426078519332e-01,7.50000000000000e-01
6.89398347867434e-08,7.50000000000000e-01,7.50000000000000e-01,7.33384646071449e-01,7.50000000000000e-01
7.15066059969520e-08,7.50000000000000e-01,7.50000000000000e-01,7.65287510492457e-01,7.50000000000000e-01
7.51000000000000e-08,7.50000000000000e-01,7.50000000000000e-01,7.34165190523220e-01,7.50000000000000e-01
7.51100000000000e-08,6.75000000000076e-01,7.50000000000000e-01,7.40063869399053e-01,7.50000000000000e-01
7.51300000000000e-08,5.25000000000105e-01,7.50000000000000e-01,7.47413333806997e-01,7.50000000000000e-01
7.51700000000000e-08,2.25000000000162e-01,7.50000000000000e-01,7.51018201026890e-01,7.50000000000000e-01
7.52000000000000e-08,1.05027098129540e-13,7.50000000000000e-01,7.52750109468157e-01,7.50000000000000e-01
7.52080000000000e-08,0.00000000000000e+00,7.50000000000000e-01,7.53113132575705e-01,7.50000000000000e-01
7.52240000000000e-08,0.00000000000000e+00,7.50000000000000e-01,7.53157082471749e-01,7.50000000000000e-01
7.52560000000000e-08,0.00000000000000e+00,7.50000000000000e-01,7.48588905625730e-01,7.50000000000000e-01
7.53200000000000e-08,0.00000000000000e+00,7.50000000000000e-01,7.28978817169794e-01,7.50000000000000e-01
7.54480000000000e-08,0.00000000000000e+00,7.50000000000000e-01,7.25539975962866e-01,7.50000000000000e-01
7.57040000000000e-08,0.00000000000000e+00,7.50000000000000e-01,7.53066849879352e-01,7.50000000000000e-01
7.60999506475216e-08,0.00000000000000e+00,7.50000000000000e-01,7.46316764736033e-01,7.50000000000000e-01
7.67132531422388e-08,0.00000000000000e+00,7.50000000000000e-01,7.52165376275912e-01,7.50000000000000e-01
7.79398581316732e-08,0.00000000000000e+00,7.50000000000000e-01,7.47411092434007e-01,7.50000000000000e-01
8.03930681105420e-08,0.00000000000000e+00,7.50000000000000e-01,7.52072442936843e-01,7.50000000000000e-01
8.41930681105420e-08,0.00000000000000e+00,7.50000000000000e-01,7.47692290040925e-01,7.50000000000000e-01
8.50000000000000e-08,0.00000000000000e+00,7.50000000000000e-01,7.51755981669485e-01,7.50000000000000e-01
8.50100000000000e-08,7.49999999999858e-02,7.50000000000000e-01,7.51145828558167e-01,6.75000000000014e-01
8.50300000000000e-08,2.24999999999957e-01,7.50000000000000e-01,7.50291392487030e-01,5.25000000000043e-01
8.50700000000000e-08,5.24999999999900e-01,7.50000000000000e-01,7.52475777446595e-01,2.25000000000100e-01
8.51000000000000e-08,7.49999999999957e-01,7.50000000000000e-01,7.58769687669089e-01,4.29656310529936e-14
8.51080000000000e-08,7.50000000000000e-01,7.50000000000000e-01,7.60774794910304e-01,0.00000000000000e+00
8.51240000000000e-08,7.50000000000000e-01,7.50000000000000e-01,7.64295605038521e-01,0.00000000000000e+00
8.51560000000000e-08,7.50000000000000e-01,7.50000000000000e-01,7.70754320817915e-01,0.00000000000000e+00
8.52200000000000e-08,7.50000000000000e-01,7.50000000000000e-01,7.26843505471855e-01,0.00000000000000e+00
8.53480000000000e-08,7.50000000000000e-01,7.50000000000000e-01,3.16898543814168e-01,0.00000000000000e+00
8.55820401622101e-08,7.50000000000000e-01,7.50000000000000e-01,-4.08264868306636e-02,0.00000000000000e+00
8.58904106932813e-08,7.50000000000000e-01,7.50000000000000e-01,2.30552303009154e-02,0.00000000000000e+00
8.64866047615293e-08,7.50000000000000e-01,7.50000000000000e-01,-1.67214162290217e-02,0.00000000000000e+00
8.71332600956837e-08,7.50000000000000e-01,7.50000000000000e-01,1.34017982087050e-02,0.00000000000000e+00
8.84265707639925e-08,7.50000000000000e-01,7.50000000000000e-01,-1.16974377511599e-02,0.00000000000000e+00
9.01000000000000e-08,7.50000000000000e-01,7.49999999999957e-01,1.09521160917644e-02,0.00000000000000e+00
9.03586621336618e-08,7.50000000000000e-01,7.50000000000000e-01,1.25315810016056e-03,0.00000000000000e+00
9.08759864009853e-08,7.50000000000000e-01,7.50000000000000e-01,-8.36492035851876e-04,0.00000000000000e+00
9.19106349356324e-08,7.50000000000000e-01,7.50000000000000e-01,7.13734271242493e-04,0.00000000000000e+00
9.39799320049266e-08,7.50000000000000e-01,7.50000000000000e-01,-6.34577473789406e-04,0.00000000000000e+00
9.51000000000000e-08,7.50000000000000e-01,7.50000000000000e-01,5.54243869920180e-04,0.00000000000000e+00
9.51100000000000e-08,6.75000000000076e-01,7.50000000000000e-01,6.04296163745272e-04,7.49999999999237e-02
9.51300000000000e-08,5.25000000000105e-01,7.50000000000000e-01,5.94728381632978e-04,2.24999999999895e-01
9.51700000000000e-08,2.25000000000162e-01,7.50000000000000e-01,4.06995982917345e-04,5.24999999999838e-01
9.52000000000000e-08,1.05027098129540e-13,7.50000000000000e-01,3.20900812759810e-04,7.49999999999895e-01
9.52080000000000e-08,0.00000000000000e+00,7.50000000000000e-01,2.72377057966330e-04,7.50000000000000e-01
9.52240000000000e-08,0.00000000000000e+00,7.50000000000000e-01,1.79928628527518e-04,7.50000000000000e-01
9.52560000000000e-08,0.00000000000000e+00,7.50000000000000e-01,-1.43504661990965e-04,7.50000000000000e-01
9.53200000000000e-08,0.00000000000000e+00,7.50000000000000e-01,-1.18290198224601e-03,7.50000000000000e-01
9.54480000000000e-08,0.00000000000000e+00,7.50000000000000e-01,-9.70916136437849e-04,7.50000000000000e-01
9.56575368944686e-08,0.00000000000000e+00,7.50000000000000e-01,5.01909517511511e-04,7.50000000000000e-01
9.57067928969511e-08,0.00000000000000e+00,7.50000000000000e-01,1.21413858268124e-04,7.50000000000000e-01
9.58053049019161e-08,0.00000000000000e+00,7.50000000000000e-01,-3.00916564677026e-04,7.50000000000000e-01
9.60023289118459e-08,0.00000000000000e+00,7.50000000000000e-01,1.14041096033250e-04,7.50000000000000e-01
9.63963769317057e-08,0.00000000000000e+00,7.50000000000000e-01,5.12253997164581e-05,7.50000000000000e-01
9.69339136172727e-08,0.00000000000000e+00,7.50000000000000e-01,-6.13253613410292e-05,7.50000000000000e-01
9.80089869884066e-08,0.00000000000000e+00,7.50000000000000e-01,8.75001107070433e-05,7.50000000000000e-01
1.00159133730675e-07,0.00000000000000e+00,7.50000000000000e-01,-7.06393699827688e-05,7.50000000000000e-01
1.03959133730675e-07,0.00000000000000e+00,7.50000000000000e-01,9.72822176788239e-05,7.50000000000000e-01
1.05000000000000e-07,0.00000000000000e+00,7.50000000000000e-01,-7.79638558067669e-05,7.50000000000000e-01
1.05010000000000e-07,7.49999999999858e-02,7.50000000000000e-01,6.59954543929878e-05,7.50000000000000e-01
1.05030000000000e-07,2.24999999999957e-01,7.50000000000000e-01,2.84101164200030e-04,7.50000000000000e-01
1.05070000000000e-07,5.24999999999900e-01,7.50000000000000e-01,4.20028421453326e-04,7.50000000000000e-01
1.05100000000000e-07,7.49999999999957e-01,7.50000000000000e-01,-4.54718702500960e-04,7.50000000000000e-01
1.05108000000000e-07,7.50000000000000e-01,7.50000000000000e-01,-1.05163965460670e-03,7.50000000000000e-01
1.05124000000000e-07,7.50000000000000e-01,7.50000000000000e-01,-2.30310055828204e-03,7.50000000000000e-01
1.05156000000000e-07,7.50000000000000e-01,7.50000000000000e-01,-4.48278880922067e-03,7.50000000000000e-01
1.05220000000000e-07,7.50000000000000e-01,7.50000000000000e-01,-3.74036335323584e-03,7.50000000000000e-01
1.05348000000000e-07,7.50000000000000e-01,7.50000000000000e-01,1.44418752179542e-01,7.50000000000000e-01
1.05604000000000e-07,7.50000000000000e-01,7.50000000000000e-01,6.84405236204868e-01,7.50000000000000e-01
1.06116000000000e-07,7.50000000000000e-01,7.50000000000000e-01,7.69480536754123e-01,7.50000000000000e-01
1.06666644864473e-07,7.50000000000000e-01,7.50000000000000e-01,7.30995745889449e-01,7.50000000000000e-01
1.07656449196823e-07,7.50000000000000e-01,7.50000000000000e-01,7.66426081493142e-01,7.50000000000000e-01
1.08939834793650e-07,7.50000000000000e-01,7.50000000000000e-01,7.33384643032252e-01,7.50000000000000e-01
1.11506605987305e-07,7.50000000000000e-01,7.50000000000000e-01,7.65287513261062e-01,7.50000000000000e-01
