Time,v(clk),v(data),v(out),v(reset)
1.00000000000000e-08,6.00000000000000e-01,0.00000000000000e+00,1.61476006094226e-05,0.00000000000000e+00
1.00100000000000e-08,6.00000000000000e-01,5.99999999999985e-02,9.26453121497667e-06,0.00000000000000e+00
1.00300000000000e-08,6.00000000000000e-01,1.79999999999996e-01,2.36689720725658e-06,0.00000000000000e+00
1.00700000000000e-08,6.00000000000000e-01,4.19999999999990e-01,5.27059197376334e-07,0.00000000000000e+00
1.01000000000000e-08,6.00000000000000e-01,5.99999999999995e-01,-2.38098847929469e-07,0.00000000000000e+00
1.01080000000000e-08,6.00000000000000e-01,6.00000000000000e-01,5.20149748418908e-07,0.00000000000000e+00
1.01240000000000e-08,6.00000000000000e-01,6.00000000000000e-01,1.81324149902545e-06,0.00000000000000e+00
1.01560000000000e-08,6.00000000000000e-01,6.00000000000000e-01,2.37231682820305e-06,0.00000000000000e+00
1.02200000000000e-08,6.00000000000000e-01,6.00000000000000e-01,1.80587177773736e-06,0.00000000000000e+00
1.03480000000000e-08,6.00000000000000e-01,6.00000000000000e-01,1.82131911232938e-06,0.00000000000000e+00
1.06040000000000e-08,6.00000000000000e-01,6.00000000000000e-01,1.76451557072979e-06,0.00000000000000e+00
1.11160000000000e-08,6.00000000000000e-01,6.00000000000000e-01,1.83267482526620e-06,0.00000000000000e+00
1.21400000000000e-08,6.00000000000000e-01,6.00000000000000e-01,1.48069892570843e-06,0.00000000000000e+00
1.41880000000000e-08,6.00000000000000e-01,6.00000000000000e-01,1.41885789089785e-06,0.00000000000000e+00
1.51000000000000e-08,6.00000000000000e-01,6.00000000000000e-01,1.18236306671663e-06,0.00000000000000e+00
1.51100000000000e-08,5.39999999999991e-01,6.00000000000000e-01,1.41200851755965e-04,6.00000000000085e-02
1.51300000000000e-08,4.19999999999994e-01,6.00000000000000e-01,2.39151742821096e-04,1.80000000000006e-01
1.51700000000000e-08,1.80000000000000e-01,6.00000000000000e-01,6.89722457778430e-05,4.20000000000000e-01
1.52000000000000e-08,0.00000000000000e+00,6.00000000000000e-01,6.89711452814962e-05,6.00000000000000e-01
1.52080000000000e-08,0.00000000000000e+00,6.00000000000000e-01,7.46050793557149e-05,6.00000000000000e-01
1.52240000000000e-08,0.00000000000000e+00,6.00000000000000e-01,7.85400283252538e-05,6.00000000000000e-01
1.52560000000000e-08,0.00000000000000e+00,6.00000000000000e-01,4.07023664634049e-05,6.00000000000000e-01
1.53200000000000e-08,0.00000000000000e+00,6.00000000000000e-01,-1.24764061457665e-04,6.00000000000000e-01
1.54480000000000e-08,0.00000000000000e+00,6.00000000000000e-01,-1.13550459266670e-04,6.00000000000000e-01
1.56887529798415e-08,0.00000000000000e+00,6.00000000000000e-01,-6.90093357071948e-05,6.00000000000000e-01
1.60924301564655e-08,0.00000000000000e+00,6.00000000000000e-01,5.69403177224197e-05,6.00000000000000e-01
1.66256861520661e-08,0.00000000000000e+00,6.00000000000000e-01,5.92105565346583e-05,6.00000000000000e-01
1.76005140230012e-08,0.00000000000000e+00,6.00000000000000e-01,-9.49672134029729e-05,6.00000000000000e-01
1.90551053498161e-08,0.00000000000000e+00,6.00000000000000e-01,1.12136703176383e-04,6.00000000000000e-01
2.16097252350600e-08,0.00000000000000e+00,6.00000000000000e-01,-1.19477142879748e-04,6.00000000000000e-01
2.50000000000000e-08,0.00000000000000e+00,6.00000000000000e-01,1.24413709199337e-04,6.00000000000000e-01
2.50100000000000e-08,5.99999999999886e-02,6.00000000000000e-01,1.79701950453186e-04,6.00000000000000e-01
2.50300000000000e-08,1.80000000000006e-01,6.00000000000000e-01,2.54958054544417e-04,6.00000000000000e-01
2.50700000000000e-08,4.20000000000000e-01,6.00000000000000e-01,2.82234877214682e-04,6.00000000000000e-01
2.51000000000000e-08,6.00000000000000e-01,6.00000000000000e-01,-7.18308855077635e-04,6.00000000000000e-01
2.51080000000000e-08,6.00000000000000e-01,6.00000000000000e-01,-1.38338509564381e-03,6.00000000000000e-01
2.51240000000000e-08,6.00000000000000e-01,6.00000000000000e-01,-2.72804769919664e-03,6.00000000000000e-01
2.51560000000000e-08,6.00000000000000e-01,6.00000000000000e-01,-4.78592613060282e-03,6.00000000000000e-01
2.52200000000000e-08,6.00000000000000e-01,6.00000000000000e-01,-5.44990357740111e-04,6.00000000000000e-01
2.53480000000000e-08,6.00000000000000e-01,6.00000000000000e-01,2.38379537522939e-01,6.00000000000000e-01
2.56040000000000e-08,6.00000000000000e-01,6.00000000000000e-01,6.05125009171812e-01,6.00000000000000e-01
2.60155051642371e-08,6.00000000000000e-01,6.00000000000000e-01,5.95654388936197e-01,6.00000000000000e-01
2.66166837691363e-08,6.00000000000000e-01,6.00000000000000e-01,6.04922706975808e-01,6.00000000000000e-01
2.74995329496930e-08,6.00000000000000e-01,6.00000000000000e-01,5.95521301227625e-01,6.00000000000000e-01
2.87358945220056e-08,6.00000000000000e-01,6.00000000000000e-01,6.04666902675404e-01,6.00000000000000e-01
3.12086176666308e-08,6.00000000000000e-01,6.00000000000000e-01,5.95586963794669e-01,6.00000000000000e-01
3.50086176666308e-08,6.00000000000000e-01,6.00000000000000e-01,6.04594342942963e-01,6.00000000000000e-01
3.51000000000000e-08,5.99999999999970e-01,6.00000000000000e-01,5.97005156703004e-01,6.00000000000000e-01
3.51100000000000e-08,5.39999999999982e-01,6.00000000000000e-01,5.98271976179761e-01,6.00000000000000e-01
3.51300000000000e-08,4.19999999999965e-01,6.00000000000000e-01,5.99675856498289e-01,6.00000000000000e-01
3.51700000000000e-08,1.79999999999970e-01,6.00000000000000e-01,6.00402444010823e-01,6.00000000000000e-01
3.52000000000000e-08,0.00000000000000e+00,6.00000000000000e-01,6.01976704350493e-01,6.00000000000000e-01
3.52080000000000e-08,0.00000000000000e+00,6.00000000000000e-01,6.02364116346775e-01,6.00000000000000e-01
3.52240000000000e-08,0.00000000000000e+00,6.00000000000000e-01,6.02673302040689e-01,6.00000000000000e-01
3.52560000000000e-08,0.00000000000000e+00,6.00000000000000e-01,5.99777343511225e-01,6.00000000000000e-01
3.53200000000000e-08,0.00000000000000e+00,6.00000000000000e-01,5.83735087172055e-01,6.00000000000000e-01
3.54480000000000e-08,0.00000000000000e+00,6.00000000000000e-01,5.83724118206741e-01,6.00000000000000e-01
3.57040000000000e-08,0.00000000000000e+00,6.00000000000000e-01,6.04132958955391e-01,6.00000000000000e-01
3.61305994383402e-08,0.00000000000000e+00,6.00000000000000e-01,5.95876173574086e-01,6.00000000000000e-01
3.67772810210940e-08,0.00000000000000e+00,6.00000000000000e-01,6.03011668204850e-01,6.00000000000000e-01
3.80706441866016e-08,0.00000000000000e+00,6.00000000000000e-01,5.96852418050462e-01,6.00000000000000e-01
4.06573705176169e-08,0.00000000000000e+00,6.00000000000000e-01,6.02813772789978e-01,6.00000000000000e-01
4.44573705176169e-08,0.00000000000000e+00,6.00000000000000e-01,5.97107957587205e-01,6.00000000000000e-01
4.50000000000000e-08,0.00000000000000e+00,6.00000000000000e-01,6.02317067181465e-01,6.00000000000000e-01
4.50100000000000e-08,5.99999999999886e-02,6.00000000000000e-01,6.01514207278166e-01,5.40000000000011e-01
4.50300000000000e-08,1.80000000000006e-01,6.00000000000000e-01,6.00385711019141e-01,4.19999999999994e-01
4.50700000000000e-08,4.20000000000000e-01,6.00000000000000e-01,6.01219920342817e-01,1.80000000000000e-01
4.51000000000000e-08,6.00000000000000e-01,6.00000000000000e-01,6.06228305096298e-01,0.00000000000000e+00
4.51080000000000e-08,6.00000000000000e-01,6.00000000000000e-01,6.08039611617064e-01,0.00000000000000e+00
4.51240000000000e-08,6.00000000000000e-01,6.00000000000000e-01,6.11333544664103e-01,0.00000000000000e+00
4.51560000000000e-08,6.00000000000000e-01,6.00000000000000e-01,6.18549748136487e-01,0.00000000000000e+00
4.52200000000000e-08,6.00000000000000e-01,6.00000000000000e-01,5.76078528571351e-01,0.00000000000000e+00
4.53480000000000e-08,6.00000000000000e-01,6.00000000000000e-01,1.59991600655230e-01,0.00000000000000e+00
4.55724501452097e-08,6.00000000000000e-01,6.00000000000000e-01,-5.22850260193390e-02,0.00000000000000e+00
4.58739539720874e-08,6.00000000000000e-01,6.00000000000000e-01,3.92495883630652e-02,0.00000000000000e+00
4.64769616258428e-08,6.00000000000000e-01,6.00000000000000e-01,-2.92824599243372e-02,0.00000000000000e+00
4.71901966553702e-08,6.00000000000000e-01,6.00000000000000e-01,2.68717269522991e-02,0.00000000000000e+00
4.86166667144251e-08,6.00000000000000e-01,6.00000000000000e-01,-2.32143656691538e-02,0.00000000000000e+00
5.01000000000000e-08,6.00000000000000e-01,5.99999999999966e-01,2.29024090150018e-02,0.00000000000000e+00
5.03846070976304e-08,6.00000000000000e-01,6.00000000000000e-01,1.95647682811451e-03,0.00000000000000e+00
5.09538212928911e-08,6.00000000000000e-01,6.00000000000000e-01,-1.56205424848374e-03,0.00000000000000e+00
5.20922496834126e-08,6.00000000000000e-01,6.00000000000000e-01,1.40987264969992e-03,0.00000000000000e+00
5.43691064644556e-08,6.00000000000000e-01,6.00000000000000e-01,-1.33022047671088e-03,0.00000000000000e+00
5.51000000000000e-08,6.00000000000000e-01,6.00000000000000e-01,1.12909788325623e-03,0.00000000000000e+00
5.51100000000000e-08,5.40000000000021e-01,6.00000000000000e-01,9.72395636069934e-04,5.99999999999787e-02
5.51300000000000e-08,4.20000000000004e-01,6.00000000000000e-01,6.58002720903349e-04,1.79999999999996e-01
5.51700000000000e-08,1.80000000000010e-01,6.00000000000000e-01,1.68193932763419e-04,4.19999999999990e-01
5.52000000000000e-08,0.00000000000000e+00,6.00000000000000e-01,9.71971565886381e-05,6.00000000000000e-01
5.52080000000000e-08,0.00000000000000e+00,6.00000000000000e-01,9.60853093054381e-05,6.00000000000000e-01
5.52240000000000e-08,0.00000000000000e+00,6.00000000000000e-01,8.24237210075643e-05,6.00000000000000e-01
5.52560000000000e-08,0.00000000000000e+00,6.00000000000000e-01,-7.54380172952387e-05,6.00000000000000e-01
5.53200000000000e-08,0.00000000000000e+00,6.00000000000000e-01,-8.71990046059382e-04,6.00000000000000e-01
5.54480000000000e-08,0.00000000000000e+00,6.00000000000000e-01,-2.60670875158308e-04,6.00000000000000e-01
5.56641138150549e-08,0.00000000000000e+00,6.00000000000000e-01,2.82378657921615e-04,6.00000000000000e-01
5.60815220881959e-08,0.00000000000000e+00,6.00000000000000e-01,-3.34085456339058e-04,6.00000000000000e-01
5.65671673752826e-08,0.00000000000000e+00,6.00000000000000e-01,3.43086242231295e-04,6.00000000000000e-01
5.75384579494561e-08,0.00000000000000e+00,6.00000000000000e-01,-3.24750868532356e-04,6.00000000000000e-01
5.88495973838948e-08,0.00000000000000e+00,6.00000000000000e-01,3.10979952143947e-04,6.00000000000000e-01
6.12074114844908e-08,0.00000000000000e+00,6.00000000000000e-01,-3.01457187353975e-04,6.00000000000000e-01
6.50000000000000e-08,0.00000000000000e+00,6.00000000000000e-01,2.96740534241552e-04,6.00000000000000e-01
6.50100000000000e-08,5.99999999999886e-02,6.00000000000000e-01,3.00610543878484e-04,6.00000000000000e-01
6.50300000000000e-08,1.79999999999966e-01,6.00000000000000e-01,3.28421181043322e-04,6.00000000000000e-01
6.50700000000000e-08,4.19999999999920e-01,6.00000000000000e-01,2.83648097513488e-04,6.00000000000000e-01
6.51000000000000e-08,5.99999999999966e-01,6.00000000000000e-01,-8.82167680858928e-04,6.00000000000000e-01
6.51080000000000e-08,6.00000000000000e-01,6.00000000000000e-01,-1.57641644862672e-03,6.00000000000000e-01
6.51240000000000e-08,6.00000000000000e-01,6.00000000000000e-01,-2.92779846957873e-03,6.00000000000000e-01
6.51560000000000e-08,6.00000000000000e-01,6.00000000000000e-01,-4.90166810732640e-03,6.00000000000000e-01
6.52200000000000e-08,6.00000000000000e-01,6.00000000000000e-01,7.47858132131296e-04,6.00000000000000e-01
6.53480000000000e-08,6.00000000000000e-01,6.00000000000000e-01,2.46643034880920e-01,6.00000000000000e-01
6.56040000000000e-08,6.00000000000000e-01,6.00000000000000e-01,6.06820068729785e-01,6.00000000000000e-01
6.60092731178974e-08,6.00000000000000e-01,6.00000000000000e-01,5.94680591701271e-01,6.00000000000000e-01
6.66132719028842e-08,6.00000000000000e-01,6.00000000000000e-01,6.05899126307409e-01,6.00000000000000e-01
6.74900890279138e-08,6.00000000000000e-01,6.00000000000000e-01,5.94654631625067e-01,6.00000000000000e-01
6.87295930240068e-08,6.00000000000000e-01,6.00000000000000e-01,6.05530221968409e-01,6.00000000000000e-01
7.12086010161930e-08,6.00000000000000e-01,6.00000000000000e-01,5.94769333527762e-01,6.00000000000000e-01
7.50086010161930e-08,6.00000000000000e-01,6.00000000000000e-01,6.05424918006817e-01,6.00000000000000e-01
7.51000000000000e-08,6.00000000000000e-01,6.00000000000000e-01,5.96542636944787e-01,6.00000000000000e-01
7.51100000000000e-08,5.40000000000061e-01,6.00000000000000e-01,5.98010161971227e-01,6.00000000000000e-01
7.51300000000000e-08,4.20000000000084e-01,6.00000000000000e-01,5.99642630994316e-01,6.00000000000000e-01
7.51700000000000e-08,1.80000000000129e-01,6.00000000000000e-01,6.00409013035889e-01,6.00000000000000e-01
7.52000000000000e-08,8.40438829641244e-14,6.00000000000000e-01,6.01976310299070e-01,6.00000000000000e-01
7.52080000000000e-08,0.00000000000000e+00,6.00000000000000e-01,6.02362962331598e-01,6.00000000000000e-01
7.52240000000000e-08,0.00000000000000e+00,6.00000000000000e-01,6.02668982187731e-01,6.00000000000000e-01
7.52560000000000e-08,0.00000000000000e+00,6.00000000000000e-01,5.99754378713015e-01,6.00000000000000e-01
7.53200000000000e-08,0.00000000000000e+00,6.00000000000000e-01,5.83698667230785e-01,6.00000000000000e-01
7.54480000000000e-08,0.00000000000000e+00,6.00000000000000e-01,5.83727198256482e-01,6.00000000000000e-01
7.57040000000000e-08,0.00000000000000e+00,6.00000000000000e-01,6.04133251445490e-01,6.00000000000000e-01
7.61306300759402e-08,0.00000000000000e+00,6.00000000000000e-01,5.95876211989311e-01,6.00000000000000e-01
7.67772539533593e-08,0.00000000000000e+00,6.00000000000000e-01,6.03011552863512e-01,6.00000000000000e-01
7.80705017081974e-08,0.00000000000000e+00,6.00000000000000e-01,5.96852491747257e-01,6.00000000000000e-01
8.06569972178736e-08,0.00000000000000e+00,6.00000000000000e-01,6.02813685909645e-01,6.00000000000000e-01
8.44569972178736e-08,0.00000000000000e+00,6.00000000000000e-01,5.97108034841093e-01,6.00000000000000e-01
8.50000000000000e-08,0.00000000000000e+00,6.00000000000000e-01,6.02317301034844e-01,6.00000000000000e-01
8.50100000000000e-08,5.99999999999886e-02,6.00000000000000e-01,6.01514422211760e-01,5.40000000000011e-01
8.50300000000000e-08,1.79999999999966e-01,6.00000000000000e-01,6.00385667539492e-01,4.20000000000034e-01
8.50700000000000e-08,4.19999999999920e-01,6.00000000000000e-01,6.01219914492600e-01,1.80000000000080e-01
8.51000000000000e-08,5.99999999999966e-01,6.00000000000000e-01,6.06228247886300e-01,3.44169137633799e-14
8.51080000000000e-08,6.00000000000000e-01,6.00000000000000e-01,6.08039536502175e-01,0.00000000000000e+00
8.51240000000000e-08,6.00000000000000e-01,6.00000000000000e-01,6.11333462584782e-01,0.00000000000000e+00
8.51560000000000e-08,6.00000000000000e-01,6.00000000000000e-01,6.18549712156740e-01,0.00000000000000e+00
8.52200000000000e-08,6.00000000000000e-01,6.00000000000000e-01,5.76080814955498e-01,0.00000000000000e+00
8.53480000000000e-08,6.00000000000000e-01,6.00000000000000e-01,1.59994553959300e-01,0.00000000000000e+00
8.55724496068613e-08,6.00000000000000e-01,6.00000000000000e-01,-5.22855866688560e-02,0.00000000000000e+00
8.58739522515278e-08,6.00000000000000e-01,6.00000000000000e-01,3.92496030089329e-02,0.00000000000000e+00
8.64769575408608e-08,6.00000000000000e-01,6.00000000000000e-01,-2.92827700911867e-02,0.00000000000000e+00
8.71901861709273e-08,6.00000000000000e-01,6.00000000000000e-01,2.68717516475896e-02,0.00000000000000e+00
8.86166434310602e-08,6.00000000000000e-01,6.00000000000000e-01,-2.32146103493039e-02,0.00000000000000e+00
9.01000000000000e-08,6.00000000000000e-01,5.99999999999966e-01,2.29024620370768e-02,0.00000000000000e+00
9.03846053861831e-08,6.00000000000000e-01,6.00000000000000e-01,1.95647554413883e-03,0.00000000000000e+00
9.09538161585493e-08,6.00000000000000e-01,6.00000000000000e-01,-1.56205446153834e-03,0.00000000000000e+00
9.20922377032816e-08,6.00000000000000e-01,6.00000000000000e-01,1.40987047728266e-03,0.00000000000000e+00
9.43690807927464e-08,6.00000000000000e-01,6.00000000000000e-01,-1.33021861004833e-03,0.00000000000000e+00
9.51000000000000e-08,6.00000000000000e-01,6.00000000000000e-01,1.12910370596786e-03,0.00000000000000e+00
9.51100000000000e-08,5.40000000000061e-01,6.00000000000000e-01,9.72398434464325e-04,5.99999999999390e-02
9.51300000000000e-08,4.20000000000084e-01,6.00000000000000e-01,6.58001984134973e-04,1.79999999999916e-01
9.51700000000000e-08,1.80000000000129e-01,6.00000000000000e-01,1.68193242763945e-04,4.19999999999871e-01
9.52000000000000e-08,8.40438829641244e-14,6.00000000000000e-01,9.71975083298646e-05,5.99999999999916e-01
9.52080000000000e-08,0.00000000000000e+00,6.00000000000000e-01,9.60858830791750e-05,6.00000000000000e-01
9.52240000000000e-08,0.00000000000000e+00,6.00000000000000e-01,8.24234929384104e-05,6.00000000000000e-01
9.52560000000000e-08,0.00000000000000e+00,6.00000000000000e-01,-7.54420771063649e-05,6.00000000000000e-01
9.53200000000000e-08,0.00000000000000e+00,6.00000000000000e-01,-8.72013385935476e-04,6.00000000000000e-01
9.54480000000000e-08,0.00000000000000e+00,6.00000000000000e-01,-2.60675748401371e-04,6.00000000000000e-01
9.56641503942582e-08,0.00000000000000e+00,6.00000000000000e-01,2.82369831574598e-04,6.00000000000000e-01
9.60815336176652e-08,0.00000000000000e+00,6.00000000000000e-01,-3.34065895914566e-04,6.00000000000000e-01
9.65672477056437e-08,0.00000000000000e+00,6.00000000000000e-01,3.43066758178511e-04,6.00000000000000e-01
9.75386758816006e-08,0.00000000000000e+00,6.00000000000000e-01,-3.24739569294332e-04,6.00000000000000e-01
9.88499948378918e-08,0.00000000000000e+00,6.00000000000000e-01,3.10973667973899e-04,6.00000000000000e-01
1.01208321211864e-07,0.00000000000000e+00,6.00000000000000e-01,-3.01454716288593e-04,6.00000000000000e-01
1.05000000000000e-07,0.00000000000000e+00,6.00000000000000e-01,2.96737632944067e-04,6.00000000000000e-01
1.05010000000000e-07,5.99999999999886e-02,6.00000000000000e-01,3.00608147122662e-04,6.00000000000000e-01
1.05030000000000e-07,1.79999999999966e-01,6.00000000000000e-01,3.28411391489272e-04,6.00000000000000e-01
1.05070000000000e-07,4.19999999999920e-01,6.00000000000000e-01,2.83638719567020e-04,6.00000000000000e-01
1.05100000000000e-07,5.99999999999966e-01,6.00000000000000e-01,-8.82184019483701e-04,6.00000000000000e-01
1.05108000000000e-07,6.00000000000000e-01,6.00000000000000e-01,-1.57643410522609e-03,6.00000000000000e-01
1.05124000000000e-07,6.00000000000000e-01,6.00000000000000e-01,-2.92781524046806e-03,6.00000000000000e-01
1.05156000000000e-07,6.00000000000000e-01,6.00000000000000e-01,-4.90167726740681e-03,6.00000000000000e-01
1.05220000000000e-07,6.00000000000000e-01,6.00000000000000e-01,7.47955725436518e-04,6.00000000000000e-01
1.05348000000000e-07,6.00000000000000e-01,6.00000000000000e-01,2.46643621329708e-01,6.00000000000000e-01
1.05604000000000e-07,6.00000000000000e-01,6.00000000000000e-01,6.06820183788154e-01,6.00000000000000e-01
1.06009272702970e-07,6.00000000000000e-01,6.00000000000000e-01,5.94680524350902e-01,6.00000000000000e-01
1.06613271694537e-07,6.00000000000000e-01,6.00000000000000e-01,6.05899193399934e-01,6.00000000000000e-01
1.07490088433801e-07,6.00000000000000e-01,6.00000000000000e-01,5.94654571791148e-01,6.00000000000000e-01
1.08729592696270e-07,6.00000000000000e-01,6.00000000000000e-01,6.05530281341601e-01,6.00000000000000e-01
1.11208601221210e-07,6.00000000000000e-01,6.00000000000000e-01,5.94769277082698e-01,6.00000000000000e-01
1.15008601221209e-07,6.00000000000000e-01,6.00000000000000e-01,6.05424975107474e-01,6.00000000000000e-01
1.15100000000000e-07,6.00000000000000e-01,6.00000000000000e-01,5.96542608820958e-01,6.00000000000000e-01
1.15110000000000e-07,5.40000000000061e-01,6.00000000000000e-01,5.98010145870053e-01,6.00000000000000e-01
1.15130000000000e-07,4.20000000000084e-01,6.00000000000000e-01,5.99642628557349e-01,6.00000000000000e-01
1.15170000000000e-07,1.80000000000129e-01,6.00000000000000e-01,6.00409013236992e-01,6.00000000000000e-01
