Time,v(clk),v(data),v(out)
1.00000000000000e-08,6.00000000000000e-01,0.00000000000000e+00,2.47397532692063e-05
1.00100000000000e-08,6.00000000000000e-01,5.99999999999985e-02,1.78904549037046e-05
1.00300000000000e-08,6.00000000000000e-01,1.79999999999996e-01,9.42917593523690e-06
1.00700000000000e-08,6.00000000000000e-01,4.19999999999990e-01,2.89198800167839e-06
1.01000000000000e-08,6.00000000000000e-01,5.99999999999995e-01,-6.78828535945197e-07
1.01080000000000e-08,6.00000000000000e-01,6.00000000000000e-01,-3.08365924302223e-07
1.01240000000000e-08,6.00000000000000e-01,6.00000000000000e-01,8.53624879428028e-07
1.01560000000000e-08,6.00000000000000e-01,6.00000000000000e-01,4.38784672246451e-06
1.02200000000000e-08,6.00000000000000e-01,6.00000000000000e-01,6.09305598676946e-06
1.03480000000000e-08,6.00000000000000e-01,6.00000000000000e-01,1.57855600495249e-06
1.06040000000000e-08,6.00000000000000e-01,6.00000000000000e-01,3.67401543675643e-06
1.11160000000000e-08,6.00000000000000e-01,6.00000000000000e-01,2.71184378868722e-06
1.21400000000000e-08,6.00000000000000e-01,6.00000000000000e-01,3.04876566174957e-06
1.41880000000000e-08,6.00000000000000e-01,6.00000000000000e-01,2.31115914462810e-06
1.51000000000000e-08,6.00000000000000e-01,6.00000000000000e-01,2.49774475566400e-06
1.51100000000000e-08,5.39999999999991e-01,6.00000000000000e-01,-5.22164843179962e-05
1.51300000000000e-08,4.19999999999994e-01,6.00000000000000e-01,-1.24095679751281e-04
1.51700000000000e-08,1.80000000000000e-01,6.00000000000000e-01,-8.60906743464229e-05
1.52000000000000e-08,0.00000000000000e+00,6.00000000000000e-01,1.42005946618451e-04
1.52080000000000e-08,0.00000000000000e+00,6.00000000000000e-01,2.50406702653569e-04
1.52240000000000e-08,0.00000000000000e+00,6.00000000000000e-01,3.59282387741348e-04
1.52560000000000e-08,0.00000000000000e+00,6.00000000000000e-01,2.41442480710438e-04
1.53200000000000e-08,0.00000000000000e+00,6.00000000000000e-01,-1.38963519477127e-04
1.54480000000000e-08,0.00000000000000e+00,6.00000000000000e-01,-1.85108774529576e-04
1.57040000000000e-08,0.00000000000000e+00,6.00000000000000e-01,-4.90671322529151e-05
1.61185553986181e-08,0.00000000000000e+00,6.00000000000000e-01,4.22806712372780e-05
1.66551235894974e-08,0.00000000000000e+00,6.00000000000000e-01,9.87146816041531e-05
1.77249979627653e-08,0.00000000000000e+00,6.00000000000000e-01,-1.41207820160374e-04
1.90241331707846e-08,0.00000000000000e+00,6.00000000000000e-01,1.61594749350783e-04
2.15507118744156e-08,0.00000000000000e+00,6.00000000000000e-01,-1.65734792926069e-04
2.50000000000000e-08,0.00000000000000e+00,6.00000000000000e-01,1.71183025689667e-04
2.50100000000000e-08,5.99999999999886e-02,6.00000000000000e-01,2.22217928787391e-04
2.50300000000000e-08,1.80000000000006e-01,6.00000000000000e-01,2.97103431915538e-04
2.50700000000000e-08,4.20000000000000e-01,6.00000000000000e-01,3.27531142994338e-04
2.51000000000000e-08,6.00000000000000e-01,6.00000000000000e-01,-4.88006771209380e-04
2.51080000000000e-08,6.00000000000000e-01,6.00000000000000e-01,-1.05938117416524e-03
2.51240000000000e-08,6.00000000000000e-01,6.00000000000000e-01,-2.26639955698121e-03
2.51560000000000e-08,6.00000000000000e-01,6.00000000000000e-01,-4.26623750916690e-03
2.52200000000000e-08,6.00000000000000e-01,6.00000000000000e-01,-3.84592188437820e-03
2.53480000000000e-08,6.00000000000000e-01,6.00000000000000e-01,1.65141231000214e-01
2.56040000000000e-08,6.00000000000000e-01,6.00000000000000e-01,5.79958445248455e-01
2.61160000000000e-08,6.00000000000000e-01,6.00000000000000e-01,6.06709685279082e-01
2.67056314357926e-08,6.00000000000000e-01,6.00000000000000e-01,5.93222210380428e-01
2.77114029159173e-08,6.00000000000000e-01,6.00000000000000e-01,6.05434282753709e-01
2.90185264804038e-08,6.00000000000000e-01,6.00000000000000e-01,5.94332817907796e-01
3.16327736093767e-08,6.00000000000000e-01,6.00000000000000e-01,6.05016534844086e-01
3.51000000000000e-08,5.99999999999970e-01,6.00000000000000e-01,5.94664549820807e-01
3.51100000000000e-08,5.39999999999982e-01,6.00000000000000e-01,5.96613182738316e-01
3.51300000000000e-08,4.19999999999965e-01,6.00000000000000e-01,5.99007877594631e-01
3.51700000000000e-08,1.79999999999970e-01,6.00000000000000e-01,6.00371973339893e-01
3.52000000000000e-08,0.00000000000000e+00,6.00000000000000e-01,6.01899702363152e-01
3.52080000000000e-08,0.00000000000000e+00,6.00000000000000e-01,6.02301783605321e-01
3.52240000000000e-08,0.00000000000000e+00,6.00000000000000e-01,6.02691557298848e-01
3.52560000000000e-08,0.00000000000000e+00,6.00000000000000e-01,6.00774107785392e-01
3.53200000000000e-08,0.00000000000000e+00,6.00000000000000e-01,5.86487487723619e-01
3.54480000000000e-08,0.00000000000000e+00,6.00000000000000e-01,5.81656211995775e-01
3.57040000000000e-08,0.00000000000000e+00,6.00000000000000e-01,6.02586480728931e-01
3.61558101923110e-08,0.00000000000000e+00,6.00000000000000e-01,5.97006013282479e-01
3.67984223005189e-08,0.00000000000000e+00,6.00000000000000e-01,6.01961227189872e-01
3.80836465169345e-08,0.00000000000000e+00,6.00000000000000e-01,5.97775971978427e-01
4.06540949497657e-08,0.00000000000000e+00,6.00000000000000e-01,6.01876428314152e-01
4.44540949497657e-08,0.00000000000000e+00,6.00000000000000e-01,5.97986317093474e-01
4.50000000000000e-08,0.00000000000000e+00,6.00000000000000e-01,6.01526670006033e-01
4.50100000000000e-08,5.99999999999886e-02,6.00000000000000e-01,6.01127821749551e-01
4.50300000000000e-08,1.80000000000006e-01,6.00000000000000e-01,6.00542142549093e-01
4.50700000000000e-08,4.20000000000000e-01,6.00000000000000e-01,6.00113396268868e-01
4.51000000000000e-08,6.00000000000000e-01,6.00000000000000e-01,5.99572807598370e-01
4.51080000000000e-08,6.00000000000000e-01,5.52000000000025e-01,5.99249475887264e-01
4.51240000000000e-08,6.00000000000000e-01,4.55999999999996e-01,5.98618722547999e-01
4.51560000000000e-08,6.00000000000000e-01,2.64000000000016e-01,5.97756828870192e-01
4.52000000000000e-08,6.00000000000000e-01,3.44169137633799e-14,5.97239906255482e-01
4.52064000000000e-08,6.00000000000000e-01,0.00000000000000e+00,5.97206284852549e-01
4.52192000000000e-08,6.00000000000000e-01,0.00000000000000e+00,5.97136494504492e-01
4.52448000000000e-08,6.00000000000000e-01,0.00000000000000e+00,5.97124975522406e-01
4.52960000000000e-08,6.00000000000000e-01,0.00000000000000e+00,5.97695160082963e-01
4.53984000000000e-08,6.00000000000000e-01,0.00000000000000e+00,5.99093717602759e-01
4.56032000000000e-08,6.00000000000000e-01,0.00000000000000e+00,5.99987950323610e-01
4.58758179836204e-08,6.00000000000000e-01,0.00000000000000e+00,5.99974426310684e-01
4.63744617763855e-08,6.00000000000000e-01,0.00000000000000e+00,6.00024216660294e-01
4.71028473022146e-08,6.00000000000000e-01,0.00000000000000e+00,5.99977931595175e-01
4.85596183538727e-08,6.00000000000000e-01,0.00000000000000e+00,6.00020850970026e-01
5.11879755308054e-08,6.00000000000000e-01,0.00000000000000e+00,5.99979759444352e-01
5.49879755308054e-08,6.00000000000000e-01,0.00000000000000e+00,6.00019777870357e-01
5.51000000000000e-08,6.00000000000000e-01,0.00000000000000e+00,5.99992447584607e-01
5.51100000000000e-08,5.40000000000021e-01,0.00000000000000e+00,5.99940131374592e-01
5.51300000000000e-08,4.20000000000004e-01,0.00000000000000e+00,5.99874853075032e-01
5.51700000000000e-08,1.80000000000010e-01,0.00000000000000e+00,6.00438483526379e-01
5.52000000000000e-08,0.00000000000000e+00,0.00000000000000e+00,6.02068857973996e-01
5.52080000000000e-08,0.00000000000000e+00,0.00000000000000e+00,6.02503941401663e-01
5.52240000000000e-08,0.00000000000000e+00,0.00000000000000e+00,6.03130644712554e-01
5.52560000000000e-08,0.00000000000000e+00,0.00000000000000e+00,6.03741869831113e-01
5.53200000000000e-08,0.00000000000000e+00,0.00000000000000e+00,6.03763135342279e-01
5.54480000000000e-08,0.00000000000000e+00,0.00000000000000e+00,6.00239316388272e-01
5.56834016397060e-08,0.00000000000000e+00,0.00000000000000e+00,5.99457118407615e-01
5.59908039884167e-08,0.00000000000000e+00,0.00000000000000e+00,5.99923463310447e-01
5.66056086858380e-08,0.00000000000000e+00,0.00000000000000e+00,5.99665641802436e-01
5.72800616721814e-08,0.00000000000000e+00,0.00000000000000e+00,5.99967090957609e-01
5.86289676448683e-08,0.00000000000000e+00,0.00000000000000e+00,5.99763068398984e-01
6.13267795902420e-08,0.00000000000000e+00,0.00000000000000e+00,6.00025008655479e-01
6.50000000000000e-08,0.00000000000000e+00,0.00000000000000e+00,5.99813243986462e-01
6.50100000000000e-08,5.99999999999886e-02,0.00000000000000e+00,5.99905860854537e-01
6.50300000000000e-08,1.79999999999966e-01,0.00000000000000e+00,6.00003357592800e-01
6.50700000000000e-08,4.19999999999920e-01,0.00000000000000e+00,5.99958167772812e-01
6.51000000000000e-08,5.99999999999966e-01,0.00000000000000e+00,5.99811013141964e-01
6.51080000000000e-08,6.00000000000000e-01,0.00000000000000e+00,5.99762903657772e-01
6.51240000000000e-08,6.00000000000000e-01,0.00000000000000e+00,5.99692354515347e-01
6.51560000000000e-08,6.00000000000000e-01,0.00000000000000e+00,5.99675711005874e-01
6.52200000000000e-08,6.00000000000000e-01,0.00000000000000e+00,6.00050421885262e-01
6.53480000000000e-08,6.00000000000000e-01,0.00000000000000e+00,6.06904432882004e-01
6.56040000000000e-08,6.00000000000000e-01,0.00000000000000e+00,2.25443169165616e-01
6.60549876322426e-08,6.00000000000000e-01,0.00000000000000e+00,-7.13538014701822e-02
6.64904606626294e-08,6.00000000000000e-01,0.00000000000000e+00,6.03074360388313e-02
6.73614067234031e-08,6.00000000000000e-01,0.00000000000000e+00,-4.09080615568576e-02
6.83055779006135e-08,6.00000000000000e-01,0.00000000000000e+00,3.96580970951022e-02
7.01235497455205e-08,6.00000000000000e-01,0.00000000000000e+00,-3.15686830842653e-02
7.28778449667262e-08,6.00000000000000e-01,0.00000000000000e+00,3.35944132014925e-02
7.51000000000000e-08,6.00000000000000e-01,0.00000000000000e+00,-2.76650295751667e-02
7.51100000000000e-08,5.40000000000061e-01,0.00000000000000e+00,-2.25613656005180e-02
7.51300000000000e-08,4.20000000000084e-01,0.00000000000000e+00,-1.37021008110006e-02
7.51700000000000e-08,1.80000000000129e-01,0.00000000000000e+00,-4.21349711777898e-03
7.52000000000000e-08,8.40438829641244e-14,0.00000000000000e+00,-1.73878710381371e-03
7.52080000000000e-08,0.00000000000000e+00,0.00000000000000e+00,-1.28618766944658e-03
7.52240000000000e-08,0.00000000000000e+00,0.00000000000000e+00,-6.27226743092742e-04
7.52560000000000e-08,0.00000000000000e+00,0.00000000000000e+00,-2.51480743609846e-04
7.53200000000000e-08,0.00000000000000e+00,0.00000000000000e+00,-8.84978505741263e-04
7.54480000000000e-08,0.00000000000000e+00,0.00000000000000e+00,-5.02988357376079e-04
7.57040000000000e-08,0.00000000000000e+00,0.00000000000000e+00,3.43596073332257e-04
7.61137664099576e-08,0.00000000000000e+00,0.00000000000000e+00,-2.68347537054110e-04
7.67826157428331e-08,0.00000000000000e+00,0.00000000000000e+00,2.36239465963989e-04
7.81203144085841e-08,0.00000000000000e+00,0.00000000000000e+00,-2.16921185708869e-04
8.07957117400861e-08,0.00000000000000e+00,0.00000000000000e+00,2.12641777463923e-04
8.45957117400861e-08,0.00000000000000e+00,0.00000000000000e+00,-2.04409049011356e-04
8.50000000000000e-08,0.00000000000000e+00,0.00000000000000e+00,1.66349156294999e-04
8.50100000000000e-08,5.99999999999886e-02,0.00000000000000e+00,1.85389055695970e-04
8.50300000000000e-08,1.79999999999966e-01,0.00000000000000e+00,2.09348008435771e-04
8.50700000000000e-08,4.19999999999920e-01,0.00000000000000e+00,1.13874930917496e-04
8.51000000000000e-08,5.99999999999966e-01,0.00000000000000e+00,-1.03269290125219e-04
8.51080000000000e-08,6.00000000000000e-01,0.00000000000000e+00,-1.71918563349097e-04
8.51240000000000e-08,6.00000000000000e-01,0.00000000000000e+00,-2.49407439730329e-04
8.51560000000000e-08,6.00000000000000e-01,0.00000000000000e+00,-2.53336960404263e-04
8.52200000000000e-08,6.00000000000000e-01,0.00000000000000e+00,-9.30254612363859e-05
8.53480000000000e-08,6.00000000000000e-01,0.00000000000000e+00,5.72361258338108e-05
8.56040000000000e-08,6.00000000000000e-01,0.00000000000000e+00,3.97861269560359e-05
8.61159999999999e-08,6.00000000000000e-01,0.00000000000000e+00,-2.33676340356398e-05
8.69574413198459e-08,6.00000000000000e-01,0.00000000000000e+00,3.03211735550911e-05
8.82493653763837e-08,6.00000000000000e-01,0.00000000000000e+00,-1.97110063929564e-05
9.00000000000000e-08,6.00000000000000e-01,0.00000000000000e+00,2.55250242685709e-05
9.00100000000000e-08,6.00000000000000e-01,5.99999999999886e-02,1.80291397875385e-05
9.00300000000000e-08,6.00000000000000e-01,1.79999999999966e-01,9.21500703467831e-06
9.00700000000000e-08,6.00000000000000e-01,4.19999999999920e-01,3.04193140080594e-06
9.01000000000000e-08,6.00000000000000e-01,5.99999999999966e-01,-5.98461744716339e-07
9.01080000000000e-08,6.00000000000000e-01,6.00000000000000e-01,-2.10771936702547e-07
9.01240000000000e-08,6.00000000000000e-01,6.00000000000000e-01,8.89301623299699e-07
9.01560000000000e-08,6.00000000000000e-01,6.00000000000000e-01,4.30596469380012e-06
9.02200000000000e-08,6.00000000000000e-01,6.00000000000000e-01,5.97614535404953e-06
9.03480000000000e-08,6.00000000000000e-01,6.00000000000000e-01,1.64332040747742e-06
9.06040000000000e-08,6.00000000000000e-01,6.00000000000000e-01,3.67791645924584e-06
9.11159999999999e-08,6.00000000000000e-01,6.00000000000000e-01,2.69010247278684e-06
9.21399999999999e-08,6.00000000000000e-01,6.00000000000000e-01,3.07788518618627e-06
9.41879999999998e-08,6.00000000000000e-01,6.00000000000000e-01,2.33335347097708e-06
9.51000000000000e-08,6.00000000000000e-01,6.00000000000000e-01,2.62221152611854e-06
9.51100000000000e-08,5.40000000000061e-01,6.00000000000000e-01,-5.03183091489778e-05
9.51300000000000e-08,4.20000000000084e-01,6.00000000000000e-01,-1.23069624091858e-04
9.51700000000000e-08,1.80000000000129e-01,6.00000000000000e-01,-8.55304969840237e-05
9.52000000000000e-08,8.40438829641244e-14,6.00000000000000e-01,1.42228425455471e-04
9.52080000000000e-08,0.00000000000000e+00,6.00000000000000e-01,2.50596513162719e-04
9.52240000000000e-08,0.00000000000000e+00,6.00000000000000e-01,3.59412033989745e-04
9.52560000000000e-08,0.00000000000000e+00,6.00000000000000e-01,2.41504702852564e-04
9.53200000000000e-08,0.00000000000000e+00,6.00000000000000e-01,-1.38926526339761e-04
9.54480000000000e-08,0.00000000000000e+00,6.00000000000000e-01,-1.85104645897379e-04
9.57040000000000e-08,0.00000000000000e+00,6.00000000000000e-01,-4.90721612860824e-05
9.61185554117246e-08,0.00000000000000e+00,6.00000000000000e-01,4.22855751286907e-05
9.66551234530752e-08,0.00000000000000e+00,6.00000000000000e-01,9.87099774449997e-05
9.77249977823319e-08,0.00000000000000e+00,6.00000000000000e-01,-1.41203247372238e-04
9.90241319058477e-08,0.00000000000000e+00,6.00000000000000e-01,1.61590320334234e-04
1.01550709177703e-07,0.00000000000000e+00,6.00000000000000e-01,-1.65730423654024e-04
1.05000000000000e-07,0.00000000000000e+00,6.00000000000000e-01,1.71178706297371e-04
1.05010000000000e-07,5.99999999999886e-02,6.00000000000000e-01,2.22215446871676e-04
1.05030000000000e-07,1.79999999999966e-01,6.00000000000000e-01,2.97102988743650e-04
1.05070000000000e-07,4.19999999999920e-01,6.00000000000000e-01,3.27531289632560e-04
1.05100000000000e-07,5.99999999999966e-01,6.00000000000000e-01,-4.88007266677096e-04
1.05108000000000e-07,6.00000000000000e-01,6.00000000000000e-01,-1.05938189173405e-03
1.05124000000000e-07,6.00000000000000e-01,6.00000000000000e-01,-2.26640044369184e-03
1.05156000000000e-07,6.00000000000000e-01,6.00000000000000e-01,-4.26623810071973e-03
1.05220000000000e-07,6.00000000000000e-01,6.00000000000000e-01,-3.84591989522924e-03
1.05348000000000e-07,6.00000000000000e-01,6.00000000000000e-01,1.65141260305097e-01
1.05604000000000e-07,6.00000000000000e-01,6.00000000000000e-01,5.79958456214252e-01
1.06116000000000e-07,6.00000000000000e-01,6.00000000000000e-01,6.06709681224763e-01
1.06705631439881e-07,6.00000000000000e-01,6.00000000000000e-01,5.93222214809216e-01
1.07711402906478e-07,6.00000000000000e-01,6.00000000000000e-01,6.05434279100581e-01
1.09018526469053e-07,6.00000000000000e-01,6.00000000000000e-01,5.94332821810976e-01
1.11632773594202e-07,6.00000000000000e-01,6.00000000000000e-01,6.05016531366525e-01
1.15100000000000e-07,6.00000000000000e-01,6.00000000000000e-01,5.94664553558757e-01
1.15110000000000e-07,5.40000000000061e-01,6.00000000000000e-01,5.96613184945479e-01
1.15130000000000e-07,4.20000000000084e-01,6.00000000000000e-01,5.99007877999460e-01
1.15170000000000e-07,1.80000000000129e-01,6.00000000000000e-01,6.00371973269498e-01
1.15200000000000e-07,8.40438829641244e-14,6.00000000000000e-01,6.01899702363165e-01
1.15208000000000e-07,0.00000000000000e+00,6.00000000000000e-01,6.02301783601247e-01
1.15224000000000e-07,0.00000000000000e+00,6.00000000000000e-01,6.02691557300462e-01
1.15256000000000e-07,0.00000000000000e+00,6.00000000000000e-01,6.00774107812876e-01
1.15320000000000e-07,0.00000000000000e+00,6.00000000000000e-01,5.86487487784754e-01
1.15448000000000e-07,0.00000000000000e+00,6.00000000000000e-01,5.81656211955475e-01
1.15704000000000e-07,0.00000000000000e+00,6.00000000000000e-01,6.02586480703731e-01
1.16155810192898e-07,0.00000000000000e+00,6.00000000000000e-01,5.97006013309969e-01
1.16798422300187e-07,0.00000000000000e+00,6.00000000000000e-01,6.01961227168702e-01
1.18083646514764e-07,0.00000000000000e+00,6.00000000000000e-01,5.97775971999537e-01
1.20654094943919e-07,0.00000000000000e+00,6.00000000000000e-01,6.01876428291282e-01
1.24454094943919e-07,0.00000000000000e+00,6.00000000000000e-01,5.97986317113243e-01
1.25000000000000e-07,0.00000000000000e+00,6.00000000000000e-01,6.01526669992815e-01
1.25010000000000e-07,5.99999999999092e-02,6.00000000000000e-01,6.01127821740618e-01
1.25030000000000e-07,1.79999999999886e-01,6.00000000000000e-01,6.00542142545528e-01
1.25070000000000e-07,4.19999999999841e-01,6.00000000000000e-01,6.00113396268455e-01
1.25100000000000e-07,5.99999999999886e-01,6.00000000000000e-01,5.99572807597966e-01
1.25108000000000e-07,6.00000000000000e-01,5.51999999999946e-01,5.99249475886860e-01
1.25124000000000e-07,6.00000000000000e-01,4.55999999999996e-01,5.98618722548116e-01
1.25156000000000e-07,6.00000000000000e-01,2.63999999999937e-01,5.97756828870038e-01
1.25200000000000e-07,6.00000000000000e-01,0.00000000000000e+00,5.97239906254825e-01
1.25206400000000e-07,6.00000000000000e-01,0.00000000000000e+00,5.97206284851943e-01
1.25219200000000e-07,6.00000000000000e-01,0.00000000000000e+00,5.97136494504179e-01
1.25244800000000e-07,6.00000000000000e-01,0.00000000000000e+00,5.97124975523917e-01
1.25296000000000e-07,6.00000000000000e-01,0.00000000000000e+00,5.97695160083109e-01
1.25398400000000e-07,6.00000000000000e-01,0.00000000000000e+00,5.99093717603586e-01
1.25603200000000e-07,6.00000000000000e-01,0.00000000000000e+00,5.99987950323890e-01
1.25875817984327e-07,6.00000000000000e-01,0.00000000000000e+00,5.99974426310498e-01
1.26374461777373e-07,6.00000000000000e-01,0.00000000000000e+00,6.00024216660519e-01
1.27102847306527e-07,6.00000000000000e-01,0.00000000000000e+00,5.99977931594999e-01
1.28559618364835e-07,6.00000000000000e-01,0.00000000000000e+00,6.00020850970224e-01
1.31187975553595e-07,6.00000000000000e-01,0.00000000000000e+00,5.99979759444249e-01
1.34987975553595e-07,6.00000000000000e-01,0.00000000000000e+00,6.00019777870517e-01
1.35100000000000e-07,5.99999999999891e-01,0.00000000000000e+00,5.99992447586467e-01
1.35110000000000e-07,5.39999999999823e-01,0.00000000000000e+00,5.99940131376156e-01
1.35130000000000e-07,4.19999999999845e-01,0.00000000000000e+00,5.99874853076320e-01
1.35170000000000e-07,1.79999999999891e-01,0.00000000000000e+00,6.00438483523105e-01
1.35200000000000e-07,0.00000000000000e+00,0.00000000000000e+00,6.02068857981220e-01
1.35208000000000e-07,0.00000000000000e+00,0.00000000000000e+00,6.02503941403502e-01
1.35224000000000e-07,0.00000000000000e+00,0.00000000000000e+00,6.03130644712630e-01
1.35256000000000e-07,0.00000000000000e+00,0.00000000000000e+00,6.03741869842516e-01
