Time,v(clk),v(data),v(out),v(reset)
1.00000000000000e-08,6.00000000000000e-01,0.00000000000000e+00,4.12924905208870e-05,0.00000000000000e+00
1.00100000000000e-08,6.00000000000000e-01,5.99999999999985e-02,2.96964089326474e-05,0.00000000000000e+00
1.00300000000000e-08,6.00000000000000e-01,1.79999999999996e-01,1.28911030447959e-05,0.00000000000000e+00
1.00700000000000e-08,6.00000000000000e-01,4.19999999999990e-01,1.33062340385015e-06,0.00000000000000e+00
1.01000000000000e-08,6.00000000000000e-01,5.99999999999995e-01,-6.93714488714248e-07,0.00000000000000e+00
1.01080000000000e-08,6.00000000000000e-01,6.00000000000000e-01,-4.78328975837827e-07,0.00000000000000e+00
1.01240000000000e-08,6.00000000000000e-01,6.00000000000000e-01,3.73199256824275e-07,0.00000000000000e+00
1.01560000000000e-08,6.00000000000000e-01,6.00000000000000e-01,1.95576274318598e-06,0.00000000000000e+00
1.02200000000000e-08,6.00000000000000e-01,6.00000000000000e-01,2.32737331934060e-06,0.00000000000000e+00
1.03480000000000e-08,6.00000000000000e-01,6.00000000000000e-01,8.87387284351920e-07,0.00000000000000e+00
1.06040000000000e-08,6.00000000000000e-01,6.00000000000000e-01,1.78348414902468e-06,0.00000000000000e+00
1.11160000000000e-08,6.00000000000000e-01,6.00000000000000e-01,1.38393496850690e-06,0.00000000000000e+00
1.21400000000000e-08,6.00000000000000e-01,6.00000000000000e-01,1.29960509704556e-06,0.00000000000000e+00
1.41880000000000e-08,6.00000000000000e-01,6.00000000000000e-01,1.06246105204184e-06,0.00000000000000e+00
1.51000000000000e-08,6.00000000000000e-01,6.00000000000000e-01,9.08747962608935e-07,0.00000000000000e+00
1.51100000000000e-08,5.39999999999991e-01,6.00000000000000e-01,1.67057315470044e-04,6.00000000000085e-02
1.51300000000000e-08,4.19999999999994e-01,6.00000000000000e-01,3.33627924467152e-04,1.80000000000006e-01
1.51700000000000e-08,1.80000000000000e-01,6.00000000000000e-01,1.70661526370956e-04,4.20000000000000e-01
1.52000000000000e-08,0.00000000000000e+00,6.00000000000000e-01,2.73734164930664e-05,6.00000000000000e-01
1.52080000000000e-08,0.00000000000000e+00,6.00000000000000e-01,1.92506961495253e-06,6.00000000000000e-01
1.52240000000000e-08,0.00000000000000e+00,6.00000000000000e-01,-2.59440122308482e-05,6.00000000000000e-01
1.52560000000000e-08,0.00000000000000e+00,6.00000000000000e-01,-1.64478300681697e-05,6.00000000000000e-01
1.53200000000000e-08,0.00000000000000e+00,6.00000000000000e-01,-4.28463849200256e-06,6.00000000000000e-01
1.54480000000000e-08,0.00000000000000e+00,6.00000000000000e-01,-7.95520103834962e-05,6.00000000000000e-01
1.57040000000000e-08,0.00000000000000e+00,6.00000000000000e-01,-3.41454945904391e-05,6.00000000000000e-01
1.62160000000000e-08,0.00000000000000e+00,6.00000000000000e-01,-1.04991422532578e-04,6.00000000000000e-01
1.69100404659108e-08,0.00000000000000e+00,6.00000000000000e-01,1.44741033661468e-04,6.00000000000000e-01
1.81369641748363e-08,0.00000000000000e+00,6.00000000000000e-01,-9.52297400921799e-05,6.00000000000000e-01
1.96681779028661e-08,0.00000000000000e+00,6.00000000000000e-01,6.57282268383347e-05,6.00000000000000e-01
2.27306053589258e-08,0.00000000000000e+00,6.00000000000000e-01,-5.23050655311128e-05,6.00000000000000e-01
2.50000000000000e-08,0.00000000000000e+00,6.00000000000000e-01,3.76335993528285e-05,6.00000000000000e-01
2.50100000000000e-08,5.99999999999886e-02,6.00000000000000e-01,1.48442633225818e-04,6.00000000000000e-01
2.50300000000000e-08,1.80000000000006e-01,6.00000000000000e-01,3.01251629765208e-04,6.00000000000000e-01
2.50700000000000e-08,4.20000000000000e-01,6.00000000000000e-01,3.33213233719799e-04,6.00000000000000e-01
2.51000000000000e-08,6.00000000000000e-01,6.00000000000000e-01,-5.68622464043086e-04,6.00000000000000e-01
2.51080000000000e-08,6.00000000000000e-01,6.00000000000000e-01,-1.20648919996973e-03,6.00000000000000e-01
2.51240000000000e-08,6.00000000000000e-01,6.00000000000000e-01,-2.54955577406209e-03,6.00000000000000e-01
2.51560000000000e-08,6.00000000000000e-01,6.00000000000000e-01,-4.72311170593309e-03,6.00000000000000e-01
2.52200000000000e-08,6.00000000000000e-01,6.00000000000000e-01,-5.05660741997662e-03,6.00000000000000e-01
2.53480000000000e-08,6.00000000000000e-01,6.00000000000000e-01,1.20070784596535e-01,6.00000000000000e-01
2.56040000000000e-08,6.00000000000000e-01,6.00000000000000e-01,5.26190672730885e-01,6.00000000000000e-01
2.61160000000000e-08,6.00000000000000e-01,6.00000000000000e-01,6.19050456394061e-01,6.00000000000000e-01
2.67051538375499e-08,6.00000000000000e-01,6.00000000000000e-01,5.81551950501770e-01,6.00000000000000e-01
2.78834615126498e-08,6.00000000000000e-01,6.00000000000000e-01,6.14022298487235e-01,6.00000000000000e-01
2.91975851000080e-08,6.00000000000000e-01,6.00000000000000e-01,5.85487276403662e-01,6.00000000000000e-01
3.18258322747246e-08,6.00000000000000e-01,6.00000000000000e-01,6.12244901433549e-01,6.00000000000000e-01
3.51000000000000e-08,5.99999999999970e-01,6.00000000000000e-01,5.86824848448396e-01,6.00000000000000e-01
3.51100000000000e-08,5.39999999999982e-01,6.00000000000000e-01,5.89958112551444e-01,6.00000000000000e-01
3.51300000000000e-08,4.19999999999965e-01,6.00000000000000e-01,5.94668884517751e-01,6.00000000000000e-01
3.51700000000000e-08,1.79999999999970e-01,6.00000000000000e-01,5.98916382773371e-01,6.00000000000000e-01
3.52000000000000e-08,0.00000000000000e+00,6.00000000000000e-01,6.00744353973553e-01,6.00000000000000e-01
3.52080000000000e-08,0.00000000000000e+00,6.00000000000000e-01,6.01230656922933e-01,6.00000000000000e-01
3.52240000000000e-08,0.00000000000000e+00,6.00000000000000e-01,6.01951466026651e-01,6.00000000000000e-01
3.52560000000000e-08,0.00000000000000e+00,6.00000000000000e-01,6.02498128488169e-01,6.00000000000000e-01
3.53200000000000e-08,0.00000000000000e+00,6.00000000000000e-01,5.99966744353639e-01,6.00000000000000e-01
3.54480000000000e-08,0.00000000000000e+00,6.00000000000000e-01,5.81820191730759e-01,6.00000000000000e-01
3.57040000000000e-08,0.00000000000000e+00,6.00000000000000e-01,5.80575102575756e-01,6.00000000000000e-01
3.62160000000000e-08,0.00000000000000e+00,6.00000000000000e-01,6.05010274187603e-01,6.00000000000000e-01
3.70828191606092e-08,0.00000000000000e+00,6.00000000000000e-01,5.95062950923840e-01,6.00000000000000e-01
3.83681007062853e-08,0.00000000000000e+00,6.00000000000000e-01,6.03596340262308e-01,6.00000000000000e-01
4.09386637976374e-08,0.00000000000000e+00,6.00000000000000e-01,5.96237651031179e-01,6.00000000000000e-01
4.47386637976374e-08,0.00000000000000e+00,6.00000000000000e-01,6.03267506321506e-01,6.00000000000000e-01
4.50000000000000e-08,0.00000000000000e+00,6.00000000000000e-01,5.98338507291651e-01,6.00000000000000e-01
4.50100000000000e-08,5.99999999999886e-02,6.00000000000000e-01,5.98512122235053e-01,5.40000000000011e-01
4.50300000000000e-08,1.80000000000006e-01,6.00000000000000e-01,5.98780208949211e-01,4.19999999999994e-01
4.50700000000000e-08,4.20000000000000e-01,6.00000000000000e-01,5.99888660099114e-01,1.80000000000000e-01
4.51000000000000e-08,6.00000000000000e-01,6.00000000000000e-01,6.02939017288829e-01,0.00000000000000e+00
4.51080000000000e-08,6.00000000000000e-01,6.00000000000000e-01,6.04085534136101e-01,0.00000000000000e+00
4.51240000000000e-08,6.00000000000000e-01,6.00000000000000e-01,6.06054667807144e-01,0.00000000000000e+00
4.51560000000000e-08,6.00000000000000e-01,6.00000000000000e-01,6.09123479311985e-01,0.00000000000000e+00
4.52200000000000e-08,6.00000000000000e-01,6.00000000000000e-01,6.15422608830322e-01,0.00000000000000e+00
4.53480000000000e-08,6.00000000000000e-01,6.00000000000000e-01,5.08340256646927e-01,0.00000000000000e+00
4.56040000000000e-08,6.00000000000000e-01,6.00000000000000e-01,4.18952120824126e-02,0.00000000000000e+00
4.59961843087396e-08,6.00000000000000e-01,6.00000000000000e-01,-2.65913831683376e-02,0.00000000000000e+00
4.66055286900493e-08,6.00000000000000e-01,6.00000000000000e-01,2.34971671225319e-02,0.00000000000000e+00
4.74088673137292e-08,6.00000000000000e-01,6.00000000000000e-01,-1.90418680018946e-02,0.00000000000000e+00
4.86670785588185e-08,6.00000000000000e-01,6.00000000000000e-01,1.82974763254704e-02,0.00000000000000e+00
5.01000000000000e-08,6.00000000000000e-01,5.99999999999966e-01,-1.61026643268033e-02,0.00000000000000e+00
5.03516422490179e-08,6.00000000000000e-01,6.00000000000000e-01,-1.56618825984289e-03,0.00000000000000e+00
5.08549267470536e-08,6.00000000000000e-01,6.00000000000000e-01,1.22684070556094e-03,0.00000000000000e+00
5.18614957431250e-08,6.00000000000000e-01,6.00000000000000e-01,-1.08078881668076e-03,0.00000000000000e+00
5.38746337352678e-08,6.00000000000000e-01,6.00000000000000e-01,1.01968013622819e-03,0.00000000000000e+00
5.51000000000000e-08,6.00000000000000e-01,6.00000000000000e-01,-9.19784973253172e-04,0.00000000000000e+00
5.51100000000000e-08,5.40000000000021e-01,6.00000000000000e-01,-5.18820746577747e-04,5.99999999999787e-02
5.51300000000000e-08,4.20000000000004e-01,6.00000000000000e-01,-1.27993641926769e-05,1.79999999999996e-01
5.51700000000000e-08,1.80000000000010e-01,6.00000000000000e-01,8.94027044329171e-05,4.19999999999990e-01
5.52000000000000e-08,0.00000000000000e+00,6.00000000000000e-01,-4.88193634858025e-06,6.00000000000000e-01
5.52080000000000e-08,0.00000000000000e+00,6.00000000000000e-01,-2.58392758725745e-05,6.00000000000000e-01
5.52240000000000e-08,0.00000000000000e+00,6.00000000000000e-01,-4.50131119487385e-05,6.00000000000000e-01
5.52560000000000e-08,0.00000000000000e+00,6.00000000000000e-01,-3.08045106369309e-05,6.00000000000000e-01
5.53200000000000e-08,0.00000000000000e+00,6.00000000000000e-01,-7.65176097933425e-05,6.00000000000000e-01
5.54480000000000e-08,0.00000000000000e+00,6.00000000000000e-01,-6.01730924441081e-04,6.00000000000000e-01
5.57040000000000e-08,0.00000000000000e+00,6.00000000000000e-01,1.59297082654145e-04,6.00000000000000e-01
5.61541384797081e-08,0.00000000000000e+00,6.00000000000000e-01,-1.06444071176397e-04,6.00000000000000e-01
5.68586757292144e-08,0.00000000000000e+00,6.00000000000000e-01,5.29092336911223e-05,6.00000000000000e-01
5.80212324604700e-08,0.00000000000000e+00,6.00000000000000e-01,-9.20375867318780e-06,6.00000000000000e-01
5.94976493707043e-08,0.00000000000000e+00,6.00000000000000e-01,-1.63806674199868e-05,6.00000000000000e-01
6.24504831911730e-08,0.00000000000000e+00,6.00000000000000e-01,2.80123755138362e-05,6.00000000000000e-01
6.50000000000000e-08,0.00000000000000e+00,6.00000000000000e-01,-3.91777785739525e-05,6.00000000000000e-01
6.50100000000000e-08,5.99999999999886e-02,6.00000000000000e-01,1.26961320839128e-04,6.00000000000000e-01
6.50300000000000e-08,1.79999999999966e-01,6.00000000000000e-01,3.26130678741224e-04,6.00000000000000e-01
6.50700000000000e-08,4.19999999999920e-01,6.00000000000000e-01,2.97371016478615e-04,6.00000000000000e-01
6.51000000000000e-08,5.99999999999966e-01,6.00000000000000e-01,-9.36940660884629e-04,6.00000000000000e-01
6.51080000000000e-08,6.00000000000000e-01,6.00000000000000e-01,-1.64533528266288e-03,6.00000000000000e-01
6.51240000000000e-08,6.00000000000000e-01,6.00000000000000e-01,-3.00686641040093e-03,6.00000000000000e-01
6.51560000000000e-08,6.00000000000000e-01,6.00000000000000e-01,-4.99977879845064e-03,6.00000000000000e-01
6.52200000000000e-08,6.00000000000000e-01,6.00000000000000e-01,-4.18854730814688e-03,6.00000000000000e-01
6.53480000000000e-08,6.00000000000000e-01,6.00000000000000e-01,1.28500650861389e-01,6.00000000000000e-01
6.56040000000000e-08,6.00000000000000e-01,6.00000000000000e-01,5.32453686180571e-01,6.00000000000000e-01
6.61159999999999e-08,6.00000000000000e-01,6.00000000000000e-01,6.17743576514462e-01,6.00000000000000e-01
6.67017232692405e-08,6.00000000000000e-01,6.00000000000000e-01,5.82891922285830e-01,6.00000000000000e-01
6.78731698077216e-08,6.00000000000000e-01,6.00000000000000e-01,6.12942311674974e-01,6.00000000000000e-01
6.91749315302505e-08,6.00000000000000e-01,6.00000000000000e-01,5.86637036447018e-01,6.00000000000000e-01
7.17784549753083e-08,6.00000000000000e-01,6.00000000000000e-01,6.11256046346605e-01,6.00000000000000e-01
7.51000000000000e-08,6.00000000000000e-01,6.00000000000000e-01,5.87890450708141e-01,6.00000000000000e-01
7.51100000000000e-08,5.40000000000061e-01,6.00000000000000e-01,5.90731276206476e-01,6.00000000000000e-01
7.51300000000000e-08,4.20000000000084e-01,6.00000000000000e-01,5.95021202870253e-01,6.00000000000000e-01
7.51700000000000e-08,1.80000000000129e-01,6.00000000000000e-01,5.98960962880906e-01,6.00000000000000e-01
7.52000000000000e-08,8.40438829641244e-14,6.00000000000000e-01,6.00751750780262e-01,6.00000000000000e-01
7.52080000000000e-08,0.00000000000000e+00,6.00000000000000e-01,6.01234863602815e-01,6.00000000000000e-01
7.52240000000000e-08,0.00000000000000e+00,6.00000000000000e-01,6.01950866588639e-01,6.00000000000000e-01
7.52560000000000e-08,0.00000000000000e+00,6.00000000000000e-01,6.02495204524862e-01,6.00000000000000e-01
7.53200000000000e-08,0.00000000000000e+00,6.00000000000000e-01,5.99966273509224e-01,6.00000000000000e-01
7.54480000000000e-08,0.00000000000000e+00,6.00000000000000e-01,5.81824424393079e-01,6.00000000000000e-01
7.57040000000000e-08,0.00000000000000e+00,6.00000000000000e-01,5.80576269809846e-01,6.00000000000000e-01
7.62159999999999e-08,0.00000000000000e+00,6.00000000000000e-01,6.05007607596553e-01,6.00000000000000e-01
7.70828982635001e-08,0.00000000000000e+00,6.00000000000000e-01,5.95065425673212e-01,6.00000000000000e-01
7.83681082251578e-08,0.00000000000000e+00,6.00000000000000e-01,6.03594401606823e-01,6.00000000000000e-01
8.09385281484730e-08,0.00000000000000e+00,6.00000000000000e-01,5.96239525955384e-01,6.00000000000000e-01
8.47385281484730e-08,0.00000000000000e+00,6.00000000000000e-01,6.03265756273861e-01,6.00000000000000e-01
8.50000000000000e-08,0.00000000000000e+00,6.00000000000000e-01,5.98338640641489e-01,6.00000000000000e-01
8.50100000000000e-08,5.99999999999886e-02,6.00000000000000e-01,5.98512168356827e-01,5.40000000000011e-01
8.50300000000000e-08,1.79999999999966e-01,6.00000000000000e-01,5.98780224621320e-01,4.20000000000034e-01
8.50700000000000e-08,4.19999999999920e-01,6.00000000000000e-01,5.99888634802636e-01,1.80000000000080e-01
8.51000000000000e-08,5.99999999999966e-01,6.00000000000000e-01,6.02938786387810e-01,3.44169137633799e-14
8.51080000000000e-08,6.00000000000000e-01,6.00000000000000e-01,6.04085260616899e-01,0.00000000000000e+00
8.51240000000000e-08,6.00000000000000e-01,6.00000000000000e-01,6.06054366466562e-01,0.00000000000000e+00
8.51560000000000e-08,6.00000000000000e-01,6.00000000000000e-01,6.09123297482083e-01,0.00000000000000e+00
8.52200000000000e-08,6.00000000000000e-01,6.00000000000000e-01,6.15422620067027e-01,0.00000000000000e+00
8.53480000000000e-08,6.00000000000000e-01,6.00000000000000e-01,5.08354230729922e-01,0.00000000000000e+00
8.56040000000000e-08,6.00000000000000e-01,6.00000000000000e-01,4.19044694012089e-02,0.00000000000000e+00
8.59962015008206e-08,6.00000000000000e-01,6.00000000000000e-01,-2.65967410646661e-02,0.00000000000000e+00
8.66055276854876e-08,6.00000000000000e-01,6.00000000000000e-01,2.35020479031421e-02,0.00000000000000e+00
8.74089055868037e-08,6.00000000000000e-01,6.00000000000000e-01,-1.90454848419150e-02,0.00000000000000e+00
8.86674588130908e-08,6.00000000000000e-01,6.00000000000000e-01,1.83016127626076e-02,0.00000000000000e+00
9.01000000000000e-08,6.00000000000000e-01,5.99999999999966e-01,-1.61056797535535e-02,0.00000000000000e+00
9.03517106452574e-08,6.00000000000000e-01,6.00000000000000e-01,-1.56615454199435e-03,0.00000000000000e+00
9.08551319357722e-08,6.00000000000000e-01,6.00000000000000e-01,1.22689673330449e-03,0.00000000000000e+00
9.18619745168019e-08,6.00000000000000e-01,6.00000000000000e-01,-1.08087012560303e-03,0.00000000000000e+00
9.38756596788612e-08,6.00000000000000e-01,6.00000000000000e-01,1.01977281749928e-03,0.00000000000000e+00
9.51000000000000e-08,6.00000000000000e-01,6.00000000000000e-01,-9.19788193060247e-04,0.00000000000000e+00
9.51100000000000e-08,5.40000000000061e-01,6.00000000000000e-01,-5.18823083726153e-04,5.99999999999390e-02
9.51300000000000e-08,4.20000000000084e-01,6.00000000000000e-01,-1.28090311635118e-05,1.79999999999916e-01
9.51700000000000e-08,1.80000000000129e-01,6.00000000000000e-01,8.93997327329893e-05,4.19999999999871e-01
9.52000000000000e-08,8.40438829641244e-14,6.00000000000000e-01,-4.87920389884849e-06,5.99999999999916e-01
9.52080000000000e-08,0.00000000000000e+00,6.00000000000000e-01,-2.58349674259611e-05,6.00000000000000e-01
9.52240000000000e-08,0.00000000000000e+00,6.00000000000000e-01,-4.50100087130562e-05,6.00000000000000e-01
9.52560000000000e-08,0.00000000000000e+00,6.00000000000000e-01,-3.08074023022478e-05,6.00000000000000e-01
9.53200000000000e-08,0.00000000000000e+00,6.00000000000000e-01,-7.65415202627906e-05,6.00000000000000e-01
9.54480000000000e-08,0.00000000000000e+00,6.00000000000000e-01,-6.01838798627994e-04,6.00000000000000e-01
9.57040000000000e-08,0.00000000000000e+00,6.00000000000000e-01,1.59325507696694e-04,6.00000000000000e-01
9.61540990207261e-08,0.00000000000000e+00,6.00000000000000e-01,-1.06439373962232e-04,6.00000000000000e-01
9.68586678231125e-08,0.00000000000000e+00,6.00000000000000e-01,5.28983305099675e-05,6.00000000000000e-01
9.80211678407853e-08,0.00000000000000e+00,6.00000000000000e-01,-9.18664274322150e-06,6.00000000000000e-01
9.94975721810460e-08,0.00000000000000e+00,6.00000000000000e-01,-1.64001536269317e-05,6.00000000000000e-01
1.02450380861567e-07,0.00000000000000e+00,6.00000000000000e-01,2.80327109970268e-05,6.00000000000000e-01
1.05000000000000e-07,0.00000000000000e+00,6.00000000000000e-01,-3.91984547746000e-05,6.00000000000000e-01
1.05010000000000e-07,5.99999999999886e-02,6.00000000000000e-01,1.26954215336275e-04,6.00000000000000e-01
1.05030000000000e-07,1.79999999999966e-01,6.00000000000000e-01,3.26135895699235e-04,6.00000000000000e-01
1.05070000000000e-07,4.19999999999920e-01,6.00000000000000e-01,2.97374339634365e-04,6.00000000000000e-01
1.05100000000000e-07,5.99999999999966e-01,6.00000000000000e-01,-9.36938787387591e-04,6.00000000000000e-01
1.05108000000000e-07,6.00000000000000e-01,6.00000000000000e-01,-1.64533380194311e-03,6.00000000000000e-01
1.05124000000000e-07,6.00000000000000e-01,6.00000000000000e-01,-3.00686564867626e-03,6.00000000000000e-01
1.05156000000000e-07,6.00000000000000e-01,6.00000000000000e-01,-4.99977920045841e-03,6.00000000000000e-01
1.05220000000000e-07,6.00000000000000e-01,6.00000000000000e-01,-4.18853801299367e-03,6.00000000000000e-01
1.05348000000000e-07,6.00000000000000e-01,6.00000000000000e-01,1.28500734586904e-01,6.00000000000000e-01
1.05604000000000e-07,6.00000000000000e-01,6.00000000000000e-01,5.32453746055653e-01,6.00000000000000e-01
1.06116000000000e-07,6.00000000000000e-01,6.00000000000000e-01,6.17743563662991e-01,6.00000000000000e-01
1.06701723240028e-07,6.00000000000000e-01,6.00000000000000e-01,5.82891935487467e-01,6.00000000000000e-01
1.07873169720083e-07,6.00000000000000e-01,6.00000000000000e-01,6.12942301109755e-01,6.00000000000000e-01
1.09174931335075e-07,6.00000000000000e-01,6.00000000000000e-01,5.86637047722169e-01,6.00000000000000e-01
1.11778454565061e-07,6.00000000000000e-01,6.00000000000000e-01,6.11256036685878e-01,6.00000000000000e-01
1.15100000000000e-07,6.00000000000000e-01,6.00000000000000e-01,5.87890461150670e-01,6.00000000000000e-01
1.15110000000000e-07,5.40000000000061e-01,6.00000000000000e-01,5.90731283798686e-01,6.00000000000000e-01
1.15130000000000e-07,4.20000000000084e-01,6.00000000000000e-01,5.95021206348399e-01,6.00000000000000e-01
1.15170000000000e-07,1.80000000000129e-01,6.00000000000000e-01,5.98960963329025e-01,6.00000000000000e-01
1.15200000000000e-07,8.40438829641244e-14,6.00000000000000e-01,6.00751750853316e-01,6.00000000000000e-01
1.15208000000000e-07,0.00000000000000e+00,6.00000000000000e-01,6.01234863645335e-01,6.00000000000000e-01
1.15224000000000e-07,0.00000000000000e+00,6.00000000000000e-01,6.01950866584003e-01,6.00000000000000e-01
