Time,v(clk),v(data),v(out),v(reset)
1.00000000000000e-08,6.00000000000000e-01,0.00000000000000e+00,1.41674699445000e-04,0.00000000000000e+00
1.00100000000000e-08,6.00000000000000e-01,5.99999999999985e-02,-7.50254021180577e-04,0.00000000000000e+00
1.00300000000000e-08,6.00000000000000e-01,1.79999999999996e-01,-1.43564960419620e-03,0.00000000000000e+00
1.00700000000000e-08,6.00000000000000e-01,4.19999999999990e-01,-8.10055797398269e-04,0.00000000000000e+00
1.01000000000000e-08,6.00000000000000e-01,5.99999999999995e-01,-5.62977042401984e-04,0.00000000000000e+00
1.01080000000000e-08,6.00000000000000e-01,6.00000000000000e-01,-5.02152541492974e-04,0.00000000000000e+00
1.01240000000000e-08,6.00000000000000e-01,6.00000000000000e-01,-4.07372900548694e-04,0.00000000000000e+00
1.01560000000000e-08,6.00000000000000e-01,6.00000000000000e-01,-2.67910241651029e-04,0.00000000000000e+00
1.02200000000000e-08,6.00000000000000e-01,6.00000000000000e-01,-1.09265504407048e-04,0.00000000000000e+00
1.03480000000000e-08,6.00000000000000e-01,6.00000000000000e-01,8.96012514940703e-07,0.00000000000000e+00
1.06040000000000e-08,6.00000000000000e-01,6.00000000000000e-01,7.73950690050040e-07,0.00000000000000e+00
1.11160000000000e-08,6.00000000000000e-01,6.00000000000000e-01,1.46646967881178e-06,0.00000000000000e+00
1.21400000000000e-08,6.00000000000000e-01,6.00000000000000e-01,6.56182096202620e-07,0.00000000000000e+00
1.41880000000000e-08,6.00000000000000e-01,6.00000000000000e-01,1.54662304311954e-06,0.00000000000000e+00
1.51000000000000e-08,6.00000000000000e-01,6.00000000000000e-01,7.41711617090191e-07,0.00000000000000e+00
1.51100000000000e-08,5.39999999999991e-01,6.00000000000000e-01,1.64458517487753e-04,6.00000000000085e-02
1.51300000000000e-08,4.19999999999994e-01,6.00000000000000e-01,3.18889788020554e-04,1.80000000000006e-01
1.51700000000000e-08,1.80000000000000e-01,6.00000000000000e-01,2.10426243652938e-04,4.20000000000000e-01
1.52000000000000e-08,0.00000000000000e+00,6.00000000000000e-01,2.01367845206642e-04,6.00000000000000e-01
1.52080000000000e-08,0.00000000000000e+00,6.00000000000000e-01,2.02431312063309e-04,6.00000000000000e-01
1.52240000000000e-08,0.00000000000000e+00,6.00000000000000e-01,1.97562048610690e-04,6.00000000000000e-01
1.52560000000000e-08,0.00000000000000e+00,6.00000000000000e-01,9.94457610113200e-05,6.00000000000000e-01
1.53200000000000e-08,0.00000000000000e+00,6.00000000000000e-01,-7.83662014902986e-04,6.00000000000000e-01
1.54480000000000e-08,0.00000000000000e+00,6.00000000000000e-01,-1.20489232993484e-03,6.00000000000000e-01
1.57040000000000e-08,0.00000000000000e+00,6.00000000000000e-01,2.08029274306239e-04,6.00000000000000e-01
1.61088298685706e-08,0.00000000000000e+00,6.00000000000000e-01,-2.40668369411948e-04,6.00000000000000e-01
1.68166332457877e-08,0.00000000000000e+00,6.00000000000000e-01,2.10854106723292e-04,6.00000000000000e-01
1.80250392861669e-08,0.00000000000000e+00,6.00000000000000e-01,-1.18884133522506e-04,6.00000000000000e-01
1.94363608393054e-08,0.00000000000000e+00,6.00000000000000e-01,6.66196742361690e-05,6.00000000000000e-01
2.22590039455823e-08,0.00000000000000e+00,6.00000000000000e-01,-4.26486966262998e-05,6.00000000000000e-01
2.50000000000000e-08,0.00000000000000e+00,6.00000000000000e-01,2.59422830148725e-05,6.00000000000000e-01
2.50100000000000e-08,5.99999999999886e-02,6.00000000000000e-01,1.38739462234423e-04,6.00000000000000e-01
2.50300000000000e-08,1.80000000000006e-01,6.00000000000000e-01,3.34355891035559e-04,6.00000000000000e-01
2.50700000000000e-08,4.20000000000000e-01,6.00000000000000e-01,5.47940690913837e-04,6.00000000000000e-01
2.51000000000000e-08,6.00000000000000e-01,6.00000000000000e-01,5.23358954135203e-04,6.00000000000000e-01
2.51080000000000e-08,6.00000000000000e-01,6.00000000000000e-01,4.36945771591757e-04,6.00000000000000e-01
2.51240000000000e-08,6.00000000000000e-01,6.00000000000000e-01,2.22534979167702e-04,6.00000000000000e-01
2.51560000000000e-08,6.00000000000000e-01,6.00000000000000e-01,-6.16195654257523e-04,6.00000000000000e-01
2.52200000000000e-08,6.00000000000000e-01,6.00000000000000e-01,-2.93099685949035e-03,6.00000000000000e-01
2.53480000000000e-08,6.00000000000000e-01,6.00000000000000e-01,-4.98246436320290e-03,6.00000000000000e-01
2.56040000000000e-08,6.00000000000000e-01,6.00000000000000e-01,2.17005415422271e-01,6.00000000000000e-01
2.61160000000000e-08,6.00000000000000e-01,6.00000000000000e-01,6.01351837613231e-01,6.00000000000000e-01
2.69487116666847e-08,6.00000000000000e-01,6.00000000000000e-01,5.98439009623732e-01,6.00000000000000e-01
2.82193993576550e-08,6.00000000000000e-01,6.00000000000000e-01,6.01834238236039e-01,6.00000000000000e-01
2.99636901019702e-08,6.00000000000000e-01,6.00000000000000e-01,5.98262853291542e-01,6.00000000000000e-01
3.25907240339669e-08,6.00000000000000e-01,6.00000000000000e-01,6.01827703807047e-01,6.00000000000000e-01
3.51000000000000e-08,5.99999999999970e-01,6.00000000000000e-01,5.98245436757533e-01,6.00000000000000e-01
3.51100000000000e-08,5.39999999999982e-01,6.00000000000000e-01,5.99068361288330e-01,6.00000000000000e-01
3.51300000000000e-08,4.19999999999965e-01,6.00000000000000e-01,5.99933864334957e-01,6.00000000000000e-01
3.51700000000000e-08,1.79999999999970e-01,6.00000000000000e-01,6.00544807102640e-01,6.00000000000000e-01
3.52000000000000e-08,0.00000000000000e+00,6.00000000000000e-01,6.02216646967880e-01,6.00000000000000e-01
3.52080000000000e-08,0.00000000000000e+00,6.00000000000000e-01,6.02659286612037e-01,6.00000000000000e-01
3.52240000000000e-08,0.00000000000000e+00,6.00000000000000e-01,6.03141211805238e-01,6.00000000000000e-01
3.52560000000000e-08,0.00000000000000e+00,6.00000000000000e-01,6.01467985197110e-01,6.00000000000000e-01
3.53200000000000e-08,0.00000000000000e+00,6.00000000000000e-01,5.88251859788038e-01,6.00000000000000e-01
3.54480000000000e-08,0.00000000000000e+00,6.00000000000000e-01,5.84045553018636e-01,6.00000000000000e-01
3.57040000000000e-08,0.00000000000000e+00,6.00000000000000e-01,6.02291413780439e-01,6.00000000000000e-01
3.61373717574217e-08,0.00000000000000e+00,6.00000000000000e-01,5.97365350639152e-01,6.00000000000000e-01
3.67976306952930e-08,0.00000000000000e+00,6.00000000000000e-01,6.01731880950273e-01,6.00000000000000e-01
3.81181485710356e-08,0.00000000000000e+00,6.00000000000000e-01,5.98064842319611e-01,6.00000000000000e-01
4.07591843225207e-08,0.00000000000000e+00,6.00000000000000e-01,6.01671728662855e-01,6.00000000000000e-01
4.45591843225207e-08,0.00000000000000e+00,6.00000000000000e-01,5.98258754856615e-01,6.00000000000000e-01
4.50000000000000e-08,0.00000000000000e+00,6.00000000000000e-01,6.01320172986379e-01,6.00000000000000e-01
4.50100000000000e-08,5.99999999999886e-02,6.00000000000000e-01,6.00819119000125e-01,5.40000000000011e-01
4.50300000000000e-08,1.80000000000006e-01,6.00000000000000e-01,6.00124126529083e-01,4.19999999999994e-01
4.50700000000000e-08,4.20000000000000e-01,6.00000000000000e-01,6.01344264342192e-01,1.80000000000000e-01
4.51000000000000e-08,6.00000000000000e-01,6.00000000000000e-01,6.06896199294257e-01,0.00000000000000e+00
4.51080000000000e-08,6.00000000000000e-01,6.00000000000000e-01,6.08987467219903e-01,0.00000000000000e+00
4.51240000000000e-08,6.00000000000000e-01,6.00000000000000e-01,6.12892296586007e-01,0.00000000000000e+00
4.51560000000000e-08,6.00000000000000e-01,6.00000000000000e-01,6.21455752209914e-01,0.00000000000000e+00
4.52200000000000e-08,6.00000000000000e-01,6.00000000000000e-01,6.28854173641379e-01,0.00000000000000e+00
4.53480000000000e-08,6.00000000000000e-01,6.00000000000000e-01,4.35185308914419e-01,0.00000000000000e+00
4.56040000000000e-08,6.00000000000000e-01,6.00000000000000e-01,4.17051602452921e-02,0.00000000000000e+00
4.60140424972102e-08,6.00000000000000e-01,6.00000000000000e-01,-1.41593643726401e-02,0.00000000000000e+00
4.66553411130672e-08,6.00000000000000e-01,6.00000000000000e-01,7.94533427097118e-03,0.00000000000000e+00
4.76716296088703e-08,6.00000000000000e-01,6.00000000000000e-01,-4.97684708527215e-03,0.00000000000000e+00
4.96488510071910e-08,6.00000000000000e-01,6.00000000000000e-01,4.02047343445601e-03,0.00000000000000e+00
5.01000000000000e-08,6.00000000000000e-01,5.99999999999966e-01,-7.52718697399103e-04,0.00000000000000e+00
5.04329542841974e-08,6.00000000000000e-01,6.00000000000000e-01,-5.02707644362766e-04,0.00000000000000e+00
5.10988628525922e-08,6.00000000000000e-01,6.00000000000000e-01,2.91201959953524e-04,0.00000000000000e+00
5.24306799893819e-08,6.00000000000000e-01,6.00000000000000e-01,-2.18146641815242e-04,0.00000000000000e+00
5.50943142629612e-08,6.00000000000000e-01,6.00000000000000e-01,1.89561833305347e-04,0.00000000000000e+00
5.51000000000000e-08,6.00000000000000e-01,6.00000000000000e-01,1.97847979883869e-04,0.00000000000000e+00
5.51100000000000e-08,5.40000000000021e-01,6.00000000000000e-01,3.51232265503043e-04,5.99999999999787e-02
5.51300000000000e-08,4.20000000000004e-01,6.00000000000000e-01,4.75264366937164e-04,1.79999999999996e-01
5.51700000000000e-08,1.80000000000010e-01,6.00000000000000e-01,3.03690938622418e-04,4.19999999999990e-01
5.52000000000000e-08,0.00000000000000e+00,6.00000000000000e-01,2.64642059898110e-04,6.00000000000000e-01
5.52080000000000e-08,0.00000000000000e+00,6.00000000000000e-01,2.59901031545967e-04,6.00000000000000e-01
5.52240000000000e-08,0.00000000000000e+00,6.00000000000000e-01,2.45348936615784e-04,6.00000000000000e-01
5.52560000000000e-08,0.00000000000000e+00,6.00000000000000e-01,1.41094302522626e-04,6.00000000000000e-01
5.53200000000000e-08,0.00000000000000e+00,6.00000000000000e-01,-6.72853448336133e-04,6.00000000000000e-01
5.54480000000000e-08,0.00000000000000e+00,6.00000000000000e-01,-1.05145350334309e-03,6.00000000000000e-01
5.57040000000000e-08,0.00000000000000e+00,6.00000000000000e-01,2.25214297195304e-04,6.00000000000000e-01
5.61092936549857e-08,0.00000000000000e+00,6.00000000000000e-01,-1.46402893572251e-04,6.00000000000000e-01
5.68159941158840e-08,0.00000000000000e+00,6.00000000000000e-01,9.14861642607370e-05,6.00000000000000e-01
5.80043157316793e-08,0.00000000000000e+00,6.00000000000000e-01,-5.01690214584584e-05,6.00000000000000e-01
5.94239526768049e-08,0.00000000000000e+00,6.00000000000000e-01,2.89291099520670e-05,6.00000000000000e-01
6.22632265670563e-08,0.00000000000000e+00,6.00000000000000e-01,-1.74950238198213e-05,6.00000000000000e-01
6.50000000000000e-08,0.00000000000000e+00,6.00000000000000e-01,1.19001227206436e-05,6.00000000000000e-01
6.50100000000000e-08,5.99999999999886e-02,6.00000000000000e-01,1.14354879671236e-04,6.00000000000000e-01
6.50300000000000e-08,1.79999999999966e-01,6.00000000000000e-01,2.96775220165121e-04,6.00000000000000e-01
6.50700000000000e-08,4.19999999999920e-01,6.00000000000000e-01,5.11421205335885e-04,6.00000000000000e-01
6.51000000000000e-08,5.99999999999966e-01,6.00000000000000e-01,4.09662995944533e-04,6.00000000000000e-01
6.51080000000000e-08,6.00000000000000e-01,6.00000000000000e-01,2.40061894827621e-04,6.00000000000000e-01
6.51240000000000e-08,6.00000000000000e-01,6.00000000000000e-01,-2.00051023729123e-04,6.00000000000000e-01
6.51560000000000e-08,6.00000000000000e-01,6.00000000000000e-01,-1.40920123299462e-03,6.00000000000000e-01
6.52200000000000e-08,6.00000000000000e-01,6.00000000000000e-01,-3.64946208109662e-03,6.00000000000000e-01
6.53480000000000e-08,6.00000000000000e-01,6.00000000000000e-01,-4.04192961361437e-03,6.00000000000000e-01
6.56040000000000e-08,6.00000000000000e-01,6.00000000000000e-01,2.49097005325888e-01,6.00000000000000e-01
6.61159999999999e-08,6.00000000000000e-01,6.00000000000000e-01,6.06965593386815e-01,6.00000000000000e-01
6.68792814564432e-08,6.00000000000000e-01,6.00000000000000e-01,5.95497219276984e-01,6.00000000000000e-01
6.81696647690794e-08,6.00000000000000e-01,6.00000000000000e-01,6.04868276177465e-01,6.00000000000000e-01
6.98550828279280e-08,6.00000000000000e-01,6.00000000000000e-01,5.95459966686498e-01,6.00000000000000e-01
7.24539757633514e-08,6.00000000000000e-01,6.00000000000000e-01,6.04649700061958e-01,6.00000000000000e-01
7.51000000000000e-08,6.00000000000000e-01,6.00000000000000e-01,5.95528206540244e-01,6.00000000000000e-01
7.51100000000000e-08,5.40000000000061e-01,6.00000000000000e-01,5.97543706071786e-01,6.00000000000000e-01
7.51300000000000e-08,4.20000000000084e-01,6.00000000000000e-01,5.99741214211181e-01,6.00000000000000e-01
7.51700000000000e-08,1.80000000000129e-01,6.00000000000000e-01,6.00577983622637e-01,6.00000000000000e-01
7.52000000000000e-08,8.40438829641244e-14,6.00000000000000e-01,6.02206542021984e-01,6.00000000000000e-01
7.52080000000000e-08,0.00000000000000e+00,6.00000000000000e-01,6.02650097858866e-01,6.00000000000000e-01
7.52240000000000e-08,0.00000000000000e+00,6.00000000000000e-01,6.03128562876329e-01,6.00000000000000e-01
7.52560000000000e-08,0.00000000000000e+00,6.00000000000000e-01,6.01408329994596e-01,6.00000000000000e-01
7.53200000000000e-08,0.00000000000000e+00,6.00000000000000e-01,5.88127113200129e-01,6.00000000000000e-01
7.54480000000000e-08,0.00000000000000e+00,6.00000000000000e-01,5.84029315655622e-01,6.00000000000000e-01
7.57040000000000e-08,0.00000000000000e+00,6.00000000000000e-01,6.02310944058990e-01,6.00000000000000e-01
7.61374450782515e-08,0.00000000000000e+00,6.00000000000000e-01,5.97347556383140e-01,6.00000000000000e-01
7.67977537354186e-08,0.00000000000000e+00,6.00000000000000e-01,6.01746559371602e-01,6.00000000000000e-01
7.81183710497528e-08,0.00000000000000e+00,6.00000000000000e-01,5.98050754510895e-01,6.00000000000000e-01
8.07596056784211e-08,0.00000000000000e+00,6.00000000000000e-01,6.01685118715170e-01,6.00000000000000e-01
8.45596056784211e-08,0.00000000000000e+00,6.00000000000000e-01,5.98245516488436e-01,6.00000000000000e-01
8.50000000000000e-08,0.00000000000000e+00,6.00000000000000e-01,6.01330481969006e-01,6.00000000000000e-01
8.50100000000000e-08,5.99999999999886e-02,6.00000000000000e-01,6.00826318979378e-01,5.40000000000011e-01
8.50300000000000e-08,1.79999999999966e-01,6.00000000000000e-01,6.00126876646167e-01,4.20000000000034e-01
8.50700000000000e-08,4.19999999999920e-01,6.00000000000000e-01,6.01344345480154e-01,1.80000000000080e-01
8.51000000000000e-08,5.99999999999966e-01,6.00000000000000e-01,6.06895970053752e-01,3.44169137633799e-14
8.51080000000000e-08,6.00000000000000e-01,6.00000000000000e-01,6.08987197511159e-01,0.00000000000000e+00
8.51240000000000e-08,6.00000000000000e-01,6.00000000000000e-01,6.12892002214257e-01,0.00000000000000e+00
8.51560000000000e-08,6.00000000000000e-01,6.00000000000000e-01,6.21455560754544e-01,0.00000000000000e+00
8.52200000000000e-08,6.00000000000000e-01,6.00000000000000e-01,6.28855450484601e-01,0.00000000000000e+00
8.53480000000000e-08,6.00000000000000e-01,6.00000000000000e-01,4.35187729861508e-01,0.00000000000000e+00
8.56040000000000e-08,6.00000000000000e-01,6.00000000000000e-01,4.17066368020799e-02,0.00000000000000e+00
8.60140145061223e-08,6.00000000000000e-01,6.00000000000000e-01,-1.41586216793201e-02,0.00000000000000e+00
8.66576813864173e-08,6.00000000000000e-01,6.00000000000000e-01,7.96509701458314e-03,0.00000000000000e+00
8.76728614982336e-08,6.00000000000000e-01,6.00000000000000e-01,-4.98756911951061e-03,0.00000000000000e+00
8.96572906838294e-08,6.00000000000000e-01,6.00000000000000e-01,4.03368215160081e-03,0.00000000000000e+00
9.01000000000000e-08,6.00000000000000e-01,5.99999999999966e-01,-7.14480183703455e-04,0.00000000000000e+00
9.04349144829532e-08,6.00000000000000e-01,6.00000000000000e-01,-4.92616520161538e-04,0.00000000000000e+00
9.11047434488596e-08,6.00000000000000e-01,6.00000000000000e-01,2.86072079499412e-04,0.00000000000000e+00
9.24444013806725e-08,6.00000000000000e-01,6.00000000000000e-01,-2.14530178714198e-04,0.00000000000000e+00
9.51000000000000e-08,6.00000000000000e-01,6.00000000000000e-01,1.86322876699376e-04,0.00000000000000e+00
9.51100000000000e-08,5.40000000000061e-01,6.00000000000000e-01,3.51113287534267e-04,5.99999999999390e-02
9.51300000000000e-08,4.20000000000084e-01,6.00000000000000e-01,4.84690233375780e-04,1.79999999999916e-01
9.51700000000000e-08,1.80000000000129e-01,6.00000000000000e-01,3.09125846888213e-04,4.19999999999871e-01
9.52000000000000e-08,8.40438829641244e-14,6.00000000000000e-01,2.68442117974402e-04,5.99999999999916e-01
9.52080000000000e-08,0.00000000000000e+00,6.00000000000000e-01,2.63343361896616e-04,6.00000000000000e-01
9.52240000000000e-08,0.00000000000000e+00,6.00000000000000e-01,2.48145552424243e-04,6.00000000000000e-01
9.52560000000000e-08,0.00000000000000e+00,6.00000000000000e-01,1.42872754661932e-04,6.00000000000000e-01
9.53200000000000e-08,0.00000000000000e+00,6.00000000000000e-01,-6.72409819833186e-04,6.00000000000000e-01
9.54480000000000e-08,0.00000000000000e+00,6.00000000000000e-01,-1.05174481788368e-03,6.00000000000000e-01
9.57040000000000e-08,0.00000000000000e+00,6.00000000000000e-01,2.25254217542274e-04,6.00000000000000e-01
9.61092933549556e-08,0.00000000000000e+00,6.00000000000000e-01,-1.46464257106751e-04,6.00000000000000e-01
9.68160296119884e-08,0.00000000000000e+00,6.00000000000000e-01,9.15570142757238e-05,6.00000000000000e-01
9.80046531856768e-08,0.00000000000000e+00,6.00000000000000e-01,-5.02372411862037e-05,6.00000000000000e-01
9.94242089686051e-08,0.00000000000000e+00,6.00000000000000e-01,2.89861505934023e-05,6.00000000000000e-01
1.02263320534462e-07,0.00000000000000e+00,6.00000000000000e-01,-1.75471027707859e-05,6.00000000000000e-01
1.05000000000000e-07,0.00000000000000e+00,6.00000000000000e-01,1.19475996730590e-05,6.00000000000000e-01
1.05010000000000e-07,5.99999999999886e-02,6.00000000000000e-01,1.14402320916022e-04,6.00000000000000e-01
1.05030000000000e-07,1.79999999999966e-01,6.00000000000000e-01,2.96818894633281e-04,6.00000000000000e-01
1.05070000000000e-07,4.19999999999920e-01,6.00000000000000e-01,5.11453232155304e-04,6.00000000000000e-01
1.05100000000000e-07,5.99999999999966e-01,6.00000000000000e-01,4.09692309017128e-04,6.00000000000000e-01
1.05108000000000e-07,6.00000000000000e-01,6.00000000000000e-01,2.40093444081935e-04,6.00000000000000e-01
1.05124000000000e-07,6.00000000000000e-01,6.00000000000000e-01,-2.00014548698751e-04,6.00000000000000e-01
1.05156000000000e-07,6.00000000000000e-01,6.00000000000000e-01,-1.40916206723923e-03,6.00000000000000e-01
1.05220000000000e-07,6.00000000000000e-01,6.00000000000000e-01,-3.64943588655130e-03,6.00000000000000e-01
1.05348000000000e-07,6.00000000000000e-01,6.00000000000000e-01,-4.04200787227760e-03,6.00000000000000e-01
1.05604000000000e-07,6.00000000000000e-01,6.00000000000000e-01,2.49095168547402e-01,6.00000000000000e-01
1.06116000000000e-07,6.00000000000000e-01,6.00000000000000e-01,6.06965295524386e-01,6.00000000000000e-01
1.06879284875035e-07,6.00000000000000e-01,6.00000000000000e-01,5.95497384938792e-01,6.00000000000000e-01
1.08169666872195e-07,6.00000000000000e-01,6.00000000000000e-01,6.04868109053755e-01,6.00000000000000e-01
1.09855087742175e-07,6.00000000000000e-01,6.00000000000000e-01,5.95460123878438e-01,6.00000000000000e-01
1.12453981197516e-07,6.00000000000000e-01,6.00000000000000e-01,6.04649543315792e-01,6.00000000000000e-01
1.15100000000000e-07,6.00000000000000e-01,6.00000000000000e-01,5.95528357921330e-01,6.00000000000000e-01
1.15110000000000e-07,5.40000000000061e-01,6.00000000000000e-01,5.97543791281828e-01,6.00000000000000e-01
1.15130000000000e-07,4.20000000000084e-01,6.00000000000000e-01,5.99741225162627e-01,6.00000000000000e-01
1.15170000000000e-07,1.80000000000129e-01,6.00000000000000e-01,6.00577981698981e-01,6.00000000000000e-01
1.15200000000000e-07,8.40438829641244e-14,6.00000000000000e-01,6.02206542594936e-01,6.00000000000000e-01
1.15208000000000e-07,0.00000000000000e+00,6.00000000000000e-01,6.02650098399017e-01,6.00000000000000e-01
1.15224000000000e-07,0.00000000000000e+00,6.00000000000000e-01,6.03128563709571e-01,6.00000000000000e-01
1.15256000000000e-07,0.00000000000000e+00,6.00000000000000e-01,6.01408334094461e-01,6.00000000000000e-01
