Time,v(clk),v(data),v(out)
1.00000000000000e-08,6.00000000000000e-01,0.00000000000000e+00,-1.65027340450173e-05
1.00100000000000e-08,6.00000000000000e-01,5.99999999999985e-02,-1.28441247535943e-05
1.00300000000000e-08,6.00000000000000e-01,1.79999999999996e-01,-7.52971973232847e-06
1.00700000000000e-08,6.00000000000000e-01,4.19999999999990e-01,-4.86372220900866e-06
1.01000000000000e-08,6.00000000000000e-01,5.99999999999995e-01,-7.43222062790649e-06
1.01080000000000e-08,6.00000000000000e-01,6.00000000000000e-01,-7.58199268088844e-06
1.01240000000000e-08,6.00000000000000e-01,6.00000000000000e-01,-8.04028751660163e-06
1.01560000000000e-08,6.00000000000000e-01,6.00000000000000e-01,-5.18668033381436e-06
1.02200000000000e-08,6.00000000000000e-01,6.00000000000000e-01,8.43597959376829e-07
1.03480000000000e-08,6.00000000000000e-01,6.00000000000000e-01,4.99384330419905e-06
1.06040000000000e-08,6.00000000000000e-01,6.00000000000000e-01,6.70436469805968e-07
1.11083835054598e-08,6.00000000000000e-01,6.00000000000000e-01,1.99522906629834e-06
1.21171505163795e-08,6.00000000000000e-01,6.00000000000000e-01,1.68060829748747e-06
1.41346845382188e-08,6.00000000000000e-01,6.00000000000000e-01,1.56601703889692e-06
1.51000000000000e-08,6.00000000000000e-01,6.00000000000000e-01,1.57754018596801e-06
1.51100000000000e-08,5.39999999999991e-01,6.00000000000000e-01,-6.24384892391819e-05
1.51300000000000e-08,4.19999999999994e-01,6.00000000000000e-01,-1.70612680870041e-04
1.51700000000000e-08,1.80000000000000e-01,6.00000000000000e-01,-2.62102390070414e-04
1.52000000000000e-08,0.00000000000000e+00,6.00000000000000e-01,-9.82757100659107e-05
1.52080000000000e-08,0.00000000000000e+00,6.00000000000000e-01,4.42446016030093e-05
1.52240000000000e-08,0.00000000000000e+00,6.00000000000000e-01,2.56470308506854e-04
1.52560000000000e-08,0.00000000000000e+00,6.00000000000000e-01,4.05594848636878e-04
1.53200000000000e-08,0.00000000000000e+00,6.00000000000000e-01,3.25159164582534e-04
1.54480000000000e-08,0.00000000000000e+00,6.00000000000000e-01,-2.44837025885417e-05
1.57040000000000e-08,0.00000000000000e+00,6.00000000000000e-01,-1.85488017647076e-04
1.62160000000000e-08,0.00000000000000e+00,6.00000000000000e-01,-3.74876026160969e-05
1.70138836263155e-08,0.00000000000000e+00,6.00000000000000e-01,2.85242137689264e-05
1.80835588961282e-08,0.00000000000000e+00,6.00000000000000e-01,9.39454949643505e-05
2.02229094357537e-08,0.00000000000000e+00,6.00000000000000e-01,-1.25350810650047e-04
2.27542340822831e-08,0.00000000000000e+00,6.00000000000000e-01,1.41879607222110e-04
2.50000000000000e-08,0.00000000000000e+00,6.00000000000000e-01,-1.52332754050312e-04
2.50100000000000e-08,5.99999999999886e-02,6.00000000000000e-01,-2.07077912568118e-05
2.50300000000000e-08,1.80000000000006e-01,6.00000000000000e-01,2.01591461114349e-04
2.50700000000000e-08,4.20000000000000e-01,6.00000000000000e-01,4.45114618660751e-04
2.51000000000000e-08,6.00000000000000e-01,6.00000000000000e-01,3.80102968623224e-04
2.51080000000000e-08,6.00000000000000e-01,6.00000000000000e-01,2.40827016468784e-04
2.51240000000000e-08,6.00000000000000e-01,6.00000000000000e-01,-1.34757266340442e-04
2.51560000000000e-08,6.00000000000000e-01,6.00000000000000e-01,-1.27205917980927e-03
2.52200000000000e-08,6.00000000000000e-01,6.00000000000000e-01,-3.55306171114528e-03
2.53480000000000e-08,6.00000000000000e-01,6.00000000000000e-01,-5.64004723219034e-03
2.56040000000000e-08,6.00000000000000e-01,6.00000000000000e-01,1.28819388547610e-01
2.61160000000000e-08,6.00000000000000e-01,6.00000000000000e-01,5.63744503116524e-01
2.71400000000000e-08,6.00000000000000e-01,6.00000000000000e-01,6.11817553840146e-01
2.83510484734044e-08,6.00000000000000e-01,6.00000000000000e-01,5.87460316664056e-01
3.04177831941483e-08,6.00000000000000e-01,6.00000000000000e-01,6.10206490619049e-01
3.31606020075655e-08,6.00000000000000e-01,6.00000000000000e-01,5.89123863199293e-01
3.51000000000000e-08,5.99999999999970e-01,6.00000000000000e-01,6.09252973390201e-01
3.51100000000000e-08,5.39999999999982e-01,6.00000000000000e-01,6.06701871536641e-01
3.51300000000000e-08,4.19999999999965e-01,6.00000000000000e-01,6.02933412114102e-01
3.51700000000000e-08,1.79999999999970e-01,6.00000000000000e-01,6.00651282054286e-01
3.52000000000000e-08,0.00000000000000e+00,6.00000000000000e-01,6.01612502213066e-01
3.52080000000000e-08,0.00000000000000e+00,6.00000000000000e-01,6.02024114966790e-01
3.52240000000000e-08,0.00000000000000e+00,6.00000000000000e-01,6.02630312283094e-01
3.52560000000000e-08,0.00000000000000e+00,6.00000000000000e-01,6.03048885565432e-01
3.53200000000000e-08,0.00000000000000e+00,6.00000000000000e-01,6.01537343255477e-01
3.54480000000000e-08,0.00000000000000e+00,6.00000000000000e-01,5.85777305157777e-01
3.57040000000000e-08,0.00000000000000e+00,6.00000000000000e-01,5.80450182578077e-01
3.62160000000000e-08,0.00000000000000e+00,6.00000000000000e-01,6.03473212706435e-01
3.70824836091726e-08,0.00000000000000e+00,6.00000000000000e-01,5.96435524444789e-01
3.83730808968108e-08,0.00000000000000e+00,6.00000000000000e-01,6.02500685159094e-01
4.09542754720871e-08,0.00000000000000e+00,6.00000000000000e-01,5.97320657204564e-01
4.47542754720871e-08,0.00000000000000e+00,6.00000000000000e-01,6.02309239118793e-01
4.50000000000000e-08,0.00000000000000e+00,6.00000000000000e-01,5.98885940155715e-01
4.50100000000000e-08,5.99999999999886e-02,6.00000000000000e-01,5.99141694838101e-01
4.50300000000000e-08,1.80000000000006e-01,6.00000000000000e-01,5.99552341866454e-01
4.50700000000000e-08,4.20000000000000e-01,6.00000000000000e-01,5.99970828956537e-01
4.51000000000000e-08,6.00000000000000e-01,6.00000000000000e-01,5.99988350807325e-01
4.51080000000000e-08,6.00000000000000e-01,5.52000000000025e-01,5.99892166655540e-01
4.51240000000000e-08,6.00000000000000e-01,4.55999999999996e-01,5.99639195503717e-01
4.51560000000000e-08,6.00000000000000e-01,2.64000000000016e-01,5.98976799883186e-01
4.52000000000000e-08,6.00000000000000e-01,3.44169137633799e-14,5.98225073255451e-01
4.52064000000000e-08,6.00000000000000e-01,0.00000000000000e+00,5.98157035835431e-01
4.52192000000000e-08,6.00000000000000e-01,0.00000000000000e+00,5.98027736611019e-01
4.52448000000000e-08,6.00000000000000e-01,0.00000000000000e+00,5.97819836426019e-01
4.52960000000000e-08,6.00000000000000e-01,0.00000000000000e+00,5.97527712787679e-01
4.53984000000000e-08,6.00000000000000e-01,0.00000000000000e+00,5.97451959189595e-01
4.56032000000000e-08,6.00000000000000e-01,0.00000000000000e+00,5.98323318453836e-01
4.60128000000000e-08,6.00000000000000e-01,0.00000000000000e+00,5.99783548020034e-01
4.65350906854421e-08,6.00000000000000e-01,0.00000000000000e+00,5.99951056078563e-01
4.75796720563263e-08,6.00000000000000e-01,0.00000000000000e+00,6.00052424477585e-01
4.89042772589328e-08,6.00000000000000e-01,0.00000000000000e+00,5.99951156222733e-01
5.15534876641456e-08,6.00000000000000e-01,0.00000000000000e+00,6.00046465514226e-01
5.51000000000000e-08,6.00000000000000e-01,0.00000000000000e+00,5.99955573730639e-01
5.51100000000000e-08,5.40000000000021e-01,0.00000000000000e+00,5.99896086810212e-01
5.51300000000000e-08,4.20000000000004e-01,0.00000000000000e+00,5.99809970322626e-01
5.51700000000000e-08,1.80000000000010e-01,0.00000000000000e+00,6.00111682023961e-01
5.52000000000000e-08,0.00000000000000e+00,0.00000000000000e+00,6.01407270256282e-01
5.52080000000000e-08,0.00000000000000e+00,0.00000000000000e+00,6.01845893824765e-01
5.52240000000000e-08,0.00000000000000e+00,0.00000000000000e+00,6.02512179550754e-01
5.52560000000000e-08,0.00000000000000e+00,0.00000000000000e+00,6.03151721219778e-01
5.53200000000000e-08,0.00000000000000e+00,0.00000000000000e+00,6.03818820156628e-01
5.54480000000000e-08,0.00000000000000e+00,0.00000000000000e+00,6.03846966230243e-01
5.57040000000000e-08,0.00000000000000e+00,0.00000000000000e+00,6.00295152449419e-01
5.61823794463763e-08,0.00000000000000e+00,0.00000000000000e+00,5.99672624207523e-01
5.68004436254494e-08,0.00000000000000e+00,0.00000000000000e+00,6.00054662030655e-01
5.80365719835956e-08,0.00000000000000e+00,0.00000000000000e+00,5.99769009407532e-01
5.93750344021208e-08,0.00000000000000e+00,0.00000000000000e+00,6.00043366531263e-01
6.20519592391711e-08,0.00000000000000e+00,0.00000000000000e+00,5.99810982589622e-01
6.50000000000000e-08,0.00000000000000e+00,0.00000000000000e+00,6.00056383702420e-01
6.50100000000000e-08,5.99999999999886e-02,0.00000000000000e+00,6.00097356897646e-01
6.50300000000000e-08,1.79999999999966e-01,0.00000000000000e+00,6.00149407504921e-01
6.50700000000000e-08,4.19999999999920e-01,0.00000000000000e+00,6.00123579004237e-01
6.51000000000000e-08,5.99999999999966e-01,0.00000000000000e+00,5.99990671426521e-01
6.51080000000000e-08,6.00000000000000e-01,0.00000000000000e+00,5.99919892824084e-01
6.51240000000000e-08,6.00000000000000e-01,0.00000000000000e+00,5.99808964439783e-01
6.51560000000000e-08,6.00000000000000e-01,0.00000000000000e+00,5.99713764234025e-01
6.52200000000000e-08,6.00000000000000e-01,0.00000000000000e+00,5.99688204754283e-01
6.53480000000000e-08,6.00000000000000e-01,0.00000000000000e+00,5.99866419189364e-01
6.56040000000000e-08,6.00000000000000e-01,0.00000000000000e+00,6.05000522021605e-01
6.61159999999999e-08,6.00000000000000e-01,0.00000000000000e+00,2.41658269435389e-01
6.69983058076818e-08,6.00000000000000e-01,0.00000000000000e+00,-6.49165222906944e-02
6.79029881827362e-08,6.00000000000000e-01,0.00000000000000e+00,5.73641611317852e-02
6.97123529328450e-08,6.00000000000000e-01,0.00000000000000e+00,-3.80680259777077e-02
7.16451941875648e-08,6.00000000000000e-01,0.00000000000000e+00,3.78672247728736e-02
7.51000000000000e-08,6.00000000000000e-01,0.00000000000000e+00,-2.92233285108653e-02
7.51100000000000e-08,5.40000000000061e-01,0.00000000000000e+00,-2.65415297647004e-02
7.51300000000000e-08,4.20000000000084e-01,0.00000000000000e+00,-2.12425598338234e-02
7.51700000000000e-08,1.80000000000129e-01,0.00000000000000e+00,-1.28416404286735e-02
7.52000000000000e-08,8.40438829641244e-14,0.00000000000000e+00,-8.67222537474367e-03
7.52080000000000e-08,0.00000000000000e+00,0.00000000000000e+00,-7.74048281841272e-03
7.52240000000000e-08,0.00000000000000e+00,0.00000000000000e+00,-6.07765070952408e-03
7.52560000000000e-08,0.00000000000000e+00,0.00000000000000e+00,-3.75068193767188e-03
7.53200000000000e-08,0.00000000000000e+00,0.00000000000000e+00,-1.47178155600267e-03
7.54480000000000e-08,0.00000000000000e+00,0.00000000000000e+00,-8.73601444396695e-04
7.57040000000000e-08,0.00000000000000e+00,0.00000000000000e+00,-4.80744617330831e-04
7.62159999999999e-08,0.00000000000000e+00,0.00000000000000e+00,3.04232342095225e-04
7.70081642510525e-08,0.00000000000000e+00,0.00000000000000e+00,-2.16806855147666e-04
7.83509522647333e-08,0.00000000000000e+00,0.00000000000000e+00,1.85320742940954e-04
8.10365282920948e-08,0.00000000000000e+00,0.00000000000000e+00,-1.70380381754267e-04
8.48365282920948e-08,0.00000000000000e+00,0.00000000000000e+00,1.61906867889679e-04
8.50000000000000e-08,0.00000000000000e+00,0.00000000000000e+00,-4.27851735447203e-05
8.50100000000000e-08,5.99999999999886e-02,0.00000000000000e+00,7.87237413545500e-05
8.50300000000000e-08,1.79999999999966e-01,0.00000000000000e+00,2.49165829641830e-04
8.50700000000000e-08,4.19999999999920e-01,0.00000000000000e+00,3.14811426331427e-04
8.51000000000000e-08,5.99999999999966e-01,0.00000000000000e+00,1.62338046780529e-04
8.51080000000000e-08,6.00000000000000e-01,0.00000000000000e+00,6.35440231512852e-05
8.51240000000000e-08,6.00000000000000e-01,0.00000000000000e+00,-9.72065712487591e-05
8.51560000000000e-08,6.00000000000000e-01,0.00000000000000e+00,-2.51942516612584e-04
8.52200000000000e-08,6.00000000000000e-01,0.00000000000000e+00,-2.70121913053895e-04
8.53480000000000e-08,6.00000000000000e-01,0.00000000000000e+00,-1.14424462289115e-04
8.56040000000000e-08,6.00000000000000e-01,0.00000000000000e+00,4.37605671664981e-05
8.61159999999999e-08,6.00000000000000e-01,0.00000000000000e+00,3.96911636428784e-05
8.71399999999999e-08,6.00000000000000e-01,0.00000000000000e+00,-2.63029257827913e-05
8.88459391233939e-08,6.00000000000000e-01,0.00000000000000e+00,2.59760024352192e-05
9.00000000000000e-08,6.00000000000000e-01,0.00000000000000e+00,-1.65757683927232e-05
9.00100000000000e-08,6.00000000000000e-01,5.99999999999886e-02,-1.27172436376125e-05
9.00300000000000e-08,6.00000000000000e-01,1.79999999999966e-01,-7.14592404765096e-06
9.00700000000000e-08,6.00000000000000e-01,4.19999999999920e-01,-4.34313259715241e-06
9.01000000000000e-08,6.00000000000000e-01,5.99999999999966e-01,-6.85813809984948e-06
9.01080000000000e-08,6.00000000000000e-01,6.00000000000000e-01,-7.01170151195391e-06
9.01240000000000e-08,6.00000000000000e-01,6.00000000000000e-01,-7.42032999846709e-06
9.01560000000000e-08,6.00000000000000e-01,6.00000000000000e-01,-4.60389909538728e-06
9.02200000000000e-08,6.00000000000000e-01,6.00000000000000e-01,9.61337396382378e-07
9.03480000000000e-08,6.00000000000000e-01,6.00000000000000e-01,4.75514951651587e-06
9.06040000000000e-08,6.00000000000000e-01,6.00000000000000e-01,6.31939359604927e-07
9.11159999999999e-08,6.00000000000000e-01,6.00000000000000e-01,2.25930738311994e-06
9.21399999999999e-08,6.00000000000000e-01,6.00000000000000e-01,1.39478119813574e-06
9.41879999999998e-08,6.00000000000000e-01,6.00000000000000e-01,1.84089688776666e-06
9.51000000000000e-08,6.00000000000000e-01,6.00000000000000e-01,1.34941046467559e-06
9.51100000000000e-08,5.40000000000061e-01,6.00000000000000e-01,-6.26514857946583e-05
9.51300000000000e-08,4.20000000000084e-01,6.00000000000000e-01,-1.70843487399507e-04
9.51700000000000e-08,1.80000000000129e-01,6.00000000000000e-01,-2.62236418451411e-04
9.52000000000000e-08,8.40438829641244e-14,6.00000000000000e-01,-9.83593117995923e-05
9.52080000000000e-08,0.00000000000000e+00,6.00000000000000e-01,4.41709529282741e-05
9.52240000000000e-08,0.00000000000000e+00,6.00000000000000e-01,2.56413025700682e-04
9.52560000000000e-08,0.00000000000000e+00,6.00000000000000e-01,4.05558769188297e-04
9.53200000000000e-08,0.00000000000000e+00,6.00000000000000e-01,3.25125207773433e-04
9.54480000000000e-08,0.00000000000000e+00,6.00000000000000e-01,-2.45683633084415e-05
9.57040000000000e-08,0.00000000000000e+00,6.00000000000000e-01,-1.85490938227419e-04
9.62159999999999e-08,0.00000000000000e+00,6.00000000000000e-01,-3.74822079189513e-05
9.70138831545028e-08,0.00000000000000e+00,6.00000000000000e-01,2.85185457016227e-05
9.80835632400777e-08,0.00000000000000e+00,6.00000000000000e-01,9.39537139476631e-05
1.00222923411227e-07,0.00000000000000e+00,6.00000000000000e-01,-1.25360375178179e-04
1.02754294539107e-07,0.00000000000000e+00,6.00000000000000e-01,1.41887584467338e-04
1.05000000000000e-07,0.00000000000000e+00,6.00000000000000e-01,-1.52342326422033e-04
1.05010000000000e-07,5.99999999999886e-02,6.00000000000000e-01,-2.07138509536256e-05
1.05030000000000e-07,1.79999999999966e-01,6.00000000000000e-01,2.01589883953211e-04
1.05070000000000e-07,4.19999999999920e-01,6.00000000000000e-01,4.45114190403134e-04
1.05100000000000e-07,5.99999999999966e-01,6.00000000000000e-01,3.80085184148726e-04
1.05108000000000e-07,6.00000000000000e-01,6.00000000000000e-01,2.40794028060459e-04
1.05124000000000e-07,6.00000000000000e-01,6.00000000000000e-01,-1.34825252001779e-04
1.05156000000000e-07,6.00000000000000e-01,6.00000000000000e-01,-1.27217018139827e-03
1.05220000000000e-07,6.00000000000000e-01,6.00000000000000e-01,-3.55315245746657e-03
1.05348000000000e-07,6.00000000000000e-01,6.00000000000000e-01,-5.64000598055964e-03
1.05604000000000e-07,6.00000000000000e-01,6.00000000000000e-01,1.28822248938107e-01
1.06116000000000e-07,6.00000000000000e-01,6.00000000000000e-01,5.63745916890652e-01
1.07140000000000e-07,6.00000000000000e-01,6.00000000000000e-01,6.11817121725126e-01
1.08351047619554e-07,6.00000000000000e-01,6.00000000000000e-01,5.87460798021380e-01
1.10417778873726e-07,6.00000000000000e-01,6.00000000000000e-01,6.10206095830722e-01
1.13160592376913e-07,6.00000000000000e-01,6.00000000000000e-01,5.89124295917953e-01
1.15100000000000e-07,6.00000000000000e-01,6.00000000000000e-01,6.09252610073286e-01
1.15110000000000e-07,5.40000000000061e-01,6.00000000000000e-01,6.06701612197731e-01
1.15130000000000e-07,4.20000000000084e-01,6.00000000000000e-01,6.02933303371602e-01
1.15170000000000e-07,1.80000000000129e-01,6.00000000000000e-01,6.00651271712687e-01
1.15200000000000e-07,8.40438829641244e-14,6.00000000000000e-01,6.01612500494205e-01
1.15208000000000e-07,0.00000000000000e+00,6.00000000000000e-01,6.02024114153736e-01
1.15224000000000e-07,0.00000000000000e+00,6.00000000000000e-01,6.02630312919548e-01
1.15256000000000e-07,0.00000000000000e+00,6.00000000000000e-01,6.03048886787907e-01
1.15320000000000e-07,0.00000000000000e+00,6.00000000000000e-01,6.01537347567359e-01
1.15448000000000e-07,0.00000000000000e+00,6.00000000000000e-01,5.85777316635009e-01
1.15704000000000e-07,0.00000000000000e+00,6.00000000000000e-01,5.80450186361678e-01
1.16216000000000e-07,0.00000000000000e+00,6.00000000000000e-01,6.03473209376119e-01
1.17082483627103e-07,0.00000000000000e+00,6.00000000000000e-01,5.96435527375168e-01
1.18373080926745e-07,0.00000000000000e+00,6.00000000000000e-01,6.02500683040193e-01
1.20954275526029e-07,0.00000000000000e+00,6.00000000000000e-01,5.97320659270001e-01
1.24754275526029e-07,0.00000000000000e+00,6.00000000000000e-01,6.02309237262258e-01
1.25000000000000e-07,0.00000000000000e+00,6.00000000000000e-01,5.98885941118932e-01
1.25010000000000e-07,5.99999999999092e-02,6.00000000000000e-01,5.99141695649263e-01
1.25030000000000e-07,1.79999999999886e-01,6.00000000000000e-01,5.99552342448229e-01
1.25070000000000e-07,4.19999999999841e-01,6.00000000000000e-01,5.99970829223996e-01
1.25100000000000e-07,5.99999999999886e-01,6.00000000000000e-01,5.99988350901280e-01
1.25108000000000e-07,6.00000000000000e-01,5.51999999999946e-01,5.99892166720760e-01
1.25124000000000e-07,6.00000000000000e-01,4.55999999999996e-01,5.99639195523119e-01
1.25156000000000e-07,6.00000000000000e-01,2.63999999999937e-01,5.98976799855539e-01
1.25200000000000e-07,6.00000000000000e-01,0.00000000000000e+00,5.98225073213921e-01
1.25206400000000e-07,6.00000000000000e-01,0.00000000000000e+00,5.98157035809557e-01
1.25219200000000e-07,6.00000000000000e-01,0.00000000000000e+00,5.98027736606250e-01
1.25244800000000e-07,6.00000000000000e-01,0.00000000000000e+00,5.97819836421969e-01
1.25296000000000e-07,6.00000000000000e-01,0.00000000000000e+00,5.97527712771618e-01
1.25398400000000e-07,6.00000000000000e-01,0.00000000000000e+00,5.97451959152472e-01
1.25603200000000e-07,6.00000000000000e-01,0.00000000000000e+00,5.98323318512048e-01
1.26012800000000e-07,6.00000000000000e-01,0.00000000000000e+00,5.99783547995613e-01
1.26535091049533e-07,6.00000000000000e-01,0.00000000000000e+00,5.99951056171009e-01
1.27579673148598e-07,6.00000000000000e-01,0.00000000000000e+00,6.00052424452902e-01
1.28904279990258e-07,6.00000000000000e-01,0.00000000000000e+00,5.99951156217639e-01
1.31553493673580e-07,6.00000000000000e-01,0.00000000000000e+00,6.00046465533954e-01
1.35100000000000e-07,5.99999999999891e-01,0.00000000000000e+00,5.99955573710614e-01
1.35110000000000e-07,5.39999999999823e-01,0.00000000000000e+00,5.99896086798752e-01
1.35130000000000e-07,4.19999999999845e-01,0.00000000000000e+00,5.99809970325330e-01
1.35170000000000e-07,1.79999999999891e-01,0.00000000000000e+00,6.00111682035469e-01
1.35200000000000e-07,0.00000000000000e+00,0.00000000000000e+00,6.01407270257114e-01
1.35208000000000e-07,0.00000000000000e+00,0.00000000000000e+00,6.01845893824297e-01
1.35224000000000e-07,0.00000000000000e+00,0.00000000000000e+00,6.02512179547503e-01
1.35256000000000e-07,0.00000000000000e+00,0.00000000000000e+00,6.03151721211572e-01
1.35320000000000e-07,0.00000000000000e+00,0.00000000000000e+00,6.03818820134610e-01
1.35448000000000e-07,0.00000000000000e+00,0.00000000000000e+00,6.03846966256380e-01
1.35704000000000e-07,0.00000000000000e+00,0.00000000000000e+00,6.00295152449504e-01
