Time,v(clk),v(data),v(out),v(reset)
1.00000000000000e-08,6.00000000000000e-01,0.00000000000000e+00,-7.02580926149887e-06,0.00000000000000e+00
1.00100000000000e-08,6.00000000000000e-01,5.99999999999985e-02,-5.64110130707451e-06,0.00000000000000e+00
1.00300000000000e-08,6.00000000000000e-01,1.79999999999996e-01,-3.58357423185102e-06,0.00000000000000e+00
1.00700000000000e-08,6.00000000000000e-01,4.19999999999990e-01,-2.06658999808013e-06,0.00000000000000e+00
1.01000000000000e-08,6.00000000000000e-01,5.99999999999995e-01,-2.08973465995466e-06,0.00000000000000e+00
1.01080000000000e-08,6.00000000000000e-01,6.00000000000000e-01,-1.62642386036804e-06,0.00000000000000e+00
1.01240000000000e-08,6.00000000000000e-01,6.00000000000000e-01,-4.75972154308224e-07,0.00000000000000e+00
1.01560000000000e-08,6.00000000000000e-01,6.00000000000000e-01,1.57261366760808e-06,0.00000000000000e+00
1.02200000000000e-08,6.00000000000000e-01,6.00000000000000e-01,3.82809527231520e-06,0.00000000000000e+00
1.03480000000000e-08,6.00000000000000e-01,6.00000000000000e-01,4.90409043665818e-06,0.00000000000000e+00
1.06040000000000e-08,6.00000000000000e-01,6.00000000000000e-01,4.89114577620353e-06,0.00000000000000e+00
1.11160000000000e-08,6.00000000000000e-01,6.00000000000000e-01,4.58704743383671e-06,0.00000000000000e+00
1.21400000000000e-08,6.00000000000000e-01,6.00000000000000e-01,4.45933113375242e-06,0.00000000000000e+00
1.41880000000000e-08,6.00000000000000e-01,6.00000000000000e-01,3.78849777463077e-06,0.00000000000000e+00
1.51000000000000e-08,6.00000000000000e-01,6.00000000000000e-01,3.73525011423612e-06,0.00000000000000e+00
1.51100000000000e-08,5.39999999999991e-01,6.00000000000000e-01,1.98111045004265e-04,6.00000000000085e-02
1.51300000000000e-08,4.19999999999994e-01,6.00000000000000e-01,4.50878951730516e-04,1.80000000000006e-01
1.51700000000000e-08,1.80000000000000e-01,6.00000000000000e-01,4.50146604507380e-04,4.20000000000000e-01
1.52000000000000e-08,0.00000000000000e+00,6.00000000000000e-01,3.06449833917158e-04,6.00000000000000e-01
1.52080000000000e-08,0.00000000000000e+00,6.00000000000000e-01,2.52060103753185e-04,6.00000000000000e-01
1.52240000000000e-08,0.00000000000000e+00,6.00000000000000e-01,1.68557435570864e-04,6.00000000000000e-01
1.52560000000000e-08,0.00000000000000e+00,6.00000000000000e-01,9.22249176989950e-05,6.00000000000000e-01
1.53200000000000e-08,0.00000000000000e+00,6.00000000000000e-01,6.07540059223144e-05,6.00000000000000e-01
1.54480000000000e-08,0.00000000000000e+00,6.00000000000000e-01,-2.40749727090581e-05,6.00000000000000e-01
1.57040000000000e-08,0.00000000000000e+00,6.00000000000000e-01,-1.91802908141442e-04,6.00000000000000e-01
1.61853022385056e-08,0.00000000000000e+00,6.00000000000000e-01,-5.00760575730501e-06,6.00000000000000e-01
1.70631047349753e-08,0.00000000000000e+00,6.00000000000000e-01,-4.42557147636562e-05,6.00000000000000e-01
1.81356349626554e-08,0.00000000000000e+00,6.00000000000000e-01,1.38289565555491e-04,6.00000000000000e-01
2.02806954180158e-08,0.00000000000000e+00,6.00000000000000e-01,-1.39470368554069e-04,6.00000000000000e-01
2.27254967942065e-08,0.00000000000000e+00,6.00000000000000e-01,1.38720779003096e-04,6.00000000000000e-01
2.50000000000000e-08,0.00000000000000e+00,6.00000000000000e-01,-1.28735773575785e-04,6.00000000000000e-01
2.50100000000000e-08,5.99999999999886e-02,6.00000000000000e-01,-1.06867277735179e-05,6.00000000000000e-01
2.50300000000000e-08,1.80000000000006e-01,6.00000000000000e-01,1.97030349555830e-04,6.00000000000000e-01
2.50700000000000e-08,4.20000000000000e-01,6.00000000000000e-01,4.51805532677665e-04,6.00000000000000e-01
2.51000000000000e-08,6.00000000000000e-01,6.00000000000000e-01,4.22329310561138e-04,6.00000000000000e-01
2.51080000000000e-08,6.00000000000000e-01,6.00000000000000e-01,3.02084666330929e-04,6.00000000000000e-01
2.51240000000000e-08,6.00000000000000e-01,6.00000000000000e-01,-4.91612269554187e-06,6.00000000000000e-01
2.51560000000000e-08,6.00000000000000e-01,6.00000000000000e-01,-9.34082494366752e-04,6.00000000000000e-01
2.52200000000000e-08,6.00000000000000e-01,6.00000000000000e-01,-2.97374107133387e-03,6.00000000000000e-01
2.53480000000000e-08,6.00000000000000e-01,6.00000000000000e-01,-5.33754633064500e-03,6.00000000000000e-01
2.56040000000000e-08,6.00000000000000e-01,6.00000000000000e-01,6.90484184325226e-02,6.00000000000000e-01
2.61160000000000e-08,6.00000000000000e-01,6.00000000000000e-01,5.17806018430524e-01,6.00000000000000e-01
2.71400000000000e-08,6.00000000000000e-01,6.00000000000000e-01,6.21766227387779e-01,6.00000000000000e-01
2.82731959315322e-08,6.00000000000000e-01,6.00000000000000e-01,5.77927196587401e-01,6.00000000000000e-01
3.05395877945967e-08,6.00000000000000e-01,6.00000000000000e-01,6.18850012167721e-01,6.00000000000000e-01
3.35456965038552e-08,6.00000000000000e-01,6.00000000000000e-01,5.80193393308819e-01,6.00000000000000e-01
3.51000000000000e-08,5.99999999999970e-01,6.00000000000000e-01,6.16852446401270e-01,6.00000000000000e-01
3.51100000000000e-08,5.39999999999982e-01,6.00000000000000e-01,6.12416697028692e-01,6.00000000000000e-01
3.51300000000000e-08,4.19999999999965e-01,6.00000000000000e-01,6.05818356209857e-01,6.00000000000000e-01
3.51700000000000e-08,1.79999999999970e-01,6.00000000000000e-01,6.01192116850757e-01,6.00000000000000e-01
3.52000000000000e-08,0.00000000000000e+00,6.00000000000000e-01,6.01697336926415e-01,6.00000000000000e-01
3.52080000000000e-08,0.00000000000000e+00,6.00000000000000e-01,6.02051306990944e-01,6.00000000000000e-01
3.52240000000000e-08,0.00000000000000e+00,6.00000000000000e-01,6.02575763625006e-01,6.00000000000000e-01
3.52560000000000e-08,0.00000000000000e+00,6.00000000000000e-01,6.02961343466370e-01,6.00000000000000e-01
3.53200000000000e-08,0.00000000000000e+00,6.00000000000000e-01,6.01785115985895e-01,6.00000000000000e-01
3.54480000000000e-08,0.00000000000000e+00,6.00000000000000e-01,5.87933858425410e-01,6.00000000000000e-01
3.57040000000000e-08,0.00000000000000e+00,6.00000000000000e-01,5.78358154702726e-01,6.00000000000000e-01
3.62160000000000e-08,0.00000000000000e+00,6.00000000000000e-01,6.01005829628579e-01,6.00000000000000e-01
3.71551473421435e-08,0.00000000000000e+00,6.00000000000000e-01,5.98213900536819e-01,6.00000000000000e-01
3.84420381846266e-08,0.00000000000000e+00,6.00000000000000e-01,6.00916636984539e-01,6.00000000000000e-01
4.10158198695927e-08,0.00000000000000e+00,6.00000000000000e-01,5.98720896864180e-01,6.00000000000000e-01
4.48158198695927e-08,0.00000000000000e+00,6.00000000000000e-01,6.00938844768531e-01,6.00000000000000e-01
4.50000000000000e-08,0.00000000000000e+00,6.00000000000000e-01,5.99584213131524e-01,6.00000000000000e-01
4.50100000000000e-08,5.99999999999886e-02,6.00000000000000e-01,5.99538929186423e-01,5.40000000000011e-01
4.50300000000000e-08,1.80000000000006e-01,6.00000000000000e-01,5.99446980940701e-01,4.19999999999994e-01
4.50700000000000e-08,4.20000000000000e-01,6.00000000000000e-01,6.00248928700607e-01,1.80000000000000e-01
4.51000000000000e-08,6.00000000000000e-01,6.00000000000000e-01,6.03413203849091e-01,0.00000000000000e+00
4.51080000000000e-08,6.00000000000000e-01,6.00000000000000e-01,6.04655968075425e-01,0.00000000000000e+00
4.51240000000000e-08,6.00000000000000e-01,6.00000000000000e-01,6.06811352719610e-01,0.00000000000000e+00
4.51560000000000e-08,6.00000000000000e-01,6.00000000000000e-01,6.09992482529352e-01,0.00000000000000e+00
4.52200000000000e-08,6.00000000000000e-01,6.00000000000000e-01,6.15797439707920e-01,0.00000000000000e+00
4.53480000000000e-08,6.00000000000000e-01,6.00000000000000e-01,6.20007621833669e-01,0.00000000000000e+00
4.56040000000000e-08,6.00000000000000e-01,6.00000000000000e-01,3.32487982866335e-01,0.00000000000000e+00
4.61160000000000e-08,6.00000000000000e-01,6.00000000000000e-01,-3.62613389625720e-02,0.00000000000000e+00
4.67881105561103e-08,6.00000000000000e-01,6.00000000000000e-01,2.37316756698940e-02,0.00000000000000e+00
4.81305099070461e-08,6.00000000000000e-01,6.00000000000000e-01,-1.76479205115758e-02,0.00000000000000e+00
4.95489119192010e-08,6.00000000000000e-01,6.00000000000000e-01,1.47939248642720e-02,0.00000000000000e+00
5.01000000000000e-08,6.00000000000000e-01,5.99999999999966e-01,-8.45895375536402e-03,0.00000000000000e+00
5.03836804024310e-08,6.00000000000000e-01,6.00000000000000e-01,-1.41153399512841e-03,0.00000000000000e+00
5.09510412072929e-08,6.00000000000000e-01,6.00000000000000e-01,7.69066774838085e-04,0.00000000000000e+00
5.20857628170168e-08,6.00000000000000e-01,6.00000000000000e-01,-5.78481775037777e-04,0.00000000000000e+00
5.43552060364646e-08,6.00000000000000e-01,6.00000000000000e-01,5.05532040495346e-04,0.00000000000000e+00
5.51000000000000e-08,6.00000000000000e-01,6.00000000000000e-01,-3.37622865586232e-04,0.00000000000000e+00
5.51100000000000e-08,5.40000000000021e-01,6.00000000000000e-01,-7.00935905228253e-05,5.99999999999787e-02
5.51300000000000e-08,4.20000000000004e-01,6.00000000000000e-01,2.75214283885612e-04,1.79999999999996e-01
5.51700000000000e-08,1.80000000000010e-01,6.00000000000000e-01,3.41050821683883e-04,4.19999999999990e-01
5.52000000000000e-08,0.00000000000000e+00,6.00000000000000e-01,2.22194964383103e-04,6.00000000000000e-01
5.52080000000000e-08,0.00000000000000e+00,6.00000000000000e-01,1.72656062220285e-04,6.00000000000000e-01
5.52240000000000e-08,0.00000000000000e+00,6.00000000000000e-01,9.83611102544704e-05,6.00000000000000e-01
5.52560000000000e-08,0.00000000000000e+00,6.00000000000000e-01,3.36655030291275e-05,6.00000000000000e-01
5.53200000000000e-08,0.00000000000000e+00,6.00000000000000e-01,-1.64895746184029e-05,6.00000000000000e-01
5.54480000000000e-08,0.00000000000000e+00,6.00000000000000e-01,-6.89344228130002e-04,6.00000000000000e-01
5.57040000000000e-08,0.00000000000000e+00,6.00000000000000e-01,-7.73751520450405e-04,6.00000000000000e-01
5.61578567950725e-08,0.00000000000000e+00,6.00000000000000e-01,3.76401566119398e-04,6.00000000000000e-01
5.69740450065832e-08,0.00000000000000e+00,6.00000000000000e-01,-3.61186766526420e-04,6.00000000000000e-01
5.80458843105720e-08,0.00000000000000e+00,6.00000000000000e-01,3.00629234768028e-04,6.00000000000000e-01
6.01895629185495e-08,0.00000000000000e+00,6.00000000000000e-01,-2.39256784469402e-04,6.00000000000000e-01
6.25336014182614e-08,0.00000000000000e+00,6.00000000000000e-01,1.98332590258374e-04,6.00000000000000e-01
6.50000000000000e-08,0.00000000000000e+00,6.00000000000000e-01,-1.58261220237424e-04,6.00000000000000e-01
6.50100000000000e-08,5.99999999999886e-02,6.00000000000000e-01,-3.53012357567906e-05,6.00000000000000e-01
6.50300000000000e-08,1.79999999999966e-01,6.00000000000000e-01,1.71229587215757e-04,6.00000000000000e-01
6.50700000000000e-08,4.19999999999920e-01,6.00000000000000e-01,4.26701223729273e-04,6.00000000000000e-01
6.51000000000000e-08,5.99999999999966e-01,6.00000000000000e-01,4.08644315756775e-04,6.00000000000000e-01
6.51080000000000e-08,6.00000000000000e-01,6.00000000000000e-01,2.93617025027865e-04,6.00000000000000e-01
6.51240000000000e-08,6.00000000000000e-01,6.00000000000000e-01,-1.48709676140585e-06,6.00000000000000e-01
6.51560000000000e-08,6.00000000000000e-01,6.00000000000000e-01,-9.12013929894671e-04,6.00000000000000e-01
6.52200000000000e-08,6.00000000000000e-01,6.00000000000000e-01,-2.94574494570907e-03,6.00000000000000e-01
6.53480000000000e-08,6.00000000000000e-01,6.00000000000000e-01,-5.34735113947555e-03,6.00000000000000e-01
6.56040000000000e-08,6.00000000000000e-01,6.00000000000000e-01,6.68583948784384e-02,6.00000000000000e-01
6.61159999999999e-08,6.00000000000000e-01,6.00000000000000e-01,5.16088292913373e-01,6.00000000000000e-01
6.71399999999999e-08,6.00000000000000e-01,6.00000000000000e-01,6.22085607461862e-01,6.00000000000000e-01
6.82692352727453e-08,6.00000000000000e-01,6.00000000000000e-01,5.77622267711525e-01,6.00000000000000e-01
7.05277058182360e-08,6.00000000000000e-01,6.00000000000000e-01,6.19116161205530e-01,6.00000000000000e-01
7.35445963580405e-08,6.00000000000000e-01,6.00000000000000e-01,5.79911356529408e-01,6.00000000000000e-01
7.51000000000000e-08,6.00000000000000e-01,6.00000000000000e-01,6.17089222149016e-01,6.00000000000000e-01
7.51100000000000e-08,5.40000000000061e-01,6.00000000000000e-01,6.12589718685129e-01,6.00000000000000e-01
7.51300000000000e-08,4.20000000000084e-01,6.00000000000000e-01,6.05897985716059e-01,6.00000000000000e-01
7.51700000000000e-08,1.80000000000129e-01,6.00000000000000e-01,6.01203621883427e-01,6.00000000000000e-01
7.52000000000000e-08,8.40438829641244e-14,6.00000000000000e-01,6.01699983049176e-01,6.00000000000000e-01
7.52080000000000e-08,0.00000000000000e+00,6.00000000000000e-01,6.02052840229026e-01,6.00000000000000e-01
7.52240000000000e-08,0.00000000000000e+00,6.00000000000000e-01,6.02575448170485e-01,6.00000000000000e-01
7.52560000000000e-08,0.00000000000000e+00,6.00000000000000e-01,6.02958684616172e-01,6.00000000000000e-01
7.53200000000000e-08,0.00000000000000e+00,6.00000000000000e-01,6.01774429881115e-01,6.00000000000000e-01
7.54480000000000e-08,0.00000000000000e+00,6.00000000000000e-01,5.87906082801140e-01,6.00000000000000e-01
7.57040000000000e-08,0.00000000000000e+00,6.00000000000000e-01,5.78352697652575e-01,6.00000000000000e-01
7.62159999999999e-08,0.00000000000000e+00,6.00000000000000e-01,6.01014597563710e-01,6.00000000000000e-01
7.71551274434123e-08,0.00000000000000e+00,6.00000000000000e-01,5.98206154550253e-01,6.00000000000000e-01
7.84419948632402e-08,0.00000000000000e+00,6.00000000000000e-01,6.00922641430056e-01,6.00000000000000e-01
8.10157297028959e-08,0.00000000000000e+00,6.00000000000000e-01,5.98715222697104e-01,6.00000000000000e-01
8.48157297028959e-08,0.00000000000000e+00,6.00000000000000e-01,6.00944082900726e-01,6.00000000000000e-01
8.50000000000000e-08,0.00000000000000e+00,6.00000000000000e-01,5.99582682630604e-01,6.00000000000000e-01
8.50100000000000e-08,5.99999999999886e-02,6.00000000000000e-01,5.99537602554778e-01,5.40000000000011e-01
8.50300000000000e-08,1.79999999999966e-01,6.00000000000000e-01,5.99446048420452e-01,4.20000000000034e-01
8.50700000000000e-08,4.19999999999920e-01,6.00000000000000e-01,6.00248459858936e-01,1.80000000000080e-01
8.51000000000000e-08,5.99999999999966e-01,6.00000000000000e-01,6.03412982898528e-01,3.44169137633799e-14
8.51080000000000e-08,6.00000000000000e-01,6.00000000000000e-01,6.04655787948038e-01,0.00000000000000e+00
8.51240000000000e-08,6.00000000000000e-01,6.00000000000000e-01,6.06811235229917e-01,0.00000000000000e+00
8.51560000000000e-08,6.00000000000000e-01,6.00000000000000e-01,6.09992412048408e-01,0.00000000000000e+00
8.52200000000000e-08,6.00000000000000e-01,6.00000000000000e-01,6.15797353049489e-01,0.00000000000000e+00
8.53480000000000e-08,6.00000000000000e-01,6.00000000000000e-01,6.20006907525837e-01,0.00000000000000e+00
8.56040000000000e-08,6.00000000000000e-01,6.00000000000000e-01,3.32487447448334e-01,0.00000000000000e+00
8.61159999999999e-08,6.00000000000000e-01,6.00000000000000e-01,-3.62612484864876e-02,0.00000000000000e+00
8.67881125095990e-08,6.00000000000000e-01,6.00000000000000e-01,2.37316057653167e-02,0.00000000000000e+00
8.81304544538657e-08,6.00000000000000e-01,6.00000000000000e-01,-1.76476496967364e-02,0.00000000000000e+00
8.95488712368734e-08,6.00000000000000e-01,6.00000000000000e-01,1.47937172575637e-02,0.00000000000000e+00
9.01000000000000e-08,6.00000000000000e-01,5.99999999999966e-01,-8.45913633494076e-03,0.00000000000000e+00
9.03836833566015e-08,6.00000000000000e-01,6.00000000000000e-01,-1.41158807686107e-03,0.00000000000000e+00
9.09510500698046e-08,6.00000000000000e-01,6.00000000000000e-01,7.69097171568370e-04,0.00000000000000e+00
9.20857834962108e-08,6.00000000000000e-01,6.00000000000000e-01,-5.78503699383249e-04,0.00000000000000e+00
9.43552503490231e-08,6.00000000000000e-01,6.00000000000000e-01,5.05550495649722e-04,0.00000000000000e+00
9.51000000000000e-08,6.00000000000000e-01,6.00000000000000e-01,-3.37624397649923e-04,0.00000000000000e+00
9.51100000000000e-08,5.40000000000061e-01,6.00000000000000e-01,-7.00979420558204e-05,5.99999999999390e-02
9.51300000000000e-08,4.20000000000084e-01,6.00000000000000e-01,2.75209415305226e-04,1.79999999999916e-01
9.51700000000000e-08,1.80000000000129e-01,6.00000000000000e-01,3.41047743292272e-04,4.19999999999871e-01
9.52000000000000e-08,8.40438829641244e-14,6.00000000000000e-01,2.22192693398113e-04,5.99999999999916e-01
9.52080000000000e-08,0.00000000000000e+00,6.00000000000000e-01,1.72653931261951e-04,6.00000000000000e-01
9.52240000000000e-08,0.00000000000000e+00,6.00000000000000e-01,9.83591263716832e-05,6.00000000000000e-01
9.52560000000000e-08,0.00000000000000e+00,6.00000000000000e-01,3.36640659061929e-05,6.00000000000000e-01
9.53200000000000e-08,0.00000000000000e+00,6.00000000000000e-01,-1.64861585328635e-05,6.00000000000000e-01
9.54480000000000e-08,0.00000000000000e+00,6.00000000000000e-01,-6.89310341512830e-04,6.00000000000000e-01
9.57040000000000e-08,0.00000000000000e+00,6.00000000000000e-01,-7.73698143515165e-04,6.00000000000000e-01
9.61578322781928e-08,0.00000000000000e+00,6.00000000000000e-01,3.76374681269021e-04,6.00000000000000e-01
9.69739172105835e-08,0.00000000000000e+00,6.00000000000000e-01,-3.61165320994514e-04,6.00000000000000e-01
9.80457755475561e-08,0.00000000000000e+00,6.00000000000000e-01,3.00609834226155e-04,6.00000000000000e-01
1.00189492221501e-07,0.00000000000000e+00,6.00000000000000e-01,-2.39237926041814e-04,6.00000000000000e-01
1.02533387057173e-07,0.00000000000000e+00,6.00000000000000e-01,1.98309906711900e-04,6.00000000000000e-01
1.05000000000000e-07,0.00000000000000e+00,6.00000000000000e-01,-1.58243248735940e-04,6.00000000000000e-01
1.05010000000000e-07,5.99999999999886e-02,6.00000000000000e-01,-3.52836848540594e-05,6.00000000000000e-01
1.05030000000000e-07,1.79999999999966e-01,6.00000000000000e-01,1.71246353597755e-04,6.00000000000000e-01
1.05070000000000e-07,4.19999999999920e-01,6.00000000000000e-01,4.26715936920473e-04,6.00000000000000e-01
1.05100000000000e-07,5.99999999999966e-01,6.00000000000000e-01,4.08657176324358e-04,6.00000000000000e-01
1.05108000000000e-07,6.00000000000000e-01,6.00000000000000e-01,2.93629352708734e-04,6.00000000000000e-01
1.05124000000000e-07,6.00000000000000e-01,6.00000000000000e-01,-1.47584633477388e-06,6.00000000000000e-01
1.05156000000000e-07,6.00000000000000e-01,6.00000000000000e-01,-9.12005183002725e-04,6.00000000000000e-01
1.05220000000000e-07,6.00000000000000e-01,6.00000000000000e-01,-2.94574024180790e-03,6.00000000000000e-01
1.05348000000000e-07,6.00000000000000e-01,6.00000000000000e-01,-5.34735207235389e-03,6.00000000000000e-01
1.05604000000000e-07,6.00000000000000e-01,6.00000000000000e-01,6.68581333594513e-02,6.00000000000000e-01
1.06116000000000e-07,6.00000000000000e-01,6.00000000000000e-01,5.16088085780593e-01,6.00000000000000e-01
1.07140000000000e-07,6.00000000000000e-01,6.00000000000000e-01,6.22085645471065e-01,6.00000000000000e-01
1.08269234805920e-07,6.00000000000000e-01,6.00000000000000e-01,5.77622231468185e-01,6.00000000000000e-01
1.10527704417760e-07,6.00000000000000e-01,6.00000000000000e-01,6.19116192750769e-01,6.00000000000000e-01
1.13544596258907e-07,6.00000000000000e-01,6.00000000000000e-01,5.79911323038900e-01,6.00000000000000e-01
1.15100000000000e-07,6.00000000000000e-01,6.00000000000000e-01,6.17089250819663e-01,6.00000000000000e-01
1.15110000000000e-07,5.40000000000061e-01,6.00000000000000e-01,6.12589739475639e-01,6.00000000000000e-01
1.15130000000000e-07,4.20000000000084e-01,6.00000000000000e-01,6.05897995150970e-01,6.00000000000000e-01
1.15170000000000e-07,1.80000000000129e-01,6.00000000000000e-01,6.01203623343866e-01,6.00000000000000e-01
1.15200000000000e-07,8.40438829641244e-14,6.00000000000000e-01,6.01699983473865e-01,6.00000000000000e-01
1.15208000000000e-07,0.00000000000000e+00,6.00000000000000e-01,6.02052840476962e-01,6.00000000000000e-01
1.15224000000000e-07,0.00000000000000e+00,6.00000000000000e-01,6.02575448162912e-01,6.00000000000000e-01
