Time,v(clk),v(data),v(out),v(reset)
1.00000000000000e-08,6.50000000000000e-01,0.00000000000000e+00,1.95833347865087e-05,0.00000000000000e+00
1.00100000000000e-08,6.50000000000000e-01,6.49999999999984e-02,1.07372353982740e-05,0.00000000000000e+00
1.00300000000000e-08,6.50000000000000e-01,1.94999999999995e-01,1.06598339676134e-07,0.00000000000000e+00
1.00700000000000e-08,6.50000000000000e-01,4.54999999999989e-01,-2.55958340519835e-06,0.00000000000000e+00
1.01000000000000e-08,6.50000000000000e-01,6.49999999999995e-01,-2.14517670596437e-06,0.00000000000000e+00
1.01080000000000e-08,6.50000000000000e-01,6.50000000000000e-01,-1.41455937290036e-06,0.00000000000000e+00
1.01240000000000e-08,6.50000000000000e-01,6.50000000000000e-01,8.03508994270952e-08,0.00000000000000e+00
1.01560000000000e-08,6.50000000000000e-01,6.50000000000000e-01,2.00082667258655e-06,0.00000000000000e+00
1.02200000000000e-08,6.50000000000000e-01,6.50000000000000e-01,1.98961708712531e-06,0.00000000000000e+00
1.03480000000000e-08,6.50000000000000e-01,6.50000000000000e-01,9.12189964175081e-07,0.00000000000000e+00
1.06040000000000e-08,6.50000000000000e-01,6.50000000000000e-01,1.85776586652912e-06,0.00000000000000e+00
1.11160000000000e-08,6.50000000000000e-01,6.50000000000000e-01,1.21722484413070e-06,0.00000000000000e+00
1.21400000000000e-08,6.50000000000000e-01,6.50000000000000e-01,1.39744402202595e-06,0.00000000000000e+00
1.41880000000000e-08,6.50000000000000e-01,6.50000000000000e-01,8.86440603956387e-07,0.00000000000000e+00
1.51000000000000e-08,6.50000000000000e-01,6.50000000000000e-01,1.01235501095585e-06,0.00000000000000e+00
1.51100000000000e-08,5.84999999999991e-01,6.50000000000000e-01,1.67851052650304e-04,6.50000000000092e-02
1.51300000000000e-08,4.54999999999994e-01,6.50000000000000e-01,3.16342570317089e-04,1.95000000000006e-01
1.51700000000000e-08,1.95000000000000e-01,6.50000000000000e-01,1.46325148777091e-04,4.55000000000000e-01
1.52000000000000e-08,0.00000000000000e+00,6.50000000000000e-01,2.64859236981385e-05,6.50000000000000e-01
1.52080000000000e-08,0.00000000000000e+00,6.50000000000000e-01,7.42066627686111e-06,6.50000000000000e-01
1.52240000000000e-08,0.00000000000000e+00,6.50000000000000e-01,-1.28760519468446e-05,6.50000000000000e-01
1.52560000000000e-08,0.00000000000000e+00,6.50000000000000e-01,-2.56941900181329e-06,6.50000000000000e-01
1.53200000000000e-08,0.00000000000000e+00,6.50000000000000e-01,-3.37873745032760e-05,6.50000000000000e-01
1.54480000000000e-08,0.00000000000000e+00,6.50000000000000e-01,-1.03112516062709e-04,6.50000000000000e-01
1.57040000000000e-08,0.00000000000000e+00,6.50000000000000e-01,-9.14731264957756e-05,6.50000000000000e-01
1.61507562985062e-08,0.00000000000000e+00,6.50000000000000e-01,1.32800065417047e-05,6.50000000000000e-01
1.67332142693216e-08,0.00000000000000e+00,6.50000000000000e-01,9.36468393074336e-05,6.50000000000000e-01
1.78164223386993e-08,0.00000000000000e+00,6.50000000000000e-01,-1.04447880610755e-04,6.50000000000000e-01
1.90035308536959e-08,0.00000000000000e+00,6.50000000000000e-01,1.08797449427839e-04,6.50000000000000e-01
2.13777478836890e-08,0.00000000000000e+00,6.50000000000000e-01,-1.07192736727233e-04,6.50000000000000e-01
2.50000000000000e-08,0.00000000000000e+00,6.50000000000000e-01,1.06129064015921e-04,6.50000000000000e-01
2.50100000000000e-08,6.49999999999877e-02,6.50000000000000e-01,1.92147515308001e-04,6.50000000000000e-01
2.50300000000000e-08,1.95000000000006e-01,6.50000000000000e-01,3.05502620767333e-04,6.50000000000000e-01
2.50700000000000e-08,4.55000000000000e-01,6.50000000000000e-01,2.33486768217127e-04,6.50000000000000e-01
2.51000000000000e-08,6.50000000000000e-01,6.50000000000000e-01,-1.47171773063605e-03,6.50000000000000e-01
2.51080000000000e-08,6.50000000000000e-01,6.50000000000000e-01,-2.34283235571792e-03,6.50000000000000e-01
2.51240000000000e-08,6.50000000000000e-01,6.50000000000000e-01,-3.91900335201782e-03,6.50000000000000e-01
2.51560000000000e-08,6.50000000000000e-01,6.50000000000000e-01,-5.94496626069230e-03,6.50000000000000e-01
2.52200000000000e-08,6.50000000000000e-01,6.50000000000000e-01,7.33457193140195e-03,6.50000000000000e-01
2.53480000000000e-08,6.50000000000000e-01,6.50000000000000e-01,2.37761977750040e-01,6.50000000000000e-01
2.56040000000000e-08,6.50000000000000e-01,6.50000000000000e-01,6.39194246245546e-01,6.50000000000000e-01
2.60540236923015e-08,6.50000000000000e-01,6.50000000000000e-01,6.52684069622455e-01,6.50000000000000e-01
2.66097987630695e-08,6.50000000000000e-01,6.50000000000000e-01,6.48299584551020e-01,6.50000000000000e-01
2.75709137104312e-08,6.50000000000000e-01,6.50000000000000e-01,6.50838341806285e-01,6.50000000000000e-01
2.87249898727832e-08,6.50000000000000e-01,6.50000000000000e-01,6.49358369075607e-01,6.50000000000000e-01
3.10331421974872e-08,6.50000000000000e-01,6.50000000000000e-01,6.50368942245525e-01,6.50000000000000e-01
3.47742975156837e-08,6.50000000000000e-01,6.50000000000000e-01,6.49626675010279e-01,6.50000000000000e-01
3.51000000000000e-08,6.49999999999968e-01,6.50000000000000e-01,6.49671420774431e-01,6.50000000000000e-01
3.51100000000000e-08,5.84999999999980e-01,6.50000000000000e-01,6.49947696239197e-01,6.50000000000000e-01
3.51300000000000e-08,4.54999999999962e-01,6.50000000000000e-01,6.50144336177387e-01,6.50000000000000e-01
3.51700000000000e-08,1.94999999999968e-01,6.50000000000000e-01,6.50451891995296e-01,6.50000000000000e-01
3.52000000000000e-08,0.00000000000000e+00,6.50000000000000e-01,6.51793009460816e-01,6.50000000000000e-01
3.52080000000000e-08,0.00000000000000e+00,6.50000000000000e-01,6.52204882651995e-01,6.50000000000000e-01
3.52240000000000e-08,0.00000000000000e+00,6.50000000000000e-01,6.52766187642162e-01,6.50000000000000e-01
3.52560000000000e-08,0.00000000000000e+00,6.50000000000000e-01,6.52537467807488e-01,6.50000000000000e-01
3.53200000000000e-08,0.00000000000000e+00,6.50000000000000e-01,6.44727377045740e-01,6.50000000000000e-01
3.54480000000000e-08,0.00000000000000e+00,6.50000000000000e-01,6.23246772572919e-01,6.50000000000000e-01
3.57040000000000e-08,0.00000000000000e+00,6.50000000000000e-01,6.36761481106767e-01,6.50000000000000e-01
3.62160000000000e-08,0.00000000000000e+00,6.50000000000000e-01,6.55937191506020e-01,6.50000000000000e-01
3.69051604385315e-08,0.00000000000000e+00,6.50000000000000e-01,6.44590334642925e-01,6.50000000000000e-01
3.82239665207496e-08,0.00000000000000e+00,6.50000000000000e-01,6.54025024138857e-01,6.50000000000000e-01
4.08615786851860e-08,0.00000000000000e+00,6.50000000000000e-01,6.45846702758761e-01,6.50000000000000e-01
4.46615786851860e-08,0.00000000000000e+00,6.50000000000000e-01,6.53658151806070e-01,6.50000000000000e-01
4.50000000000000e-08,0.00000000000000e+00,6.50000000000000e-01,6.47698546344984e-01,6.50000000000000e-01
4.50100000000000e-08,6.49999999999877e-02,6.50000000000000e-01,6.47996291328675e-01,5.85000000000012e-01
4.50300000000000e-08,1.95000000000006e-01,6.50000000000000e-01,6.48503750352496e-01,4.54999999999994e-01
4.50700000000000e-08,4.55000000000000e-01,6.50000000000000e-01,6.50217696631684e-01,1.95000000000000e-01
4.51000000000000e-08,6.50000000000000e-01,6.50000000000000e-01,6.53991486955594e-01,0.00000000000000e+00
4.51080000000000e-08,6.50000000000000e-01,6.50000000000000e-01,6.55317231699067e-01,0.00000000000000e+00
4.51240000000000e-08,6.50000000000000e-01,6.50000000000000e-01,6.57625827992722e-01,0.00000000000000e+00
4.51560000000000e-08,6.50000000000000e-01,6.50000000000000e-01,6.61380450100128e-01,0.00000000000000e+00
4.52200000000000e-08,6.50000000000000e-01,6.50000000000000e-01,6.69255167302740e-01,0.00000000000000e+00
4.53480000000000e-08,6.50000000000000e-01,6.50000000000000e-01,3.93672388005988e-01,0.00000000000000e+00
4.56040000000000e-08,6.50000000000000e-01,6.50000000000000e-01,-3.03426177330632e-02,0.00000000000000e+00
4.59034566488997e-08,6.50000000000000e-01,6.50000000000000e-01,2.17969487922916e-02,0.00000000000000e+00
4.65023699466992e-08,6.50000000000000e-01,6.50000000000000e-01,-1.70460255859399e-02,0.00000000000000e+00
4.71182671359771e-08,6.50000000000000e-01,6.50000000000000e-01,1.46916831157089e-02,0.00000000000000e+00
4.83500615145330e-08,6.50000000000000e-01,6.50000000000000e-01,-1.29096613722012e-02,0.00000000000000e+00
5.01000000000000e-08,6.50000000000000e-01,6.49999999999963e-01,1.24792883019887e-02,0.00000000000000e+00
5.03463588757112e-08,6.50000000000000e-01,6.50000000000000e-01,1.29488195336836e-03,0.00000000000000e+00
5.08390766271335e-08,6.50000000000000e-01,6.50000000000000e-01,-1.02344000441816e-03,0.00000000000000e+00
5.18245121299782e-08,6.50000000000000e-01,6.50000000000000e-01,9.13652838941981e-04,0.00000000000000e+00
5.37953831356677e-08,6.50000000000000e-01,6.50000000000000e-01,-8.60441380999065e-04,0.00000000000000e+00
5.51000000000000e-08,6.50000000000000e-01,6.50000000000000e-01,7.90363615222759e-04,0.00000000000000e+00
5.51100000000000e-08,5.85000000000023e-01,6.50000000000000e-01,7.49782214167133e-04,6.49999999999769e-02
5.51300000000000e-08,4.55000000000005e-01,6.50000000000000e-01,5.98004283099134e-04,1.94999999999995e-01
5.51700000000000e-08,1.95000000000011e-01,6.50000000000000e-01,1.92146207840520e-04,4.54999999999989e-01
5.52000000000000e-08,0.00000000000000e+00,6.50000000000000e-01,3.69882554868833e-05,6.50000000000000e-01
5.52080000000000e-08,0.00000000000000e+00,6.50000000000000e-01,1.47039934129331e-05,6.50000000000000e-01
5.52240000000000e-08,0.00000000000000e+00,6.50000000000000e-01,-1.10837638270522e-05,6.50000000000000e-01
5.52560000000000e-08,0.00000000000000e+00,6.50000000000000e-01,-1.54789221876242e-05,6.50000000000000e-01
5.53200000000000e-08,0.00000000000000e+00,6.50000000000000e-01,-2.75793621468762e-04,6.50000000000000e-01
5.54480000000000e-08,0.00000000000000e+00,6.50000000000000e-01,-5.75545642873786e-04,6.50000000000000e-01
5.57040000000000e-08,0.00000000000000e+00,6.50000000000000e-01,2.90991619574405e-04,6.50000000000000e-01
5.61524782923902e-08,0.00000000000000e+00,6.50000000000000e-01,-3.02075069303213e-04,6.50000000000000e-01
5.67342792773211e-08,0.00000000000000e+00,6.50000000000000e-01,2.49107659530291e-04,6.50000000000000e-01
5.78216679985083e-08,0.00000000000000e+00,6.50000000000000e-01,-1.91386894913736e-04,6.50000000000000e-01
5.90147249973435e-08,0.00000000000000e+00,6.50000000000000e-01,1.48587025006242e-04,6.50000000000000e-01
6.14008389950140e-08,0.00000000000000e+00,6.50000000000000e-01,-1.27722123300469e-04,6.50000000000000e-01
6.50000000000000e-08,0.00000000000000e+00,6.50000000000000e-01,1.16239365199133e-04,6.50000000000000e-01
6.50100000000000e-08,6.49999999999877e-02,6.50000000000000e-01,2.47037345067987e-04,6.50000000000000e-01
6.50300000000000e-08,1.94999999999963e-01,6.50000000000000e-01,3.94095474975119e-04,6.50000000000000e-01
6.50700000000000e-08,4.54999999999914e-01,6.50000000000000e-01,2.79840278610700e-04,6.50000000000000e-01
6.51000000000000e-08,6.49999999999963e-01,6.50000000000000e-01,-1.43315464539599e-03,6.50000000000000e-01
6.51080000000000e-08,6.50000000000000e-01,6.50000000000000e-01,-2.30671780206670e-03,6.50000000000000e-01
6.51240000000000e-08,6.50000000000000e-01,6.50000000000000e-01,-3.89132928885292e-03,6.50000000000000e-01
6.51560000000000e-08,6.50000000000000e-01,6.50000000000000e-01,-5.93391737665400e-03,6.50000000000000e-01
6.52200000000000e-08,6.50000000000000e-01,6.50000000000000e-01,7.54759931971915e-03,6.50000000000000e-01
6.53480000000000e-08,6.50000000000000e-01,6.50000000000000e-01,2.38576099938145e-01,6.50000000000000e-01
6.56040000000000e-08,6.50000000000000e-01,6.50000000000000e-01,6.39411440865043e-01,6.50000000000000e-01
6.60534446736670e-08,6.50000000000000e-01,6.50000000000000e-01,6.52584084536109e-01,6.50000000000000e-01
6.66094736396811e-08,6.50000000000000e-01,6.50000000000000e-01,6.48397413794311e-01,6.50000000000000e-01
6.75698944766773e-08,6.50000000000000e-01,6.50000000000000e-01,6.50759593190359e-01,6.50000000000000e-01
6.87243460335141e-08,6.50000000000000e-01,6.50000000000000e-01,6.49438046382361e-01,6.50000000000000e-01
7.10332491471877e-08,6.50000000000000e-01,6.50000000000000e-01,6.50298467919377e-01,6.50000000000000e-01
7.47755459591471e-08,6.50000000000000e-01,6.50000000000000e-01,6.49700777525463e-01,6.50000000000000e-01
7.51000000000000e-08,6.50000000000000e-01,6.50000000000000e-01,6.49618154388045e-01,6.50000000000000e-01
7.51100000000000e-08,5.85000000000066e-01,6.50000000000000e-01,6.49908383673220e-01,6.50000000000000e-01
7.51300000000000e-08,4.55000000000091e-01,6.50000000000000e-01,6.50126817869254e-01,6.50000000000000e-01
7.51700000000000e-08,1.95000000000140e-01,6.50000000000000e-01,6.50450382011782e-01,6.50000000000000e-01
7.52000000000000e-08,9.09272657168003e-14,6.50000000000000e-01,6.51792218548097e-01,6.50000000000000e-01
7.52080000000000e-08,0.00000000000000e+00,6.50000000000000e-01,6.52204139031856e-01,6.50000000000000e-01
7.52240000000000e-08,0.00000000000000e+00,6.50000000000000e-01,6.52765427166969e-01,6.50000000000000e-01
7.52560000000000e-08,0.00000000000000e+00,6.50000000000000e-01,6.52536083035790e-01,6.50000000000000e-01
7.53200000000000e-08,0.00000000000000e+00,6.50000000000000e-01,6.44722715847760e-01,6.50000000000000e-01
7.54480000000000e-08,0.00000000000000e+00,6.50000000000000e-01,6.23243217157340e-01,6.50000000000000e-01
7.57040000000000e-08,0.00000000000000e+00,6.50000000000000e-01,6.36763383553842e-01,6.50000000000000e-01
7.62159999999999e-08,0.00000000000000e+00,6.50000000000000e-01,6.55935463077454e-01,6.50000000000000e-01
7.69051611901432e-08,0.00000000000000e+00,6.50000000000000e-01,6.44591748164107e-01,6.50000000000000e-01
7.82239449447124e-08,0.00000000000000e+00,6.50000000000000e-01,6.54023787745618e-01,6.50000000000000e-01
8.08615124538508e-08,0.00000000000000e+00,6.50000000000000e-01,6.45847885523067e-01,6.50000000000000e-01
8.46615124538508e-08,0.00000000000000e+00,6.50000000000000e-01,6.53657028198590e-01,6.50000000000000e-01
8.50000000000000e-08,0.00000000000000e+00,6.50000000000000e-01,6.47698998234354e-01,6.50000000000000e-01
8.50100000000000e-08,6.49999999999877e-02,6.50000000000000e-01,6.47996571434285e-01,5.85000000000012e-01
8.50300000000000e-08,1.94999999999963e-01,6.50000000000000e-01,6.48503952861400e-01,4.55000000000037e-01
8.50700000000000e-08,4.54999999999914e-01,6.50000000000000e-01,6.50217788705200e-01,1.95000000000086e-01
8.51000000000000e-08,6.49999999999963e-01,6.50000000000000e-01,6.53991514070980e-01,3.71924713249427e-14
8.51080000000000e-08,6.50000000000000e-01,6.50000000000000e-01,6.55317250066708e-01,0.00000000000000e+00
8.51240000000000e-08,6.50000000000000e-01,6.50000000000000e-01,6.57625834355929e-01,0.00000000000000e+00
8.51560000000000e-08,6.50000000000000e-01,6.50000000000000e-01,6.61380451078603e-01,0.00000000000000e+00
8.52200000000000e-08,6.50000000000000e-01,6.50000000000000e-01,6.69255173663144e-01,0.00000000000000e+00
8.53480000000000e-08,6.50000000000000e-01,6.50000000000000e-01,3.93673054699452e-01,0.00000000000000e+00
8.56040000000000e-08,6.50000000000000e-01,6.50000000000000e-01,-3.03422812265164e-02,0.00000000000000e+00
8.59034569631273e-08,6.50000000000000e-01,6.50000000000000e-01,2.17967072508651e-02,0.00000000000000e+00
8.65023708893820e-08,6.50000000000000e-01,6.50000000000000e-01,-1.70458590744665e-02,0.00000000000000e+00
8.71182685328905e-08,6.50000000000000e-01,6.50000000000000e-01,1.46915324407334e-02,0.00000000000000e+00
8.83500638199075e-08,6.50000000000000e-01,6.50000000000000e-01,-1.29095428477477e-02,0.00000000000000e+00
9.01000000000000e-08,6.50000000000000e-01,6.49999999999963e-01,1.24791636263206e-02,0.00000000000000e+00
9.03463590574034e-08,6.50000000000000e-01,6.50000000000000e-01,1.29486633460444e-03,0.00000000000000e+00
9.08390771722102e-08,6.50000000000000e-01,6.50000000000000e-01,-1.02342794509679e-03,0.00000000000000e+00
9.18245134018237e-08,6.50000000000000e-01,6.50000000000000e-01,9.13642181510467e-04,0.00000000000000e+00
9.37953858610509e-08,6.50000000000000e-01,6.50000000000000e-01,-8.60431451517697e-04,0.00000000000000e+00
9.51000000000000e-08,6.50000000000000e-01,6.50000000000000e-01,7.90354384899415e-04,0.00000000000000e+00
9.51100000000000e-08,5.85000000000066e-01,6.50000000000000e-01,7.49775182686020e-04,6.49999999999339e-02
9.51300000000000e-08,4.55000000000091e-01,6.50000000000000e-01,5.98000527832598e-04,1.94999999999909e-01
9.51700000000000e-08,1.95000000000140e-01,6.50000000000000e-01,1.92145523090513e-04,4.54999999999860e-01
9.52000000000000e-08,9.09272657168003e-14,6.50000000000000e-01,3.69882925187540e-05,6.49999999999909e-01
9.52080000000000e-08,0.00000000000000e+00,6.50000000000000e-01,1.47041345892537e-05,6.50000000000000e-01
9.52240000000000e-08,0.00000000000000e+00,6.50000000000000e-01,-1.10836786150481e-05,6.50000000000000e-01
9.52560000000000e-08,0.00000000000000e+00,6.50000000000000e-01,-1.54792144449259e-05,6.50000000000000e-01
9.53200000000000e-08,0.00000000000000e+00,6.50000000000000e-01,-2.75796264657298e-04,6.50000000000000e-01
9.54480000000000e-08,0.00000000000000e+00,6.50000000000000e-01,-5.75551419098558e-04,6.50000000000000e-01
9.57040000000000e-08,0.00000000000000e+00,6.50000000000000e-01,2.90994069048060e-04,6.50000000000000e-01
9.61524782108683e-08,0.00000000000000e+00,6.50000000000000e-01,-3.02077444916435e-04,6.50000000000000e-01
9.67342791538157e-08,0.00000000000000e+00,6.50000000000000e-01,2.49109680695285e-04,6.50000000000000e-01
9.78216676701827e-08,0.00000000000000e+00,6.50000000000000e-01,-1.91388178808616e-04,6.50000000000000e-01
9.90147245594252e-08,0.00000000000000e+00,6.50000000000000e-01,1.48587827471954e-04,6.50000000000000e-01
1.01400838337910e-07,0.00000000000000e+00,6.50000000000000e-01,-1.27722701789824e-04,6.50000000000000e-01
1.05000000000000e-07,0.00000000000000e+00,6.50000000000000e-01,1.16239836834599e-04,6.50000000000000e-01
1.05010000000000e-07,6.49999999999877e-02,6.50000000000000e-01,2.47038337504092e-04,6.50000000000000e-01
1.05030000000000e-07,1.94999999999963e-01,6.50000000000000e-01,3.94096706722552e-04,6.50000000000000e-01
1.05070000000000e-07,4.54999999999914e-01,6.50000000000000e-01,2.79841650988967e-04,6.50000000000000e-01
1.05100000000000e-07,6.49999999999963e-01,6.50000000000000e-01,-1.43315171840860e-03,6.50000000000000e-01
1.05108000000000e-07,6.50000000000000e-01,6.50000000000000e-01,-2.30671481779076e-03,6.50000000000000e-01
1.05124000000000e-07,6.50000000000000e-01,6.50000000000000e-01,-3.89132667044837e-03,6.50000000000000e-01
1.05156000000000e-07,6.50000000000000e-01,6.50000000000000e-01,-5.93391621237704e-03,6.50000000000000e-01
1.05220000000000e-07,6.50000000000000e-01,6.50000000000000e-01,7.54757943526610e-03,6.50000000000000e-01
1.05348000000000e-07,6.50000000000000e-01,6.50000000000000e-01,2.38576025037404e-01,6.50000000000000e-01
1.05604000000000e-07,6.50000000000000e-01,6.50000000000000e-01,6.39411421201334e-01,6.50000000000000e-01
1.06053444719319e-07,6.50000000000000e-01,6.50000000000000e-01,6.52584093542454e-01,6.50000000000000e-01
1.06609473662896e-07,6.50000000000000e-01,6.50000000000000e-01,6.48397404991663e-01,6.50000000000000e-01
1.07569894554829e-07,6.50000000000000e-01,6.50000000000000e-01,6.50759600185306e-01,6.50000000000000e-01
1.08724346073619e-07,6.50000000000000e-01,6.50000000000000e-01,6.49438039338235e-01,6.50000000000000e-01
1.11033249111199e-07,6.50000000000000e-01,6.50000000000000e-01,6.50298474127466e-01,6.50000000000000e-01
1.14775545828050e-07,6.50000000000000e-01,6.50000000000000e-01,6.49700771004314e-01,6.50000000000000e-01
1.15100000000000e-07,6.50000000000000e-01,6.50000000000000e-01,6.49618159040542e-01,6.50000000000000e-01
1.15110000000000e-07,5.85000000000066e-01,6.50000000000000e-01,6.49908387129141e-01,6.50000000000000e-01
1.15130000000000e-07,4.55000000000091e-01,6.50000000000000e-01,6.50126819442620e-01,6.50000000000000e-01
1.15170000000000e-07,1.95000000000140e-01,6.50000000000000e-01,6.50450382173568e-01,6.50000000000000e-01
