Time,v(clk),v(data),v(out),v(reset)
1.00000000000000e-08,6.50000000000000e-01,0.00000000000000e+00,3.79068206695526e-05,0.00000000000000e+00
1.00100000000000e-08,6.50000000000000e-01,6.49999999999984e-02,2.79424052439109e-05,0.00000000000000e+00
1.00300000000000e-08,6.50000000000000e-01,1.94999999999995e-01,1.42779201470281e-05,0.00000000000000e+00
1.00700000000000e-08,6.50000000000000e-01,4.54999999999989e-01,3.09246974295602e-06,0.00000000000000e+00
1.01000000000000e-08,6.50000000000000e-01,6.49999999999995e-01,7.63335157194511e-07,0.00000000000000e+00
1.01080000000000e-08,6.50000000000000e-01,6.50000000000000e-01,8.91468886182745e-07,0.00000000000000e+00
1.01240000000000e-08,6.50000000000000e-01,6.50000000000000e-01,1.61998944648439e-06,0.00000000000000e+00
1.01560000000000e-08,6.50000000000000e-01,6.50000000000000e-01,2.95565232181355e-06,0.00000000000000e+00
1.02200000000000e-08,6.50000000000000e-01,6.50000000000000e-01,3.54312309271132e-06,0.00000000000000e+00
1.03480000000000e-08,6.50000000000000e-01,6.50000000000000e-01,2.03010144213950e-06,0.00000000000000e+00
1.06040000000000e-08,6.50000000000000e-01,6.50000000000000e-01,2.84458682562466e-06,0.00000000000000e+00
1.11160000000000e-08,6.50000000000000e-01,6.50000000000000e-01,2.11630764724094e-06,0.00000000000000e+00
1.21400000000000e-08,6.50000000000000e-01,6.50000000000000e-01,2.13472447553034e-06,0.00000000000000e+00
1.41880000000000e-08,6.50000000000000e-01,6.50000000000000e-01,1.66201772229362e-06,0.00000000000000e+00
1.51000000000000e-08,6.50000000000000e-01,6.50000000000000e-01,1.58618480442570e-06,0.00000000000000e+00
1.51100000000000e-08,5.84999999999991e-01,6.50000000000000e-01,1.73595858589039e-04,6.50000000000092e-02
1.51300000000000e-08,4.54999999999994e-01,6.50000000000000e-01,3.42056470478150e-04,1.95000000000006e-01
1.51700000000000e-08,1.95000000000000e-01,6.50000000000000e-01,2.07028054211120e-04,4.55000000000000e-01
1.52000000000000e-08,0.00000000000000e+00,6.50000000000000e-01,6.99988275725053e-05,6.50000000000000e-01
1.52080000000000e-08,0.00000000000000e+00,6.50000000000000e-01,3.63455575281696e-05,6.50000000000000e-01
1.52240000000000e-08,0.00000000000000e+00,6.50000000000000e-01,-5.91088787582628e-06,6.50000000000000e-01
1.52560000000000e-08,0.00000000000000e+00,6.50000000000000e-01,-1.47031476384341e-05,6.50000000000000e-01
1.53200000000000e-08,0.00000000000000e+00,6.50000000000000e-01,-4.98854220527395e-05,6.50000000000000e-01
1.54480000000000e-08,0.00000000000000e+00,6.50000000000000e-01,-1.26711207762805e-04,6.50000000000000e-01
1.57040000000000e-08,0.00000000000000e+00,6.50000000000000e-01,-6.78100417257719e-05,6.50000000000000e-01
1.62140109732118e-08,0.00000000000000e+00,6.50000000000000e-01,-4.80390609112029e-05,6.50000000000000e-01
1.68450754752251e-08,0.00000000000000e+00,6.50000000000000e-01,1.33669692636033e-04,6.50000000000000e-01
1.80484099733297e-08,0.00000000000000e+00,6.50000000000000e-01,-1.12347953897719e-04,6.50000000000000e-01
1.93606790861397e-08,0.00000000000000e+00,6.50000000000000e-01,9.54927632191840e-05,6.50000000000000e-01
2.19852173117596e-08,0.00000000000000e+00,6.50000000000000e-01,-8.56392008100741e-05,6.50000000000000e-01
2.50000000000000e-08,0.00000000000000e+00,6.50000000000000e-01,7.98057961357073e-05,6.50000000000000e-01
2.50100000000000e-08,6.49999999999877e-02,6.50000000000000e-01,1.82125352591211e-04,6.50000000000000e-01
2.50300000000000e-08,1.95000000000006e-01,6.50000000000000e-01,3.27114976275127e-04,6.50000000000000e-01
2.50700000000000e-08,4.55000000000000e-01,6.50000000000000e-01,3.15285120700046e-04,6.50000000000000e-01
2.51000000000000e-08,6.50000000000000e-01,6.50000000000000e-01,-1.03778695923872e-03,6.50000000000000e-01
2.51080000000000e-08,6.50000000000000e-01,6.50000000000000e-01,-1.80787625411082e-03,6.50000000000000e-01
2.51240000000000e-08,6.50000000000000e-01,6.50000000000000e-01,-3.27919629448022e-03,6.50000000000000e-01
2.51560000000000e-08,6.50000000000000e-01,6.50000000000000e-01,-5.37955994649972e-03,6.50000000000000e-01
2.52200000000000e-08,6.50000000000000e-01,6.50000000000000e-01,-1.34843164826210e-03,6.50000000000000e-01
2.53480000000000e-08,6.50000000000000e-01,6.50000000000000e-01,1.65007172355329e-01,6.50000000000000e-01
2.56040000000000e-08,6.50000000000000e-01,6.50000000000000e-01,5.99667917741011e-01,6.50000000000000e-01
2.61160000000000e-08,6.50000000000000e-01,6.50000000000000e-01,6.65735081461527e-01,6.50000000000000e-01
2.66669791660786e-08,6.50000000000000e-01,6.50000000000000e-01,6.35375115618232e-01,6.50000000000000e-01
2.77561124558787e-08,6.50000000000000e-01,6.50000000000000e-01,6.61098277894328e-01,6.50000000000000e-01
2.89400398544784e-08,6.50000000000000e-01,6.50000000000000e-01,6.38841574026136e-01,6.50000000000000e-01
3.13078946516777e-08,6.50000000000000e-01,6.50000000000000e-01,6.59502354632988e-01,6.50000000000000e-01
3.51000000000000e-08,6.49999999999968e-01,6.50000000000000e-01,6.39887267217944e-01,6.50000000000000e-01
3.51100000000000e-08,5.84999999999980e-01,6.50000000000000e-01,6.42270529815957e-01,6.50000000000000e-01
3.51300000000000e-08,4.54999999999962e-01,6.50000000000000e-01,6.45870031759643e-01,6.50000000000000e-01
3.51700000000000e-08,1.94999999999968e-01,6.50000000000000e-01,6.49303118654264e-01,6.50000000000000e-01
3.52000000000000e-08,0.00000000000000e+00,6.50000000000000e-01,6.51144167108378e-01,6.50000000000000e-01
3.52080000000000e-08,0.00000000000000e+00,6.50000000000000e-01,6.51631416377534e-01,6.50000000000000e-01
3.52240000000000e-08,0.00000000000000e+00,6.50000000000000e-01,6.52324769889201e-01,6.50000000000000e-01
3.52560000000000e-08,0.00000000000000e+00,6.50000000000000e-01,6.52582911693383e-01,6.50000000000000e-01
3.53200000000000e-08,0.00000000000000e+00,6.50000000000000e-01,6.47507521337891e-01,6.50000000000000e-01
3.54480000000000e-08,0.00000000000000e+00,6.50000000000000e-01,6.26120903879577e-01,6.50000000000000e-01
3.57040000000000e-08,0.00000000000000e+00,6.50000000000000e-01,6.32084013993341e-01,6.50000000000000e-01
3.62160000000000e-08,0.00000000000000e+00,6.50000000000000e-01,6.56419766216406e-01,6.50000000000000e-01
3.69519352450189e-08,0.00000000000000e+00,6.50000000000000e-01,6.43956878765305e-01,6.50000000000000e-01
3.82267508629684e-08,0.00000000000000e+00,6.50000000000000e-01,6.54339210600055e-01,6.50000000000000e-01
4.07763820988673e-08,0.00000000000000e+00,6.50000000000000e-01,6.45441075042329e-01,6.50000000000000e-01
4.45763820988673e-08,0.00000000000000e+00,6.50000000000000e-01,6.53913050607801e-01,6.50000000000000e-01
4.50000000000000e-08,0.00000000000000e+00,6.50000000000000e-01,6.47268086831421e-01,6.50000000000000e-01
4.50100000000000e-08,6.49999999999877e-02,6.50000000000000e-01,6.47617274540934e-01,5.85000000000012e-01
4.50300000000000e-08,1.95000000000006e-01,6.50000000000000e-01,6.48170456672250e-01,4.54999999999994e-01
4.50700000000000e-08,4.55000000000000e-01,6.50000000000000e-01,6.49969319857641e-01,1.95000000000000e-01
4.51000000000000e-08,6.50000000000000e-01,6.50000000000000e-01,6.53669945882842e-01,0.00000000000000e+00
4.51080000000000e-08,6.50000000000000e-01,6.50000000000000e-01,6.54953884716930e-01,0.00000000000000e+00
4.51240000000000e-08,6.50000000000000e-01,6.50000000000000e-01,6.57170319818006e-01,0.00000000000000e+00
4.51560000000000e-08,6.50000000000000e-01,6.50000000000000e-01,6.60668494108935e-01,0.00000000000000e+00
4.52200000000000e-08,6.50000000000000e-01,6.50000000000000e-01,6.67626108073172e-01,0.00000000000000e+00
4.53480000000000e-08,6.50000000000000e-01,6.50000000000000e-01,4.64687726327571e-01,0.00000000000000e+00
4.56040000000000e-08,6.50000000000000e-01,6.50000000000000e-01,6.31682918938697e-04,0.00000000000000e+00
4.59330510065966e-08,6.50000000000000e-01,6.50000000000000e-01,-6.71740689707464e-04,0.00000000000000e+00
4.65588627095583e-08,6.50000000000000e-01,6.50000000000000e-01,8.58663119470906e-04,0.00000000000000e+00
4.72197184521846e-08,6.50000000000000e-01,6.50000000000000e-01,-8.29859647962988e-04,0.00000000000000e+00
4.85364634642324e-08,6.50000000000000e-01,6.50000000000000e-01,9.13658738480681e-04,0.00000000000000e+00
5.01000000000000e-08,6.50000000000000e-01,6.49999999999963e-01,-8.68996624304955e-04,0.00000000000000e+00
5.03633490024096e-08,6.50000000000000e-01,6.50000000000000e-01,2.27663492590215e-05,0.00000000000000e+00
5.08900470072287e-08,6.50000000000000e-01,6.50000000000000e-01,-1.19428462962336e-05,0.00000000000000e+00
5.19434430168670e-08,6.50000000000000e-01,6.50000000000000e-01,8.72050827016579e-06,0.00000000000000e+00
5.40502350361435e-08,6.50000000000000e-01,6.50000000000000e-01,-5.66682760924208e-06,0.00000000000000e+00
5.51000000000000e-08,6.50000000000000e-01,6.50000000000000e-01,3.46503558201327e-06,0.00000000000000e+00
5.51100000000000e-08,5.85000000000023e-01,6.50000000000000e-01,1.84712040217049e-04,6.49999999999769e-02
5.51300000000000e-08,4.55000000000005e-01,6.50000000000000e-01,3.56767169145872e-04,1.94999999999995e-01
5.51700000000000e-08,1.95000000000011e-01,6.50000000000000e-01,2.07493852596947e-04,4.54999999999989e-01
5.52000000000000e-08,0.00000000000000e+00,6.50000000000000e-01,6.67295904217199e-05,6.50000000000000e-01
5.52080000000000e-08,0.00000000000000e+00,6.50000000000000e-01,3.19931074632684e-05,6.50000000000000e-01
5.52240000000000e-08,0.00000000000000e+00,6.50000000000000e-01,-1.18540605988995e-05,6.50000000000000e-01
5.52560000000000e-08,0.00000000000000e+00,6.50000000000000e-01,-2.72166902493196e-05,6.50000000000000e-01
5.53200000000000e-08,0.00000000000000e+00,6.50000000000000e-01,-2.10818589912794e-04,6.50000000000000e-01
5.54480000000000e-08,0.00000000000000e+00,6.50000000000000e-01,-6.38863411405812e-04,6.50000000000000e-01
5.57040000000000e-08,0.00000000000000e+00,6.50000000000000e-01,2.13342826593525e-04,6.50000000000000e-01
5.61711480445504e-08,0.00000000000000e+00,6.50000000000000e-01,-2.09068957567397e-04,6.50000000000000e-01
5.68160731669893e-08,0.00000000000000e+00,6.50000000000000e-01,1.51264498876220e-04,6.50000000000000e-01
5.79669704185395e-08,0.00000000000000e+00,6.50000000000000e-01,-9.06793293090230e-05,6.50000000000000e-01
5.92609339406897e-08,0.00000000000000e+00,6.50000000000000e-01,5.01873594191131e-05,6.50000000000000e-01
6.18488609849900e-08,0.00000000000000e+00,6.50000000000000e-01,-3.05361858845361e-05,6.50000000000000e-01
6.50000000000000e-08,0.00000000000000e+00,6.50000000000000e-01,1.81936398208494e-05,6.50000000000000e-01
6.50100000000000e-08,6.49999999999877e-02,6.50000000000000e-01,1.79204195046870e-04,6.50000000000000e-01
6.50300000000000e-08,1.94999999999963e-01,6.50000000000000e-01,3.77614573091670e-04,6.50000000000000e-01
6.50700000000000e-08,4.54999999999914e-01,6.50000000000000e-01,3.32237462440529e-04,6.50000000000000e-01
6.51000000000000e-08,6.49999999999963e-01,6.50000000000000e-01,-1.07641148795350e-03,6.50000000000000e-01
6.51080000000000e-08,6.50000000000000e-01,6.50000000000000e-01,-1.85485736482086e-03,6.50000000000000e-01
6.51240000000000e-08,6.50000000000000e-01,6.50000000000000e-01,-3.32941198623063e-03,6.50000000000000e-01
6.51560000000000e-08,6.50000000000000e-01,6.50000000000000e-01,-5.40881952507181e-03,6.50000000000000e-01
6.52200000000000e-08,6.50000000000000e-01,6.50000000000000e-01,-1.01402163096368e-03,6.50000000000000e-01
6.53480000000000e-08,6.50000000000000e-01,6.50000000000000e-01,1.67078611497104e-01,6.50000000000000e-01
6.56040000000000e-08,6.50000000000000e-01,6.50000000000000e-01,6.00770377883994e-01,6.50000000000000e-01
6.61159999999999e-08,6.50000000000000e-01,6.50000000000000e-01,6.65426347860504e-01,6.50000000000000e-01
6.66670614749152e-08,6.50000000000000e-01,6.50000000000000e-01,6.35676380044626e-01,6.50000000000000e-01
6.77543356238338e-08,6.50000000000000e-01,6.50000000000000e-01,6.60863899865833e-01,6.50000000000000e-01
6.89382244903488e-08,6.50000000000000e-01,6.50000000000000e-01,6.39087165609803e-01,6.50000000000000e-01
7.13060022233789e-08,6.50000000000000e-01,6.50000000000000e-01,6.59293826631254e-01,6.50000000000000e-01
7.51000000000000e-08,6.50000000000000e-01,6.50000000000000e-01,6.40113854414278e-01,6.50000000000000e-01
7.51100000000000e-08,5.85000000000066e-01,6.50000000000000e-01,6.42435092442793e-01,6.50000000000000e-01
7.51300000000000e-08,4.55000000000091e-01,6.50000000000000e-01,6.45945988572154e-01,6.50000000000000e-01
7.51700000000000e-08,1.95000000000140e-01,6.50000000000000e-01,6.49313756075793e-01,6.50000000000000e-01
7.52000000000000e-08,9.09272657168003e-14,6.50000000000000e-01,6.51147033735954e-01,6.50000000000000e-01
7.52080000000000e-08,0.00000000000000e+00,6.50000000000000e-01,6.51633642488035e-01,6.50000000000000e-01
7.52240000000000e-08,0.00000000000000e+00,6.50000000000000e-01,6.52325994783952e-01,6.50000000000000e-01
7.52560000000000e-08,0.00000000000000e+00,6.50000000000000e-01,6.52583343517045e-01,6.50000000000000e-01
7.53200000000000e-08,0.00000000000000e+00,6.50000000000000e-01,6.47508148635939e-01,6.50000000000000e-01
7.54480000000000e-08,0.00000000000000e+00,6.50000000000000e-01,6.26121712568996e-01,6.50000000000000e-01
7.57040000000000e-08,0.00000000000000e+00,6.50000000000000e-01,6.32083412501892e-01,6.50000000000000e-01
7.62159999999999e-08,0.00000000000000e+00,6.50000000000000e-01,6.56419752902818e-01,6.50000000000000e-01
7.69519465296470e-08,0.00000000000000e+00,6.50000000000000e-01,6.43956932001309e-01,6.50000000000000e-01
7.82267307619579e-08,0.00000000000000e+00,6.50000000000000e-01,6.54339191945453e-01,6.50000000000000e-01
8.07762992265796e-08,0.00000000000000e+00,6.50000000000000e-01,6.45441105377713e-01,6.50000000000000e-01
8.45762992265796e-08,0.00000000000000e+00,6.50000000000000e-01,6.53913034106526e-01,6.50000000000000e-01
8.50000000000000e-08,0.00000000000000e+00,6.50000000000000e-01,6.47267835032684e-01,6.50000000000000e-01
8.50100000000000e-08,6.49999999999877e-02,6.50000000000000e-01,6.47617055277110e-01,5.85000000000012e-01
8.50300000000000e-08,1.94999999999963e-01,6.50000000000000e-01,6.48170353770881e-01,4.55000000000037e-01
8.50700000000000e-08,4.54999999999914e-01,6.50000000000000e-01,6.49969405690748e-01,1.95000000000086e-01
8.51000000000000e-08,6.49999999999963e-01,6.50000000000000e-01,6.53669899301625e-01,3.71924713249427e-14
8.51080000000000e-08,6.50000000000000e-01,6.50000000000000e-01,6.54953825448183e-01,0.00000000000000e+00
8.51240000000000e-08,6.50000000000000e-01,6.50000000000000e-01,6.57170249216848e-01,0.00000000000000e+00
8.51560000000000e-08,6.50000000000000e-01,6.50000000000000e-01,6.60668450041139e-01,0.00000000000000e+00
8.52200000000000e-08,6.50000000000000e-01,6.50000000000000e-01,6.67626132093255e-01,0.00000000000000e+00
8.53480000000000e-08,6.50000000000000e-01,6.50000000000000e-01,4.64688770008444e-01,0.00000000000000e+00
8.56040000000000e-08,6.50000000000000e-01,6.50000000000000e-01,6.32395941251182e-04,0.00000000000000e+00
8.59330517789948e-08,6.50000000000000e-01,6.50000000000000e-01,-6.72206195733276e-04,0.00000000000000e+00
8.65588879105093e-08,6.50000000000000e-01,6.50000000000000e-01,8.59019515496117e-04,0.00000000000000e+00
8.72197395000719e-08,6.50000000000000e-01,6.50000000000000e-01,-8.30121819618404e-04,0.00000000000000e+00
8.85367269493596e-08,6.50000000000000e-01,6.50000000000000e-01,9.13891609398995e-04,0.00000000000000e+00
9.01000000000000e-08,6.50000000000000e-01,6.49999999999963e-01,-8.69191850443069e-04,0.00000000000000e+00
9.03633974898575e-08,6.50000000000000e-01,6.50000000000000e-01,2.27286711150529e-05,0.00000000000000e+00
9.08901924695726e-08,6.50000000000000e-01,6.50000000000000e-01,-1.19168530220903e-05,0.00000000000000e+00
9.19437824290028e-08,6.50000000000000e-01,6.50000000000000e-01,8.69914261107793e-06,0.00000000000000e+00
9.40509623478631e-08,6.50000000000000e-01,6.50000000000000e-01,-5.64769338188458e-06,0.00000000000000e+00
9.51000000000000e-08,6.50000000000000e-01,6.50000000000000e-01,3.44710953073578e-06,0.00000000000000e+00
9.51100000000000e-08,5.85000000000066e-01,6.50000000000000e-01,1.84695132495721e-04,6.49999999999339e-02
9.51300000000000e-08,4.55000000000091e-01,6.50000000000000e-01,3.56754322911955e-04,1.94999999999909e-01
9.51700000000000e-08,1.95000000000140e-01,6.50000000000000e-01,2.07489850469214e-04,4.54999999999860e-01
9.52000000000000e-08,9.09272657168003e-14,6.50000000000000e-01,6.67285172915588e-05,6.49999999999909e-01
9.52080000000000e-08,0.00000000000000e+00,6.50000000000000e-01,3.19925799241449e-05,6.50000000000000e-01
9.52240000000000e-08,0.00000000000000e+00,6.50000000000000e-01,-1.18541276225501e-05,6.50000000000000e-01
9.52560000000000e-08,0.00000000000000e+00,6.50000000000000e-01,-2.72170547519143e-05,6.50000000000000e-01
9.53200000000000e-08,0.00000000000000e+00,6.50000000000000e-01,-2.10823254025140e-04,6.50000000000000e-01
9.54480000000000e-08,0.00000000000000e+00,6.50000000000000e-01,-6.38876215078295e-04,6.50000000000000e-01
9.57040000000000e-08,0.00000000000000e+00,6.50000000000000e-01,2.13346927993026e-04,6.50000000000000e-01
9.61711762301195e-08,0.00000000000000e+00,6.50000000000000e-01,-2.09078401567992e-04,6.50000000000000e-01
9.68160908033463e-08,0.00000000000000e+00,6.50000000000000e-01,1.51275216629696e-04,6.50000000000000e-01
9.79670232830943e-08,0.00000000000000e+00,6.50000000000000e-01,-9.06895828038630e-05,6.50000000000000e-01
9.92610013436145e-08,0.00000000000000e+00,6.50000000000000e-01,5.01961108344442e-05,6.50000000000000e-01
1.01848957464655e-07,0.00000000000000e+00,6.50000000000000e-01,-3.05441217052071e-05,6.50000000000000e-01
1.05000000000000e-07,0.00000000000000e+00,6.50000000000000e-01,1.82003497831143e-05,6.50000000000000e-01
1.05010000000000e-07,6.49999999999877e-02,6.50000000000000e-01,1.79211822145565e-04,6.50000000000000e-01
1.05030000000000e-07,1.94999999999963e-01,6.50000000000000e-01,3.77621920163870e-04,6.50000000000000e-01
1.05070000000000e-07,4.54999999999914e-01,6.50000000000000e-01,3.32244047607129e-04,6.50000000000000e-01
1.05100000000000e-07,6.49999999999963e-01,6.50000000000000e-01,-1.07640034883421e-03,6.50000000000000e-01
1.05108000000000e-07,6.50000000000000e-01,6.50000000000000e-01,-1.85484578821182e-03,6.50000000000000e-01
1.05124000000000e-07,6.50000000000000e-01,6.50000000000000e-01,-3.32940124415480e-03,6.50000000000000e-01
1.05156000000000e-07,6.50000000000000e-01,6.50000000000000e-01,-5.40881354365069e-03,6.50000000000000e-01
1.05220000000000e-07,6.50000000000000e-01,6.50000000000000e-01,-1.01406535498706e-03,6.50000000000000e-01
1.05348000000000e-07,6.50000000000000e-01,6.50000000000000e-01,1.67078341268178e-01,6.50000000000000e-01
1.05604000000000e-07,6.50000000000000e-01,6.50000000000000e-01,6.00770235738123e-01,6.50000000000000e-01
1.06116000000000e-07,6.50000000000000e-01,6.50000000000000e-01,6.65426387932012e-01,6.50000000000000e-01
1.06667061461402e-07,6.50000000000000e-01,6.50000000000000e-01,6.35676340643114e-01,6.50000000000000e-01
1.07754335851055e-07,6.50000000000000e-01,6.50000000000000e-01,6.60863929983359e-01,6.50000000000000e-01
1.08938224677411e-07,6.50000000000000e-01,6.50000000000000e-01,6.39087133717450e-01,6.50000000000000e-01
1.11306002330122e-07,6.50000000000000e-01,6.50000000000000e-01,6.59293853428967e-01,6.50000000000000e-01
1.15100000000000e-07,6.50000000000000e-01,6.50000000000000e-01,6.40113825084745e-01,6.50000000000000e-01
1.15110000000000e-07,5.85000000000066e-01,6.50000000000000e-01,6.42435071149450e-01,6.50000000000000e-01
1.15130000000000e-07,4.55000000000091e-01,6.50000000000000e-01,6.45945770726903e-01,6.50000000000000e-01
1.15170000000000e-07,1.95000000000140e-01,6.50000000000000e-01,6.49313994453930e-01,6.50000000000000e-01
1.15200000000000e-07,9.09272657168003e-14,6.50000000000000e-01,6.51147123716168e-01,6.50000000000000e-01
1.15208000000000e-07,0.00000000000000e+00,6.50000000000000e-01,6.51633714547784e-01,6.50000000000000e-01
1.15224000000000e-07,0.00000000000000e+00,6.50000000000000e-01,6.52326032987093e-01,6.50000000000000e-01
