Time,v(clk),v(data),v(out)
1.00000000000000e-08,6.00000000000000e-01,0.00000000000000e+00,2.01568325004968e-05
1.00100000000000e-08,6.00000000000000e-01,5.99999999999985e-02,2.06235950091713e-05
1.00300000000000e-08,6.00000000000000e-01,1.79999999999996e-01,1.92129990090745e-05
1.00700000000000e-08,6.00000000000000e-01,4.19999999999990e-01,1.38353379534953e-05
1.01000000000000e-08,6.00000000000000e-01,5.99999999999995e-01,1.10240768645756e-05
1.01080000000000e-08,6.00000000000000e-01,6.00000000000000e-01,1.04719187777463e-05
1.01240000000000e-08,6.00000000000000e-01,6.00000000000000e-01,1.05771284773376e-05
1.01560000000000e-08,6.00000000000000e-01,6.00000000000000e-01,1.28485639492026e-05
1.02200000000000e-08,6.00000000000000e-01,6.00000000000000e-01,1.48519828000321e-05
1.03480000000000e-08,6.00000000000000e-01,6.00000000000000e-01,1.14655441894908e-05
1.06040000000000e-08,6.00000000000000e-01,6.00000000000000e-01,1.02022360889704e-05
1.11160000000000e-08,6.00000000000000e-01,6.00000000000000e-01,9.92479739305059e-06
1.21400000000000e-08,6.00000000000000e-01,6.00000000000000e-01,1.00564659139286e-05
1.41880000000000e-08,6.00000000000000e-01,6.00000000000000e-01,8.90425738169116e-06
1.51000000000000e-08,6.00000000000000e-01,6.00000000000000e-01,9.51636718799723e-06
1.51100000000000e-08,5.39999999999991e-01,6.00000000000000e-01,-4.64319633175919e-05
1.51300000000000e-08,4.19999999999994e-01,6.00000000000000e-01,-1.29033774370041e-04
1.51700000000000e-08,1.80000000000000e-01,6.00000000000000e-01,-1.06391094905851e-04
1.52000000000000e-08,0.00000000000000e+00,6.00000000000000e-01,1.21636291849345e-04
1.52080000000000e-08,0.00000000000000e+00,6.00000000000000e-01,2.37708929221737e-04
1.52240000000000e-08,0.00000000000000e+00,6.00000000000000e-01,3.71398794592442e-04
1.52560000000000e-08,0.00000000000000e+00,6.00000000000000e-01,3.06016126566895e-04
1.53200000000000e-08,0.00000000000000e+00,6.00000000000000e-01,-1.07840258146356e-04
1.54480000000000e-08,0.00000000000000e+00,6.00000000000000e-01,-2.82918959562263e-04
1.57040000000000e-08,0.00000000000000e+00,6.00000000000000e-01,-1.48147790016168e-05
1.61493740054433e-08,0.00000000000000e+00,6.00000000000000e-01,8.46964506759189e-06
1.66986551267623e-08,0.00000000000000e+00,6.00000000000000e-01,1.40162528387115e-04
1.77972173694002e-08,0.00000000000000e+00,6.00000000000000e-01,-1.50403033978726e-04
1.90236539394063e-08,0.00000000000000e+00,6.00000000000000e-01,1.75924130449097e-04
2.14765270794185e-08,0.00000000000000e+00,6.00000000000000e-01,-1.62277567346287e-04
2.50000000000000e-08,0.00000000000000e+00,6.00000000000000e-01,1.77268943942393e-04
2.50100000000000e-08,5.99999999999886e-02,6.00000000000000e-01,2.44095380674422e-04
2.50300000000000e-08,1.80000000000006e-01,6.00000000000000e-01,3.45070110168884e-04
2.50700000000000e-08,4.20000000000000e-01,6.00000000000000e-01,4.05219474604465e-04
2.51000000000000e-08,6.00000000000000e-01,6.00000000000000e-01,-1.33331811050783e-04
2.51080000000000e-08,6.00000000000000e-01,6.00000000000000e-01,-5.60561132687112e-04
2.51240000000000e-08,6.00000000000000e-01,6.00000000000000e-01,-1.52116910215316e-03
2.51560000000000e-08,6.00000000000000e-01,6.00000000000000e-01,-3.36965581227348e-03
2.52200000000000e-08,6.00000000000000e-01,6.00000000000000e-01,-4.84176226480369e-03
2.53480000000000e-08,6.00000000000000e-01,6.00000000000000e-01,7.49646283139595e-02
2.56040000000000e-08,6.00000000000000e-01,6.00000000000000e-01,5.17460339688561e-01
2.61160000000000e-08,6.00000000000000e-01,6.00000000000000e-01,6.20949641380123e-01
2.66862813283542e-08,6.00000000000000e-01,6.00000000000000e-01,5.79070703719157e-01
2.78178009849013e-08,6.00000000000000e-01,6.00000000000000e-01,6.17945881968473e-01
2.93126721255680e-08,6.00000000000000e-01,6.00000000000000e-01,5.81334853248259e-01
3.23024144069016e-08,6.00000000000000e-01,6.00000000000000e-01,6.16895830454176e-01
3.51000000000000e-08,5.99999999999970e-01,6.00000000000000e-01,5.82233470285260e-01
3.51100000000000e-08,5.39999999999982e-01,6.00000000000000e-01,5.88849449063540e-01
3.51300000000000e-08,4.19999999999965e-01,6.00000000000000e-01,5.97094564259362e-01
3.51700000000000e-08,1.79999999999970e-01,6.00000000000000e-01,6.00669833834744e-01
3.52000000000000e-08,0.00000000000000e+00,6.00000000000000e-01,6.01982421684453e-01
3.52080000000000e-08,0.00000000000000e+00,6.00000000000000e-01,6.02369560416241e-01
3.52240000000000e-08,0.00000000000000e+00,6.00000000000000e-01,6.02773753102008e-01
3.52560000000000e-08,0.00000000000000e+00,6.00000000000000e-01,6.01518436874154e-01
3.53200000000000e-08,0.00000000000000e+00,6.00000000000000e-01,5.89690289638181e-01
3.54480000000000e-08,0.00000000000000e+00,6.00000000000000e-01,5.79941821875856e-01
3.57040000000000e-08,0.00000000000000e+00,6.00000000000000e-01,5.99496651661883e-01
3.61960258329362e-08,0.00000000000000e+00,6.00000000000000e-01,5.99060344023976e-01
3.68426415486846e-08,0.00000000000000e+00,6.00000000000000e-01,6.00048752419717e-01
3.81358729801813e-08,0.00000000000000e+00,6.00000000000000e-01,5.99383037664813e-01
4.07223358431748e-08,0.00000000000000e+00,6.00000000000000e-01,6.00218032425988e-01
4.45223358431748e-08,0.00000000000000e+00,6.00000000000000e-01,5.99487807336485e-01
4.50000000000000e-08,0.00000000000000e+00,6.00000000000000e-01,6.00176291921623e-01
4.50100000000000e-08,5.99999999999886e-02,6.00000000000000e-01,6.00145590616463e-01
4.50300000000000e-08,1.80000000000006e-01,6.00000000000000e-01,6.00091686627836e-01
4.50700000000000e-08,4.20000000000000e-01,6.00000000000000e-01,6.00022862848760e-01
4.51000000000000e-08,6.00000000000000e-01,6.00000000000000e-01,5.99697319012582e-01
4.51080000000000e-08,6.00000000000000e-01,5.52000000000025e-01,5.99458794814698e-01
4.51240000000000e-08,6.00000000000000e-01,4.55999999999996e-01,5.98958124312556e-01
4.51560000000000e-08,6.00000000000000e-01,2.64000000000016e-01,5.98152652392635e-01
4.52000000000000e-08,6.00000000000000e-01,3.44169137633799e-14,5.97627464954246e-01
4.52064000000000e-08,6.00000000000000e-01,0.00000000000000e+00,5.97590662321941e-01
4.52192000000000e-08,6.00000000000000e-01,0.00000000000000e+00,5.97511948040980e-01
4.52448000000000e-08,6.00000000000000e-01,0.00000000000000e+00,5.97413583414655e-01
4.52960000000000e-08,6.00000000000000e-01,0.00000000000000e+00,5.97573171067861e-01
4.53984000000000e-08,6.00000000000000e-01,0.00000000000000e+00,5.98537714093679e-01
4.56032000000000e-08,6.00000000000000e-01,0.00000000000000e+00,5.99745727591750e-01
4.58761536314247e-08,6.00000000000000e-01,0.00000000000000e+00,5.99954713867922e-01
4.64220608942742e-08,6.00000000000000e-01,0.00000000000000e+00,6.00035300038020e-01
4.70618499187866e-08,6.00000000000000e-01,0.00000000000000e+00,5.99971872556316e-01
4.83414279678114e-08,6.00000000000000e-01,0.00000000000000e+00,6.00024744828477e-01
5.09005840658611e-08,6.00000000000000e-01,0.00000000000000e+00,5.99976683919769e-01
5.47005840658611e-08,6.00000000000000e-01,0.00000000000000e+00,6.00022300954181e-01
5.51000000000000e-08,6.00000000000000e-01,0.00000000000000e+00,5.99985237904104e-01
5.51100000000000e-08,5.40000000000021e-01,0.00000000000000e+00,5.99933077213998e-01
5.51300000000000e-08,4.20000000000004e-01,0.00000000000000e+00,5.99875255146751e-01
5.51700000000000e-08,1.80000000000010e-01,0.00000000000000e+00,6.00452390544986e-01
5.52000000000000e-08,0.00000000000000e+00,0.00000000000000e+00,6.02075283320144e-01
5.52080000000000e-08,0.00000000000000e+00,0.00000000000000e+00,6.02512675769750e-01
5.52240000000000e-08,0.00000000000000e+00,0.00000000000000e+00,6.03143464912358e-01
5.52560000000000e-08,0.00000000000000e+00,0.00000000000000e+00,6.03737679279879e-01
5.53200000000000e-08,0.00000000000000e+00,0.00000000000000e+00,6.03961260639212e-01
5.54480000000000e-08,0.00000000000000e+00,0.00000000000000e+00,6.00455076414783e-01
5.57040000000000e-08,0.00000000000000e+00,0.00000000000000e+00,5.98606629660291e-01
5.60420212247969e-08,0.00000000000000e+00,0.00000000000000e+00,5.99775416666775e-01
5.67180636743906e-08,0.00000000000000e+00,0.00000000000000e+00,5.99362887539723e-01
5.74251686044650e-08,0.00000000000000e+00,0.00000000000000e+00,5.99941996078366e-01
5.88393784646138e-08,0.00000000000000e+00,0.00000000000000e+00,5.99600732299569e-01
6.16677981849114e-08,0.00000000000000e+00,0.00000000000000e+00,6.00033986260982e-01
6.50000000000000e-08,0.00000000000000e+00,0.00000000000000e+00,5.99681758832739e-01
6.50100000000000e-08,5.99999999999886e-02,0.00000000000000e+00,5.99773909361795e-01
6.50300000000000e-08,1.79999999999966e-01,0.00000000000000e+00,5.99885627954788e-01
6.50700000000000e-08,4.19999999999920e-01,0.00000000000000e+00,5.99889714980864e-01
6.51000000000000e-08,5.99999999999966e-01,0.00000000000000e+00,5.99775250688690e-01
6.51080000000000e-08,6.00000000000000e-01,0.00000000000000e+00,5.99725375961206e-01
6.51240000000000e-08,6.00000000000000e-01,0.00000000000000e+00,5.99664051263565e-01
6.51560000000000e-08,6.00000000000000e-01,0.00000000000000e+00,5.99638468977655e-01
6.52200000000000e-08,6.00000000000000e-01,0.00000000000000e+00,5.99778193657542e-01
6.53480000000000e-08,6.00000000000000e-01,0.00000000000000e+00,6.03029298179592e-01
6.56040000000000e-08,6.00000000000000e-01,0.00000000000000e+00,3.48853347147892e-01
6.56680000000000e-08,6.00000000000000e-01,0.00000000000000e+00,1.89685593462115e-01
6.57959999999999e-08,6.00000000000000e-01,0.00000000000000e+00,1.40546614000887e-02
6.60519999999999e-08,6.00000000000000e-01,0.00000000000000e+00,-6.30369750563630e-03
6.65639999999999e-08,6.00000000000000e-01,0.00000000000000e+00,4.41075925577441e-03
6.71533915976469e-08,6.00000000000000e-01,0.00000000000000e+00,-3.22383558274972e-03
6.83321747929408e-08,6.00000000000000e-01,0.00000000000000e+00,2.78129260827572e-03
7.06897411835287e-08,6.00000000000000e-01,0.00000000000000e+00,-2.57149243825852e-03
7.44897411835287e-08,6.00000000000000e-01,0.00000000000000e+00,2.46421617470707e-03
7.51000000000000e-08,6.00000000000000e-01,0.00000000000000e+00,-1.83683628833549e-03
7.51100000000000e-08,5.40000000000061e-01,0.00000000000000e+00,-1.51759080682467e-03
7.51300000000000e-08,4.20000000000084e-01,0.00000000000000e+00,-1.01820909434128e-03
7.51700000000000e-08,1.80000000000129e-01,0.00000000000000e+00,-4.40659398019710e-04
7.52000000000000e-08,8.40438829641244e-14,0.00000000000000e+00,-5.78323262523592e-05
7.52080000000000e-08,0.00000000000000e+00,0.00000000000000e+00,8.20570397467649e-05
7.52240000000000e-08,0.00000000000000e+00,0.00000000000000e+00,2.52288331198690e-04
7.52560000000000e-08,0.00000000000000e+00,0.00000000000000e+00,2.11694106708307e-04
7.53200000000000e-08,0.00000000000000e+00,0.00000000000000e+00,-4.14305504137721e-04
7.54480000000000e-08,0.00000000000000e+00,0.00000000000000e+00,-5.05865517228737e-04
7.57040000000000e-08,0.00000000000000e+00,0.00000000000000e+00,2.30686990603543e-04
7.61435439000931e-08,0.00000000000000e+00,0.00000000000000e+00,-1.35551308232834e-04
7.68025291925428e-08,0.00000000000000e+00,0.00000000000000e+00,1.16894913141360e-04
7.81204997774423e-08,0.00000000000000e+00,0.00000000000000e+00,-8.77023064467623e-05
8.07564409472413e-08,0.00000000000000e+00,0.00000000000000e+00,9.74698792340148e-05
8.45564409472413e-08,0.00000000000000e+00,0.00000000000000e+00,-7.79254065788081e-05
8.50000000000000e-08,0.00000000000000e+00,0.00000000000000e+00,6.77879550725156e-05
8.50100000000000e-08,5.99999999999886e-02,0.00000000000000e+00,1.30117556686460e-04
8.50300000000000e-08,1.79999999999966e-01,0.00000000000000e+00,2.10858722029486e-04
8.50700000000000e-08,4.19999999999920e-01,0.00000000000000e+00,1.67647563393637e-04
8.51000000000000e-08,5.99999999999966e-01,0.00000000000000e+00,-2.66845689457784e-05
8.51080000000000e-08,6.00000000000000e-01,0.00000000000000e+00,-1.08430543944937e-04
8.51240000000000e-08,6.00000000000000e-01,0.00000000000000e+00,-2.16991967372571e-04
8.51560000000000e-08,6.00000000000000e-01,0.00000000000000e+00,-2.42997097992866e-04
8.52200000000000e-08,6.00000000000000e-01,0.00000000000000e+00,-1.33593195941070e-04
8.53480000000000e-08,6.00000000000000e-01,0.00000000000000e+00,2.38424972561699e-05
8.56040000000000e-08,6.00000000000000e-01,0.00000000000000e+00,7.35622092201942e-05
8.61159999999999e-08,6.00000000000000e-01,0.00000000000000e+00,-9.28170532266473e-06
8.71072247236746e-08,6.00000000000000e-01,0.00000000000000e+00,3.08516137746389e-05
8.82843102915117e-08,6.00000000000000e-01,0.00000000000000e+00,-2.58095221897583e-07
9.00000000000000e-08,6.00000000000000e-01,0.00000000000000e+00,2.02912204243857e-05
9.00100000000000e-08,6.00000000000000e-01,5.99999999999886e-02,2.07137547505315e-05
9.00300000000000e-08,6.00000000000000e-01,1.79999999999966e-01,1.92480683594287e-05
9.00700000000000e-08,6.00000000000000e-01,4.19999999999920e-01,1.38693920631247e-05
9.01000000000000e-08,6.00000000000000e-01,5.99999999999966e-01,1.10890642774295e-05
9.01080000000000e-08,6.00000000000000e-01,6.00000000000000e-01,1.09366258713300e-05
9.01240000000000e-08,6.00000000000000e-01,6.00000000000000e-01,1.08331968961817e-05
9.01560000000000e-08,6.00000000000000e-01,6.00000000000000e-01,1.31783745531411e-05
9.02200000000000e-08,6.00000000000000e-01,6.00000000000000e-01,1.46234855016997e-05
9.03480000000000e-08,6.00000000000000e-01,6.00000000000000e-01,1.16436006726006e-05
9.06040000000000e-08,6.00000000000000e-01,6.00000000000000e-01,9.92010457723930e-06
9.11159999999999e-08,6.00000000000000e-01,6.00000000000000e-01,1.02307294353281e-05
9.21399999999999e-08,6.00000000000000e-01,6.00000000000000e-01,9.75182563263746e-06
9.41879999999998e-08,6.00000000000000e-01,6.00000000000000e-01,9.20462624781366e-06
9.51000000000000e-08,6.00000000000000e-01,6.00000000000000e-01,9.22556600559121e-06
9.51100000000000e-08,5.40000000000061e-01,6.00000000000000e-01,-4.65690833857252e-05
9.51300000000000e-08,4.20000000000084e-01,6.00000000000000e-01,-1.28935098194762e-04
9.51700000000000e-08,1.80000000000129e-01,6.00000000000000e-01,-1.06232509069749e-04
9.52000000000000e-08,8.40438829641244e-14,6.00000000000000e-01,1.21754107807244e-04
9.52080000000000e-08,0.00000000000000e+00,6.00000000000000e-01,2.37815200881175e-04
9.52240000000000e-08,0.00000000000000e+00,6.00000000000000e-01,3.71482564171702e-04
9.52560000000000e-08,0.00000000000000e+00,6.00000000000000e-01,3.06065955043074e-04
9.53200000000000e-08,0.00000000000000e+00,6.00000000000000e-01,-1.07825544983710e-04
9.54480000000000e-08,0.00000000000000e+00,6.00000000000000e-01,-2.82921361719382e-04
9.57040000000000e-08,0.00000000000000e+00,6.00000000000000e-01,-1.48140462590696e-05
9.61493742485710e-08,0.00000000000000e+00,6.00000000000000e-01,8.46923368823770e-06
9.66986556259726e-08,0.00000000000000e+00,6.00000000000000e-01,1.40162325598501e-04
9.77972183807759e-08,0.00000000000000e+00,6.00000000000000e-01,-1.50402671532506e-04
9.90236549425710e-08,0.00000000000000e+00,6.00000000000000e-01,1.75923677577354e-04
1.01476528066161e-07,0.00000000000000e+00,6.00000000000000e-01,-1.62277077104465e-04
1.05000000000000e-07,0.00000000000000e+00,6.00000000000000e-01,1.77268441340494e-04
1.05010000000000e-07,5.99999999999886e-02,6.00000000000000e-01,2.44095020032892e-04
1.05030000000000e-07,1.79999999999966e-01,6.00000000000000e-01,3.45069973843481e-04
1.05070000000000e-07,4.19999999999920e-01,6.00000000000000e-01,4.05219498181529e-04
1.05100000000000e-07,5.99999999999966e-01,6.00000000000000e-01,-1.33331856628276e-04
1.05108000000000e-07,6.00000000000000e-01,6.00000000000000e-01,-5.60561194084673e-04
1.05124000000000e-07,6.00000000000000e-01,6.00000000000000e-01,-1.52116920863396e-03
1.05156000000000e-07,6.00000000000000e-01,6.00000000000000e-01,-3.36965589885511e-03
1.05220000000000e-07,6.00000000000000e-01,6.00000000000000e-01,-4.84176207813047e-03
1.05348000000000e-07,6.00000000000000e-01,6.00000000000000e-01,7.49646364212659e-02
1.05604000000000e-07,6.00000000000000e-01,6.00000000000000e-01,5.17460346534148e-01
1.06116000000000e-07,6.00000000000000e-01,6.00000000000000e-01,6.20949640178822e-01
1.06686281336230e-07,6.00000000000000e-01,6.00000000000000e-01,5.79070704858363e-01
1.07817800979836e-07,6.00000000000000e-01,6.00000000000000e-01,6.17945880955370e-01
1.09312672110269e-07,6.00000000000000e-01,6.00000000000000e-01,5.81334854311442e-01
1.12302414371136e-07,6.00000000000000e-01,6.00000000000000e-01,6.16895829492507e-01
1.15100000000000e-07,6.00000000000000e-01,6.00000000000000e-01,5.82233471301839e-01
1.15110000000000e-07,5.40000000000061e-01,6.00000000000000e-01,5.88849449688120e-01
1.15130000000000e-07,4.20000000000084e-01,6.00000000000000e-01,5.97094564403130e-01
1.15170000000000e-07,1.80000000000129e-01,6.00000000000000e-01,6.00669833814445e-01
1.15200000000000e-07,8.40438829641244e-14,6.00000000000000e-01,6.01982421688581e-01
1.15208000000000e-07,0.00000000000000e+00,6.00000000000000e-01,6.02369560414692e-01
1.15224000000000e-07,0.00000000000000e+00,6.00000000000000e-01,6.02773753099217e-01
1.15256000000000e-07,0.00000000000000e+00,6.00000000000000e-01,6.01518436881762e-01
1.15320000000000e-07,0.00000000000000e+00,6.00000000000000e-01,5.89690289660562e-01
1.15448000000000e-07,0.00000000000000e+00,6.00000000000000e-01,5.79941821885873e-01
1.15704000000000e-07,0.00000000000000e+00,6.00000000000000e-01,5.99496651659726e-01
1.16196025832947e-07,0.00000000000000e+00,6.00000000000000e-01,5.99060344026676e-01
1.16842641548708e-07,0.00000000000000e+00,6.00000000000000e-01,6.00048752417047e-01
1.18135872980232e-07,0.00000000000000e+00,6.00000000000000e-01,5.99383037667176e-01
1.20722335843279e-07,0.00000000000000e+00,6.00000000000000e-01,6.00218032423736e-01
1.24522335843279e-07,0.00000000000000e+00,6.00000000000000e-01,5.99487807338746e-01
1.25000000000000e-07,0.00000000000000e+00,6.00000000000000e-01,6.00176291919491e-01
1.25010000000000e-07,5.99999999999092e-02,6.00000000000000e-01,6.00145590615196e-01
1.25030000000000e-07,1.79999999999886e-01,6.00000000000000e-01,6.00091686627679e-01
1.25070000000000e-07,4.19999999999841e-01,6.00000000000000e-01,6.00022862848784e-01
1.25100000000000e-07,5.99999999999886e-01,6.00000000000000e-01,5.99697319012630e-01
1.25108000000000e-07,6.00000000000000e-01,5.51999999999946e-01,5.99458794814785e-01
1.25124000000000e-07,6.00000000000000e-01,4.55999999999996e-01,5.98958124312589e-01
1.25156000000000e-07,6.00000000000000e-01,2.63999999999937e-01,5.98152652392535e-01
1.25200000000000e-07,6.00000000000000e-01,0.00000000000000e+00,5.97627464954233e-01
1.25206400000000e-07,6.00000000000000e-01,0.00000000000000e+00,5.97590662323006e-01
1.25219200000000e-07,6.00000000000000e-01,0.00000000000000e+00,5.97511948041637e-01
1.25244800000000e-07,6.00000000000000e-01,0.00000000000000e+00,5.97413583414257e-01
1.25296000000000e-07,6.00000000000000e-01,0.00000000000000e+00,5.97573171068624e-01
1.25398400000000e-07,6.00000000000000e-01,0.00000000000000e+00,5.98537714094054e-01
1.25603200000000e-07,6.00000000000000e-01,0.00000000000000e+00,5.99745727591134e-01
1.25876153631849e-07,6.00000000000000e-01,0.00000000000000e+00,5.99954713868132e-01
1.26422060895546e-07,6.00000000000000e-01,0.00000000000000e+00,6.00035300037857e-01
1.27061849921722e-07,6.00000000000000e-01,0.00000000000000e+00,5.99971872556389e-01
1.28341427974075e-07,6.00000000000000e-01,0.00000000000000e+00,6.00024744828329e-01
1.30900584078780e-07,6.00000000000000e-01,0.00000000000000e+00,5.99976683919883e-01
1.34700584078780e-07,6.00000000000000e-01,0.00000000000000e+00,6.00022300954084e-01
1.35100000000000e-07,5.99999999999891e-01,0.00000000000000e+00,5.99985237904375e-01
1.35110000000000e-07,5.39999999999823e-01,0.00000000000000e+00,5.99933077214173e-01
1.35130000000000e-07,4.19999999999845e-01,0.00000000000000e+00,5.99875255146857e-01
1.35170000000000e-07,1.79999999999891e-01,0.00000000000000e+00,6.00452390545090e-01
1.35200000000000e-07,0.00000000000000e+00,0.00000000000000e+00,6.02075283320133e-01
1.35208000000000e-07,0.00000000000000e+00,0.00000000000000e+00,6.02512675768953e-01
