Time,v(clk),v(data),v(out)
1.00000000000000e-08,6.00000000000000e-01,0.00000000000000e+00,2.35808088057746e-07
1.00100000000000e-08,6.00000000000000e-01,5.99999999999985e-02,1.65397272668122e-06
1.00300000000000e-08,6.00000000000000e-01,1.79999999999996e-01,3.24738677839886e-06
1.00700000000000e-08,6.00000000000000e-01,4.19999999999990e-01,2.35925926290320e-06
1.01000000000000e-08,6.00000000000000e-01,5.99999999999995e-01,4.87951875301207e-07
1.01080000000000e-08,6.00000000000000e-01,6.00000000000000e-01,2.75463718737989e-07
1.01240000000000e-08,6.00000000000000e-01,6.00000000000000e-01,2.33333036198102e-07
1.01560000000000e-08,6.00000000000000e-01,6.00000000000000e-01,2.92218661360893e-06
1.02200000000000e-08,6.00000000000000e-01,6.00000000000000e-01,6.52461443166608e-06
1.03480000000000e-08,6.00000000000000e-01,6.00000000000000e-01,7.87436188950247e-06
1.06040000000000e-08,6.00000000000000e-01,6.00000000000000e-01,5.54230117523133e-06
1.11160000000000e-08,6.00000000000000e-01,6.00000000000000e-01,6.65250621777365e-06
1.20470043869086e-08,6.00000000000000e-01,6.00000000000000e-01,5.69231530173075e-06
1.39090131607258e-08,6.00000000000000e-01,6.00000000000000e-01,6.35050976113567e-06
1.51000000000000e-08,6.00000000000000e-01,6.00000000000000e-01,5.18253527469464e-06
1.51100000000000e-08,5.39999999999991e-01,6.00000000000000e-01,-5.19307389470966e-05
1.51300000000000e-08,4.19999999999994e-01,6.00000000000000e-01,-1.43105952188936e-04
1.51700000000000e-08,1.80000000000000e-01,6.00000000000000e-01,-1.43734441199805e-04
1.52000000000000e-08,0.00000000000000e+00,6.00000000000000e-01,1.14804829599711e-04
1.52080000000000e-08,0.00000000000000e+00,6.00000000000000e-01,2.51839072695534e-04
1.52240000000000e-08,0.00000000000000e+00,6.00000000000000e-01,4.28826797977171e-04
1.52560000000000e-08,0.00000000000000e+00,6.00000000000000e-01,4.60465171930158e-04
1.53200000000000e-08,0.00000000000000e+00,6.00000000000000e-01,1.38037939614796e-04
1.54480000000000e-08,0.00000000000000e+00,6.00000000000000e-01,-2.91484611177915e-04
1.57040000000000e-08,0.00000000000000e+00,6.00000000000000e-01,3.50806555932184e-05
1.61267909231269e-08,0.00000000000000e+00,6.00000000000000e-01,-1.86029003882520e-04
1.68134274192995e-08,0.00000000000000e+00,6.00000000000000e-01,1.73689648379405e-04
1.78994376624563e-08,0.00000000000000e+00,6.00000000000000e-01,-4.07624221498704e-05
1.94028007358029e-08,0.00000000000000e+00,6.00000000000000e-01,-6.48487508104773e-06
2.21556058453674e-08,0.00000000000000e+00,6.00000000000000e-01,3.61772991542106e-05
2.50000000000000e-08,0.00000000000000e+00,6.00000000000000e-01,-4.60447798267707e-05
2.50100000000000e-08,5.99999999999886e-02,6.00000000000000e-01,8.46062976851761e-05
2.50300000000000e-08,1.80000000000006e-01,6.00000000000000e-01,2.99893095743436e-04
2.50700000000000e-08,4.20000000000000e-01,6.00000000000000e-01,5.42765437810226e-04
2.51000000000000e-08,6.00000000000000e-01,6.00000000000000e-01,5.54110116750980e-04
2.51080000000000e-08,6.00000000000000e-01,6.00000000000000e-01,4.75699868814884e-04
2.51240000000000e-08,6.00000000000000e-01,6.00000000000000e-01,2.95996952544966e-04
2.51560000000000e-08,6.00000000000000e-01,6.00000000000000e-01,-3.49302249999989e-04
2.52200000000000e-08,6.00000000000000e-01,6.00000000000000e-01,-2.30712634728140e-03
2.53480000000000e-08,6.00000000000000e-01,6.00000000000000e-01,-4.84489514106817e-03
2.56040000000000e-08,6.00000000000000e-01,6.00000000000000e-01,1.24648443318155e-01
2.61160000000000e-08,6.00000000000000e-01,6.00000000000000e-01,5.77960294328950e-01
2.71400000000000e-08,6.00000000000000e-01,6.00000000000000e-01,6.07364817207106e-01
2.83347803337390e-08,6.00000000000000e-01,6.00000000000000e-01,5.92052725418681e-01
3.02822679751582e-08,6.00000000000000e-01,6.00000000000000e-01,6.06918391556242e-01
3.31221185820269e-08,6.00000000000000e-01,6.00000000000000e-01,5.92685224398264e-01
3.51000000000000e-08,5.99999999999970e-01,6.00000000000000e-01,6.06614657717909e-01
3.51100000000000e-08,5.39999999999982e-01,6.00000000000000e-01,6.03748196534208e-01
3.51300000000000e-08,4.19999999999965e-01,6.00000000000000e-01,6.00480684557792e-01
3.51700000000000e-08,1.79999999999970e-01,6.00000000000000e-01,6.00420084637800e-01
3.52000000000000e-08,0.00000000000000e+00,6.00000000000000e-01,6.02217529266053e-01
3.52080000000000e-08,0.00000000000000e+00,6.00000000000000e-01,6.02656172033233e-01
3.52240000000000e-08,0.00000000000000e+00,6.00000000000000e-01,6.03152042615749e-01
3.52560000000000e-08,0.00000000000000e+00,6.00000000000000e-01,6.01947859751088e-01
3.53200000000000e-08,0.00000000000000e+00,6.00000000000000e-01,5.90249029172509e-01
3.54480000000000e-08,0.00000000000000e+00,6.00000000000000e-01,5.82692581250985e-01
3.57040000000000e-08,0.00000000000000e+00,6.00000000000000e-01,6.00667576489226e-01
3.61628744868956e-08,0.00000000000000e+00,6.00000000000000e-01,5.98451845172708e-01
3.68150379368876e-08,0.00000000000000e+00,6.00000000000000e-01,6.00686594603406e-01
3.81193648368716e-08,0.00000000000000e+00,6.00000000000000e-01,5.98966325054768e-01
4.07280186368395e-08,0.00000000000000e+00,6.00000000000000e-01,6.00762303569787e-01
4.45280186368395e-08,0.00000000000000e+00,6.00000000000000e-01,5.99122417210192e-01
4.50000000000000e-08,0.00000000000000e+00,6.00000000000000e-01,6.00609946372447e-01
4.50100000000000e-08,5.99999999999886e-02,6.00000000000000e-01,6.00487737321634e-01
4.50300000000000e-08,1.80000000000006e-01,6.00000000000000e-01,6.00298823345104e-01
4.50700000000000e-08,4.20000000000000e-01,6.00000000000000e-01,6.00145249867726e-01
4.51000000000000e-08,6.00000000000000e-01,6.00000000000000e-01,6.00059407727286e-01
4.51080000000000e-08,6.00000000000000e-01,5.52000000000025e-01,5.99983316435766e-01
4.51240000000000e-08,6.00000000000000e-01,4.55999999999996e-01,5.99819946302457e-01
4.51560000000000e-08,6.00000000000000e-01,2.64000000000016e-01,5.99463243935190e-01
4.52000000000000e-08,6.00000000000000e-01,3.44169137633799e-14,5.99114484314967e-01
4.52064000000000e-08,6.00000000000000e-01,0.00000000000000e+00,5.99089130285300e-01
4.52192000000000e-08,6.00000000000000e-01,0.00000000000000e+00,5.99040046835385e-01
4.52448000000000e-08,6.00000000000000e-01,0.00000000000000e+00,5.98968433465478e-01
4.52960000000000e-08,6.00000000000000e-01,0.00000000000000e+00,5.98953732984107e-01
4.53984000000000e-08,6.00000000000000e-01,0.00000000000000e+00,5.99249890950646e-01
4.56032000000000e-08,6.00000000000000e-01,0.00000000000000e+00,6.00186017458444e-01
4.59334518980806e-08,6.00000000000000e-01,0.00000000000000e+00,6.01129013836327e-01
4.65009311854877e-08,6.00000000000000e-01,0.00000000000000e+00,2.62050506035663e-01
4.71835396016444e-08,6.00000000000000e-01,0.00000000000000e+00,-4.48258873625676e-02
4.83473752147892e-08,6.00000000000000e-01,0.00000000000000e+00,3.73884125657288e-02
5.02769730306932e-08,6.00000000000000e-01,0.00000000000000e+00,-2.59117258047773e-02
5.22522834112660e-08,6.00000000000000e-01,0.00000000000000e+00,2.38491799535753e-02
5.51000000000000e-08,6.00000000000000e-01,0.00000000000000e+00,-1.81717511715101e-02
5.51100000000000e-08,5.40000000000021e-01,0.00000000000000e+00,-1.73686981204706e-02
5.51300000000000e-08,4.20000000000004e-01,0.00000000000000e+00,-1.50031848187493e-02
5.51700000000000e-08,1.80000000000010e-01,0.00000000000000e+00,-9.78091568907533e-03
5.52000000000000e-08,0.00000000000000e+00,0.00000000000000e+00,-6.76851728822195e-03
5.52080000000000e-08,0.00000000000000e+00,0.00000000000000e+00,-6.08046644449038e-03
5.52240000000000e-08,0.00000000000000e+00,0.00000000000000e+00,-4.89050606941123e-03
5.52560000000000e-08,0.00000000000000e+00,0.00000000000000e+00,-3.32743358821939e-03
5.53200000000000e-08,0.00000000000000e+00,0.00000000000000e+00,-1.98686537004101e-03
5.54480000000000e-08,0.00000000000000e+00,0.00000000000000e+00,-9.90405488274414e-04
5.57040000000000e-08,0.00000000000000e+00,0.00000000000000e+00,8.19183110058602e-05
5.61231801832811e-08,0.00000000000000e+00,0.00000000000000e+00,-6.32425805046494e-06
5.68085479376731e-08,0.00000000000000e+00,0.00000000000000e+00,1.74403159974162e-06
5.81792834464571e-08,0.00000000000000e+00,0.00000000000000e+00,8.26362970339153e-06
6.09207544640252e-08,0.00000000000000e+00,0.00000000000000e+00,-1.44214029309175e-06
6.47207544640252e-08,0.00000000000000e+00,0.00000000000000e+00,9.58544779639057e-06
6.50000000000000e-08,0.00000000000000e+00,0.00000000000000e+00,-1.86430799583789e-06
6.50100000000000e-08,5.99999999999886e-02,0.00000000000000e+00,8.33864925730773e-05
6.50300000000000e-08,1.79999999999966e-01,0.00000000000000e+00,2.02654686837965e-04
6.50700000000000e-08,4.19999999999920e-01,0.00000000000000e+00,2.28288809837156e-04
6.51000000000000e-08,5.99999999999966e-01,0.00000000000000e+00,9.55366214271322e-05
6.51080000000000e-08,6.00000000000000e-01,0.00000000000000e+00,1.32498630338457e-05
6.51240000000000e-08,6.00000000000000e-01,0.00000000000000e+00,-1.13093923583947e-04
6.51560000000000e-08,6.00000000000000e-01,0.00000000000000e+00,-2.00737501862384e-04
6.52200000000000e-08,6.00000000000000e-01,0.00000000000000e+00,-1.61804279130713e-04
6.53480000000000e-08,6.00000000000000e-01,0.00000000000000e+00,-4.88106421267370e-05
6.56040000000000e-08,6.00000000000000e-01,0.00000000000000e+00,8.24360227733717e-06
6.61159999999999e-08,6.00000000000000e-01,0.00000000000000e+00,3.00098201487520e-05
6.71399999999999e-08,6.00000000000000e-01,0.00000000000000e+00,-6.18117109083167e-06
6.90711763865388e-08,6.00000000000000e-01,0.00000000000000e+00,1.70946798890093e-05
7.14267633623623e-08,6.00000000000000e-01,0.00000000000000e+00,-2.38599296612917e-06
7.51000000000000e-08,6.00000000000000e-01,0.00000000000000e+00,1.32070381240975e-05
7.51100000000000e-08,5.40000000000061e-01,0.00000000000000e+00,-4.46181222351627e-05
7.51300000000000e-08,4.20000000000084e-01,0.00000000000000e+00,-1.37782488920740e-04
7.51700000000000e-08,1.80000000000129e-01,0.00000000000000e+00,-1.39642376245808e-04
7.52000000000000e-08,8.40438829641244e-14,0.00000000000000e+00,1.17172427723085e-04
7.52080000000000e-08,0.00000000000000e+00,0.00000000000000e+00,2.54521489063207e-04
7.52240000000000e-08,0.00000000000000e+00,0.00000000000000e+00,4.32360725128492e-04
7.52560000000000e-08,0.00000000000000e+00,0.00000000000000e+00,4.65039700443148e-04
7.53200000000000e-08,0.00000000000000e+00,0.00000000000000e+00,1.38870592266714e-04
7.54480000000000e-08,0.00000000000000e+00,0.00000000000000e+00,-2.94175624438266e-04
7.57040000000000e-08,0.00000000000000e+00,0.00000000000000e+00,9.10583194513662e-06
7.61239135265144e-08,0.00000000000000e+00,0.00000000000000e+00,1.80241857417676e-05
7.68087457888021e-08,0.00000000000000e+00,0.00000000000000e+00,-1.34056028052408e-05
7.81784103133775e-08,0.00000000000000e+00,0.00000000000000e+00,2.14699902119399e-05
8.09177393625283e-08,0.00000000000000e+00,0.00000000000000e+00,-1.37649140556869e-05
8.47177393625283e-08,0.00000000000000e+00,0.00000000000000e+00,2.14440370750447e-05
8.50000000000000e-08,0.00000000000000e+00,0.00000000000000e+00,-1.12172979567018e-05
8.50100000000000e-08,5.99999999999886e-02,0.00000000000000e+00,8.05577534558760e-05
8.50300000000000e-08,1.79999999999966e-01,0.00000000000000e+00,2.05495549161751e-04
8.50700000000000e-08,4.19999999999920e-01,0.00000000000000e+00,2.29352588858422e-04
8.51000000000000e-08,5.99999999999966e-01,0.00000000000000e+00,9.62145803463585e-05
8.51080000000000e-08,6.00000000000000e-01,0.00000000000000e+00,1.38259460231716e-05
8.51240000000000e-08,6.00000000000000e-01,0.00000000000000e+00,-1.12690841891756e-04
8.51560000000000e-08,6.00000000000000e-01,0.00000000000000e+00,-2.00557326628589e-04
8.52200000000000e-08,6.00000000000000e-01,0.00000000000000e+00,-1.61809473713560e-04
8.53480000000000e-08,6.00000000000000e-01,0.00000000000000e+00,-4.88404070836251e-05
8.56040000000000e-08,6.00000000000000e-01,0.00000000000000e+00,8.26390968868343e-06
8.61159999999999e-08,6.00000000000000e-01,0.00000000000000e+00,2.99989086280407e-05
8.71399999999999e-08,6.00000000000000e-01,0.00000000000000e+00,-6.17631338209988e-06
8.90711534437990e-08,6.00000000000000e-01,0.00000000000000e+00,1.70917317473497e-05
9.00000000000000e-08,6.00000000000000e-01,0.00000000000000e+00,1.51118341184392e-07
9.00100000000000e-08,6.00000000000000e-01,5.99999999999886e-02,1.70460683621143e-06
9.00300000000000e-08,6.00000000000000e-01,1.79999999999966e-01,3.43872834577402e-06
9.00700000000000e-08,6.00000000000000e-01,4.19999999999920e-01,3.36582482457493e-06
9.01000000000000e-08,6.00000000000000e-01,5.99999999999966e-01,1.31054153545279e-06
9.01080000000000e-08,6.00000000000000e-01,6.00000000000000e-01,9.52968955400535e-07
9.01240000000000e-08,6.00000000000000e-01,6.00000000000000e-01,8.41285997039976e-07
9.01560000000000e-08,6.00000000000000e-01,6.00000000000000e-01,3.35602089560766e-06
9.02200000000000e-08,6.00000000000000e-01,6.00000000000000e-01,6.59302361844666e-06
9.03480000000000e-08,6.00000000000000e-01,6.00000000000000e-01,7.83005627500583e-06
9.06040000000000e-08,6.00000000000000e-01,6.00000000000000e-01,5.55276822868447e-06
9.11159999999999e-08,6.00000000000000e-01,6.00000000000000e-01,6.58818916486614e-06
9.21281502925732e-08,6.00000000000000e-01,6.00000000000000e-01,5.73426175557064e-06
9.41524508777197e-08,6.00000000000000e-01,6.00000000000000e-01,6.07797132141496e-06
9.51000000000000e-08,6.00000000000000e-01,6.00000000000000e-01,5.37316398136096e-06
9.51100000000000e-08,5.40000000000061e-01,6.00000000000000e-01,-5.18611073758168e-05
9.51300000000000e-08,4.20000000000084e-01,6.00000000000000e-01,-1.42990439344501e-04
9.51700000000000e-08,1.80000000000129e-01,6.00000000000000e-01,-1.43655418806635e-04
9.52000000000000e-08,8.40438829641244e-14,6.00000000000000e-01,1.14856417646129e-04
9.52080000000000e-08,0.00000000000000e+00,6.00000000000000e-01,2.51884915354404e-04
9.52240000000000e-08,0.00000000000000e+00,6.00000000000000e-01,4.28862346183036e-04
9.52560000000000e-08,0.00000000000000e+00,6.00000000000000e-01,4.60488904140174e-04
9.53200000000000e-08,0.00000000000000e+00,6.00000000000000e-01,1.38054668424883e-04
9.54480000000000e-08,0.00000000000000e+00,6.00000000000000e-01,-2.91506329866728e-04
9.57040000000000e-08,0.00000000000000e+00,6.00000000000000e-01,3.50715297856088e-05
9.61267901396366e-08,0.00000000000000e+00,6.00000000000000e-01,-1.86018289916122e-04
9.68134029247830e-08,0.00000000000000e+00,6.00000000000000e-01,1.73676034564299e-04
9.78993847315358e-08,0.00000000000000e+00,6.00000000000000e-01,-4.07471495889617e-05
9.94027459525463e-08,0.00000000000000e+00,6.00000000000000e-01,-6.49969897207475e-06
1.02155473082140e-07,0.00000000000000e+00,6.00000000000000e-01,3.61921069369571e-05
1.05000000000000e-07,0.00000000000000e+00,6.00000000000000e-01,-4.60582096679608e-05
1.05010000000000e-07,5.99999999999886e-02,6.00000000000000e-01,8.45943976132135e-05
1.05030000000000e-07,1.79999999999966e-01,6.00000000000000e-01,2.99883395686748e-04
1.05070000000000e-07,4.19999999999920e-01,6.00000000000000e-01,5.42759879221907e-04
1.05100000000000e-07,5.99999999999966e-01,6.00000000000000e-01,5.54104173823115e-04
1.05108000000000e-07,6.00000000000000e-01,6.00000000000000e-01,4.75691784580685e-04
1.05124000000000e-07,6.00000000000000e-01,6.00000000000000e-01,2.95978753030689e-04
1.05156000000000e-07,6.00000000000000e-01,6.00000000000000e-01,-3.49355351418459e-04
1.05220000000000e-07,6.00000000000000e-01,6.00000000000000e-01,-2.30720206145588e-03
1.05348000000000e-07,6.00000000000000e-01,6.00000000000000e-01,-4.84488946928759e-03
1.05604000000000e-07,6.00000000000000e-01,6.00000000000000e-01,1.24651323034498e-01
1.06116000000000e-07,6.00000000000000e-01,6.00000000000000e-01,5.77961135386488e-01
1.07140000000000e-07,6.00000000000000e-01,6.00000000000000e-01,6.07364547066759e-01
1.08334789815709e-07,6.00000000000000e-01,6.00000000000000e-01,5.92053020451286e-01
1.10282272471023e-07,6.00000000000000e-01,6.00000000000000e-01,6.06918131545694e-01
1.13122131317087e-07,6.00000000000000e-01,6.00000000000000e-01,5.92685502104145e-01
1.15100000000000e-07,6.00000000000000e-01,6.00000000000000e-01,6.06614406172914e-01
1.15110000000000e-07,5.40000000000061e-01,6.00000000000000e-01,6.03748055431945e-01
1.15130000000000e-07,4.20000000000084e-01,6.00000000000000e-01,6.00480667678260e-01
1.15170000000000e-07,1.80000000000129e-01,6.00000000000000e-01,6.00420089152505e-01
1.15200000000000e-07,8.40438829641244e-14,6.00000000000000e-01,6.02217529531768e-01
1.15208000000000e-07,0.00000000000000e+00,6.00000000000000e-01,6.02656172499612e-01
1.15224000000000e-07,0.00000000000000e+00,6.00000000000000e-01,6.03152043783128e-01
1.15256000000000e-07,0.00000000000000e+00,6.00000000000000e-01,6.01947865649481e-01
1.15320000000000e-07,0.00000000000000e+00,6.00000000000000e-01,5.90249044491913e-01
1.15448000000000e-07,0.00000000000000e+00,6.00000000000000e-01,5.82692586973425e-01
1.15704000000000e-07,0.00000000000000e+00,6.00000000000000e-01,6.00667572741029e-01
1.16162874495047e-07,0.00000000000000e+00,6.00000000000000e-01,5.98451848392181e-01
1.16815037951498e-07,0.00000000000000e+00,6.00000000000000e-01,6.00686591945570e-01
1.18119364864400e-07,0.00000000000000e+00,6.00000000000000e-01,5.98966327554559e-01
1.20728018690205e-07,0.00000000000000e+00,6.00000000000000e-01,6.00762301186923e-01
1.24528018690205e-07,0.00000000000000e+00,6.00000000000000e-01,5.99122419544600e-01
1.25000000000000e-07,0.00000000000000e+00,6.00000000000000e-01,6.00609944479619e-01
1.25010000000000e-07,5.99999999999092e-02,6.00000000000000e-01,6.00487735958622e-01
1.25030000000000e-07,1.79999999999886e-01,6.00000000000000e-01,6.00298822746799e-01
1.25070000000000e-07,4.19999999999841e-01,6.00000000000000e-01,6.00145249788688e-01
1.25100000000000e-07,5.99999999999886e-01,6.00000000000000e-01,6.00059407679790e-01
1.25108000000000e-07,6.00000000000000e-01,5.51999999999946e-01,5.99983316381737e-01
1.25124000000000e-07,6.00000000000000e-01,4.55999999999996e-01,5.99819946241724e-01
1.25156000000000e-07,6.00000000000000e-01,2.63999999999937e-01,5.99463243898714e-01
1.25200000000000e-07,6.00000000000000e-01,0.00000000000000e+00,5.99114484309860e-01
1.25206400000000e-07,6.00000000000000e-01,0.00000000000000e+00,5.99089130275253e-01
1.25219200000000e-07,6.00000000000000e-01,0.00000000000000e+00,5.99040046820440e-01
1.25244800000000e-07,6.00000000000000e-01,0.00000000000000e+00,5.98968433458487e-01
1.25296000000000e-07,6.00000000000000e-01,0.00000000000000e+00,5.98953732989835e-01
1.25398400000000e-07,6.00000000000000e-01,0.00000000000000e+00,5.99249890935564e-01
1.25603200000000e-07,6.00000000000000e-01,0.00000000000000e+00,6.00186017431793e-01
1.25933451948877e-07,6.00000000000000e-01,0.00000000000000e+00,6.01129014196564e-01
1.26500931205147e-07,6.00000000000000e-01,0.00000000000000e+00,2.62050512400610e-01
1.27183539874514e-07,6.00000000000000e-01,0.00000000000000e+00,-4.48259126338007e-02
1.28347375413693e-07,6.00000000000000e-01,0.00000000000000e+00,3.73884356261620e-02
1.30276973357559e-07,6.00000000000000e-01,0.00000000000000e+00,-2.59117409671262e-02
1.32252283899342e-07,6.00000000000000e-01,0.00000000000000e+00,2.38491950778461e-02
1.35100000000000e-07,5.99999999999891e-01,0.00000000000000e+00,-1.81717617958199e-02
1.35110000000000e-07,5.39999999999823e-01,0.00000000000000e+00,-1.73687077860463e-02
1.35130000000000e-07,4.19999999999845e-01,0.00000000000000e+00,-1.50031925953387e-02
1.35170000000000e-07,1.79999999999891e-01,0.00000000000000e+00,-9.78092067104681e-03
1.35200000000000e-07,0.00000000000000e+00,0.00000000000000e+00,-6.76852088283470e-03
1.35208000000000e-07,0.00000000000000e+00,0.00000000000000e+00,-6.08046975420127e-03
1.35224000000000e-07,0.00000000000000e+00,0.00000000000000e+00,-4.89050885224510e-03
1.35256000000000e-07,0.00000000000000e+00,0.00000000000000e+00,-3.32743555157547e-03
1.35320000000000e-07,0.00000000000000e+00,0.00000000000000e+00,-1.98686637576868e-03
