Time,v(clk),v(data),v(out),v(reset)
1.00000000000000e-08,6.00000000000000e-01,0.00000000000000e+00,-1.70176100121669e-06,0.00000000000000e+00
1.00100000000000e-08,6.00000000000000e-01,5.99999999999985e-02,2.00572444661318e-06,0.00000000000000e+00
1.00300000000000e-08,6.00000000000000e-01,1.79999999999996e-01,6.83056649322666e-06,0.00000000000000e+00
1.00700000000000e-08,6.00000000000000e-01,4.19999999999990e-01,9.18046376705700e-06,0.00000000000000e+00
1.01000000000000e-08,6.00000000000000e-01,5.99999999999995e-01,8.74675695990840e-06,0.00000000000000e+00
1.01080000000000e-08,6.00000000000000e-01,6.00000000000000e-01,8.95344590198799e-06,0.00000000000000e+00
1.01240000000000e-08,6.00000000000000e-01,6.00000000000000e-01,9.74201177064010e-06,0.00000000000000e+00
1.01560000000000e-08,6.00000000000000e-01,6.00000000000000e-01,1.18980781308453e-05,0.00000000000000e+00
1.02200000000000e-08,6.00000000000000e-01,6.00000000000000e-01,1.29610733964405e-05,0.00000000000000e+00
1.03480000000000e-08,6.00000000000000e-01,6.00000000000000e-01,1.26939191465794e-05,0.00000000000000e+00
1.06040000000000e-08,6.00000000000000e-01,6.00000000000000e-01,1.18755794423844e-05,0.00000000000000e+00
1.11160000000000e-08,6.00000000000000e-01,6.00000000000000e-01,1.19677565689844e-05,0.00000000000000e+00
1.21400000000000e-08,6.00000000000000e-01,6.00000000000000e-01,1.10148445682905e-05,0.00000000000000e+00
1.41880000000000e-08,6.00000000000000e-01,6.00000000000000e-01,1.06569127795958e-05,0.00000000000000e+00
1.51000000000000e-08,6.00000000000000e-01,6.00000000000000e-01,1.00225129160362e-05,0.00000000000000e+00
1.51100000000000e-08,5.39999999999991e-01,6.00000000000000e-01,1.79137928616520e-04,6.00000000000085e-02
1.51300000000000e-08,4.19999999999994e-01,6.00000000000000e-01,3.67946817920933e-04,1.80000000000006e-01
1.51700000000000e-08,1.80000000000000e-01,6.00000000000000e-01,3.24541876596626e-04,4.20000000000000e-01
1.52000000000000e-08,0.00000000000000e+00,6.00000000000000e-01,2.41932639288220e-04,6.00000000000000e-01
1.52080000000000e-08,0.00000000000000e+00,6.00000000000000e-01,2.03503193814250e-04,6.00000000000000e-01
1.52240000000000e-08,0.00000000000000e+00,6.00000000000000e-01,1.46580667559237e-04,6.00000000000000e-01
1.52560000000000e-08,0.00000000000000e+00,6.00000000000000e-01,9.32985107832893e-05,6.00000000000000e-01
1.53200000000000e-08,0.00000000000000e+00,6.00000000000000e-01,-4.30301730106053e-06,6.00000000000000e-01
1.54480000000000e-08,0.00000000000000e+00,6.00000000000000e-01,-2.35677489263772e-04,6.00000000000000e-01
1.57040000000000e-08,0.00000000000000e+00,6.00000000000000e-01,-7.64663914280053e-05,6.00000000000000e-01
1.61159216149513e-08,0.00000000000000e+00,6.00000000000000e-01,-1.19266145594378e-04,6.00000000000000e-01
1.68275508609509e-08,0.00000000000000e+00,6.00000000000000e-01,1.14043047050268e-04,6.00000000000000e-01
1.78294101509066e-08,0.00000000000000e+00,6.00000000000000e-01,4.77763272703421e-05,6.00000000000000e-01
1.94801944297551e-08,0.00000000000000e+00,6.00000000000000e-01,-8.18449202246076e-05,6.00000000000000e-01
2.21640232355868e-08,0.00000000000000e+00,6.00000000000000e-01,1.17232593962828e-04,6.00000000000000e-01
2.50000000000000e-08,0.00000000000000e+00,6.00000000000000e-01,-1.16904086864799e-04,6.00000000000000e-01
2.50100000000000e-08,5.99999999999886e-02,6.00000000000000e-01,1.57511135249686e-05,6.00000000000000e-01
2.50300000000000e-08,1.80000000000006e-01,6.00000000000000e-01,2.28883626217223e-04,6.00000000000000e-01
2.50700000000000e-08,4.20000000000000e-01,6.00000000000000e-01,4.49389136293388e-04,6.00000000000000e-01
2.51000000000000e-08,6.00000000000000e-01,6.00000000000000e-01,3.57554054938737e-04,6.00000000000000e-01
2.51080000000000e-08,6.00000000000000e-01,6.00000000000000e-01,1.93466279796092e-04,6.00000000000000e-01
2.51240000000000e-08,6.00000000000000e-01,6.00000000000000e-01,-2.47457912855159e-04,6.00000000000000e-01
2.51560000000000e-08,6.00000000000000e-01,6.00000000000000e-01,-1.51246270022472e-03,6.00000000000000e-01
2.52200000000000e-08,6.00000000000000e-01,6.00000000000000e-01,-3.84885380327214e-03,6.00000000000000e-01
2.53480000000000e-08,6.00000000000000e-01,6.00000000000000e-01,-1.15753365253898e-03,6.00000000000000e-01
2.56040000000000e-08,6.00000000000000e-01,6.00000000000000e-01,2.40368980072699e-01,6.00000000000000e-01
2.61160000000000e-08,6.00000000000000e-01,6.00000000000000e-01,6.05987356759003e-01,6.00000000000000e-01
2.68968354512118e-08,6.00000000000000e-01,6.00000000000000e-01,5.95191214138152e-01,6.00000000000000e-01
2.81241720113756e-08,6.00000000000000e-01,6.00000000000000e-01,6.05136325622159e-01,6.00000000000000e-01
2.97989464192409e-08,6.00000000000000e-01,6.00000000000000e-01,5.95208537838538e-01,6.00000000000000e-01
3.22386938997512e-08,6.00000000000000e-01,6.00000000000000e-01,6.04821139414317e-01,6.00000000000000e-01
3.51000000000000e-08,5.99999999999970e-01,6.00000000000000e-01,5.95368252878827e-01,6.00000000000000e-01
3.51100000000000e-08,5.39999999999982e-01,6.00000000000000e-01,5.96865816050955e-01,6.00000000000000e-01
3.51300000000000e-08,4.19999999999965e-01,6.00000000000000e-01,5.98865927994512e-01,6.00000000000000e-01
3.51700000000000e-08,1.79999999999970e-01,6.00000000000000e-01,6.00404761487938e-01,6.00000000000000e-01
3.52000000000000e-08,0.00000000000000e+00,6.00000000000000e-01,6.01825246759246e-01,6.00000000000000e-01
3.52080000000000e-08,0.00000000000000e+00,6.00000000000000e-01,6.02235966114356e-01,6.00000000000000e-01
3.52240000000000e-08,0.00000000000000e+00,6.00000000000000e-01,6.02789308229301e-01,6.00000000000000e-01
3.52560000000000e-08,0.00000000000000e+00,6.00000000000000e-01,6.02819673837992e-01,6.00000000000000e-01
3.53200000000000e-08,0.00000000000000e+00,6.00000000000000e-01,5.97921621560362e-01,6.00000000000000e-01
3.54480000000000e-08,0.00000000000000e+00,6.00000000000000e-01,5.80356360629761e-01,6.00000000000000e-01
3.57040000000000e-08,0.00000000000000e+00,6.00000000000000e-01,5.87799118205406e-01,6.00000000000000e-01
3.62160000000000e-08,0.00000000000000e+00,6.00000000000000e-01,6.04709721597163e-01,6.00000000000000e-01
3.69047266637783e-08,0.00000000000000e+00,6.00000000000000e-01,5.95212950957362e-01,6.00000000000000e-01
3.82821799913349e-08,0.00000000000000e+00,6.00000000000000e-01,6.03372475123984e-01,6.00000000000000e-01
4.10370866464481e-08,0.00000000000000e+00,6.00000000000000e-01,5.96348777757044e-01,6.00000000000000e-01
4.48370866464481e-08,0.00000000000000e+00,6.00000000000000e-01,6.03126010784445e-01,6.00000000000000e-01
4.50000000000000e-08,0.00000000000000e+00,6.00000000000000e-01,5.98843446351114e-01,6.00000000000000e-01
4.50100000000000e-08,5.99999999999886e-02,6.00000000000000e-01,5.98957729609261e-01,5.40000000000011e-01
4.50300000000000e-08,1.80000000000006e-01,6.00000000000000e-01,5.99124504200809e-01,4.19999999999994e-01
4.50700000000000e-08,4.20000000000000e-01,6.00000000000000e-01,6.00612819922596e-01,1.80000000000000e-01
4.51000000000000e-08,6.00000000000000e-01,6.00000000000000e-01,6.04654975321792e-01,0.00000000000000e+00
4.51080000000000e-08,6.00000000000000e-01,6.00000000000000e-01,6.06096998238745e-01,0.00000000000000e+00
4.51240000000000e-08,6.00000000000000e-01,6.00000000000000e-01,6.08587058384554e-01,0.00000000000000e+00
4.51560000000000e-08,6.00000000000000e-01,6.00000000000000e-01,6.12522274128698e-01,0.00000000000000e+00
4.52200000000000e-08,6.00000000000000e-01,6.00000000000000e-01,6.21013538763133e-01,0.00000000000000e+00
4.53480000000000e-08,6.00000000000000e-01,6.00000000000000e-01,5.28914894675546e-01,0.00000000000000e+00
4.56040000000000e-08,6.00000000000000e-01,6.00000000000000e-01,1.03346783865029e-01,0.00000000000000e+00
4.59913160578290e-08,6.00000000000000e-01,6.00000000000000e-01,-3.53888200961848e-02,0.00000000000000e+00
4.66407115662261e-08,6.00000000000000e-01,6.00000000000000e-01,2.56487141209466e-02,0.00000000000000e+00
4.76147204376363e-08,6.00000000000000e-01,6.00000000000000e-01,-1.85338223268772e-02,0.00000000000000e+00
4.93493294210600e-08,6.00000000000000e-01,6.00000000000000e-01,1.70465595029100e-02,0.00000000000000e+00
5.01000000000000e-08,6.00000000000000e-01,5.99999999999966e-01,-1.19496005755925e-02,0.00000000000000e+00
5.03936505872388e-08,6.00000000000000e-01,6.00000000000000e-01,-1.71526183842965e-03,0.00000000000000e+00
5.09809517617163e-08,6.00000000000000e-01,6.00000000000000e-01,1.08436395108828e-03,0.00000000000000e+00
5.21555541106714e-08,6.00000000000000e-01,6.00000000000000e-01,-8.47903163685387e-04,0.00000000000000e+00
5.45047588085815e-08,6.00000000000000e-01,6.00000000000000e-01,7.74930384132499e-04,0.00000000000000e+00
5.51000000000000e-08,6.00000000000000e-01,6.00000000000000e-01,-4.90401856073994e-04,0.00000000000000e+00
5.51100000000000e-08,5.40000000000021e-01,6.00000000000000e-01,-2.19520227998891e-04,5.99999999999787e-02
5.51300000000000e-08,4.20000000000004e-01,6.00000000000000e-01,1.07697382657465e-04,1.79999999999996e-01
5.51700000000000e-08,1.80000000000010e-01,6.00000000000000e-01,1.73787167888587e-04,4.19999999999990e-01
5.52000000000000e-08,0.00000000000000e+00,6.00000000000000e-01,1.37727849583560e-04,6.00000000000000e-01
5.52080000000000e-08,0.00000000000000e+00,6.00000000000000e-01,1.07380223166954e-04,6.00000000000000e-01
5.52240000000000e-08,0.00000000000000e+00,6.00000000000000e-01,6.50902628602373e-05,6.00000000000000e-01
5.52560000000000e-08,0.00000000000000e+00,6.00000000000000e-01,2.33514200947277e-05,6.00000000000000e-01
5.53200000000000e-08,0.00000000000000e+00,6.00000000000000e-01,-2.22753802727224e-04,6.00000000000000e-01
5.54480000000000e-08,0.00000000000000e+00,6.00000000000000e-01,-9.63164552420279e-04,6.00000000000000e-01
5.57040000000000e-08,0.00000000000000e+00,6.00000000000000e-01,-2.18023579184927e-04,6.00000000000000e-01
5.60814247414070e-08,0.00000000000000e+00,6.00000000000000e-01,2.42023197821802e-04,6.00000000000000e-01
5.68109555119146e-08,0.00000000000000e+00,6.00000000000000e-01,-2.69488379514616e-04,6.00000000000000e-01
5.77372450732245e-08,0.00000000000000e+00,6.00000000000000e-01,2.99130220944691e-04,6.00000000000000e-01
5.93788593309367e-08,0.00000000000000e+00,6.00000000000000e-01,-2.70297335290609e-04,6.00000000000000e-01
6.21279277807815e-08,0.00000000000000e+00,6.00000000000000e-01,2.75221928563502e-04,6.00000000000000e-01
6.50000000000000e-08,0.00000000000000e+00,6.00000000000000e-01,-2.48848995239087e-04,6.00000000000000e-01
6.50100000000000e-08,5.99999999999886e-02,6.00000000000000e-01,-9.89958111656183e-05,6.00000000000000e-01
6.50300000000000e-08,1.79999999999966e-01,6.00000000000000e-01,1.40017172568611e-04,6.00000000000000e-01
6.50700000000000e-08,4.19999999999920e-01,6.00000000000000e-01,3.87965298218641e-04,6.00000000000000e-01
6.51000000000000e-08,5.99999999999966e-01,6.00000000000000e-01,2.59795248456859e-04,6.00000000000000e-01
6.51080000000000e-08,6.00000000000000e-01,6.00000000000000e-01,6.10496340563080e-05,6.00000000000000e-01
6.51240000000000e-08,6.00000000000000e-01,6.00000000000000e-01,-4.46691282006424e-04,6.00000000000000e-01
6.51560000000000e-08,6.00000000000000e-01,6.00000000000000e-01,-1.76993183895555e-03,6.00000000000000e-01
6.52200000000000e-08,6.00000000000000e-01,6.00000000000000e-01,-4.01281436753820e-03,6.00000000000000e-01
6.53480000000000e-08,6.00000000000000e-01,6.00000000000000e-01,-4.85033918857417e-04,6.00000000000000e-01
6.56040000000000e-08,6.00000000000000e-01,6.00000000000000e-01,2.46686645829249e-01,6.00000000000000e-01
6.61159999999999e-08,6.00000000000000e-01,6.00000000000000e-01,6.07342655688875e-01,6.00000000000000e-01
6.68866613043190e-08,6.00000000000000e-01,6.00000000000000e-01,5.94407460035148e-01,6.00000000000000e-01
6.81180650809775e-08,6.00000000000000e-01,6.00000000000000e-01,6.05913690759104e-01,6.00000000000000e-01
6.97826571450811e-08,6.00000000000000e-01,6.00000000000000e-01,5.94504198880553e-01,6.00000000000000e-01
7.22232725475072e-08,6.00000000000000e-01,6.00000000000000e-01,6.05518067812663e-01,6.00000000000000e-01
7.51000000000000e-08,6.00000000000000e-01,6.00000000000000e-01,5.94705448223167e-01,6.00000000000000e-01
7.51100000000000e-08,5.40000000000061e-01,6.00000000000000e-01,5.96406061690612e-01,6.00000000000000e-01
7.51300000000000e-08,4.20000000000084e-01,6.00000000000000e-01,5.98687797283393e-01,6.00000000000000e-01
7.51700000000000e-08,1.80000000000129e-01,6.00000000000000e-01,6.00392607216332e-01,6.00000000000000e-01
7.52000000000000e-08,8.40438829641244e-14,6.00000000000000e-01,6.01823249930151e-01,6.00000000000000e-01
7.52080000000000e-08,0.00000000000000e+00,6.00000000000000e-01,6.02239294195028e-01,6.00000000000000e-01
7.52240000000000e-08,0.00000000000000e+00,6.00000000000000e-01,6.02790281724460e-01,6.00000000000000e-01
7.52560000000000e-08,0.00000000000000e+00,6.00000000000000e-01,6.02817970781978e-01,6.00000000000000e-01
7.53200000000000e-08,0.00000000000000e+00,6.00000000000000e-01,5.97914260671226e-01,6.00000000000000e-01
7.54480000000000e-08,0.00000000000000e+00,6.00000000000000e-01,5.80347663477498e-01,6.00000000000000e-01
7.57040000000000e-08,0.00000000000000e+00,6.00000000000000e-01,5.87800611424920e-01,6.00000000000000e-01
7.62159999999999e-08,0.00000000000000e+00,6.00000000000000e-01,6.04708609323325e-01,6.00000000000000e-01
7.69047415214893e-08,0.00000000000000e+00,6.00000000000000e-01,5.95213919155232e-01,6.00000000000000e-01
7.82822245644681e-08,0.00000000000000e+00,6.00000000000000e-01,6.03371652260895e-01,6.00000000000000e-01
8.10371906504256e-08,0.00000000000000e+00,6.00000000000000e-01,5.96349588445036e-01,6.00000000000000e-01
8.48371906504256e-08,0.00000000000000e+00,6.00000000000000e-01,6.03125262564426e-01,6.00000000000000e-01
8.50000000000000e-08,0.00000000000000e+00,6.00000000000000e-01,5.98844639110948e-01,6.00000000000000e-01
8.50100000000000e-08,5.99999999999886e-02,6.00000000000000e-01,5.98958723807477e-01,5.40000000000011e-01
8.50300000000000e-08,1.79999999999966e-01,6.00000000000000e-01,5.99125095821702e-01,4.20000000000034e-01
8.50700000000000e-08,4.19999999999920e-01,6.00000000000000e-01,6.00612981753258e-01,1.80000000000080e-01
8.51000000000000e-08,5.99999999999966e-01,6.00000000000000e-01,6.04655050285050e-01,3.44169137633799e-14
8.51080000000000e-08,6.00000000000000e-01,6.00000000000000e-01,6.06097053258345e-01,0.00000000000000e+00
8.51240000000000e-08,6.00000000000000e-01,6.00000000000000e-01,6.08587088309070e-01,0.00000000000000e+00
8.51560000000000e-08,6.00000000000000e-01,6.00000000000000e-01,6.12522303239154e-01,0.00000000000000e+00
8.52200000000000e-08,6.00000000000000e-01,6.00000000000000e-01,6.21013616919164e-01,0.00000000000000e+00
8.53480000000000e-08,6.00000000000000e-01,6.00000000000000e-01,5.28916017389210e-01,0.00000000000000e+00
8.56040000000000e-08,6.00000000000000e-01,6.00000000000000e-01,1.03347970860552e-01,0.00000000000000e+00
8.59916228905568e-08,6.00000000000000e-01,6.00000000000000e-01,-3.54173615443107e-02,0.00000000000000e+00
8.66409289753339e-08,6.00000000000000e-01,6.00000000000000e-01,2.56666043535522e-02,0.00000000000000e+00
8.76152265040972e-08,6.00000000000000e-01,6.00000000000000e-01,-1.85469337402814e-02,0.00000000000000e+00
8.93500155846389e-08,6.00000000000000e-01,6.00000000000000e-01,1.70589191237188e-02,0.00000000000000e+00
9.01000000000000e-08,6.00000000000000e-01,5.99999999999966e-01,-1.19540946413810e-02,0.00000000000000e+00
9.03940240081826e-08,6.00000000000000e-01,6.00000000000000e-01,-1.71434070501736e-03,0.00000000000000e+00
9.09820720245479e-08,6.00000000000000e-01,6.00000000000000e-01,1.08441952325214e-03,0.00000000000000e+00
9.21581680572785e-08,6.00000000000000e-01,6.00000000000000e-01,-8.48170293107864e-04,0.00000000000000e+00
9.45103601227396e-08,6.00000000000000e-01,6.00000000000000e-01,7.75263116970053e-04,0.00000000000000e+00
9.51000000000000e-08,6.00000000000000e-01,6.00000000000000e-01,-4.88516489008162e-04,0.00000000000000e+00
9.51100000000000e-08,5.40000000000061e-01,6.00000000000000e-01,-2.17913473358776e-04,5.99999999999390e-02
9.51300000000000e-08,4.20000000000084e-01,6.00000000000000e-01,1.08845677198224e-04,1.79999999999916e-01
9.51700000000000e-08,1.80000000000129e-01,6.00000000000000e-01,1.74448214999477e-04,4.19999999999871e-01
9.52000000000000e-08,8.40438829641244e-14,6.00000000000000e-01,1.38163605363152e-04,5.99999999999916e-01
9.52080000000000e-08,0.00000000000000e+00,6.00000000000000e-01,1.07773656098244e-04,6.00000000000000e-01
9.52240000000000e-08,0.00000000000000e+00,6.00000000000000e-01,6.54071398485667e-05,6.00000000000000e-01
9.52560000000000e-08,0.00000000000000e+00,6.00000000000000e-01,2.35581385814171e-05,6.00000000000000e-01
9.53200000000000e-08,0.00000000000000e+00,6.00000000000000e-01,-2.22670872686487e-04,6.00000000000000e-01
9.54480000000000e-08,0.00000000000000e+00,6.00000000000000e-01,-9.63162095352917e-04,6.00000000000000e-01
9.57040000000000e-08,0.00000000000000e+00,6.00000000000000e-01,-2.18025425850338e-04,6.00000000000000e-01
9.60814621879033e-08,0.00000000000000e+00,6.00000000000000e-01,2.42013801469602e-04,6.00000000000000e-01
9.68109694383796e-08,0.00000000000000e+00,6.00000000000000e-01,-2.69473636355771e-04,6.00000000000000e-01
9.77373391362423e-08,0.00000000000000e+00,6.00000000000000e-01,2.99117303008251e-04,6.00000000000000e-01
9.93789688992758e-08,0.00000000000000e+00,6.00000000000000e-01,-2.70288916262445e-04,6.00000000000000e-01
1.02128354314285e-07,0.00000000000000e+00,6.00000000000000e-01,2.75216721535587e-04,6.00000000000000e-01
1.05000000000000e-07,0.00000000000000e+00,6.00000000000000e-01,-2.48844132175523e-04,6.00000000000000e-01
1.05010000000000e-07,5.99999999999886e-02,6.00000000000000e-01,-9.89886853840979e-05,6.00000000000000e-01
1.05030000000000e-07,1.79999999999966e-01,6.00000000000000e-01,1.40027367092628e-04,6.00000000000000e-01
1.05070000000000e-07,4.19999999999920e-01,6.00000000000000e-01,3.87975736509352e-04,6.00000000000000e-01
1.05100000000000e-07,5.99999999999966e-01,6.00000000000000e-01,2.59810173131994e-04,6.00000000000000e-01
1.05108000000000e-07,6.00000000000000e-01,6.00000000000000e-01,6.10677814299534e-05,6.00000000000000e-01
1.05124000000000e-07,6.00000000000000e-01,6.00000000000000e-01,-4.46667560336005e-04,6.00000000000000e-01
1.05156000000000e-07,6.00000000000000e-01,6.00000000000000e-01,-1.76990434424509e-03,6.00000000000000e-01
1.05220000000000e-07,6.00000000000000e-01,6.00000000000000e-01,-4.01279809613300e-03,6.00000000000000e-01
1.05348000000000e-07,6.00000000000000e-01,6.00000000000000e-01,-4.85129552812186e-04,6.00000000000000e-01
1.05604000000000e-07,6.00000000000000e-01,6.00000000000000e-01,2.46685795964786e-01,6.00000000000000e-01
1.06116000000000e-07,6.00000000000000e-01,6.00000000000000e-01,6.07342477737991e-01,6.00000000000000e-01
1.06886662635348e-07,6.00000000000000e-01,6.00000000000000e-01,5.94407564207325e-01,6.00000000000000e-01
1.08118065813868e-07,6.00000000000000e-01,6.00000000000000e-01,6.05913587807848e-01,6.00000000000000e-01
1.09782659206323e-07,6.00000000000000e-01,6.00000000000000e-01,5.94504292573149e-01,6.00000000000000e-01
1.12223274275881e-07,6.00000000000000e-01,6.00000000000000e-01,6.05517975472659e-01,6.00000000000000e-01
1.15100000000000e-07,6.00000000000000e-01,6.00000000000000e-01,5.94705536316056e-01,6.00000000000000e-01
1.15110000000000e-07,5.40000000000061e-01,6.00000000000000e-01,5.96406122855706e-01,6.00000000000000e-01
1.15130000000000e-07,4.20000000000084e-01,6.00000000000000e-01,5.98687821061810e-01,6.00000000000000e-01
1.15170000000000e-07,1.80000000000129e-01,6.00000000000000e-01,6.00392608909908e-01,6.00000000000000e-01
1.15200000000000e-07,8.40438829641244e-14,6.00000000000000e-01,6.01823250242846e-01,6.00000000000000e-01
1.15208000000000e-07,0.00000000000000e+00,6.00000000000000e-01,6.02239294364299e-01,6.00000000000000e-01
1.15224000000000e-07,0.00000000000000e+00,6.00000000000000e-01,6.02790281925711e-01,6.00000000000000e-01
