Time,v(clk),v(data),v(out)
1.00000000000000e-08,6.50000000000000e-01,0.00000000000000e+00,2.30404571834259e-06
1.00100000000000e-08,6.50000000000000e-01,6.49999999999984e-02,-1.84746845828532e-06
1.00300000000000e-08,6.50000000000000e-01,1.94999999999995e-01,-3.44027763314603e-06
1.00700000000000e-08,6.50000000000000e-01,4.54999999999989e-01,-4.05125440420401e-06
1.01000000000000e-08,6.50000000000000e-01,6.49999999999995e-01,-4.11487367620034e-06
1.01080000000000e-08,6.50000000000000e-01,6.50000000000000e-01,-3.09150615185327e-06
1.01240000000000e-08,6.50000000000000e-01,6.50000000000000e-01,-1.32834012581129e-07
1.01560000000000e-08,6.50000000000000e-01,6.50000000000000e-01,4.11015945837173e-06
1.02200000000000e-08,6.50000000000000e-01,6.50000000000000e-01,4.10639167876953e-06
1.03480000000000e-08,6.50000000000000e-01,6.50000000000000e-01,-1.05085658010790e-06
1.06040000000000e-08,6.50000000000000e-01,6.50000000000000e-01,3.92622190022174e-06
1.11160000000000e-08,6.50000000000000e-01,6.50000000000000e-01,-2.95897495403499e-07
1.21400000000000e-08,6.50000000000000e-01,6.50000000000000e-01,3.39316925134121e-06
1.41880000000000e-08,6.50000000000000e-01,6.50000000000000e-01,-4.15488177203226e-07
1.51000000000000e-08,6.50000000000000e-01,6.50000000000000e-01,3.00803819305688e-06
1.51100000000000e-08,5.84999999999991e-01,6.50000000000000e-01,-7.35929522094059e-05
1.51300000000000e-08,4.54999999999994e-01,6.50000000000000e-01,-1.55744398778038e-04
1.51700000000000e-08,1.95000000000000e-01,6.50000000000000e-01,6.98256284764609e-07
1.52000000000000e-08,0.00000000000000e+00,6.50000000000000e-01,3.81039895321060e-04
1.52080000000000e-08,0.00000000000000e+00,6.50000000000000e-01,5.04150403151105e-04
1.52240000000000e-08,0.00000000000000e+00,6.50000000000000e-01,5.35352625167074e-04
1.52560000000000e-08,0.00000000000000e+00,6.50000000000000e-01,5.62034977977591e-05
1.53200000000000e-08,0.00000000000000e+00,6.50000000000000e-01,-4.46600418049461e-04
1.54480000000000e-08,0.00000000000000e+00,6.50000000000000e-01,1.01688010668621e-04
1.56855932587106e-08,0.00000000000000e+00,6.50000000000000e-01,-1.94252026632417e-04
1.59982293744384e-08,0.00000000000000e+00,6.50000000000000e-01,2.45258206765525e-04
1.66235016058939e-08,0.00000000000000e+00,6.50000000000000e-01,-2.11334741174317e-04
1.72491017794458e-08,0.00000000000000e+00,6.50000000000000e-01,1.73798363011349e-04
1.85003021265496e-08,0.00000000000000e+00,6.50000000000000e-01,-1.54937362612195e-04
2.10027028207571e-08,0.00000000000000e+00,6.50000000000000e-01,1.48080970067532e-04
2.48027028207571e-08,0.00000000000000e+00,6.50000000000000e-01,-1.41584896967858e-04
2.50000000000000e-08,0.00000000000000e+00,6.50000000000000e-01,6.35481495692598e-05
2.50100000000000e-08,6.49999999999877e-02,6.50000000000000e-01,2.10696233998484e-04
2.50300000000000e-08,1.95000000000006e-01,6.50000000000000e-01,3.82696737387819e-04
2.50700000000000e-08,4.55000000000000e-01,6.50000000000000e-01,3.51984338859218e-04
2.51000000000000e-08,6.50000000000000e-01,6.50000000000000e-01,-1.41490719433782e-03
2.51080000000000e-08,6.50000000000000e-01,6.50000000000000e-01,-2.36508583996144e-03
2.51240000000000e-08,6.50000000000000e-01,6.50000000000000e-01,-4.07620549194956e-03
2.51560000000000e-08,6.50000000000000e-01,6.50000000000000e-01,-6.14075695994078e-03
2.52200000000000e-08,6.50000000000000e-01,6.50000000000000e-01,1.72309945147548e-02
2.53480000000000e-08,6.50000000000000e-01,6.50000000000000e-01,4.30305089734943e-01
2.56040000000000e-08,6.50000000000000e-01,6.50000000000000e-01,6.73725025190208e-01
2.58920934680358e-08,6.50000000000000e-01,6.50000000000000e-01,6.30084305896922e-01
2.64682804041075e-08,6.50000000000000e-01,6.50000000000000e-01,6.69010187347422e-01
2.71942462270325e-08,6.50000000000000e-01,6.50000000000000e-01,6.31532906255581e-01
2.85172507504709e-08,6.50000000000000e-01,6.50000000000000e-01,6.67701065898792e-01
3.01000000000000e-08,6.50000000000000e-01,6.50000000000000e-01,6.32263740177242e-01
3.01100000000000e-08,6.50000000000000e-01,5.85000000000034e-01,6.41910337173574e-01
3.01300000000000e-08,6.50000000000000e-01,4.55000000000016e-01,6.50752370476625e-01
3.01700000000000e-08,6.50000000000000e-01,1.95000000000022e-01,6.49763617592769e-01
3.02000000000000e-08,6.50000000000000e-01,1.57651669496772e-14,6.50124807067228e-01
3.02080000000000e-08,6.50000000000000e-01,0.00000000000000e+00,6.50072955084605e-01
3.02240000000000e-08,6.50000000000000e-01,0.00000000000000e+00,6.49995652533785e-01
3.02560000000000e-08,6.50000000000000e-01,0.00000000000000e+00,6.49974977826085e-01
3.03200000000000e-08,6.50000000000000e-01,0.00000000000000e+00,6.49996104995877e-01
3.04480000000000e-08,6.50000000000000e-01,0.00000000000000e+00,6.49997797008640e-01
3.06845313151409e-08,6.50000000000000e-01,0.00000000000000e+00,6.49972558593990e-01
3.09721836556385e-08,6.50000000000000e-01,0.00000000000000e+00,6.49999927692289e-01
3.15474883366338e-08,6.50000000000000e-01,0.00000000000000e+00,6.49975292864156e-01
3.26980976986243e-08,6.50000000000000e-01,0.00000000000000e+00,6.50001587737413e-01
3.49993164226053e-08,6.50000000000000e-01,0.00000000000000e+00,6.49979036510527e-01
3.51000000000000e-08,6.49999999999968e-01,0.00000000000000e+00,6.50000361689882e-01
3.51100000000000e-08,5.84999999999980e-01,0.00000000000000e+00,6.49923358556775e-01
3.51300000000000e-08,4.54999999999962e-01,0.00000000000000e+00,6.49872793079032e-01
3.51700000000000e-08,1.94999999999968e-01,0.00000000000000e+00,6.50875812247596e-01
3.52000000000000e-08,0.00000000000000e+00,0.00000000000000e+00,6.53258232003414e-01
3.52080000000000e-08,0.00000000000000e+00,0.00000000000000e+00,6.53497086102426e-01
3.52240000000000e-08,0.00000000000000e+00,0.00000000000000e+00,6.51902274094971e-01
3.52560000000000e-08,0.00000000000000e+00,0.00000000000000e+00,6.40301582431697e-01
3.53200000000000e-08,0.00000000000000e+00,0.00000000000000e+00,6.31383181019480e-01
3.54480000000000e-08,0.00000000000000e+00,0.00000000000000e+00,6.49482399435260e-01
3.56450438986816e-08,0.00000000000000e+00,0.00000000000000e+00,6.49359615333318e-01
3.59772860288523e-08,0.00000000000000e+00,0.00000000000000e+00,6.49967449931354e-01
3.64004845843965e-08,0.00000000000000e+00,0.00000000000000e+00,6.49627878545274e-01
3.72468816954848e-08,0.00000000000000e+00,0.00000000000000e+00,6.50101266107768e-01
3.89396759176615e-08,0.00000000000000e+00,0.00000000000000e+00,6.49741109637462e-01
3.91000000000000e-08,0.00000000000000e+00,0.00000000000000e+00,6.50105204980345e-01
3.94206481646771e-08,0.00000000000000e+00,0.00000000000000e+00,6.49949783001020e-01
4.00619444940313e-08,0.00000000000000e+00,0.00000000000000e+00,6.49946861203787e-01
4.13445371527396e-08,0.00000000000000e+00,0.00000000000000e+00,6.49961453005373e-01
4.39097224701563e-08,0.00000000000000e+00,0.00000000000000e+00,6.49961937199399e-01
4.50000000000000e-08,0.00000000000000e+00,0.00000000000000e+00,6.49970670258873e-01
4.50100000000000e-08,6.49999999999877e-02,0.00000000000000e+00,6.50035150288026e-01
4.50300000000000e-08,1.95000000000006e-01,0.00000000000000e+00,6.50064788562337e-01
4.50700000000000e-08,4.55000000000000e-01,0.00000000000000e+00,6.49958046283868e-01
4.51000000000000e-08,6.50000000000000e-01,0.00000000000000e+00,6.49782323080648e-01
4.51080000000000e-08,6.50000000000000e-01,0.00000000000000e+00,6.49723081656706e-01
4.51240000000000e-08,6.50000000000000e-01,0.00000000000000e+00,6.49695736569581e-01
4.51560000000000e-08,6.50000000000000e-01,0.00000000000000e+00,6.49780290693483e-01
4.52200000000000e-08,6.50000000000000e-01,0.00000000000000e+00,6.51660096428645e-01
4.53480000000000e-08,6.50000000000000e-01,0.00000000000000e+00,6.33548080126634e-01
4.56040000000000e-08,6.50000000000000e-01,0.00000000000000e+00,9.44210000635797e-02
4.58707346703930e-08,6.50000000000000e-01,0.00000000000000e+00,-4.84748780944220e-02
4.63999719646143e-08,6.50000000000000e-01,0.00000000000000e+00,4.20607463093694e-02
4.70361961039622e-08,6.50000000000000e-01,0.00000000000000e+00,-3.25923809430146e-02
4.82302151211664e-08,6.50000000000000e-01,0.00000000000000e+00,3.13931977988326e-02
5.00000000000000e-08,6.50000000000000e-01,0.00000000000000e+00,-2.79195061280781e-02
5.00100000000000e-08,6.50000000000000e-01,6.49999999999877e-02,-1.93209619345661e-02
5.00300000000000e-08,6.50000000000000e-01,1.94999999999963e-01,-8.61314236232043e-03
5.00700000000000e-08,6.50000000000000e-01,4.55000000000000e-01,-2.07190894777706e-03
5.01000000000000e-08,6.50000000000000e-01,6.50000000000000e-01,-5.30899761058350e-04
5.01080000000000e-08,6.50000000000000e-01,6.50000000000000e-01,-4.79282466504902e-04
5.01240000000000e-08,6.50000000000000e-01,6.50000000000000e-01,-3.02686042620515e-04
5.01560000000000e-08,6.50000000000000e-01,6.50000000000000e-01,-7.98439280009292e-05
5.02200000000000e-08,6.50000000000000e-01,6.50000000000000e-01,-5.72466908037306e-06
5.03480000000000e-08,6.50000000000000e-01,6.50000000000000e-01,1.18227173564814e-05
5.06040000000000e-08,6.50000000000000e-01,6.50000000000000e-01,-1.05484153043976e-05
5.11160000000001e-08,6.50000000000000e-01,6.50000000000000e-01,8.06433616953525e-06
5.21400000000002e-08,6.50000000000000e-01,6.50000000000000e-01,-9.36402263228362e-06
5.41880000000003e-08,6.50000000000000e-01,6.50000000000000e-01,8.77965083270369e-06
5.51000000000000e-08,6.50000000000000e-01,6.50000000000000e-01,-7.38164094511457e-06
5.51100000000000e-08,5.85000000000023e-01,6.50000000000000e-01,-7.89811263122026e-05
5.51300000000000e-08,4.55000000000005e-01,6.50000000000000e-01,-1.55019622069430e-04
5.51700000000000e-08,1.95000000000011e-01,6.50000000000000e-01,1.54907478885219e-06
5.52000000000000e-08,0.00000000000000e+00,6.50000000000000e-01,3.51196568009471e-04
5.52080000000000e-08,0.00000000000000e+00,6.50000000000000e-01,4.35600065683481e-04
5.52240000000000e-08,0.00000000000000e+00,6.50000000000000e-01,2.91301880241845e-04
5.52560000000000e-08,0.00000000000000e+00,6.50000000000000e-01,-1.03535689578069e-03
5.53200000000000e-08,0.00000000000000e+00,6.50000000000000e-01,-1.81130453008280e-03
5.54480000000000e-08,0.00000000000000e+00,6.50000000000000e-01,3.24819914267555e-04
5.56729298431836e-08,0.00000000000000e+00,6.50000000000000e-01,-2.34919343660642e-04
5.59621594327191e-08,0.00000000000000e+00,6.50000000000000e-01,2.16176689381313e-04
5.65406186117899e-08,0.00000000000000e+00,6.50000000000000e-01,-1.43524762820178e-04
5.71370208285041e-08,0.00000000000000e+00,6.50000000000000e-01,9.10852196479538e-05
5.83298252619324e-08,0.00000000000000e+00,6.50000000000000e-01,-6.73079778717106e-05
6.07154341287891e-08,0.00000000000000e+00,6.50000000000000e-01,5.85540289229605e-05
6.45154341287891e-08,0.00000000000000e+00,6.50000000000000e-01,-5.11310401390662e-05
6.50000000000000e-08,0.00000000000000e+00,6.50000000000000e-01,1.26640420437685e-05
6.50100000000000e-08,6.49999999999877e-02,6.50000000000000e-01,1.95257560415982e-04
6.50300000000000e-08,1.94999999999963e-01,6.50000000000000e-01,4.05221994344965e-04
6.50700000000000e-08,4.54999999999914e-01,6.50000000000000e-01,3.64174404517699e-04
6.51000000000000e-08,6.49999999999963e-01,6.50000000000000e-01,-1.41793888370483e-03
6.51080000000000e-08,6.50000000000000e-01,6.50000000000000e-01,-2.36910481474359e-03
6.51240000000000e-08,6.50000000000000e-01,6.50000000000000e-01,-4.08069000539858e-03
6.51560000000000e-08,6.50000000000000e-01,6.50000000000000e-01,-6.14201499221764e-03
6.52200000000000e-08,6.50000000000000e-01,6.50000000000000e-01,1.73413129694803e-02
6.53480000000000e-08,6.50000000000000e-01,6.50000000000000e-01,4.30656315473084e-01
6.56040000000000e-08,6.50000000000000e-01,6.50000000000000e-01,6.73739253662404e-01
6.58920028438781e-08,6.50000000000000e-01,6.50000000000000e-01,6.30066451969891e-01
6.64680085316343e-08,6.50000000000000e-01,6.50000000000000e-01,6.69023189546915e-01
6.71941111150989e-08,6.50000000000000e-01,6.50000000000000e-01,6.31517961759737e-01
6.85176154387764e-08,6.50000000000000e-01,6.50000000000000e-01,6.67713462716316e-01
7.01000000000000e-08,6.50000000000000e-01,6.50000000000000e-01,6.32249591694657e-01
7.01100000000000e-08,6.50000000000000e-01,5.85000000000012e-01,6.41903355527725e-01
7.01300000000000e-08,6.50000000000000e-01,4.55000000000037e-01,6.50752365657888e-01
7.01700000000000e-08,6.50000000000000e-01,1.95000000000086e-01,6.49763464504767e-01
7.02000000000000e-08,6.50000000000000e-01,3.71924713249427e-14,6.50124727535841e-01
7.02080000000000e-08,6.50000000000000e-01,0.00000000000000e+00,6.50072889238320e-01
7.02240000000000e-08,6.50000000000000e-01,0.00000000000000e+00,6.49995617752843e-01
7.02560000000000e-08,6.50000000000000e-01,0.00000000000000e+00,6.49974950833203e-01
7.03200000000000e-08,6.50000000000000e-01,0.00000000000000e+00,6.49996097988590e-01
7.04480000000000e-08,6.50000000000000e-01,0.00000000000000e+00,6.49997796323883e-01
7.06845312279234e-08,6.50000000000000e-01,0.00000000000000e+00,6.49972557914960e-01
7.09721997193571e-08,6.50000000000000e-01,0.00000000000000e+00,6.49999927785061e-01
7.15475367022244e-08,6.50000000000000e-01,0.00000000000000e+00,6.49975293098250e-01
7.26982106679590e-08,6.50000000000000e-01,0.00000000000000e+00,6.50001587394922e-01
7.49995585994283e-08,6.50000000000000e-01,0.00000000000000e+00,6.49979037008493e-01
7.51000000000000e-08,6.50000000000000e-01,0.00000000000000e+00,6.50000363171217e-01
7.51100000000000e-08,5.85000000000066e-01,0.00000000000000e+00,6.49923396349345e-01
7.51300000000000e-08,4.55000000000091e-01,0.00000000000000e+00,6.49872783084852e-01
7.51700000000000e-08,1.95000000000140e-01,0.00000000000000e+00,6.50875759394836e-01
7.52000000000000e-08,9.09272657168003e-14,0.00000000000000e+00,6.53258260530390e-01
7.52080000000000e-08,0.00000000000000e+00,0.00000000000000e+00,6.53497111007407e-01
7.52240000000000e-08,0.00000000000000e+00,0.00000000000000e+00,6.51902313984096e-01
7.52560000000000e-08,0.00000000000000e+00,0.00000000000000e+00,6.40301637261353e-01
7.53200000000000e-08,0.00000000000000e+00,0.00000000000000e+00,6.31383125872932e-01
7.54480000000000e-08,0.00000000000000e+00,0.00000000000000e+00,6.49482375878158e-01
7.56450442844386e-08,0.00000000000000e+00,0.00000000000000e+00,6.49359634359792e-01
7.59772856715986e-08,0.00000000000000e+00,0.00000000000000e+00,6.49967435946952e-01
7.64004847713922e-08,0.00000000000000e+00,0.00000000000000e+00,6.49627890673296e-01
7.72468829709793e-08,0.00000000000000e+00,0.00000000000000e+00,6.50101255309568e-01
7.81000000000000e-08,0.00000000000000e+00,0.00000000000000e+00,6.49730057717317e-01
7.82692796399174e-08,0.00000000000000e+00,0.00000000000000e+00,6.49919567888709e-01
7.86078389197523e-08,0.00000000000000e+00,0.00000000000000e+00,6.49943416931718e-01
7.92849574794220e-08,0.00000000000000e+00,0.00000000000000e+00,6.49934704010772e-01
8.06391945987615e-08,0.00000000000000e+00,0.00000000000000e+00,6.49962236092856e-01
8.33476688374403e-08,0.00000000000000e+00,0.00000000000000e+00,6.49955919889383e-01
8.50000000000000e-08,0.00000000000000e+00,0.00000000000000e+00,6.49975411060283e-01
8.50100000000000e-08,6.49999999999877e-02,0.00000000000000e+00,6.50037970018707e-01
8.50300000000000e-08,1.94999999999963e-01,0.00000000000000e+00,6.50064867711519e-01
8.50700000000000e-08,4.54999999999914e-01,0.00000000000000e+00,6.49957831399613e-01
8.51000000000000e-08,6.49999999999963e-01,0.00000000000000e+00,6.49782130478846e-01
8.51080000000000e-08,6.50000000000000e-01,0.00000000000000e+00,6.49722604339227e-01
8.51240000000000e-08,6.50000000000000e-01,0.00000000000000e+00,6.49694754526340e-01
8.51560000000000e-08,6.50000000000000e-01,0.00000000000000e+00,6.49779845654436e-01
8.52200000000000e-08,6.50000000000000e-01,0.00000000000000e+00,6.51660259117193e-01
8.53480000000000e-08,6.50000000000000e-01,0.00000000000000e+00,6.33505807520568e-01
8.56040000000000e-08,6.50000000000000e-01,0.00000000000000e+00,9.43903330057477e-02
8.58707352740769e-08,6.50000000000000e-01,0.00000000000000e+00,-4.84639100852805e-02
8.64000023843398e-08,6.50000000000000e-01,0.00000000000000e+00,4.20509126226512e-02
8.70362537684525e-08,6.50000000000000e-01,0.00000000000000e+00,-3.25859629878197e-02
8.82304672490552e-08,6.50000000000000e-01,0.00000000000000e+00,3.13870454521498e-02
9.00000000000000e-08,6.50000000000000e-01,0.00000000000000e+00,-2.79142676235655e-02
9.00100000000000e-08,6.50000000000000e-01,6.49999999999877e-02,-1.93171633505246e-02
9.00300000000000e-08,6.50000000000000e-01,1.94999999999963e-01,-8.61126320272480e-03
9.00700000000000e-08,6.50000000000000e-01,4.54999999999914e-01,-2.07146275293032e-03
9.01000000000000e-08,6.50000000000000e-01,6.49999999999963e-01,-5.30781298551268e-04
9.01080000000000e-08,6.50000000000000e-01,6.50000000000000e-01,-4.79176978985488e-04
9.01240000000000e-08,6.50000000000000e-01,6.50000000000000e-01,-3.02621578339574e-04
9.01560000000000e-08,6.50000000000000e-01,6.50000000000000e-01,-7.98268880925282e-05
9.02200000000000e-08,6.50000000000000e-01,6.50000000000000e-01,-5.72321078377847e-06
9.03480000000000e-08,6.50000000000000e-01,6.50000000000000e-01,1.18208166033050e-05
9.06040000000000e-08,6.50000000000000e-01,6.50000000000000e-01,-1.05462071800580e-05
9.11159999999999e-08,6.50000000000000e-01,6.50000000000000e-01,8.06300559096258e-06
9.21399999999999e-08,6.50000000000000e-01,6.50000000000000e-01,-9.36202283297397e-06
9.41879999999998e-08,6.50000000000000e-01,6.50000000000000e-01,8.77816259665584e-06
9.51000000000000e-08,6.50000000000000e-01,6.50000000000000e-01,-7.38000362065193e-06
9.51100000000000e-08,5.85000000000066e-01,6.50000000000000e-01,-7.89803558801233e-05
9.51300000000000e-08,4.55000000000091e-01,6.50000000000000e-01,-1.55019525303876e-04
9.51700000000000e-08,1.95000000000140e-01,6.50000000000000e-01,1.54969391556736e-06
9.52000000000000e-08,9.09272657168003e-14,6.50000000000000e-01,3.51202069713973e-04
9.52080000000000e-08,0.00000000000000e+00,6.50000000000000e-01,4.35611773959121e-04
9.52240000000000e-08,0.00000000000000e+00,6.50000000000000e-01,2.91331806658440e-04
9.52560000000000e-08,0.00000000000000e+00,6.50000000000000e-01,-1.03528902456932e-03
9.53200000000000e-08,0.00000000000000e+00,6.50000000000000e-01,-1.81115711140533e-03
9.54480000000000e-08,0.00000000000000e+00,6.50000000000000e-01,3.24822194493774e-04
9.56729416491373e-08,0.00000000000000e+00,6.50000000000000e-01,-2.34940583566458e-04
9.59621754102424e-08,0.00000000000000e+00,6.50000000000000e-01,2.16203143739017e-04
9.65406429324524e-08,0.00000000000000e+00,6.50000000000000e-01,-1.43556645290919e-04
9.71370626590280e-08,0.00000000000000e+00,6.50000000000000e-01,9.11204743164092e-05
9.83299021121793e-08,0.00000000000000e+00,6.50000000000000e-01,-6.73441355420936e-05
1.00715581018482e-07,0.00000000000000e+00,6.50000000000000e-01,5.85904268824615e-05
1.04515581018482e-07,0.00000000000000e+00,6.50000000000000e-01,-5.11673713043568e-05
1.05000000000000e-07,0.00000000000000e+00,6.50000000000000e-01,1.26888922611160e-05
1.05010000000000e-07,6.49999999999877e-02,6.50000000000000e-01,1.95267333867488e-04
1.05030000000000e-07,1.94999999999963e-01,6.50000000000000e-01,4.05217906547253e-04
1.05070000000000e-07,4.54999999999914e-01,6.50000000000000e-01,3.64167856461560e-04
1.05100000000000e-07,6.49999999999963e-01,6.50000000000000e-01,-1.41794942188151e-03
1.05108000000000e-07,6.50000000000000e-01,6.50000000000000e-01,-2.36911489411143e-03
1.05124000000000e-07,6.50000000000000e-01,6.50000000000000e-01,-4.08069831184614e-03
1.05156000000000e-07,6.50000000000000e-01,6.50000000000000e-01,-6.14201786448678e-03
1.05220000000000e-07,6.50000000000000e-01,6.50000000000000e-01,1.73414148572546e-02
1.05348000000000e-07,6.50000000000000e-01,6.50000000000000e-01,4.30656639484261e-01
1.05604000000000e-07,6.50000000000000e-01,6.50000000000000e-01,6.73739266741738e-01
1.05892002761317e-07,6.50000000000000e-01,6.50000000000000e-01,6.30066435540197e-01
1.06468008283950e-07,6.50000000000000e-01,6.50000000000000e-01,6.69023201518141e-01
