Time,v(clk),v(data),v(out)
1.00000000000000e-08,6.50000000000000e-01,0.00000000000000e+00,1.89653544052856e-05
1.00100000000000e-08,6.50000000000000e-01,6.49999999999984e-02,1.07292171431517e-05
1.00300000000000e-08,6.50000000000000e-01,1.94999999999995e-01,2.67511493726169e-06
1.00700000000000e-08,6.50000000000000e-01,4.54999999999989e-01,4.60273143557122e-08
1.01000000000000e-08,6.50000000000000e-01,6.49999999999995e-01,-2.29655208838081e-06
1.01080000000000e-08,6.50000000000000e-01,6.50000000000000e-01,-1.28887893430241e-06
1.01240000000000e-08,6.50000000000000e-01,6.50000000000000e-01,1.88513113813515e-06
1.01560000000000e-08,6.50000000000000e-01,6.50000000000000e-01,6.11041325756373e-06
1.02200000000000e-08,6.50000000000000e-01,6.50000000000000e-01,6.38352121193342e-06
1.03480000000000e-08,6.50000000000000e-01,6.50000000000000e-01,1.72167266983964e-06
1.06040000000000e-08,6.50000000000000e-01,6.50000000000000e-01,5.09306158369069e-06
1.11160000000000e-08,6.50000000000000e-01,6.50000000000000e-01,2.78439499939477e-06
1.21400000000000e-08,6.50000000000000e-01,6.50000000000000e-01,4.38768746015283e-06
1.41880000000000e-08,6.50000000000000e-01,6.50000000000000e-01,2.49395366644020e-06
1.51000000000000e-08,6.50000000000000e-01,6.50000000000000e-01,3.87746408801390e-06
1.51100000000000e-08,5.84999999999991e-01,6.50000000000000e-01,-7.69596508832932e-05
1.51300000000000e-08,4.54999999999994e-01,6.50000000000000e-01,-1.72520637732529e-04
1.51700000000000e-08,1.95000000000000e-01,6.50000000000000e-01,-1.81528010348778e-05
1.52000000000000e-08,0.00000000000000e+00,6.50000000000000e-01,3.82301029248605e-04
1.52080000000000e-08,0.00000000000000e+00,6.50000000000000e-01,5.19067972599555e-04
1.52240000000000e-08,0.00000000000000e+00,6.50000000000000e-01,5.84068810945831e-04
1.52560000000000e-08,0.00000000000000e+00,6.50000000000000e-01,1.38669822582531e-04
1.53200000000000e-08,0.00000000000000e+00,6.50000000000000e-01,-4.79820310924722e-04
1.54480000000000e-08,0.00000000000000e+00,6.50000000000000e-01,4.90764320110887e-05
1.57026774498160e-08,0.00000000000000e+00,6.50000000000000e-01,-1.84948408976354e-04
1.60154025598402e-08,0.00000000000000e+00,6.50000000000000e-01,2.02048124473662e-04
1.66408527798885e-08,0.00000000000000e+00,6.50000000000000e-01,-1.05348071824322e-04
1.73175426467372e-08,0.00000000000000e+00,6.50000000000000e-01,4.93178649247986e-05
1.86709223804346e-08,0.00000000000000e+00,6.50000000000000e-01,-2.11273175748294e-05
2.13776818478295e-08,0.00000000000000e+00,6.50000000000000e-01,1.55515063027106e-05
2.50000000000000e-08,0.00000000000000e+00,6.50000000000000e-01,-3.76639843396431e-06
2.50100000000000e-08,6.49999999999877e-02,6.50000000000000e-01,1.17106693778998e-04
2.50300000000000e-08,1.95000000000006e-01,6.50000000000000e-01,2.87484206236394e-04
2.50700000000000e-08,4.55000000000000e-01,6.50000000000000e-01,4.06490768243978e-04
2.51000000000000e-08,6.50000000000000e-01,6.50000000000000e-01,-9.20357505244759e-04
2.51080000000000e-08,6.50000000000000e-01,6.50000000000000e-01,-1.75484754026464e-03
2.51240000000000e-08,6.50000000000000e-01,6.50000000000000e-01,-3.34770588089515e-03
2.51560000000000e-08,6.50000000000000e-01,6.50000000000000e-01,-5.56970563232473e-03
2.52200000000000e-08,6.50000000000000e-01,6.50000000000000e-01,2.15372999360858e-03
2.53480000000000e-08,6.50000000000000e-01,6.50000000000000e-01,3.12757059028707e-01
2.56040000000000e-08,6.50000000000000e-01,6.50000000000000e-01,6.63442344946260e-01
2.59463022153244e-08,6.50000000000000e-01,6.50000000000000e-01,6.40154409615965e-01
2.65501987935940e-08,6.50000000000000e-01,6.50000000000000e-01,6.60094635329028e-01
2.72858553245783e-08,6.50000000000000e-01,6.50000000000000e-01,6.40538473331406e-01
2.84707992825157e-08,6.50000000000000e-01,6.50000000000000e-01,6.59387720917891e-01
3.01000000000000e-08,6.50000000000000e-01,6.50000000000000e-01,6.40871786706733e-01
3.01100000000000e-08,6.50000000000000e-01,5.85000000000034e-01,6.45741885803056e-01
3.01300000000000e-08,6.50000000000000e-01,4.55000000000016e-01,6.50331165883204e-01
3.01700000000000e-08,6.50000000000000e-01,1.95000000000022e-01,6.49956282769794e-01
3.02000000000000e-08,6.50000000000000e-01,1.57651669496772e-14,6.50082854749963e-01
3.02080000000000e-08,6.50000000000000e-01,0.00000000000000e+00,6.50060477994390e-01
3.02240000000000e-08,6.50000000000000e-01,0.00000000000000e+00,6.50040902179134e-01
3.02560000000000e-08,6.50000000000000e-01,0.00000000000000e+00,6.49979570347010e-01
3.03200000000000e-08,6.50000000000000e-01,0.00000000000000e+00,6.49982582822063e-01
3.04480000000000e-08,6.50000000000000e-01,0.00000000000000e+00,6.50010888910433e-01
3.06741044019420e-08,6.50000000000000e-01,0.00000000000000e+00,6.49960758302892e-01
3.09922447780240e-08,6.50000000000000e-01,0.00000000000000e+00,6.50005609512680e-01
3.16285255301879e-08,6.50000000000000e-01,0.00000000000000e+00,6.49966869883139e-01
3.29010870345157e-08,6.50000000000000e-01,0.00000000000000e+00,6.50006335133158e-01
3.51000000000000e-08,6.49999999999968e-01,0.00000000000000e+00,6.49971147321147e-01
3.51100000000000e-08,5.84999999999980e-01,0.00000000000000e+00,6.49907734999570e-01
3.51300000000000e-08,4.54999999999962e-01,0.00000000000000e+00,6.49859953753705e-01
3.51700000000000e-08,1.94999999999968e-01,0.00000000000000e+00,6.50901710228764e-01
3.52000000000000e-08,0.00000000000000e+00,0.00000000000000e+00,6.53338121129528e-01
3.52080000000000e-08,0.00000000000000e+00,0.00000000000000e+00,6.53698123683667e-01
3.52240000000000e-08,0.00000000000000e+00,0.00000000000000e+00,6.52868805059200e-01
3.52560000000000e-08,0.00000000000000e+00,0.00000000000000e+00,6.43156065066245e-01
3.53200000000000e-08,0.00000000000000e+00,0.00000000000000e+00,6.30890272017462e-01
3.54480000000000e-08,0.00000000000000e+00,0.00000000000000e+00,6.47032724570073e-01
3.56785211432805e-08,0.00000000000000e+00,0.00000000000000e+00,6.50798450388359e-01
3.59935719489770e-08,0.00000000000000e+00,0.00000000000000e+00,6.48667420184378e-01
3.64896790125817e-08,0.00000000000000e+00,0.00000000000000e+00,6.50665046538719e-01
3.74818931397912e-08,0.00000000000000e+00,0.00000000000000e+00,6.49089308839221e-01
3.91000000000000e-08,0.00000000000000e+00,0.00000000000000e+00,6.50674649413909e-01
3.92912423305427e-08,0.00000000000000e+00,0.00000000000000e+00,6.49992940718055e-01
3.96737269916281e-08,0.00000000000000e+00,0.00000000000000e+00,6.49874172780708e-01
4.04386963137989e-08,0.00000000000000e+00,0.00000000000000e+00,6.49985475606449e-01
4.19686349581405e-08,0.00000000000000e+00,0.00000000000000e+00,6.49895819512812e-01
4.50000000000000e-08,0.00000000000000e+00,0.00000000000000e+00,6.49997197259373e-01
4.50100000000000e-08,6.49999999999877e-02,0.00000000000000e+00,6.50053425177183e-01
4.50300000000000e-08,1.95000000000006e-01,0.00000000000000e+00,6.50069613238365e-01
4.50700000000000e-08,4.55000000000000e-01,0.00000000000000e+00,6.49955065980020e-01
4.51000000000000e-08,6.50000000000000e-01,0.00000000000000e+00,6.49789967397077e-01
4.51080000000000e-08,6.50000000000000e-01,0.00000000000000e+00,6.49725969864128e-01
4.51240000000000e-08,6.50000000000000e-01,0.00000000000000e+00,6.49683278124249e-01
4.51560000000000e-08,6.50000000000000e-01,0.00000000000000e+00,6.49736188832542e-01
4.52200000000000e-08,6.50000000000000e-01,0.00000000000000e+00,6.50687134330276e-01
4.53480000000000e-08,6.50000000000000e-01,0.00000000000000e+00,6.67825652645923e-01
4.56040000000000e-08,6.50000000000000e-01,0.00000000000000e+00,1.82344582492222e-01
4.59017579682425e-08,6.50000000000000e-01,0.00000000000000e+00,-6.71259918538474e-02
4.63834385178767e-08,6.50000000000000e-01,0.00000000000000e+00,5.53923572068850e-02
4.70303038510415e-08,6.50000000000000e-01,0.00000000000000e+00,-3.93238810598223e-02
4.79378837851004e-08,6.50000000000000e-01,0.00000000000000e+00,3.60506078425750e-02
4.96420067537585e-08,6.50000000000000e-01,0.00000000000000e+00,-3.08685677116114e-02
5.00000000000000e-08,6.50000000000000e-01,0.00000000000000e+00,2.15983879491609e-02
5.00100000000000e-08,6.50000000000000e-01,6.49999999999877e-02,1.65256744262363e-02
5.00300000000000e-08,6.50000000000000e-01,1.94999999999963e-01,9.16959317235826e-03
5.00700000000000e-08,6.50000000000000e-01,4.55000000000000e-01,2.85815832616274e-03
5.01000000000000e-08,6.50000000000000e-01,6.50000000000000e-01,1.16827528441805e-03
5.01080000000000e-08,6.50000000000000e-01,6.50000000000000e-01,9.78949738075732e-04
5.01240000000000e-08,6.50000000000000e-01,6.50000000000000e-01,6.34506907342125e-04
5.01560000000000e-08,6.50000000000000e-01,6.50000000000000e-01,2.53633137005826e-04
5.02200000000000e-08,6.50000000000000e-01,6.50000000000000e-01,2.89283398186013e-05
5.03480000000000e-08,6.50000000000000e-01,6.50000000000000e-01,-7.71351426229194e-06
5.06040000000000e-08,6.50000000000000e-01,6.50000000000000e-01,4.75911679449076e-06
5.11160000000001e-08,6.50000000000000e-01,6.50000000000000e-01,-3.37310585272511e-06
5.21400000000002e-08,6.50000000000000e-01,6.50000000000000e-01,5.05163620295040e-06
5.41880000000003e-08,6.50000000000000e-01,6.50000000000000e-01,-3.89610416236166e-06
5.51000000000000e-08,6.50000000000000e-01,6.50000000000000e-01,4.04898378633060e-06
5.51100000000000e-08,5.85000000000023e-01,6.50000000000000e-01,-7.75117289555510e-05
5.51300000000000e-08,4.55000000000005e-01,6.50000000000000e-01,-1.71783253870614e-04
5.51700000000000e-08,1.95000000000011e-01,6.50000000000000e-01,-1.54189180474121e-05
5.52000000000000e-08,0.00000000000000e+00,6.50000000000000e-01,3.57722224202953e-04
5.52080000000000e-08,0.00000000000000e+00,6.50000000000000e-01,4.67113779764994e-04
5.52240000000000e-08,0.00000000000000e+00,6.50000000000000e-01,4.06224205372965e-04
5.52560000000000e-08,0.00000000000000e+00,6.50000000000000e-01,-7.22831592007062e-04
5.53200000000000e-08,0.00000000000000e+00,6.50000000000000e-01,-1.86342964466354e-03
5.54480000000000e-08,0.00000000000000e+00,6.50000000000000e-01,4.33096013192774e-05
5.56741445834914e-08,0.00000000000000e+00,6.50000000000000e-01,-7.50377289802616e-05
5.59932767843229e-08,0.00000000000000e+00,6.50000000000000e-01,6.11514271660115e-05
5.66079272620650e-08,0.00000000000000e+00,6.50000000000000e-01,5.03849774012733e-05
5.72532167338521e-08,0.00000000000000e+00,6.50000000000000e-01,-1.12210749032851e-04
5.85437956774263e-08,0.00000000000000e+00,6.50000000000000e-01,1.39640439732545e-04
6.11249535645747e-08,0.00000000000000e+00,6.50000000000000e-01,-1.45122805321889e-04
6.49249535645747e-08,0.00000000000000e+00,6.50000000000000e-01,1.55005237769720e-04
6.50000000000000e-08,0.00000000000000e+00,6.50000000000000e-01,-1.75645431836194e-04
6.50100000000000e-08,6.49999999999877e-02,6.50000000000000e-01,2.77274642787456e-05
6.50300000000000e-08,1.94999999999963e-01,6.50000000000000e-01,2.98041672344762e-04
6.50700000000000e-08,4.54999999999914e-01,6.50000000000000e-01,4.53607795497232e-04
6.51000000000000e-08,6.49999999999963e-01,6.50000000000000e-01,-8.33988829257115e-04
6.51080000000000e-08,6.50000000000000e-01,6.50000000000000e-01,-1.66162604044956e-03
6.51240000000000e-08,6.50000000000000e-01,6.50000000000000e-01,-3.25882069209740e-03
6.51560000000000e-08,6.50000000000000e-01,6.50000000000000e-01,-5.52395937771841e-03
6.52200000000000e-08,6.50000000000000e-01,6.50000000000000e-01,1.78630015320465e-03
6.53480000000000e-08,6.50000000000000e-01,6.50000000000000e-01,3.10324807647728e-01
6.56040000000000e-08,6.50000000000000e-01,6.50000000000000e-01,6.63128091039365e-01
6.59474165435143e-08,6.50000000000000e-01,6.50000000000000e-01,6.40376842424014e-01
6.65504585912749e-08,6.50000000000000e-01,6.50000000000000e-01,6.59884133747046e-01
6.72868835000577e-08,6.50000000000000e-01,6.50000000000000e-01,6.40736388789526e-01
6.84699348011550e-08,6.50000000000000e-01,6.50000000000000e-01,6.59199292914722e-01
7.01000000000000e-08,6.50000000000000e-01,6.50000000000000e-01,6.41059528637145e-01
7.01100000000000e-08,6.50000000000000e-01,5.85000000000012e-01,6.45833464800939e-01
7.01300000000000e-08,6.50000000000000e-01,4.55000000000037e-01,6.50330093402434e-01
7.01700000000000e-08,6.50000000000000e-01,1.95000000000086e-01,6.49957571818793e-01
7.02000000000000e-08,6.50000000000000e-01,3.71924713249427e-14,6.50082834584806e-01
7.02080000000000e-08,6.50000000000000e-01,0.00000000000000e+00,6.50060530446954e-01
7.02240000000000e-08,6.50000000000000e-01,0.00000000000000e+00,6.50040931506662e-01
7.02560000000000e-08,6.50000000000000e-01,0.00000000000000e+00,6.49979687719817e-01
7.03200000000000e-08,6.50000000000000e-01,0.00000000000000e+00,6.49982687588084e-01
7.04480000000000e-08,6.50000000000000e-01,0.00000000000000e+00,6.50010990886671e-01
7.06738487210102e-08,6.50000000000000e-01,0.00000000000000e+00,6.49960763273269e-01
7.09920753825289e-08,6.50000000000000e-01,0.00000000000000e+00,6.50005701464614e-01
7.16285287055662e-08,6.50000000000000e-01,0.00000000000000e+00,6.49966880047466e-01
7.29014353516410e-08,6.50000000000000e-01,0.00000000000000e+00,6.50006401868655e-01
7.51000000000000e-08,6.50000000000000e-01,0.00000000000000e+00,6.49971139759350e-01
7.51100000000000e-08,5.85000000000066e-01,0.00000000000000e+00,6.49907815234670e-01
7.51300000000000e-08,4.55000000000091e-01,0.00000000000000e+00,6.49860018020989e-01
7.51700000000000e-08,1.95000000000140e-01,0.00000000000000e+00,6.50901693799228e-01
7.52000000000000e-08,9.09272657168003e-14,0.00000000000000e+00,6.53338567057158e-01
7.52080000000000e-08,0.00000000000000e+00,0.00000000000000e+00,6.53699077010876e-01
7.52240000000000e-08,0.00000000000000e+00,0.00000000000000e+00,6.52871856751939e-01
7.52560000000000e-08,0.00000000000000e+00,0.00000000000000e+00,6.43162692570375e-01
7.53200000000000e-08,0.00000000000000e+00,0.00000000000000e+00,6.30892625081937e-01
7.54480000000000e-08,0.00000000000000e+00,0.00000000000000e+00,6.47030797080651e-01
7.56785218862586e-08,0.00000000000000e+00,0.00000000000000e+00,6.50799982301776e-01
7.59935725671327e-08,0.00000000000000e+00,0.00000000000000e+00,6.48666191082384e-01
7.64896805225285e-08,0.00000000000000e+00,0.00000000000000e+00,6.50666130232174e-01
7.74818964333203e-08,0.00000000000000e+00,0.00000000000000e+00,6.49088292624007e-01
7.81000000000000e-08,0.00000000000000e+00,0.00000000000000e+00,6.50599710649904e-01
7.82912417917381e-08,0.00000000000000e+00,0.00000000000000e+00,6.49969817760554e-01
7.86737253752144e-08,0.00000000000000e+00,0.00000000000000e+00,6.49862885198329e-01
7.94386925421669e-08,0.00000000000000e+00,0.00000000000000e+00,6.49972163432040e-01
8.09686268760719e-08,0.00000000000000e+00,0.00000000000000e+00,6.49893603504251e-01
8.40284955438819e-08,0.00000000000000e+00,0.00000000000000e+00,6.49992361765610e-01
8.50000000000000e-08,0.00000000000000e+00,0.00000000000000e+00,6.49910796931640e-01
8.50100000000000e-08,6.49999999999877e-02,0.00000000000000e+00,6.49994257483523e-01
8.50300000000000e-08,1.94999999999963e-01,0.00000000000000e+00,6.50053204674654e-01
8.50700000000000e-08,4.54999999999914e-01,0.00000000000000e+00,6.49955948386322e-01
8.51000000000000e-08,6.49999999999963e-01,0.00000000000000e+00,6.49789770416718e-01
8.51080000000000e-08,6.50000000000000e-01,0.00000000000000e+00,6.49725497918423e-01
8.51240000000000e-08,6.50000000000000e-01,0.00000000000000e+00,6.49682115594681e-01
8.51560000000000e-08,6.50000000000000e-01,0.00000000000000e+00,6.49735487767815e-01
8.52200000000000e-08,6.50000000000000e-01,0.00000000000000e+00,6.50687323178479e-01
8.53480000000000e-08,6.50000000000000e-01,0.00000000000000e+00,6.67825263542795e-01
8.56040000000000e-08,6.50000000000000e-01,0.00000000000000e+00,1.82321508506410e-01
8.59017362281774e-08,6.50000000000000e-01,0.00000000000000e+00,-6.71208186959621e-02
8.63834664471980e-08,6.50000000000000e-01,0.00000000000000e+00,5.53896300666195e-02
8.70303009220097e-08,6.50000000000000e-01,0.00000000000000e+00,-3.93223922030711e-02
8.79379678488046e-08,6.50000000000000e-01,0.00000000000000e+00,3.60497491716247e-02
8.96421975321286e-08,6.50000000000000e-01,0.00000000000000e+00,-3.08683446986874e-02
9.00000000000000e-08,6.50000000000000e-01,0.00000000000000e+00,2.15938045803076e-02
9.00100000000000e-08,6.50000000000000e-01,6.49999999999877e-02,1.65213665634308e-02
9.00300000000000e-08,6.50000000000000e-01,1.94999999999963e-01,9.16658761026878e-03
9.00700000000000e-08,6.50000000000000e-01,4.54999999999914e-01,2.85733523679838e-03
9.01000000000000e-08,6.50000000000000e-01,6.49999999999963e-01,1.16784516198428e-03
9.01080000000000e-08,6.50000000000000e-01,6.50000000000000e-01,9.78615385737888e-04
9.01240000000000e-08,6.50000000000000e-01,6.50000000000000e-01,6.34305697974680e-04
9.01560000000000e-08,6.50000000000000e-01,6.50000000000000e-01,2.53548873379930e-04
9.02200000000000e-08,6.50000000000000e-01,6.50000000000000e-01,2.89294910785151e-05
9.03480000000000e-08,6.50000000000000e-01,6.50000000000000e-01,-7.70213543879045e-06
9.06040000000000e-08,6.50000000000000e-01,6.50000000000000e-01,4.75273773260440e-06
9.11159999999999e-08,6.50000000000000e-01,6.50000000000000e-01,-3.36924205635719e-06
9.21399999999999e-08,6.50000000000000e-01,6.50000000000000e-01,5.04566898801989e-06
9.41879999999998e-08,6.50000000000000e-01,6.50000000000000e-01,-3.89145300519868e-06
9.51000000000000e-08,6.50000000000000e-01,6.50000000000000e-01,4.04463579402586e-06
9.51100000000000e-08,5.85000000000066e-01,6.50000000000000e-01,-7.75158076264798e-05
9.51300000000000e-08,4.55000000000091e-01,6.50000000000000e-01,-1.71786072373378e-04
9.51700000000000e-08,1.95000000000140e-01,6.50000000000000e-01,-1.54199690546100e-05
9.52000000000000e-08,9.09272657168003e-14,6.50000000000000e-01,3.57718611264837e-04
9.52080000000000e-08,0.00000000000000e+00,6.50000000000000e-01,4.67106936305597e-04
9.52240000000000e-08,0.00000000000000e+00,6.50000000000000e-01,4.06206561712807e-04
9.52560000000000e-08,0.00000000000000e+00,6.50000000000000e-01,-7.22876398981470e-04
9.53200000000000e-08,0.00000000000000e+00,6.50000000000000e-01,-1.86354170684440e-03
9.54480000000000e-08,0.00000000000000e+00,6.50000000000000e-01,4.32887463870414e-05
9.56741363573977e-08,0.00000000000000e+00,6.50000000000000e-01,-7.50140146598861e-05
9.59932656555957e-08,0.00000000000000e+00,6.50000000000000e-01,6.11265681551860e-05
9.66078909014381e-08,0.00000000000000e+00,6.50000000000000e-01,5.04153833324420e-05
9.72531727615536e-08,0.00000000000000e+00,6.50000000000000e-01,-1.12241408689208e-04
9.85437364817847e-08,0.00000000000000e+00,6.50000000000000e-01,1.39670546073146e-04
1.01124863922247e-07,0.00000000000000e+00,6.50000000000000e-01,-1.45152739238019e-04
1.04924863922247e-07,0.00000000000000e+00,6.50000000000000e-01,1.55034719210947e-04
1.05000000000000e-07,0.00000000000000e+00,6.50000000000000e-01,-1.75727249423760e-04
1.05010000000000e-07,6.49999999999877e-02,6.50000000000000e-01,2.76986149381486e-05
1.05030000000000e-07,1.94999999999963e-01,6.50000000000000e-01,2.98074597852901e-04
1.05070000000000e-07,4.54999999999914e-01,6.50000000000000e-01,4.53640955021088e-04
1.05100000000000e-07,6.49999999999963e-01,6.50000000000000e-01,-8.33963011848494e-04
1.05108000000000e-07,6.50000000000000e-01,6.50000000000000e-01,-1.66160146720622e-03
1.05124000000000e-07,6.50000000000000e-01,6.50000000000000e-01,-3.25880016782883e-03
1.05156000000000e-07,6.50000000000000e-01,6.50000000000000e-01,-5.52394878373873e-03
1.05220000000000e-07,6.50000000000000e-01,6.50000000000000e-01,1.78630382720847e-03
1.05348000000000e-07,6.50000000000000e-01,6.50000000000000e-01,3.10324821867004e-01
1.05604000000000e-07,6.50000000000000e-01,6.50000000000000e-01,6.63128092847225e-01
1.05947416528152e-07,6.50000000000000e-01,6.50000000000000e-01,6.40376841112416e-01
1.06550458582370e-07,6.50000000000000e-01,6.50000000000000e-01,6.59884134930173e-01
1.07286883475767e-07,6.50000000000000e-01,6.50000000000000e-01,6.40736387643883e-01
1.08469934787380e-07,6.50000000000000e-01,6.50000000000000e-01,6.59199293973219e-01
1.10100000000000e-07,6.50000000000000e-01,6.50000000000000e-01,6.41059527563745e-01
