Time,v(clk),v(data),v(out)
1.00000000000000e-08,6.50000000000000e-01,0.00000000000000e+00,2.55311955439722e-05
1.00100000000000e-08,6.50000000000000e-01,6.49999999999984e-02,2.06586578140877e-05
1.00300000000000e-08,6.50000000000000e-01,1.94999999999995e-01,1.17566917126471e-05
1.00700000000000e-08,6.50000000000000e-01,4.54999999999989e-01,3.13386152673428e-06
1.01000000000000e-08,6.50000000000000e-01,6.49999999999995e-01,3.45075550446661e-07
1.01080000000000e-08,6.50000000000000e-01,6.50000000000000e-01,-7.16235193376491e-09
1.01240000000000e-08,6.50000000000000e-01,6.50000000000000e-01,1.73394962323103e-06
1.01560000000000e-08,6.50000000000000e-01,6.50000000000000e-01,5.89274841698156e-06
1.02200000000000e-08,6.50000000000000e-01,6.50000000000000e-01,6.65431432740615e-06
1.03480000000000e-08,6.50000000000000e-01,6.50000000000000e-01,2.42415117354677e-08
1.06040000000000e-08,6.50000000000000e-01,6.50000000000000e-01,2.70860116844546e-06
1.11160000000000e-08,6.50000000000000e-01,6.50000000000000e-01,1.30658586279184e-06
1.21400000000000e-08,6.50000000000000e-01,6.50000000000000e-01,2.24207951724561e-06
1.41880000000000e-08,6.50000000000000e-01,6.50000000000000e-01,1.12508536373153e-06
1.51000000000000e-08,6.50000000000000e-01,6.50000000000000e-01,1.89897811115475e-06
1.51100000000000e-08,5.84999999999991e-01,6.50000000000000e-01,-8.77756910998145e-05
1.51300000000000e-08,4.54999999999994e-01,6.50000000000000e-01,-2.05104114735649e-04
1.51700000000000e-08,1.95000000000000e-01,6.50000000000000e-01,-1.05436728063124e-04
1.52000000000000e-08,0.00000000000000e+00,6.50000000000000e-01,3.23913465410011e-04
1.52080000000000e-08,0.00000000000000e+00,6.50000000000000e-01,5.03890983665600e-04
1.52240000000000e-08,0.00000000000000e+00,6.50000000000000e-01,6.75241454739406e-04
1.52560000000000e-08,0.00000000000000e+00,6.50000000000000e-01,4.57063995204274e-04
1.53200000000000e-08,0.00000000000000e+00,6.50000000000000e-01,-2.55507167838516e-04
1.54480000000000e-08,0.00000000000000e+00,6.50000000000000e-01,-2.36825782866670e-04
1.57040000000000e-08,0.00000000000000e+00,6.50000000000000e-01,1.41263739692477e-05
1.60464050849848e-08,0.00000000000000e+00,6.50000000000000e-01,-5.42108819536723e-05
1.65683893521108e-08,0.00000000000000e+00,6.50000000000000e-01,2.06347837562184e-04
1.75407923569404e-08,0.00000000000000e+00,6.50000000000000e-01,-2.44337093984848e-04
1.87210046503401e-08,0.00000000000000e+00,6.50000000000000e-01,2.60045982398539e-04
2.10814292371396e-08,0.00000000000000e+00,6.50000000000000e-01,-2.64048394477844e-04
2.46401995950933e-08,0.00000000000000e+00,6.50000000000000e-01,2.65381081766742e-04
2.50000000000000e-08,0.00000000000000e+00,6.50000000000000e-01,-2.46938702761223e-04
2.50100000000000e-08,6.49999999999877e-02,6.50000000000000e-01,-3.90965341598298e-05
2.50300000000000e-08,1.95000000000006e-01,6.50000000000000e-01,2.84497479065893e-04
2.50700000000000e-08,4.55000000000000e-01,6.50000000000000e-01,5.76980822304965e-04
2.51000000000000e-08,6.50000000000000e-01,6.50000000000000e-01,-1.94519283508998e-04
2.51080000000000e-08,6.50000000000000e-01,6.50000000000000e-01,-8.21264670079036e-04
2.51240000000000e-08,6.50000000000000e-01,6.50000000000000e-01,-2.15340280169474e-03
2.51560000000000e-08,6.50000000000000e-01,6.50000000000000e-01,-4.48390399303027e-03
2.52200000000000e-08,6.50000000000000e-01,6.50000000000000e-01,-6.33470754441515e-03
2.53480000000000e-08,6.50000000000000e-01,6.50000000000000e-01,1.20184015983747e-01
2.56040000000000e-08,6.50000000000000e-01,6.50000000000000e-01,6.04983018582315e-01
2.61160000000000e-08,6.50000000000000e-01,6.50000000000000e-01,6.63142510184009e-01
2.66742815068969e-08,6.50000000000000e-01,6.50000000000000e-01,6.36537089417445e-01
2.76619762162080e-08,6.50000000000000e-01,6.50000000000000e-01,6.61590657547446e-01
2.90145662568876e-08,6.50000000000000e-01,6.50000000000000e-01,6.37975385808203e-01
3.01000000000000e-08,6.50000000000000e-01,6.50000000000000e-01,6.60736032773081e-01
3.01100000000000e-08,6.50000000000000e-01,5.85000000000034e-01,6.55650441799550e-01
3.01300000000000e-08,6.50000000000000e-01,4.55000000000016e-01,6.50321316088972e-01
3.01700000000000e-08,6.50000000000000e-01,1.95000000000022e-01,6.49978645787994e-01
3.02000000000000e-08,6.50000000000000e-01,1.57651669496772e-14,6.50078579725767e-01
3.02080000000000e-08,6.50000000000000e-01,0.00000000000000e+00,6.50049896840286e-01
3.02240000000000e-08,6.50000000000000e-01,0.00000000000000e+00,6.50012203269711e-01
3.02560000000000e-08,6.50000000000000e-01,0.00000000000000e+00,6.49990662209290e-01
3.03200000000000e-08,6.50000000000000e-01,0.00000000000000e+00,6.49987776161047e-01
3.04480000000000e-08,6.50000000000000e-01,0.00000000000000e+00,6.50007875292803e-01
3.06537841401042e-08,6.50000000000000e-01,0.00000000000000e+00,6.49984532281229e-01
3.10162768333170e-08,6.50000000000000e-01,0.00000000000000e+00,6.49988352005408e-01
3.14984585878114e-08,6.50000000000000e-01,0.00000000000000e+00,6.49993748153917e-01
3.24628220968003e-08,6.50000000000000e-01,0.00000000000000e+00,6.49986015751832e-01
3.43915491147779e-08,6.50000000000000e-01,0.00000000000000e+00,6.49996568794855e-01
3.51000000000000e-08,6.49999999999968e-01,0.00000000000000e+00,6.49985911662946e-01
3.51100000000000e-08,5.84999999999980e-01,0.00000000000000e+00,6.49907821211013e-01
3.51300000000000e-08,4.54999999999962e-01,0.00000000000000e+00,6.49832184555016e-01
3.51700000000000e-08,1.94999999999968e-01,0.00000000000000e+00,6.50737901866480e-01
3.52000000000000e-08,0.00000000000000e+00,0.00000000000000e+00,6.53154028935546e-01
3.52080000000000e-08,0.00000000000000e+00,0.00000000000000e+00,6.53704898679384e-01
3.52240000000000e-08,0.00000000000000e+00,0.00000000000000e+00,6.53960927413393e-01
3.52560000000000e-08,0.00000000000000e+00,0.00000000000000e+00,6.48677971167842e-01
3.53200000000000e-08,0.00000000000000e+00,0.00000000000000e+00,6.31845819098959e-01
3.54480000000000e-08,0.00000000000000e+00,0.00000000000000e+00,6.39222581392695e-01
3.56812833400855e-08,0.00000000000000e+00,0.00000000000000e+00,6.54041215484845e-01
3.59851405294113e-08,0.00000000000000e+00,0.00000000000000e+00,6.45986293121722e-01
3.65928549080629e-08,0.00000000000000e+00,0.00000000000000e+00,6.52843831829852e-01
3.73220212856216e-08,0.00000000000000e+00,0.00000000000000e+00,6.47135113117488e-01
3.87803540407391e-08,0.00000000000000e+00,0.00000000000000e+00,6.52458104072296e-01
3.91000000000000e-08,0.00000000000000e+00,0.00000000000000e+00,6.47985635246835e-01
3.93916665510235e-08,0.00000000000000e+00,0.00000000000000e+00,6.49786836224764e-01
3.99749996530705e-08,0.00000000000000e+00,0.00000000000000e+00,6.50055273188483e-01
4.11416658571645e-08,0.00000000000000e+00,0.00000000000000e+00,6.49833502940771e-01
4.34749982653525e-08,0.00000000000000e+00,0.00000000000000e+00,6.50064931075367e-01
4.50000000000000e-08,0.00000000000000e+00,0.00000000000000e+00,6.49861004748664e-01
4.50100000000000e-08,6.49999999999877e-02,0.00000000000000e+00,6.49974669842209e-01
4.50300000000000e-08,1.95000000000006e-01,0.00000000000000e+00,6.50084059017421e-01
4.50700000000000e-08,4.55000000000000e-01,0.00000000000000e+00,6.50011140609718e-01
4.51000000000000e-08,6.50000000000000e-01,0.00000000000000e+00,6.49827319286259e-01
4.51080000000000e-08,6.50000000000000e-01,0.00000000000000e+00,6.49755112385181e-01
4.51240000000000e-08,6.50000000000000e-01,0.00000000000000e+00,6.49686174388899e-01
4.51560000000000e-08,6.50000000000000e-01,0.00000000000000e+00,6.49684883993058e-01
4.52200000000000e-08,6.50000000000000e-01,0.00000000000000e+00,6.49915393750532e-01
4.53480000000000e-08,6.50000000000000e-01,0.00000000000000e+00,6.55769504573109e-01
4.56040000000000e-08,6.50000000000000e-01,0.00000000000000e+00,3.01604259475628e-01
4.60977053379836e-08,6.50000000000000e-01,0.00000000000000e+00,-7.35332047453099e-02
4.65423671490953e-08,6.50000000000000e-01,0.00000000000000e+00,5.70192095334365e-02
4.74316907713188e-08,6.50000000000000e-01,0.00000000000000e+00,-3.77850983050553e-02
4.83932380112781e-08,6.50000000000000e-01,0.00000000000000e+00,3.48933570057663e-02
5.00000000000000e-08,6.50000000000000e-01,0.00000000000000e+00,-2.70781884480795e-02
5.00100000000000e-08,6.50000000000000e-01,6.49999999999877e-02,-2.33616821053012e-02
5.00300000000000e-08,6.50000000000000e-01,1.94999999999963e-01,-1.58738087004768e-02
5.00700000000000e-08,6.50000000000000e-01,4.55000000000000e-01,-6.05506851075785e-03
5.01000000000000e-08,6.50000000000000e-01,6.50000000000000e-01,-3.12725646132915e-03
5.01080000000000e-08,6.50000000000000e-01,6.50000000000000e-01,-2.63974401826081e-03
5.01240000000000e-08,6.50000000000000e-01,6.50000000000000e-01,-1.83687406912982e-03
5.01560000000000e-08,6.50000000000000e-01,6.50000000000000e-01,-8.76014612248344e-04
5.02200000000000e-08,6.50000000000000e-01,6.50000000000000e-01,-1.47762708581176e-04
5.03480000000000e-08,6.50000000000000e-01,6.50000000000000e-01,2.23711626524334e-05
5.06040000000000e-08,6.50000000000000e-01,6.50000000000000e-01,-1.00868875018041e-05
5.11160000000001e-08,6.50000000000000e-01,6.50000000000000e-01,7.17131259801718e-06
5.21400000000002e-08,6.50000000000000e-01,6.50000000000000e-01,-5.80495465623415e-06
5.41880000000003e-08,6.50000000000000e-01,6.50000000000000e-01,5.16808880296092e-06
5.51000000000000e-08,6.50000000000000e-01,6.50000000000000e-01,-3.50330473723303e-06
5.51100000000000e-08,5.85000000000023e-01,6.50000000000000e-01,-9.14024468827851e-05
5.51300000000000e-08,4.55000000000005e-01,6.50000000000000e-01,-2.02412014176132e-04
5.51700000000000e-08,1.95000000000011e-01,6.50000000000000e-01,-9.30796872912476e-05
5.52000000000000e-08,0.00000000000000e+00,6.50000000000000e-01,3.22880865858660e-04
5.52080000000000e-08,0.00000000000000e+00,6.50000000000000e-01,4.98039987976068e-04
5.52240000000000e-08,0.00000000000000e+00,6.50000000000000e-01,6.41778725863310e-04
5.52560000000000e-08,0.00000000000000e+00,6.50000000000000e-01,1.84429769293573e-04
5.53200000000000e-08,0.00000000000000e+00,6.50000000000000e-01,-1.07202116578603e-03
5.54480000000000e-08,0.00000000000000e+00,6.50000000000000e-01,-4.40800760152613e-04
5.57040000000000e-08,0.00000000000000e+00,6.50000000000000e-01,1.91044949406194e-04
5.60463378301306e-08,0.00000000000000e+00,6.50000000000000e-01,-2.01677558369032e-04
5.65682841899128e-08,0.00000000000000e+00,6.50000000000000e-01,3.31816992772238e-04
5.75408570230244e-08,0.00000000000000e+00,6.50000000000000e-01,-3.61939031502826e-04
5.87204053203466e-08,0.00000000000000e+00,6.50000000000000e-01,3.69853565045535e-04
6.10795019149908e-08,0.00000000000000e+00,6.50000000000000e-01,-3.71913942606390e-04
6.46365945793046e-08,0.00000000000000e+00,6.50000000000000e-01,3.69966709750097e-04
6.50000000000000e-08,0.00000000000000e+00,6.50000000000000e-01,-3.34164772374700e-04
6.50100000000000e-08,6.49999999999877e-02,6.50000000000000e-01,-9.35759930446173e-05
6.50300000000000e-08,1.94999999999963e-01,6.50000000000000e-01,2.66741637866996e-04
6.50700000000000e-08,4.54999999999914e-01,6.50000000000000e-01,5.73292090482819e-04
6.51000000000000e-08,6.49999999999963e-01,6.50000000000000e-01,-1.94521411902362e-04
6.51080000000000e-08,6.50000000000000e-01,6.50000000000000e-01,-8.21948128615982e-04
6.51240000000000e-08,6.50000000000000e-01,6.50000000000000e-01,-2.15454637283993e-03
6.51560000000000e-08,6.50000000000000e-01,6.50000000000000e-01,-4.48451485568753e-03
6.52200000000000e-08,6.50000000000000e-01,6.50000000000000e-01,-6.33416702067916e-03
6.53480000000000e-08,6.50000000000000e-01,6.50000000000000e-01,1.20217756077513e-01
6.56040000000000e-08,6.50000000000000e-01,6.50000000000000e-01,6.04998985094852e-01
6.61159999999999e-08,6.50000000000000e-01,6.50000000000000e-01,6.63138356866607e-01
6.66743198855324e-08,6.50000000000000e-01,6.50000000000000e-01,6.36541383165270e-01
6.76619659867279e-08,6.50000000000000e-01,6.50000000000000e-01,6.61586884094810e-01
6.90145840355874e-08,6.50000000000000e-01,6.50000000000000e-01,6.37979360342117e-01
7.01000000000000e-08,6.50000000000000e-01,6.50000000000000e-01,6.60732497423375e-01
7.01100000000000e-08,6.50000000000000e-01,5.85000000000012e-01,6.55648642138560e-01
7.01300000000000e-08,6.50000000000000e-01,4.55000000000037e-01,6.50321285325743e-01
7.01700000000000e-08,6.50000000000000e-01,1.95000000000086e-01,6.49978664456231e-01
7.02000000000000e-08,6.50000000000000e-01,3.71924713249427e-14,6.50078575350210e-01
7.02080000000000e-08,6.50000000000000e-01,0.00000000000000e+00,6.50049896399854e-01
7.02240000000000e-08,6.50000000000000e-01,0.00000000000000e+00,6.50012208920786e-01
7.02560000000000e-08,6.50000000000000e-01,0.00000000000000e+00,6.49990669664166e-01
7.03200000000000e-08,6.50000000000000e-01,0.00000000000000e+00,6.49987781129118e-01
7.04480000000000e-08,6.50000000000000e-01,0.00000000000000e+00,6.50007876120979e-01
7.06537864942650e-08,6.50000000000000e-01,0.00000000000000e+00,6.49984533826527e-01
7.10162776519087e-08,6.50000000000000e-01,0.00000000000000e+00,6.49988352455991e-01
7.14984693418999e-08,6.50000000000000e-01,0.00000000000000e+00,6.49993749636205e-01
7.24628527218823e-08,6.50000000000000e-01,0.00000000000000e+00,6.49986016130275e-01
7.43916194818470e-08,6.50000000000000e-01,0.00000000000000e+00,6.49996569949938e-01
7.51000000000000e-08,6.50000000000000e-01,0.00000000000000e+00,6.49985911669050e-01
7.51100000000000e-08,5.85000000000066e-01,0.00000000000000e+00,6.49907821554670e-01
7.51300000000000e-08,4.55000000000091e-01,0.00000000000000e+00,6.49832185252619e-01
7.51700000000000e-08,1.95000000000140e-01,0.00000000000000e+00,6.50737902878711e-01
7.52000000000000e-08,9.09272657168003e-14,0.00000000000000e+00,6.53154035269469e-01
7.52080000000000e-08,0.00000000000000e+00,0.00000000000000e+00,6.53704911903433e-01
7.52240000000000e-08,0.00000000000000e+00,0.00000000000000e+00,6.53960975028062e-01
7.52560000000000e-08,0.00000000000000e+00,0.00000000000000e+00,6.48678150731115e-01
7.53200000000000e-08,0.00000000000000e+00,0.00000000000000e+00,6.31845997982568e-01
7.54480000000000e-08,0.00000000000000e+00,0.00000000000000e+00,6.39222518164434e-01
7.56812833246627e-08,0.00000000000000e+00,0.00000000000000e+00,6.54041252698717e-01
7.59851405134546e-08,0.00000000000000e+00,0.00000000000000e+00,6.45986264180375e-01
7.65928548910386e-08,0.00000000000000e+00,0.00000000000000e+00,6.52843857160976e-01
7.73220212413453e-08,0.00000000000000e+00,0.00000000000000e+00,6.47135090210468e-01
7.81000000000000e-08,0.00000000000000e+00,0.00000000000000e+00,6.52308441774500e-01
7.82458332700614e-08,0.00000000000000e+00,0.00000000000000e+00,6.50209955027704e-01
7.85374998101841e-08,0.00000000000000e+00,0.00000000000000e+00,6.49679868131297e-01
7.91208328904294e-08,0.00000000000000e+00,0.00000000000000e+00,6.50115946782891e-01
8.02874990509202e-08,0.00000000000000e+00,0.00000000000000e+00,6.49756272011758e-01
8.26208313719017e-08,0.00000000000000e+00,0.00000000000000e+00,6.50127313883462e-01
8.50000000000000e-08,0.00000000000000e+00,0.00000000000000e+00,6.49794781599929e-01
8.50100000000000e-08,6.49999999999877e-02,0.00000000000000e+00,6.49923031764153e-01
8.50300000000000e-08,1.94999999999963e-01,0.00000000000000e+00,6.50055489377752e-01
8.50700000000000e-08,4.54999999999914e-01,0.00000000000000e+00,6.50008214140657e-01
8.51000000000000e-08,6.49999999999963e-01,0.00000000000000e+00,6.49841537239383e-01
8.51080000000000e-08,6.50000000000000e-01,0.00000000000000e+00,6.49763535860004e-01
8.51240000000000e-08,6.50000000000000e-01,0.00000000000000e+00,6.49684145234521e-01
8.51560000000000e-08,6.50000000000000e-01,0.00000000000000e+00,6.49686297112104e-01
8.52200000000000e-08,6.50000000000000e-01,0.00000000000000e+00,6.49904329380386e-01
8.53480000000000e-08,6.50000000000000e-01,0.00000000000000e+00,6.55782330901705e-01
8.56040000000000e-08,6.50000000000000e-01,0.00000000000000e+00,3.01586224373412e-01
8.60976313055950e-08,6.50000000000000e-01,0.00000000000000e+00,-7.35126406807989e-02
8.65423227382634e-08,6.50000000000000e-01,0.00000000000000e+00,5.70049360466847e-02
8.74317056036001e-08,6.50000000000000e-01,0.00000000000000e+00,-3.77755204388849e-02
8.83932765018894e-08,6.50000000000000e-01,0.00000000000000e+00,3.48852243846444e-02
9.00000000000000e-08,6.50000000000000e-01,0.00000000000000e+00,-2.70712185648616e-02
9.00100000000000e-08,6.50000000000000e-01,6.49999999999877e-02,-2.33562011996535e-02
9.00300000000000e-08,6.50000000000000e-01,1.94999999999963e-01,-1.58706525369351e-02
9.00700000000000e-08,6.50000000000000e-01,4.54999999999914e-01,-6.05402052437186e-03
9.01000000000000e-08,6.50000000000000e-01,6.49999999999963e-01,-3.12666375640579e-03
9.01080000000000e-08,6.50000000000000e-01,6.50000000000000e-01,-2.63925124674851e-03
9.01240000000000e-08,6.50000000000000e-01,6.50000000000000e-01,-1.83653736502862e-03
9.01560000000000e-08,6.50000000000000e-01,6.50000000000000e-01,-8.75853403867574e-04
9.02200000000000e-08,6.50000000000000e-01,6.50000000000000e-01,-1.47739092006487e-04
9.03480000000000e-08,6.50000000000000e-01,6.50000000000000e-01,2.23674547279451e-05
9.06040000000000e-08,6.50000000000000e-01,6.50000000000000e-01,-1.00860849163789e-05
9.11159999999999e-08,6.50000000000000e-01,6.50000000000000e-01,7.16971471618165e-06
9.21399999999999e-08,6.50000000000000e-01,6.50000000000000e-01,-5.80476162094327e-06
9.41879999999998e-08,6.50000000000000e-01,6.50000000000000e-01,5.16679662098231e-06
9.51000000000000e-08,6.50000000000000e-01,6.50000000000000e-01,-3.50343097850220e-06
9.51100000000000e-08,5.85000000000066e-01,6.50000000000000e-01,-9.14028461605071e-05
9.51300000000000e-08,4.55000000000091e-01,6.50000000000000e-01,-2.02412983831765e-04
9.51700000000000e-08,1.95000000000140e-01,6.50000000000000e-01,-9.30816939885837e-05
9.52000000000000e-08,9.09272657168003e-14,6.50000000000000e-01,3.22875262362007e-04
9.52080000000000e-08,0.00000000000000e+00,6.50000000000000e-01,4.98027741012291e-04
9.52240000000000e-08,0.00000000000000e+00,6.50000000000000e-01,6.41728438781630e-04
9.52560000000000e-08,0.00000000000000e+00,6.50000000000000e-01,1.84153009406551e-04
9.53200000000000e-08,0.00000000000000e+00,6.50000000000000e-01,-1.07348873947487e-03
9.54480000000000e-08,0.00000000000000e+00,6.50000000000000e-01,-4.41240657198333e-04
9.57040000000000e-08,0.00000000000000e+00,6.50000000000000e-01,1.91444078686931e-04
9.60463365437646e-08,0.00000000000000e+00,6.50000000000000e-01,-2.02017057447688e-04
9.65682832312395e-08,0.00000000000000e+00,6.50000000000000e-01,3.32114881395182e-04
9.75408551626296e-08,0.00000000000000e+00,6.50000000000000e-01,-3.62219866797870e-04
9.87204014281886e-08,0.00000000000000e+00,6.50000000000000e-01,3.70117413920502e-04
1.01079493959307e-07,0.00000000000000e+00,6.50000000000000e-01,-3.72171793129931e-04
1.04636582539087e-07,0.00000000000000e+00,6.50000000000000e-01,3.70218474146373e-04
1.05000000000000e-07,0.00000000000000e+00,6.50000000000000e-01,-3.34376369766506e-04
1.05010000000000e-07,6.49999999999877e-02,6.50000000000000e-01,-9.36941825317866e-05
1.05030000000000e-07,1.94999999999963e-01,6.50000000000000e-01,2.66710538921133e-04
1.05070000000000e-07,4.54999999999914e-01,6.50000000000000e-01,5.73282967704820e-04
1.05100000000000e-07,6.49999999999963e-01,6.50000000000000e-01,-1.94522024119841e-04
1.05108000000000e-07,6.50000000000000e-01,6.50000000000000e-01,-8.21951850233191e-04
1.05124000000000e-07,6.50000000000000e-01,6.50000000000000e-01,-2.15455244454452e-03
1.05156000000000e-07,6.50000000000000e-01,6.50000000000000e-01,-4.48451877796939e-03
1.05220000000000e-07,6.50000000000000e-01,6.50000000000000e-01,-6.33416429512131e-03
1.05348000000000e-07,6.50000000000000e-01,6.50000000000000e-01,1.20217936618894e-01
1.05604000000000e-07,6.50000000000000e-01,6.50000000000000e-01,6.04999070599132e-01
1.06116000000000e-07,6.50000000000000e-01,6.50000000000000e-01,6.63138334567537e-01
1.06674320091810e-07,6.50000000000000e-01,6.50000000000000e-01,6.36541406235732e-01
