Time,v(clk),v(data),v(out)
1.00000000000000e-08,6.50000000000000e-01,0.00000000000000e+00,7.49560091410206e-06
1.00100000000000e-08,6.50000000000000e-01,6.49999999999984e-02,1.37725217642937e-05
1.00300000000000e-08,6.50000000000000e-01,1.94999999999995e-01,1.84894270223307e-05
1.00700000000000e-08,6.50000000000000e-01,4.54999999999989e-01,1.54910469106553e-05
1.01000000000000e-08,6.50000000000000e-01,6.49999999999995e-01,1.13804678785745e-05
1.01080000000000e-08,6.50000000000000e-01,6.50000000000000e-01,1.03780567896616e-05
1.01240000000000e-08,6.50000000000000e-01,6.50000000000000e-01,1.08036429271319e-05
1.01560000000000e-08,6.50000000000000e-01,6.50000000000000e-01,1.48467659325524e-05
1.02200000000000e-08,6.50000000000000e-01,6.50000000000000e-01,1.85830725241906e-05
1.03480000000000e-08,6.50000000000000e-01,6.50000000000000e-01,1.65633044127908e-05
1.06040000000000e-08,6.50000000000000e-01,6.50000000000000e-01,1.33219264854233e-05
1.10978505402833e-08,6.50000000000000e-01,6.50000000000000e-01,1.55090957435766e-05
1.20855516208500e-08,6.50000000000000e-01,6.50000000000000e-01,1.31859176040663e-05
1.40609537819833e-08,6.50000000000000e-01,6.50000000000000e-01,1.43299084470567e-05
1.51000000000000e-08,6.50000000000000e-01,6.50000000000000e-01,1.24969093740768e-05
1.51100000000000e-08,5.84999999999991e-01,6.50000000000000e-01,-8.43850335445345e-05
1.51300000000000e-08,4.54999999999994e-01,6.50000000000000e-01,-2.33426422913616e-04
1.51700000000000e-08,1.95000000000000e-01,6.50000000000000e-01,-1.79094210173369e-04
1.52000000000000e-08,0.00000000000000e+00,6.50000000000000e-01,2.52187802719836e-04
1.52080000000000e-08,0.00000000000000e+00,6.50000000000000e-01,4.55576850926204e-04
1.52240000000000e-08,0.00000000000000e+00,6.50000000000000e-01,6.99633626392041e-04
1.52560000000000e-08,0.00000000000000e+00,6.50000000000000e-01,6.40828812176836e-04
1.53200000000000e-08,0.00000000000000e+00,6.50000000000000e-01,-3.43005047620318e-05
1.54480000000000e-08,0.00000000000000e+00,6.50000000000000e-01,-5.03837983279930e-04
1.57040000000000e-08,0.00000000000000e+00,6.50000000000000e-01,1.14746771064156e-04
1.60745599706109e-08,0.00000000000000e+00,6.50000000000000e-01,-1.80917926165643e-04
1.66794217062423e-08,0.00000000000000e+00,6.50000000000000e-01,2.82636625194767e-04
1.77665942776436e-08,0.00000000000000e+00,6.50000000000000e-01,-2.25754362207830e-04
1.88757421398613e-08,0.00000000000000e+00,6.50000000000000e-01,2.15385239341399e-04
2.10940378642966e-08,0.00000000000000e+00,6.50000000000000e-01,-1.76568234231437e-04
2.48940378642966e-08,0.00000000000000e+00,6.50000000000000e-01,1.90041921439514e-04
2.50000000000000e-08,0.00000000000000e+00,6.50000000000000e-01,3.18532207169570e-05
2.50100000000000e-08,6.49999999999877e-02,6.50000000000000e-01,1.85983316484978e-04
2.50300000000000e-08,1.95000000000006e-01,6.50000000000000e-01,4.31859126100567e-04
2.50700000000000e-08,4.55000000000000e-01,6.50000000000000e-01,7.20691246402616e-04
2.51000000000000e-08,6.50000000000000e-01,6.50000000000000e-01,4.33940256288970e-04
2.51080000000000e-08,6.50000000000000e-01,6.50000000000000e-01,6.52999379423674e-05
2.51240000000000e-08,6.50000000000000e-01,6.50000000000000e-01,-7.86882466756900e-04
2.51560000000000e-08,6.50000000000000e-01,6.50000000000000e-01,-2.65610271075453e-03
2.52200000000000e-08,6.50000000000000e-01,6.50000000000000e-01,-5.27946417577389e-03
2.53480000000000e-08,6.50000000000000e-01,6.50000000000000e-01,1.00277018475621e-02
2.56040000000000e-08,6.50000000000000e-01,6.50000000000000e-01,4.28925808264513e-01
2.61160000000000e-08,6.50000000000000e-01,6.50000000000000e-01,6.73801021970862e-01
2.66675094169916e-08,6.50000000000000e-01,6.50000000000000e-01,6.30373777372901e-01
2.77705282509747e-08,6.50000000000000e-01,6.50000000000000e-01,6.68683598854297e-01
2.91848871102427e-08,6.50000000000000e-01,6.50000000000000e-01,6.31655227213922e-01
3.01000000000000e-08,6.50000000000000e-01,6.50000000000000e-01,6.66809772880791e-01
3.01100000000000e-08,6.50000000000000e-01,5.85000000000034e-01,6.59641455771692e-01
3.01300000000000e-08,6.50000000000000e-01,4.55000000000016e-01,6.51403724419785e-01
3.01700000000000e-08,6.50000000000000e-01,1.95000000000022e-01,6.49652526421068e-01
3.02000000000000e-08,6.50000000000000e-01,1.57651669496772e-14,6.49992237159671e-01
3.02080000000000e-08,6.50000000000000e-01,0.00000000000000e+00,6.49969886281610e-01
3.02240000000000e-08,6.50000000000000e-01,0.00000000000000e+00,6.49935267210193e-01
3.02560000000000e-08,6.50000000000000e-01,0.00000000000000e+00,6.49917264309363e-01
3.03200000000000e-08,6.50000000000000e-01,0.00000000000000e+00,6.49935929147635e-01
3.04480000000000e-08,6.50000000000000e-01,0.00000000000000e+00,6.49968335972927e-01
3.07007491217047e-08,6.50000000000000e-01,0.00000000000000e+00,6.49973684973471e-01
3.10715981114212e-08,6.50000000000000e-01,0.00000000000000e+00,6.49958917028478e-01
3.16427094977850e-08,6.50000000000000e-01,0.00000000000000e+00,6.49979493284215e-01
3.27849322705126e-08,6.50000000000000e-01,0.00000000000000e+00,6.49965035179279e-01
3.50693778159677e-08,6.50000000000000e-01,0.00000000000000e+00,6.49986635218359e-01
3.51000000000000e-08,6.49999999999968e-01,0.00000000000000e+00,6.49974082182125e-01
3.51100000000000e-08,5.84999999999980e-01,0.00000000000000e+00,6.49889847159465e-01
3.51300000000000e-08,4.54999999999962e-01,0.00000000000000e+00,6.49799335116171e-01
3.51700000000000e-08,1.94999999999968e-01,0.00000000000000e+00,6.50757870641166e-01
3.52000000000000e-08,0.00000000000000e+00,0.00000000000000e+00,6.53119511057402e-01
3.52080000000000e-08,0.00000000000000e+00,0.00000000000000e+00,6.53690146047061e-01
3.52240000000000e-08,0.00000000000000e+00,0.00000000000000e+00,6.54225151049418e-01
3.52560000000000e-08,0.00000000000000e+00,0.00000000000000e+00,6.51808120142672e-01
3.53200000000000e-08,0.00000000000000e+00,0.00000000000000e+00,6.37428465804714e-01
3.54480000000000e-08,0.00000000000000e+00,0.00000000000000e+00,6.32943996713746e-01
3.56910507071797e-08,0.00000000000000e+00,0.00000000000000e+00,6.52160801221278e-01
3.60465556094579e-08,0.00000000000000e+00,0.00000000000000e+00,6.47032693208322e-01
3.66707461145357e-08,0.00000000000000e+00,0.00000000000000e+00,6.51616109270921e-01
3.74889700240302e-08,0.00000000000000e+00,0.00000000000000e+00,6.48052614460082e-01
3.91000000000000e-08,0.00000000000000e+00,0.00000000000000e+00,6.51447445338980e-01
3.92636447818989e-08,0.00000000000000e+00,0.00000000000000e+00,6.50079428075287e-01
3.95909343456967e-08,0.00000000000000e+00,0.00000000000000e+00,6.49705574158184e-01
4.02455134732923e-08,0.00000000000000e+00,0.00000000000000e+00,6.50008173947321e-01
4.15546717284836e-08,0.00000000000000e+00,0.00000000000000e+00,6.49767945715221e-01
4.41729882388660e-08,0.00000000000000e+00,0.00000000000000e+00,6.50024627528723e-01
4.50000000000000e-08,0.00000000000000e+00,0.00000000000000e+00,6.49806517978694e-01
4.50100000000000e-08,6.49999999999877e-02,0.00000000000000e+00,6.49917197013545e-01
4.50300000000000e-08,1.95000000000006e-01,0.00000000000000e+00,6.50039144825198e-01
4.50700000000000e-08,4.55000000000000e-01,0.00000000000000e+00,6.50003762867542e-01
4.51000000000000e-08,6.50000000000000e-01,0.00000000000000e+00,6.49853093464842e-01
4.51080000000000e-08,6.50000000000000e-01,0.00000000000000e+00,6.49764151154953e-01
4.51240000000000e-08,6.50000000000000e-01,0.00000000000000e+00,6.49657049207718e-01
4.51560000000000e-08,6.50000000000000e-01,0.00000000000000e+00,6.49656518049543e-01
4.52200000000000e-08,6.50000000000000e-01,0.00000000000000e+00,6.49737592103993e-01
4.53480000000000e-08,6.50000000000000e-01,0.00000000000000e+00,6.50876100453890e-01
4.56040000000000e-08,6.50000000000000e-01,0.00000000000000e+00,6.40886574165933e-01
4.61160000000000e-08,6.50000000000000e-01,0.00000000000000e+00,1.11624018062592e-01
4.66205486067649e-08,6.50000000000000e-01,0.00000000000000e+00,-5.09289672841618e-02
4.76296458202946e-08,6.50000000000000e-01,0.00000000000000e+00,4.26952163467262e-02
4.88133178170335e-08,6.50000000000000e-01,0.00000000000000e+00,-3.19273254961304e-02
5.00000000000000e-08,6.50000000000000e-01,0.00000000000000e+00,2.72961058563019e-02
5.00100000000000e-08,6.50000000000000e-01,6.49999999999877e-02,2.22980158327104e-02
5.00300000000000e-08,6.50000000000000e-01,1.94999999999963e-01,1.51856239755552e-02
5.00700000000000e-08,6.50000000000000e-01,4.55000000000000e-01,8.45324703931529e-03
5.01000000000000e-08,6.50000000000000e-01,6.50000000000000e-01,5.50594351344559e-03
5.01080000000000e-08,6.50000000000000e-01,6.50000000000000e-01,4.95817429158711e-03
5.01240000000000e-08,6.50000000000000e-01,6.50000000000000e-01,3.86819025180858e-03
5.01560000000000e-08,6.50000000000000e-01,6.50000000000000e-01,2.46943744839241e-03
5.02200000000000e-08,6.50000000000000e-01,6.50000000000000e-01,9.45743179308733e-04
5.03480000000000e-08,6.50000000000000e-01,6.50000000000000e-01,6.01505683179501e-05
5.06040000000000e-08,6.50000000000000e-01,6.50000000000000e-01,-1.11724747114926e-05
5.11130437737272e-08,6.50000000000000e-01,6.50000000000000e-01,1.55729417840346e-05
5.21311313211814e-08,6.50000000000000e-01,6.50000000000000e-01,-1.41685032081090e-06
5.41673064160899e-08,6.50000000000000e-01,6.50000000000000e-01,1.30123934181511e-05
5.51000000000000e-08,6.50000000000000e-01,6.50000000000000e-01,1.29413557733125e-06
5.51100000000000e-08,5.85000000000023e-01,6.50000000000000e-01,-9.49083649081778e-05
5.51300000000000e-08,4.55000000000005e-01,6.50000000000000e-01,-2.39315896869999e-04
5.51700000000000e-08,1.95000000000011e-01,6.50000000000000e-01,-1.86126303744621e-04
5.52000000000000e-08,0.00000000000000e+00,6.50000000000000e-01,2.34575961754330e-04
5.52080000000000e-08,0.00000000000000e+00,6.50000000000000e-01,4.30600133898243e-04
5.52240000000000e-08,0.00000000000000e+00,6.50000000000000e-01,6.41719156907389e-04
5.52560000000000e-08,0.00000000000000e+00,6.50000000000000e-01,3.62757920839729e-04
5.53200000000000e-08,0.00000000000000e+00,6.50000000000000e-01,-1.32833391391392e-03
5.54480000000000e-08,0.00000000000000e+00,6.50000000000000e-01,-1.95272632917792e-03
5.57040000000000e-08,0.00000000000000e+00,6.50000000000000e-01,3.13834494248245e-04
5.60729922182075e-08,0.00000000000000e+00,6.50000000000000e-01,-1.91294728395162e-04
5.66583171159418e-08,0.00000000000000e+00,6.50000000000000e-01,2.58379163487999e-04
5.78289669114102e-08,0.00000000000000e+00,6.50000000000000e-01,-2.14873233150777e-04
5.89024188553630e-08,0.00000000000000e+00,6.50000000000000e-01,1.94854044615637e-04
6.10493227432687e-08,0.00000000000000e+00,6.50000000000000e-01,-1.53450961261571e-04
6.48493227432687e-08,0.00000000000000e+00,6.50000000000000e-01,1.66046081355200e-04
6.50000000000000e-08,0.00000000000000e+00,6.50000000000000e-01,5.83397587575196e-06
6.50100000000000e-08,6.49999999999877e-02,6.50000000000000e-01,1.73962564262026e-04
6.50300000000000e-08,1.94999999999963e-01,6.50000000000000e-01,4.28873682200306e-04
6.50700000000000e-08,4.54999999999914e-01,6.50000000000000e-01,7.12623900156750e-04
6.51000000000000e-08,6.49999999999963e-01,6.50000000000000e-01,4.27289156446894e-04
6.51080000000000e-08,6.50000000000000e-01,6.50000000000000e-01,5.82082228860331e-05
6.51240000000000e-08,6.50000000000000e-01,6.50000000000000e-01,-7.94011550764084e-04
6.51560000000000e-08,6.50000000000000e-01,6.50000000000000e-01,-2.66258207359847e-03
6.52200000000000e-08,6.50000000000000e-01,6.50000000000000e-01,-5.28145780118539e-03
6.53480000000000e-08,6.50000000000000e-01,6.50000000000000e-01,1.01225652906824e-02
6.56040000000000e-08,6.50000000000000e-01,6.50000000000000e-01,4.29319906714795e-01
6.61159999999999e-08,6.50000000000000e-01,6.50000000000000e-01,6.73821457931615e-01
6.66672739821769e-08,6.50000000000000e-01,6.50000000000000e-01,6.30349499566287e-01
6.77698219465307e-08,6.50000000000000e-01,6.50000000000000e-01,6.68702701488753e-01
6.91844050652779e-08,6.50000000000000e-01,6.50000000000000e-01,6.31634101202349e-01
7.01000000000000e-08,6.50000000000000e-01,6.50000000000000e-01,6.66827748447683e-01
7.01100000000000e-08,6.50000000000000e-01,5.85000000000012e-01,6.59651758974287e-01
7.01300000000000e-08,6.50000000000000e-01,4.55000000000037e-01,6.51405421785320e-01
7.01700000000000e-08,6.50000000000000e-01,1.95000000000086e-01,6.49652220604682e-01
7.02000000000000e-08,6.50000000000000e-01,3.71924713249427e-14,6.49992525594686e-01
7.02080000000000e-08,6.50000000000000e-01,0.00000000000000e+00,6.49970008487872e-01
7.02240000000000e-08,6.50000000000000e-01,0.00000000000000e+00,6.49935225203847e-01
7.02560000000000e-08,6.50000000000000e-01,0.00000000000000e+00,6.49917234701192e-01
7.03200000000000e-08,6.50000000000000e-01,0.00000000000000e+00,6.49935926271139e-01
7.04480000000000e-08,6.50000000000000e-01,0.00000000000000e+00,6.49968393638271e-01
7.07007153481407e-08,6.50000000000000e-01,0.00000000000000e+00,6.49973621377206e-01
7.10716066413778e-08,6.50000000000000e-01,0.00000000000000e+00,6.49958932825987e-01
7.16426796406700e-08,6.50000000000000e-01,0.00000000000000e+00,6.49979443539197e-01
7.27848256392546e-08,6.50000000000000e-01,0.00000000000000e+00,6.49965049764616e-01
7.50691176364236e-08,6.50000000000000e-01,0.00000000000000e+00,6.49986598216380e-01
7.51000000000000e-08,6.50000000000000e-01,0.00000000000000e+00,6.49974033862253e-01
7.51100000000000e-08,5.85000000000066e-01,0.00000000000000e+00,6.49889829434992e-01
7.51300000000000e-08,4.55000000000091e-01,0.00000000000000e+00,6.49799463375693e-01
7.51700000000000e-08,1.95000000000140e-01,0.00000000000000e+00,6.50757767576865e-01
7.52000000000000e-08,9.09272657168003e-14,0.00000000000000e+00,6.53119488588113e-01
7.52080000000000e-08,0.00000000000000e+00,0.00000000000000e+00,6.53690087874358e-01
7.52240000000000e-08,0.00000000000000e+00,0.00000000000000e+00,6.54224961862075e-01
7.52560000000000e-08,0.00000000000000e+00,0.00000000000000e+00,6.51807223944528e-01
7.53200000000000e-08,0.00000000000000e+00,0.00000000000000e+00,6.37426928869970e-01
7.54480000000000e-08,0.00000000000000e+00,0.00000000000000e+00,6.32943932945452e-01
7.56910509509698e-08,0.00000000000000e+00,0.00000000000000e+00,6.52161035743696e-01
7.60465555309541e-08,0.00000000000000e+00,0.00000000000000e+00,6.47032496198380e-01
7.66707472644950e-08,0.00000000000000e+00,0.00000000000000e+00,6.51616267992685e-01
7.74889711832966e-08,0.00000000000000e+00,0.00000000000000e+00,6.48052471842180e-01
7.81000000000000e-08,0.00000000000000e+00,0.00000000000000e+00,6.51236989446688e-01
7.82636447837604e-08,0.00000000000000e+00,0.00000000000000e+00,6.50019649263911e-01
7.85909343512810e-08,0.00000000000000e+00,0.00000000000000e+00,6.49690744053461e-01
7.92455134863223e-08,0.00000000000000e+00,0.00000000000000e+00,6.49970999424966e-01
8.05546717564050e-08,0.00000000000000e+00,0.00000000000000e+00,6.49769774463437e-01
8.31729882965703e-08,0.00000000000000e+00,0.00000000000000e+00,6.50005613332192e-01
8.50000000000000e-08,0.00000000000000e+00,0.00000000000000e+00,6.49812146938143e-01
8.50100000000000e-08,6.49999999999877e-02,0.00000000000000e+00,6.49921097551014e-01
8.50300000000000e-08,1.94999999999963e-01,0.00000000000000e+00,6.50040628829011e-01
8.50700000000000e-08,4.54999999999914e-01,0.00000000000000e+00,6.50003462762324e-01
8.51000000000000e-08,6.49999999999963e-01,0.00000000000000e+00,6.49852659449362e-01
8.51080000000000e-08,6.50000000000000e-01,0.00000000000000e+00,6.49763901333807e-01
8.51240000000000e-08,6.50000000000000e-01,0.00000000000000e+00,6.49656987925982e-01
8.51560000000000e-08,6.50000000000000e-01,0.00000000000000e+00,6.49656276003376e-01
8.52200000000000e-08,6.50000000000000e-01,0.00000000000000e+00,6.49736688304341e-01
8.53480000000000e-08,6.50000000000000e-01,0.00000000000000e+00,6.50875857178694e-01
8.56040000000000e-08,6.50000000000000e-01,0.00000000000000e+00,6.40832356948759e-01
8.61159999999999e-08,6.50000000000000e-01,0.00000000000000e+00,1.11576184688982e-01
8.66205267917178e-08,6.50000000000000e-01,0.00000000000000e+00,-5.09129626860319e-02
8.76295803751535e-08,6.50000000000000e-01,0.00000000000000e+00,4.26800483951553e-02
8.88133179865650e-08,6.50000000000000e-01,0.00000000000000e+00,-3.19177354159802e-02
9.00000000000000e-08,6.50000000000000e-01,0.00000000000000e+00,2.72875489920558e-02
9.00100000000000e-08,6.50000000000000e-01,6.49999999999877e-02,2.22906808303746e-02
9.00300000000000e-08,6.50000000000000e-01,1.94999999999963e-01,1.51801458938849e-02
9.00700000000000e-08,6.50000000000000e-01,4.54999999999914e-01,8.45005921242478e-03
9.01000000000000e-08,6.50000000000000e-01,6.49999999999963e-01,5.50385746800586e-03
9.01080000000000e-08,6.50000000000000e-01,6.50000000000000e-01,4.95629645841660e-03
9.01240000000000e-08,6.50000000000000e-01,6.50000000000000e-01,3.86672390522730e-03
9.01560000000000e-08,6.50000000000000e-01,6.50000000000000e-01,2.46850179492315e-03
9.02200000000000e-08,6.50000000000000e-01,6.50000000000000e-01,9.45386883589264e-04
9.03480000000000e-08,6.50000000000000e-01,6.50000000000000e-01,6.01312875628396e-05
9.06040000000000e-08,6.50000000000000e-01,6.50000000000000e-01,-1.11651516109430e-05
9.11131365853789e-08,6.50000000000000e-01,6.50000000000000e-01,1.55718698053725e-05
9.21314097561368e-08,6.50000000000000e-01,6.50000000000000e-01,-1.41440383510764e-06
9.41679560976526e-08,6.50000000000000e-01,6.50000000000000e-01,1.30123678454656e-05
9.51000000000000e-08,6.50000000000000e-01,6.50000000000000e-01,1.29678185857574e-06
9.51100000000000e-08,5.85000000000066e-01,6.50000000000000e-01,-9.49054867459137e-05
9.51300000000000e-08,4.55000000000091e-01,6.50000000000000e-01,-2.39314081692588e-04
9.51700000000000e-08,1.95000000000140e-01,6.50000000000000e-01,-1.86124817277769e-04
9.52000000000000e-08,9.09272657168003e-14,6.50000000000000e-01,2.34578622856974e-04
9.52080000000000e-08,0.00000000000000e+00,6.50000000000000e-01,4.30604046674221e-04
9.52240000000000e-08,0.00000000000000e+00,6.50000000000000e-01,6.41727957016336e-04
9.52560000000000e-08,0.00000000000000e+00,6.50000000000000e-01,3.62789035542793e-04
9.53200000000000e-08,0.00000000000000e+00,6.50000000000000e-01,-1.32825071435257e-03
9.54480000000000e-08,0.00000000000000e+00,6.50000000000000e-01,-1.95257340134773e-03
9.57040000000000e-08,0.00000000000000e+00,6.50000000000000e-01,3.13858016533382e-04
9.60729922152148e-08,0.00000000000000e+00,6.50000000000000e-01,-1.91344867046528e-04
9.66583333108603e-08,0.00000000000000e+00,6.50000000000000e-01,2.58422878839891e-04
9.78290155021512e-08,0.00000000000000e+00,6.50000000000000e-01,-2.14920996731689e-04
9.89024771215278e-08,0.00000000000000e+00,6.50000000000000e-01,1.94897543455357e-04
1.01049400360281e-07,0.00000000000000e+00,6.50000000000000e-01,-1.53492540958863e-04
1.04849400360281e-07,0.00000000000000e+00,6.50000000000000e-01,1.66086390245835e-04
1.05000000000000e-07,0.00000000000000e+00,6.50000000000000e-01,5.86061366213142e-06
1.05010000000000e-07,6.49999999999877e-02,6.50000000000000e-01,1.73991416441185e-04
1.05030000000000e-07,1.94999999999963e-01,6.50000000000000e-01,4.28901917732719e-04
1.05070000000000e-07,4.54999999999914e-01,6.50000000000000e-01,7.12643371605676e-04
1.05100000000000e-07,6.49999999999963e-01,6.50000000000000e-01,4.27305149680396e-04
1.05108000000000e-07,6.50000000000000e-01,6.50000000000000e-01,5.82233854778957e-05
1.05124000000000e-07,6.50000000000000e-01,6.50000000000000e-01,-7.93998331779691e-04
1.05156000000000e-07,6.50000000000000e-01,6.50000000000000e-01,-2.66257140774569e-03
1.05220000000000e-07,6.50000000000000e-01,6.50000000000000e-01,-5.28145424543505e-03
1.05348000000000e-07,6.50000000000000e-01,6.50000000000000e-01,1.01224393969287e-02
1.05604000000000e-07,6.50000000000000e-01,6.50000000000000e-01,4.29319382669725e-01
1.06116000000000e-07,6.50000000000000e-01,6.50000000000000e-01,6.73821430670101e-01
1.06667274294998e-07,6.50000000000000e-01,6.50000000000000e-01,6.30349531958150e-01
1.07769822884994e-07,6.50000000000000e-01,6.50000000000000e-01,6.68702676017962e-01
