Time,v(clk),v(data),v(out)
1.00000000000000e-08,6.00000000000000e-01,0.00000000000000e+00,2.83246781982353e-05
1.00100000000000e-08,6.00000000000000e-01,5.99999999999985e-02,2.30262327800025e-05
1.00300000000000e-08,6.00000000000000e-01,1.79999999999996e-01,1.44563453520936e-05
1.00700000000000e-08,6.00000000000000e-01,4.19999999999990e-01,5.31668690118350e-06
1.01000000000000e-08,6.00000000000000e-01,5.99999999999995e-01,1.58513306845742e-06
1.01080000000000e-08,6.00000000000000e-01,6.00000000000000e-01,1.43052479269559e-06
1.01240000000000e-08,6.00000000000000e-01,6.00000000000000e-01,1.42578647866626e-06
1.01560000000000e-08,6.00000000000000e-01,6.00000000000000e-01,3.42723196244260e-06
1.02200000000000e-08,6.00000000000000e-01,6.00000000000000e-01,3.16979041454710e-06
1.03480000000000e-08,6.00000000000000e-01,6.00000000000000e-01,1.03599541977431e-06
1.06040000000000e-08,6.00000000000000e-01,6.00000000000000e-01,9.09763453484785e-07
1.11160000000000e-08,6.00000000000000e-01,6.00000000000000e-01,1.41996353196505e-06
1.21400000000000e-08,6.00000000000000e-01,6.00000000000000e-01,7.73286617537783e-07
1.41880000000000e-08,6.00000000000000e-01,6.00000000000000e-01,1.11040851469030e-06
1.51000000000000e-08,6.00000000000000e-01,6.00000000000000e-01,5.67114919321383e-07
1.51100000000000e-08,5.39999999999991e-01,6.00000000000000e-01,-2.56132365806620e-05
1.51300000000000e-08,4.19999999999994e-01,6.00000000000000e-01,-6.60014459064155e-05
1.51700000000000e-08,1.80000000000000e-01,6.00000000000000e-01,-9.61453167218247e-05
1.52000000000000e-08,0.00000000000000e+00,6.00000000000000e-01,-4.33399685016919e-05
1.52080000000000e-08,0.00000000000000e+00,6.00000000000000e-01,1.10933208819670e-05
1.52240000000000e-08,0.00000000000000e+00,6.00000000000000e-01,8.84482873073425e-05
1.52560000000000e-08,0.00000000000000e+00,6.00000000000000e-01,1.25142982047032e-04
1.53200000000000e-08,0.00000000000000e+00,6.00000000000000e-01,7.26680738427909e-05
1.54480000000000e-08,0.00000000000000e+00,6.00000000000000e-01,-2.83067503529608e-05
1.57040000000000e-08,0.00000000000000e+00,6.00000000000000e-01,-3.74894780194659e-05
1.62160000000000e-08,0.00000000000000e+00,6.00000000000000e-01,-1.05569646631611e-04
1.69603291853097e-08,0.00000000000000e+00,6.00000000000000e-01,9.38834732407538e-05
1.81874785943374e-08,0.00000000000000e+00,6.00000000000000e-01,-1.42274208916435e-05
1.98678841923521e-08,0.00000000000000e+00,6.00000000000000e-01,-1.78622062454972e-05
2.25138656566803e-08,0.00000000000000e+00,6.00000000000000e-01,3.02258587834624e-05
2.50000000000000e-08,0.00000000000000e+00,6.00000000000000e-01,-3.94404659269076e-05
2.50100000000000e-08,5.99999999999886e-02,6.00000000000000e-01,2.15602800265509e-05
2.50300000000000e-08,1.80000000000006e-01,6.00000000000000e-01,1.05041228876855e-04
2.50700000000000e-08,4.20000000000000e-01,6.00000000000000e-01,7.31513747707427e-05
2.51000000000000e-08,6.00000000000000e-01,6.00000000000000e-01,-9.98369419585254e-04
2.51080000000000e-08,6.00000000000000e-01,6.00000000000000e-01,-1.60606493581034e-03
2.51240000000000e-08,6.00000000000000e-01,6.00000000000000e-01,-2.79474917055954e-03
2.51560000000000e-08,6.00000000000000e-01,6.00000000000000e-01,-4.58760197596567e-03
2.52200000000000e-08,6.00000000000000e-01,6.00000000000000e-01,-1.67219663838945e-03
2.53480000000000e-08,6.00000000000000e-01,6.00000000000000e-01,1.00320943267113e-01
2.56040000000000e-08,6.00000000000000e-01,6.00000000000000e-01,4.41920320474550e-01
2.61160000000000e-08,6.00000000000000e-01,6.00000000000000e-01,6.19926794876610e-01
2.67936619777491e-08,6.00000000000000e-01,6.00000000000000e-01,5.83494016982671e-01
2.81489859332472e-08,6.00000000000000e-01,6.00000000000000e-01,6.12821406147056e-01
2.96799913443230e-08,6.00000000000000e-01,6.00000000000000e-01,5.87800914396877e-01
3.01000000000000e-08,6.00000000000000e-01,6.00000000000000e-01,6.06846603962017e-01
3.01100000000000e-08,6.00000000000000e-01,5.40000000000031e-01,6.05716952907720e-01
3.01300000000000e-08,6.00000000000000e-01,4.20000000000014e-01,6.03787470593148e-01
3.01700000000000e-08,6.00000000000000e-01,1.80000000000020e-01,6.01557901989221e-01
3.02000000000000e-08,6.00000000000000e-01,1.44328993201270e-14,6.00803955136439e-01
3.02080000000000e-08,6.00000000000000e-01,0.00000000000000e+00,6.00678298154368e-01
3.02240000000000e-08,6.00000000000000e-01,0.00000000000000e+00,6.00475270351867e-01
3.02560000000000e-08,6.00000000000000e-01,0.00000000000000e+00,6.00221862551582e-01
3.03200000000000e-08,6.00000000000000e-01,0.00000000000000e+00,6.00022860988367e-01
3.04480000000000e-08,6.00000000000000e-01,0.00000000000000e+00,5.99931214600890e-01
3.07040000000000e-08,6.00000000000000e-01,0.00000000000000e+00,5.99952177799973e-01
3.12160000000000e-08,6.00000000000000e-01,0.00000000000000e+00,5.99952636588778e-01
3.18179883261668e-08,6.00000000000000e-01,0.00000000000000e+00,5.99945753223122e-01
3.30219649785005e-08,6.00000000000000e-01,0.00000000000000e+00,5.99957946978830e-01
3.51000000000000e-08,5.99999999999970e-01,0.00000000000000e+00,5.99954403061325e-01
3.51100000000000e-08,5.39999999999982e-01,0.00000000000000e+00,5.99917125455819e-01
3.51300000000000e-08,4.19999999999965e-01,0.00000000000000e+00,5.99853684811149e-01
3.51700000000000e-08,1.79999999999970e-01,0.00000000000000e+00,5.99946974834586e-01
3.52000000000000e-08,0.00000000000000e+00,0.00000000000000e+00,6.00465720347488e-01
3.52080000000000e-08,0.00000000000000e+00,0.00000000000000e+00,6.00662130715316e-01
3.52240000000000e-08,0.00000000000000e+00,0.00000000000000e+00,6.00985503988574e-01
3.52560000000000e-08,0.00000000000000e+00,0.00000000000000e+00,6.01345244207839e-01
3.53200000000000e-08,0.00000000000000e+00,0.00000000000000e+00,6.01234631221214e-01
3.54480000000000e-08,0.00000000000000e+00,0.00000000000000e+00,5.95365689459665e-01
3.57040000000000e-08,0.00000000000000e+00,0.00000000000000e+00,5.70414634169712e-01
3.62160000000000e-08,0.00000000000000e+00,0.00000000000000e+00,5.80882979719113e-01
3.66956803162606e-08,0.00000000000000e+00,0.00000000000000e+00,6.04274391942400e-01
3.76550409487817e-08,0.00000000000000e+00,0.00000000000000e+00,5.95433017848592e-01
3.88302211713245e-08,0.00000000000000e+00,0.00000000000000e+00,6.02075040834883e-01
3.91000000000000e-08,0.00000000000000e+00,0.00000000000000e+00,5.99071773358730e-01
3.93269774811872e-08,0.00000000000000e+00,0.00000000000000e+00,5.99398959733513e-01
3.97809324435616e-08,0.00000000000000e+00,0.00000000000000e+00,5.99613129179493e-01
4.06888423683103e-08,0.00000000000000e+00,0.00000000000000e+00,5.99596204719937e-01
4.25046622178077e-08,0.00000000000000e+00,0.00000000000000e+00,5.99725082196072e-01
4.50000000000000e-08,0.00000000000000e+00,0.00000000000000e+00,5.99730796177551e-01
4.50100000000000e-08,5.99999999999886e-02,0.00000000000000e+00,5.99756115070626e-01
4.50300000000000e-08,1.80000000000006e-01,0.00000000000000e+00,5.99797241082276e-01
4.50700000000000e-08,4.20000000000000e-01,0.00000000000000e+00,5.99794693741466e-01
4.51000000000000e-08,6.00000000000000e-01,0.00000000000000e+00,5.99642757670686e-01
4.51080000000000e-08,6.00000000000000e-01,0.00000000000000e+00,5.99590434654619e-01
4.51240000000000e-08,6.00000000000000e-01,0.00000000000000e+00,5.99513231198911e-01
4.51560000000000e-08,6.00000000000000e-01,0.00000000000000e+00,5.99411079256789e-01
4.52200000000000e-08,6.00000000000000e-01,0.00000000000000e+00,5.99731469942830e-01
4.53480000000000e-08,6.00000000000000e-01,0.00000000000000e+00,6.03762757869189e-01
4.56040000000000e-08,6.00000000000000e-01,0.00000000000000e+00,5.74829793928089e-01
4.61160000000000e-08,6.00000000000000e-01,0.00000000000000e+00,4.75903137111471e-02
4.67657693068367e-08,6.00000000000000e-01,0.00000000000000e+00,-3.34511276572281e-02
4.77432924495347e-08,6.00000000000000e-01,0.00000000000000e+00,3.30617596656317e-02
4.92289580844127e-08,6.00000000000000e-01,0.00000000000000e+00,-2.76445116695714e-02
5.00000000000000e-08,6.00000000000000e-01,0.00000000000000e+00,2.57492787743359e-02
5.00100000000000e-08,6.00000000000000e-01,5.99999999999886e-02,1.88586084044817e-02
5.00300000000000e-08,6.00000000000000e-01,1.79999999999966e-01,9.16658231475337e-03
5.00700000000000e-08,6.00000000000000e-01,4.20000000000000e-01,1.97709284418028e-03
5.01000000000000e-08,6.00000000000000e-01,6.00000000000000e-01,5.85178709691134e-04
5.01080000000000e-08,6.00000000000000e-01,6.00000000000000e-01,4.90040203356024e-04
5.01240000000000e-08,6.00000000000000e-01,6.00000000000000e-01,2.97404692930783e-04
5.01560000000000e-08,6.00000000000000e-01,6.00000000000000e-01,1.01875385950082e-04
5.02200000000000e-08,6.00000000000000e-01,6.00000000000000e-01,2.33831192679584e-05
5.03480000000000e-08,6.00000000000000e-01,6.00000000000000e-01,-7.10991106132007e-06
5.06040000000000e-08,6.00000000000000e-01,6.00000000000000e-01,4.11199732760440e-06
5.11160000000001e-08,6.00000000000000e-01,6.00000000000000e-01,-4.83475591267837e-06
5.21400000000002e-08,6.00000000000000e-01,6.00000000000000e-01,3.41240299880506e-06
5.41880000000003e-08,6.00000000000000e-01,6.00000000000000e-01,-4.38217229728152e-06
5.51000000000000e-08,6.00000000000000e-01,6.00000000000000e-01,3.41808740751334e-06
5.51100000000000e-08,5.40000000000021e-01,6.00000000000000e-01,-1.96444111991573e-05
5.51300000000000e-08,4.20000000000004e-01,6.00000000000000e-01,-5.45664599944096e-05
5.51700000000000e-08,1.80000000000010e-01,6.00000000000000e-01,-8.15077556880137e-05
5.52000000000000e-08,0.00000000000000e+00,6.00000000000000e-01,-2.98709389744030e-05
5.52080000000000e-08,0.00000000000000e+00,6.00000000000000e-01,2.11278448331922e-05
5.52240000000000e-08,0.00000000000000e+00,6.00000000000000e-01,8.86246932975746e-05
5.52560000000000e-08,0.00000000000000e+00,6.00000000000000e-01,1.07484624063597e-04
5.53200000000000e-08,0.00000000000000e+00,6.00000000000000e-01,5.85614172987428e-05
5.54480000000000e-08,0.00000000000000e+00,6.00000000000000e-01,-1.97020219772926e-04
5.57040000000000e-08,0.00000000000000e+00,6.00000000000000e-01,-5.43693319427128e-04
5.62160000000000e-08,0.00000000000000e+00,6.00000000000000e-01,2.33838977219127e-04
5.69133921376179e-08,0.00000000000000e+00,6.00000000000000e-01,-1.55986021673712e-04
5.81619443576203e-08,0.00000000000000e+00,6.00000000000000e-01,1.84096841438150e-04
5.97879652626686e-08,0.00000000000000e+00,6.00000000000000e-01,-1.87439048221980e-04
6.24129145667597e-08,0.00000000000000e+00,6.00000000000000e-01,1.80581065434089e-04
6.50000000000000e-08,0.00000000000000e+00,6.00000000000000e-01,-1.75316896231507e-04
6.50100000000000e-08,5.99999999999886e-02,6.00000000000000e-01,-1.35026575184740e-04
6.50300000000000e-08,1.79999999999966e-01,6.00000000000000e-01,-3.26905291311019e-05
6.50700000000000e-08,4.19999999999920e-01,6.00000000000000e-01,2.49097844432916e-05
6.51000000000000e-08,5.99999999999966e-01,6.00000000000000e-01,-1.01717715588859e-03
6.51080000000000e-08,6.00000000000000e-01,6.00000000000000e-01,-1.62027527796227e-03
6.51240000000000e-08,6.00000000000000e-01,6.00000000000000e-01,-2.80235839802695e-03
6.51560000000000e-08,6.00000000000000e-01,6.00000000000000e-01,-4.58899989731138e-03
6.52200000000000e-08,6.00000000000000e-01,6.00000000000000e-01,-1.68921512334453e-03
6.53480000000000e-08,6.00000000000000e-01,6.00000000000000e-01,1.00228050000338e-01
6.56040000000000e-08,6.00000000000000e-01,6.00000000000000e-01,4.41825959148778e-01
6.61159999999999e-08,6.00000000000000e-01,6.00000000000000e-01,6.19932031379312e-01
6.67938004337300e-08,6.00000000000000e-01,6.00000000000000e-01,5.83489709008279e-01
6.81494013011902e-08,6.00000000000000e-01,6.00000000000000e-01,6.12826792303667e-01
6.96807050558957e-08,6.00000000000000e-01,6.00000000000000e-01,5.87796062610421e-01
7.01000000000000e-08,6.00000000000000e-01,6.00000000000000e-01,6.06844146268118e-01
7.01100000000000e-08,6.00000000000000e-01,5.40000000000011e-01,6.05714778529282e-01
7.01300000000000e-08,6.00000000000000e-01,4.20000000000034e-01,6.03785804776877e-01
7.01700000000000e-08,6.00000000000000e-01,1.80000000000080e-01,6.01556933253809e-01
7.02000000000000e-08,6.00000000000000e-01,3.44169137633799e-14,6.00803315203892e-01
7.02080000000000e-08,6.00000000000000e-01,0.00000000000000e+00,6.00677713977436e-01
7.02240000000000e-08,6.00000000000000e-01,0.00000000000000e+00,6.00474773224503e-01
7.02560000000000e-08,6.00000000000000e-01,0.00000000000000e+00,6.00221502005434e-01
7.03200000000000e-08,6.00000000000000e-01,0.00000000000000e+00,6.00022710369253e-01
7.04480000000000e-08,6.00000000000000e-01,0.00000000000000e+00,5.99931275180350e-01
7.07040000000000e-08,6.00000000000000e-01,0.00000000000000e+00,5.99952157337679e-01
7.12159999999999e-08,6.00000000000000e-01,0.00000000000000e+00,5.99952631867602e-01
7.18179535369978e-08,6.00000000000000e-01,0.00000000000000e+00,5.99945756358723e-01
7.30218606109935e-08,6.00000000000000e-01,0.00000000000000e+00,5.99957934666874e-01
7.51000000000000e-08,6.00000000000000e-01,0.00000000000000e+00,5.99954409851940e-01
7.51100000000000e-08,5.40000000000061e-01,0.00000000000000e+00,5.99917128780903e-01
7.51300000000000e-08,4.20000000000084e-01,0.00000000000000e+00,5.99853683225213e-01
7.51700000000000e-08,1.80000000000129e-01,0.00000000000000e+00,5.99946970194407e-01
7.52000000000000e-08,8.40438829641244e-14,0.00000000000000e+00,6.00465715229887e-01
7.52080000000000e-08,0.00000000000000e+00,0.00000000000000e+00,6.00662125945054e-01
7.52240000000000e-08,0.00000000000000e+00,0.00000000000000e+00,6.00985499468848e-01
7.52560000000000e-08,0.00000000000000e+00,0.00000000000000e+00,6.01345234998141e-01
7.53200000000000e-08,0.00000000000000e+00,0.00000000000000e+00,6.01234593253546e-01
7.54480000000000e-08,0.00000000000000e+00,0.00000000000000e+00,5.95365476656276e-01
7.57040000000000e-08,0.00000000000000e+00,0.00000000000000e+00,5.70414417463748e-01
7.62159999999999e-08,0.00000000000000e+00,0.00000000000000e+00,5.80883073251993e-01
7.66956802608622e-08,0.00000000000000e+00,0.00000000000000e+00,6.04274350355075e-01
7.76550407825868e-08,0.00000000000000e+00,0.00000000000000e+00,5.95433046011505e-01
7.81000000000000e-08,0.00000000000000e+00,0.00000000000000e+00,6.00725396051222e-01
7.82175180121836e-08,0.00000000000000e+00,0.00000000000000e+00,5.99977934339806e-01
7.84525540365508e-08,0.00000000000000e+00,0.00000000000000e+00,5.99341538673126e-01
7.89226260852852e-08,0.00000000000000e+00,0.00000000000000e+00,5.99485722358943e-01
7.98627701827540e-08,0.00000000000000e+00,0.00000000000000e+00,5.99555072698085e-01
8.17430583776916e-08,0.00000000000000e+00,0.00000000000000e+00,5.99684596513056e-01
8.50000000000000e-08,0.00000000000000e+00,0.00000000000000e+00,5.99743514457250e-01
8.50100000000000e-08,5.99999999999886e-02,0.00000000000000e+00,5.99775328179505e-01
8.50300000000000e-08,1.79999999999966e-01,0.00000000000000e+00,5.99823553246170e-01
8.50700000000000e-08,4.19999999999920e-01,0.00000000000000e+00,5.99814863344152e-01
8.51000000000000e-08,5.99999999999966e-01,0.00000000000000e+00,5.99656029342615e-01
8.51080000000000e-08,6.00000000000000e-01,0.00000000000000e+00,5.99597575356748e-01
8.51240000000000e-08,6.00000000000000e-01,0.00000000000000e+00,5.99507802738480e-01
8.51560000000000e-08,6.00000000000000e-01,0.00000000000000e+00,5.99405934600342e-01
8.52200000000000e-08,6.00000000000000e-01,0.00000000000000e+00,5.99716334432499e-01
8.53480000000000e-08,6.00000000000000e-01,0.00000000000000e+00,6.03760869408611e-01
8.56040000000000e-08,6.00000000000000e-01,0.00000000000000e+00,5.75274102250424e-01
8.61159999999999e-08,6.00000000000000e-01,0.00000000000000e+00,4.77647780462875e-02
8.67657762528975e-08,6.00000000000000e-01,0.00000000000000e+00,-3.35585581611359e-02
8.77422740743033e-08,6.00000000000000e-01,0.00000000000000e+00,3.31719524595592e-02
8.92288561552538e-08,6.00000000000000e-01,0.00000000000000e+00,-2.77309889128312e-02
9.00000000000000e-08,6.00000000000000e-01,0.00000000000000e+00,2.58348319062373e-02
9.00100000000000e-08,6.00000000000000e-01,5.99999999999886e-02,1.89233306247139e-02
9.00300000000000e-08,6.00000000000000e-01,1.79999999999966e-01,9.19933024433548e-03
9.00700000000000e-08,6.00000000000000e-01,4.19999999999920e-01,1.98359262815554e-03
9.01000000000000e-08,6.00000000000000e-01,5.99999999999966e-01,5.87269494049240e-04
9.01080000000000e-08,6.00000000000000e-01,6.00000000000000e-01,4.91667341073816e-04
9.01240000000000e-08,6.00000000000000e-01,6.00000000000000e-01,2.98298963440385e-04
9.01560000000000e-08,6.00000000000000e-01,6.00000000000000e-01,1.02063876098877e-04
9.02200000000000e-08,6.00000000000000e-01,6.00000000000000e-01,2.33942009286170e-05
9.03480000000000e-08,6.00000000000000e-01,6.00000000000000e-01,-7.11452414057547e-06
9.06040000000000e-08,6.00000000000000e-01,6.00000000000000e-01,4.11680819165181e-06
9.11159999999999e-08,6.00000000000000e-01,6.00000000000000e-01,-4.83845036707529e-06
9.21399999999999e-08,6.00000000000000e-01,6.00000000000000e-01,3.41650950436514e-06
9.41879999999998e-08,6.00000000000000e-01,6.00000000000000e-01,-4.38553460935416e-06
9.51000000000000e-08,6.00000000000000e-01,6.00000000000000e-01,3.42198113029287e-06
9.51100000000000e-08,5.40000000000061e-01,6.00000000000000e-01,-1.96391056473608e-05
9.51300000000000e-08,4.20000000000084e-01,6.00000000000000e-01,-5.45580447285123e-05
9.51700000000000e-08,1.80000000000129e-01,6.00000000000000e-01,-8.14985339432119e-05
9.52000000000000e-08,8.40438829641244e-14,6.00000000000000e-01,-2.98631731907688e-05
9.52080000000000e-08,0.00000000000000e+00,6.00000000000000e-01,2.11337409321034e-05
9.52240000000000e-08,0.00000000000000e+00,6.00000000000000e-01,8.86261742248165e-05
9.52560000000000e-08,0.00000000000000e+00,6.00000000000000e-01,1.07479195513245e-04
9.53200000000000e-08,0.00000000000000e+00,6.00000000000000e-01,5.85670365994030e-05
9.54480000000000e-08,0.00000000000000e+00,6.00000000000000e-01,-1.96982859952692e-04
9.57040000000000e-08,0.00000000000000e+00,6.00000000000000e-01,-5.43592104893264e-04
9.62159999999999e-08,0.00000000000000e+00,6.00000000000000e-01,2.33772145877052e-04
9.69134555988359e-08,0.00000000000000e+00,6.00000000000000e-01,-1.55939733990276e-04
9.81619776143917e-08,0.00000000000000e+00,6.00000000000000e-01,1.84059900787219e-04
9.97880773793282e-08,0.00000000000000e+00,6.00000000000000e-01,-1.87408616306754e-04
1.02413050914302e-07,0.00000000000000e+00,6.00000000000000e-01,1.80554893174746e-04
1.05000000000000e-07,0.00000000000000e+00,6.00000000000000e-01,-1.75293747098951e-04
1.05010000000000e-07,5.99999999999886e-02,6.00000000000000e-01,-1.35000828759699e-04
1.05030000000000e-07,1.79999999999966e-01,6.00000000000000e-01,-3.26662026748949e-05
1.05070000000000e-07,4.19999999999920e-01,6.00000000000000e-01,2.49164310774895e-05
1.05100000000000e-07,5.99999999999966e-01,6.00000000000000e-01,-1.01718160897315e-03
1.05108000000000e-07,6.00000000000000e-01,6.00000000000000e-01,-1.62028157041835e-03
1.05124000000000e-07,6.00000000000000e-01,6.00000000000000e-01,-2.80236632407766e-03
1.05156000000000e-07,6.00000000000000e-01,6.00000000000000e-01,-4.58900716568538e-03
1.05220000000000e-07,6.00000000000000e-01,6.00000000000000e-01,-1.68915764861705e-03
1.05348000000000e-07,6.00000000000000e-01,6.00000000000000e-01,1.00228348277478e-01
1.05604000000000e-07,6.00000000000000e-01,6.00000000000000e-01,4.41826255882522e-01
1.06116000000000e-07,6.00000000000000e-01,6.00000000000000e-01,6.19932014253013e-01
1.06793800228110e-07,6.00000000000000e-01,6.00000000000000e-01,5.83489721182662e-01
1.08149400684330e-07,6.00000000000000e-01,6.00000000000000e-01,6.12826776876610e-01
1.09680703555162e-07,6.00000000000000e-01,6.00000000000000e-01,5.87796076211924e-01
1.10100000000000e-07,6.00000000000000e-01,6.00000000000000e-01,6.06844148266391e-01
1.10110000000000e-07,6.00000000000000e-01,5.40000000000091e-01,6.05714780749217e-01
1.10130000000000e-07,6.00000000000000e-01,4.20000000000114e-01,6.03785807058714e-01
1.10170000000000e-07,6.00000000000000e-01,1.80000000000159e-01,6.01556935014146e-01
