Time,v(clk),v(data),v(out)
1.00000000000000e-08,6.00000000000000e-01,0.00000000000000e+00,2.15543832340504e-05
1.00100000000000e-08,6.00000000000000e-01,5.99999999999985e-02,2.02546281141483e-05
1.00300000000000e-08,6.00000000000000e-01,1.79999999999996e-01,1.78980940375995e-05
1.00700000000000e-08,6.00000000000000e-01,4.19999999999990e-01,1.36804771250255e-05
1.01000000000000e-08,6.00000000000000e-01,5.99999999999995e-01,1.03762990279893e-05
1.01080000000000e-08,6.00000000000000e-01,6.00000000000000e-01,9.61610505319926e-06
1.01240000000000e-08,6.00000000000000e-01,6.00000000000000e-01,8.28222471452658e-06
1.01560000000000e-08,6.00000000000000e-01,6.00000000000000e-01,6.97592897885846e-06
1.02200000000000e-08,6.00000000000000e-01,6.00000000000000e-01,7.70013078889992e-06
1.03480000000000e-08,6.00000000000000e-01,6.00000000000000e-01,9.56151146706483e-06
1.06040000000000e-08,6.00000000000000e-01,6.00000000000000e-01,9.98538780635702e-06
1.11160000000000e-08,6.00000000000000e-01,6.00000000000000e-01,8.12816501496658e-06
1.20149001010594e-08,6.00000000000000e-01,6.00000000000000e-01,8.79032161912787e-06
1.38127003031782e-08,6.00000000000000e-01,6.00000000000000e-01,7.63464676151702e-06
1.51000000000000e-08,6.00000000000000e-01,6.00000000000000e-01,7.55101484341877e-06
1.51100000000000e-08,5.39999999999991e-01,6.00000000000000e-01,-2.10767442807222e-05
1.51300000000000e-08,4.19999999999994e-01,6.00000000000000e-01,-7.63453017068559e-05
1.51700000000000e-08,1.80000000000000e-01,6.00000000000000e-01,-1.62957192182161e-04
1.52000000000000e-08,0.00000000000000e+00,6.00000000000000e-01,-1.53675359632267e-04
1.52080000000000e-08,0.00000000000000e+00,6.00000000000000e-01,-1.03875713484150e-04
1.52240000000000e-08,0.00000000000000e+00,6.00000000000000e-01,-1.53154907889530e-05
1.52560000000000e-08,0.00000000000000e+00,6.00000000000000e-01,1.02407340104731e-04
1.53200000000000e-08,0.00000000000000e+00,6.00000000000000e-01,1.83265397480335e-04
1.54480000000000e-08,0.00000000000000e+00,6.00000000000000e-01,1.23401426995264e-04
1.57040000000000e-08,0.00000000000000e+00,6.00000000000000e-01,-8.77936341266358e-05
1.62160000000000e-08,0.00000000000000e+00,6.00000000000000e-01,-6.38724766145512e-05
1.72400000000000e-08,0.00000000000000e+00,6.00000000000000e-01,-1.36468283861221e-04
1.74461115864159e-08,0.00000000000000e+00,6.00000000000000e-01,-2.68093146572994e-05
1.78583347592477e-08,0.00000000000000e+00,6.00000000000000e-01,1.47697049275386e-04
1.86827811049113e-08,0.00000000000000e+00,6.00000000000000e-01,4.01248579403133e-05
2.03316737962385e-08,0.00000000000000e+00,6.00000000000000e-01,-2.65765975917430e-05
2.36294591788929e-08,0.00000000000000e+00,6.00000000000000e-01,3.64092756381736e-05
2.50000000000000e-08,0.00000000000000e+00,6.00000000000000e-01,-2.32841642203926e-05
2.50100000000000e-08,5.99999999999886e-02,6.00000000000000e-01,2.75598153045009e-05
2.50300000000000e-08,1.80000000000006e-01,6.00000000000000e-01,1.19138424208028e-04
2.50700000000000e-08,4.20000000000000e-01,6.00000000000000e-01,2.28193243178281e-04
2.51000000000000e-08,6.00000000000000e-01,6.00000000000000e-01,1.96021453586825e-04
2.51080000000000e-08,6.00000000000000e-01,6.00000000000000e-01,1.37378009692490e-04
2.51240000000000e-08,6.00000000000000e-01,6.00000000000000e-01,-1.35365805976236e-05
2.51560000000000e-08,6.00000000000000e-01,6.00000000000000e-01,-5.22853188411609e-04
2.52200000000000e-08,6.00000000000000e-01,6.00000000000000e-01,-1.90955885840829e-03
2.53480000000000e-08,6.00000000000000e-01,6.00000000000000e-01,-3.98870393432290e-03
2.56040000000000e-08,6.00000000000000e-01,6.00000000000000e-01,2.01019573671533e-02
2.61160000000000e-08,6.00000000000000e-01,6.00000000000000e-01,3.42107529782724e-01
2.71400000000000e-08,6.00000000000000e-01,6.00000000000000e-01,6.26589521669674e-01
2.85196958435770e-08,6.00000000000000e-01,6.00000000000000e-01,5.79517042666981e-01
3.11591089547077e-08,6.00000000000000e-01,6.00000000000000e-01,6.19236292770062e-01
3.45564757045025e-08,6.00000000000000e-01,6.00000000000000e-01,5.82046508045486e-01
3.51000000000000e-08,5.99999999999970e-01,6.00000000000000e-01,6.11396427537845e-01
3.51100000000000e-08,5.39999999999982e-01,6.00000000000000e-01,6.09789951509758e-01
3.51300000000000e-08,4.19999999999965e-01,6.00000000000000e-01,6.06876424575819e-01
3.51700000000000e-08,1.79999999999970e-01,6.00000000000000e-01,6.03410309699503e-01
3.52000000000000e-08,0.00000000000000e+00,6.00000000000000e-01,6.02505794015021e-01
3.52080000000000e-08,0.00000000000000e+00,6.00000000000000e-01,6.02447877117007e-01
3.52240000000000e-08,0.00000000000000e+00,6.00000000000000e-01,6.02328496781828e-01
3.52560000000000e-08,0.00000000000000e+00,6.00000000000000e-01,6.02110857611371e-01
3.53200000000000e-08,0.00000000000000e+00,6.00000000000000e-01,6.01670404309869e-01
3.54480000000000e-08,0.00000000000000e+00,6.00000000000000e-01,5.98996753326325e-01
3.57040000000000e-08,0.00000000000000e+00,6.00000000000000e-01,5.81039611861622e-01
3.62160000000000e-08,0.00000000000000e+00,6.00000000000000e-01,5.72883827925147e-01
3.72400000000000e-08,0.00000000000000e+00,6.00000000000000e-01,6.01555619186661e-01
3.90911367344536e-08,0.00000000000000e+00,6.00000000000000e-01,5.97168308118824e-01
4.15874906186061e-08,0.00000000000000e+00,6.00000000000000e-01,6.01345474960139e-01
4.50000000000000e-08,0.00000000000000e+00,6.00000000000000e-01,5.98032054557675e-01
4.50100000000000e-08,5.99999999999886e-02,6.00000000000000e-01,5.98189783212914e-01
4.50300000000000e-08,1.80000000000006e-01,6.00000000000000e-01,5.98475675316137e-01
4.50700000000000e-08,4.20000000000000e-01,6.00000000000000e-01,5.98899527211600e-01
4.51000000000000e-08,6.00000000000000e-01,6.00000000000000e-01,5.99088653367674e-01
4.51080000000000e-08,6.00000000000000e-01,5.52000000000025e-01,5.99099820411157e-01
4.51240000000000e-08,6.00000000000000e-01,4.55999999999996e-01,5.99097422327597e-01
4.51560000000000e-08,6.00000000000000e-01,2.64000000000016e-01,5.98947530057036e-01
4.52000000000000e-08,6.00000000000000e-01,3.44169137633799e-14,5.98554581998922e-01
4.52064000000000e-08,6.00000000000000e-01,0.00000000000000e+00,5.98490467571431e-01
4.52192000000000e-08,6.00000000000000e-01,0.00000000000000e+00,5.98364132272561e-01
4.52448000000000e-08,6.00000000000000e-01,0.00000000000000e+00,5.98128935955945e-01
4.52960000000000e-08,6.00000000000000e-01,0.00000000000000e+00,5.97738624499815e-01
4.53984000000000e-08,6.00000000000000e-01,0.00000000000000e+00,5.97223688160148e-01
4.56032000000000e-08,6.00000000000000e-01,0.00000000000000e+00,5.97246333197048e-01
4.60128000000000e-08,6.00000000000000e-01,0.00000000000000e+00,5.99037475186192e-01
4.68320000000000e-08,6.00000000000000e-01,0.00000000000000e+00,6.00211267697155e-01
4.77942947868503e-08,6.00000000000000e-01,0.00000000000000e+00,5.99876899696301e-01
4.97188843605508e-08,6.00000000000000e-01,0.00000000000000e+00,6.00097747231882e-01
5.22588620834741e-08,6.00000000000000e-01,0.00000000000000e+00,5.99915912503555e-01
5.51000000000000e-08,6.00000000000000e-01,0.00000000000000e+00,6.00073240865295e-01
5.51100000000000e-08,5.40000000000021e-01,0.00000000000000e+00,6.00036641578585e-01
5.51300000000000e-08,4.20000000000004e-01,0.00000000000000e+00,5.99966538207731e-01
5.51700000000000e-08,1.80000000000010e-01,0.00000000000000e+00,6.00030275611694e-01
5.52000000000000e-08,0.00000000000000e+00,0.00000000000000e+00,6.00516624415781e-01
5.52080000000000e-08,0.00000000000000e+00,0.00000000000000e+00,6.00707233926794e-01
5.52240000000000e-08,0.00000000000000e+00,0.00000000000000e+00,6.01032726615361e-01
5.52560000000000e-08,0.00000000000000e+00,0.00000000000000e+00,6.01488095451757e-01
5.53200000000000e-08,0.00000000000000e+00,0.00000000000000e+00,6.01906611962852e-01
5.54480000000000e-08,0.00000000000000e+00,0.00000000000000e+00,6.02327482040655e-01
5.57040000000000e-08,0.00000000000000e+00,0.00000000000000e+00,6.02682136197591e-01
5.62160000000000e-08,0.00000000000000e+00,0.00000000000000e+00,6.00412897973801e-01
5.71564400775810e-08,0.00000000000000e+00,0.00000000000000e+00,5.98822145513082e-01
5.83103376854859e-08,0.00000000000000e+00,0.00000000000000e+00,5.99719011062755e-01
6.06181329012958e-08,0.00000000000000e+00,0.00000000000000e+00,5.99378097507336e-01
6.31742251217820e-08,0.00000000000000e+00,0.00000000000000e+00,5.99786379586578e-01
6.50000000000000e-08,0.00000000000000e+00,0.00000000000000e+00,5.99579910073449e-01
6.50100000000000e-08,5.99999999999886e-02,0.00000000000000e+00,5.99606939160713e-01
6.50300000000000e-08,1.79999999999966e-01,0.00000000000000e+00,5.99656113238104e-01
6.50700000000000e-08,4.19999999999920e-01,0.00000000000000e+00,5.99705725833462e-01
6.51000000000000e-08,5.99999999999966e-01,0.00000000000000e+00,5.99680793634748e-01
6.51080000000000e-08,6.00000000000000e-01,0.00000000000000e+00,5.99652886108381e-01
6.51240000000000e-08,6.00000000000000e-01,0.00000000000000e+00,5.99604463774202e-01
6.51560000000000e-08,6.00000000000000e-01,0.00000000000000e+00,5.99544882964139e-01
6.52200000000000e-08,6.00000000000000e-01,0.00000000000000e+00,5.99500059493361e-01
6.53480000000000e-08,6.00000000000000e-01,0.00000000000000e+00,5.99507146048188e-01
6.56040000000000e-08,6.00000000000000e-01,0.00000000000000e+00,6.00489037260793e-01
6.61159999999999e-08,6.00000000000000e-01,0.00000000000000e+00,6.09074165893985e-01
6.71399999999999e-08,6.00000000000000e-01,0.00000000000000e+00,1.30899753531434e-01
6.84826826096637e-08,6.00000000000000e-01,0.00000000000000e+00,-6.48847675253384e-02
7.02319789480474e-08,6.00000000000000e-01,0.00000000000000e+00,6.01749531441110e-02
7.32687722812929e-08,6.00000000000000e-01,0.00000000000000e+00,-4.41878679272292e-02
7.51000000000000e-08,6.00000000000000e-01,0.00000000000000e+00,3.90212822062977e-02
7.51100000000000e-08,5.40000000000061e-01,0.00000000000000e+00,3.57324012476293e-02
7.51300000000000e-08,4.20000000000084e-01,0.00000000000000e+00,2.99567211140162e-02
7.51700000000000e-08,1.80000000000129e-01,0.00000000000000e+00,2.10711299847903e-02
7.52000000000000e-08,8.40438829641244e-14,0.00000000000000e+00,1.62244106130815e-02
7.52080000000000e-08,0.00000000000000e+00,0.00000000000000e+00,1.52117777339123e-02
7.52240000000000e-08,0.00000000000000e+00,0.00000000000000e+00,1.32949445214003e-02
7.52560000000000e-08,0.00000000000000e+00,0.00000000000000e+00,1.01476364130336e-02
7.53200000000000e-08,0.00000000000000e+00,0.00000000000000e+00,5.80155715664799e-03
7.54480000000000e-08,0.00000000000000e+00,0.00000000000000e+00,1.59523460237234e-03
7.57040000000000e-08,0.00000000000000e+00,0.00000000000000e+00,-1.04023237888664e-03
7.62159999999999e-08,0.00000000000000e+00,0.00000000000000e+00,-5.42949117789562e-04
7.71733436558537e-08,0.00000000000000e+00,0.00000000000000e+00,3.46621253601712e-04
7.89390922952217e-08,0.00000000000000e+00,0.00000000000000e+00,-2.63273473592060e-04
8.10797359125920e-08,0.00000000000000e+00,0.00000000000000e+00,2.25700989271656e-04
8.48797359125920e-08,0.00000000000000e+00,0.00000000000000e+00,-1.94758476523778e-04
8.50000000000000e-08,0.00000000000000e+00,0.00000000000000e+00,-2.41395450347875e-05
8.50100000000000e-08,5.99999999999886e-02,0.00000000000000e+00,1.54833305079163e-05
8.50300000000000e-08,1.79999999999966e-01,0.00000000000000e+00,8.85253592605474e-05
8.50700000000000e-08,4.19999999999920e-01,0.00000000000000e+00,1.66158951317351e-04
8.51000000000000e-08,5.99999999999966e-01,0.00000000000000e+00,1.21995284703157e-04
8.51080000000000e-08,6.00000000000000e-01,0.00000000000000e+00,7.92745403402559e-05
8.51240000000000e-08,6.00000000000000e-01,0.00000000000000e+00,1.84094687707970e-06
8.51560000000000e-08,6.00000000000000e-01,0.00000000000000e+00,-9.64367683869323e-05
8.52200000000000e-08,6.00000000000000e-01,0.00000000000000e+00,-1.59229973354554e-04
8.53480000000000e-08,6.00000000000000e-01,0.00000000000000e+00,-1.26727673393581e-04
8.56040000000000e-08,6.00000000000000e-01,0.00000000000000e+00,-3.63218976200917e-05
8.61159999999999e-08,6.00000000000000e-01,0.00000000000000e+00,5.34122862751642e-05
8.71399999999999e-08,6.00000000000000e-01,0.00000000000000e+00,1.50320619477194e-05
8.91879999999998e-08,6.00000000000000e-01,0.00000000000000e+00,1.15827031460210e-06
9.00000000000000e-08,6.00000000000000e-01,0.00000000000000e+00,2.10333745664284e-05
9.00100000000000e-08,6.00000000000000e-01,5.99999999999886e-02,1.97674821401893e-05
9.00300000000000e-08,6.00000000000000e-01,1.79999999999966e-01,1.74904383512323e-05
9.00700000000000e-08,6.00000000000000e-01,4.19999999999920e-01,1.34669818505732e-05
9.01000000000000e-08,6.00000000000000e-01,5.99999999999966e-01,1.02874081534601e-05
9.01080000000000e-08,6.00000000000000e-01,6.00000000000000e-01,9.23511819350686e-06
9.01240000000000e-08,6.00000000000000e-01,6.00000000000000e-01,8.18616936466843e-06
9.01560000000000e-08,6.00000000000000e-01,6.00000000000000e-01,7.03281213702486e-06
9.02200000000000e-08,6.00000000000000e-01,6.00000000000000e-01,7.77056256534223e-06
9.03480000000000e-08,6.00000000000000e-01,6.00000000000000e-01,9.50220040631805e-06
9.06040000000000e-08,6.00000000000000e-01,6.00000000000000e-01,1.00367359934309e-05
9.11159999999999e-08,6.00000000000000e-01,6.00000000000000e-01,8.27068961927781e-06
9.20647980101756e-08,6.00000000000000e-01,6.00000000000000e-01,8.71329540356926e-06
9.39623940305268e-08,6.00000000000000e-01,6.00000000000000e-01,7.63055144778046e-06
9.51000000000000e-08,6.00000000000000e-01,6.00000000000000e-01,7.51681372292579e-06
9.51100000000000e-08,5.40000000000061e-01,6.00000000000000e-01,-2.10267874731149e-05
9.51300000000000e-08,4.20000000000084e-01,6.00000000000000e-01,-7.63153993557537e-05
9.51700000000000e-08,1.80000000000129e-01,6.00000000000000e-01,-1.62946683821587e-04
9.52000000000000e-08,8.40438829641244e-14,6.00000000000000e-01,-1.53670460111242e-04
9.52080000000000e-08,0.00000000000000e+00,6.00000000000000e-01,-1.03871857938954e-04
9.52240000000000e-08,0.00000000000000e+00,6.00000000000000e-01,-1.53134901326318e-05
9.52560000000000e-08,0.00000000000000e+00,6.00000000000000e-01,1.02407201359244e-04
9.53200000000000e-08,0.00000000000000e+00,6.00000000000000e-01,1.83265081441255e-04
9.54480000000000e-08,0.00000000000000e+00,6.00000000000000e-01,1.23410251251083e-04
9.57040000000000e-08,0.00000000000000e+00,6.00000000000000e-01,-8.77448056640813e-05
9.62159999999999e-08,0.00000000000000e+00,6.00000000000000e-01,-6.38636694240084e-05
9.72399999999999e-08,0.00000000000000e+00,6.00000000000000e-01,-1.36479876522439e-04
9.74461138079943e-08,0.00000000000000e+00,6.00000000000000e-01,-2.68041479649823e-05
9.78583414239831e-08,0.00000000000000e+00,6.00000000000000e-01,1.47700846716472e-04
9.86827966559607e-08,0.00000000000000e+00,6.00000000000000e-01,4.01174172952089e-05
1.00331707119916e-07,0.00000000000000e+00,6.00000000000000e-01,-2.65712730952031e-05
1.03629528047827e-07,0.00000000000000e+00,6.00000000000000e-01,3.64046840264252e-05
1.05000000000000e-07,0.00000000000000e+00,6.00000000000000e-01,-2.32808450832903e-05
1.05010000000000e-07,5.99999999999886e-02,6.00000000000000e-01,2.75627783993780e-05
1.05030000000000e-07,1.79999999999966e-01,6.00000000000000e-01,1.19140858405552e-04
1.05070000000000e-07,4.19999999999920e-01,6.00000000000000e-01,2.28194868186791e-04
1.05100000000000e-07,5.99999999999966e-01,6.00000000000000e-01,1.96022675616900e-04
1.05108000000000e-07,6.00000000000000e-01,6.00000000000000e-01,1.37379173525177e-04
1.05124000000000e-07,6.00000000000000e-01,6.00000000000000e-01,-1.35354907785240e-05
1.05156000000000e-07,6.00000000000000e-01,6.00000000000000e-01,-5.22852136037547e-04
1.05220000000000e-07,6.00000000000000e-01,6.00000000000000e-01,-1.90955798774615e-03
1.05348000000000e-07,6.00000000000000e-01,6.00000000000000e-01,-3.98870359875265e-03
1.05604000000000e-07,6.00000000000000e-01,6.00000000000000e-01,2.01019534836279e-02
1.06116000000000e-07,6.00000000000000e-01,6.00000000000000e-01,3.42107518461424e-01
1.07140000000000e-07,6.00000000000000e-01,6.00000000000000e-01,6.26589520904770e-01
1.08519695849859e-07,6.00000000000000e-01,6.00000000000000e-01,5.79517043456739e-01
1.11159108922007e-07,6.00000000000000e-01,6.00000000000000e-01,6.19236292151190e-01
1.14556475663928e-07,6.00000000000000e-01,6.00000000000000e-01,5.82046508712231e-01
1.15100000000000e-07,6.00000000000000e-01,6.00000000000000e-01,6.11396427590627e-01
1.15110000000000e-07,5.40000000000061e-01,6.00000000000000e-01,6.09789951549655e-01
1.15130000000000e-07,4.20000000000084e-01,6.00000000000000e-01,6.06876424628427e-01
1.15170000000000e-07,1.80000000000129e-01,6.00000000000000e-01,6.03410309715113e-01
1.15200000000000e-07,8.40438829641244e-14,6.00000000000000e-01,6.02505794003947e-01
1.15208000000000e-07,0.00000000000000e+00,6.00000000000000e-01,6.02447877107117e-01
1.15224000000000e-07,0.00000000000000e+00,6.00000000000000e-01,6.02328496767630e-01
1.15256000000000e-07,0.00000000000000e+00,6.00000000000000e-01,6.02110857583479e-01
1.15320000000000e-07,0.00000000000000e+00,6.00000000000000e-01,6.01670404281987e-01
1.15448000000000e-07,0.00000000000000e+00,6.00000000000000e-01,5.98996753299829e-01
1.15704000000000e-07,0.00000000000000e+00,6.00000000000000e-01,5.81039611856077e-01
1.16216000000000e-07,0.00000000000000e+00,6.00000000000000e-01,5.72883827941641e-01
1.17240000000000e-07,0.00000000000000e+00,6.00000000000000e-01,6.01555619166939e-01
1.19091136734921e-07,0.00000000000000e+00,6.00000000000000e-01,5.97168308131621e-01
1.21587490614319e-07,0.00000000000000e+00,6.00000000000000e-01,6.01345474951277e-01
1.25000000000000e-07,0.00000000000000e+00,6.00000000000000e-01,5.98032054564287e-01
1.25010000000000e-07,5.99999999999092e-02,6.00000000000000e-01,5.98189783288201e-01
1.25030000000000e-07,1.79999999999886e-01,6.00000000000000e-01,5.98475675442446e-01
1.25070000000000e-07,4.19999999999841e-01,6.00000000000000e-01,5.98899527252437e-01
1.25100000000000e-07,5.99999999999886e-01,6.00000000000000e-01,5.99088653360802e-01
1.25108000000000e-07,6.00000000000000e-01,5.51999999999946e-01,5.99099820400225e-01
1.25124000000000e-07,6.00000000000000e-01,4.55999999999996e-01,5.99097422277402e-01
1.25156000000000e-07,6.00000000000000e-01,2.63999999999937e-01,5.98947529987094e-01
1.25200000000000e-07,6.00000000000000e-01,0.00000000000000e+00,5.98554581977447e-01
1.25206400000000e-07,6.00000000000000e-01,0.00000000000000e+00,5.98490467562538e-01
1.25219200000000e-07,6.00000000000000e-01,0.00000000000000e+00,5.98364132286365e-01
1.25244800000000e-07,6.00000000000000e-01,0.00000000000000e+00,5.98128936009223e-01
1.25296000000000e-07,6.00000000000000e-01,0.00000000000000e+00,5.97738624634473e-01
1.25398400000000e-07,6.00000000000000e-01,0.00000000000000e+00,5.97223688693804e-01
1.25603200000000e-07,6.00000000000000e-01,0.00000000000000e+00,5.97246334488455e-01
1.26012800000000e-07,6.00000000000000e-01,0.00000000000000e+00,5.99037474505881e-01
1.26832000000000e-07,6.00000000000000e-01,0.00000000000000e+00,6.00211267427515e-01
1.27794296587759e-07,6.00000000000000e-01,0.00000000000000e+00,5.99876899694200e-01
1.29718889763277e-07,6.00000000000000e-01,0.00000000000000e+00,6.00097747254386e-01
1.32258876447884e-07,6.00000000000000e-01,0.00000000000000e+00,5.99915912460804e-01
1.35100000000000e-07,5.99999999999891e-01,0.00000000000000e+00,6.00073240836472e-01
1.35110000000000e-07,5.39999999999823e-01,0.00000000000000e+00,6.00036641605985e-01
1.35130000000000e-07,4.19999999999845e-01,0.00000000000000e+00,5.99966538299601e-01
1.35170000000000e-07,1.79999999999891e-01,0.00000000000000e+00,6.00030275744053e-01
1.35200000000000e-07,0.00000000000000e+00,0.00000000000000e+00,6.00516624515445e-01
1.35208000000000e-07,0.00000000000000e+00,0.00000000000000e+00,6.00707234024892e-01
1.35224000000000e-07,0.00000000000000e+00,0.00000000000000e+00,6.01032726712980e-01
1.35256000000000e-07,0.00000000000000e+00,0.00000000000000e+00,6.01488095541833e-01
1.35320000000000e-07,0.00000000000000e+00,0.00000000000000e+00,6.01906612028117e-01
