Time,v(clk),v(data),v(out)
1.00000000000000e-08,5.00000000000000e-01,0.00000000000000e+00,4.09231838013587e-06
1.00100000000000e-08,5.00000000000000e-01,4.99999999999988e-02,9.44349096851371e-06
1.00300000000000e-08,5.00000000000000e-01,1.49999999999996e-01,1.31032717029037e-05
1.00700000000000e-08,5.00000000000000e-01,3.49999999999992e-01,8.84108673910450e-06
1.01000000000000e-08,5.00000000000000e-01,4.99999999999996e-01,4.72769688938252e-06
1.01080000000000e-08,5.00000000000000e-01,5.00000000000000e-01,3.76774145150610e-06
1.01240000000000e-08,5.00000000000000e-01,5.00000000000000e-01,2.79728141030361e-06
1.01560000000000e-08,5.00000000000000e-01,5.00000000000000e-01,4.30886215309345e-06
1.02200000000000e-08,5.00000000000000e-01,5.00000000000000e-01,5.43686505602783e-06
1.03480000000000e-08,5.00000000000000e-01,5.00000000000000e-01,1.13758121740581e-06
1.06040000000000e-08,5.00000000000000e-01,5.00000000000000e-01,1.35327304862272e-06
1.11160000000000e-08,5.00000000000000e-01,5.00000000000000e-01,1.71467890106719e-06
1.21400000000000e-08,5.00000000000000e-01,5.00000000000000e-01,1.26110762015868e-06
1.41880000000000e-08,5.00000000000000e-01,5.00000000000000e-01,1.43675352337505e-06
1.51000000000000e-08,5.00000000000000e-01,5.00000000000000e-01,1.12434311528003e-06
1.51100000000000e-08,4.49999999999993e-01,5.00000000000000e-01,-4.64573420068393e-05
1.51300000000000e-08,3.49999999999995e-01,5.00000000000000e-01,-1.16625744391780e-04
1.51700000000000e-08,1.50000000000000e-01,5.00000000000000e-01,-1.39692736995843e-04
1.52000000000000e-08,0.00000000000000e+00,5.00000000000000e-01,2.44326463908276e-05
1.52080000000000e-08,0.00000000000000e+00,5.00000000000000e-01,1.36714747429309e-04
1.52240000000000e-08,0.00000000000000e+00,5.00000000000000e-01,2.76284318498445e-04
1.52560000000000e-08,0.00000000000000e+00,5.00000000000000e-01,2.82834870366962e-04
1.53200000000000e-08,0.00000000000000e+00,5.00000000000000e-01,7.25539997739645e-05
1.54480000000000e-08,0.00000000000000e+00,5.00000000000000e-01,-1.50920282540861e-04
1.57040000000000e-08,0.00000000000000e+00,5.00000000000000e-01,2.94456302025667e-06
1.62160000000000e-08,0.00000000000000e+00,5.00000000000000e-01,-9.04957341065320e-05
1.69582039164362e-08,0.00000000000000e+00,5.00000000000000e-01,1.09927489880074e-04
1.84075413277272e-08,0.00000000000000e+00,5.00000000000000e-01,-7.07301188615206e-05
2.01233271290632e-08,0.00000000000000e+00,5.00000000000000e-01,4.64565356183416e-05
2.35548987317353e-08,0.00000000000000e+00,5.00000000000000e-01,-3.45309480506218e-05
2.50000000000000e-08,0.00000000000000e+00,5.00000000000000e-01,1.37190297651618e-05
2.50100000000000e-08,4.99999999999905e-02,5.00000000000000e-01,1.13108313864442e-04
2.50300000000000e-08,1.50000000000005e-01,5.00000000000000e-01,2.64102281172601e-04
2.50700000000000e-08,3.50000000000000e-01,5.00000000000000e-01,3.48143242202156e-04
2.51000000000000e-08,5.00000000000000e-01,5.00000000000000e-01,1.86653510867732e-04
2.51080000000000e-08,5.00000000000000e-01,5.00000000000000e-01,-1.04208864226060e-05
2.51240000000000e-08,5.00000000000000e-01,5.00000000000000e-01,-6.06392109470374e-04
2.51560000000000e-08,5.00000000000000e-01,5.00000000000000e-01,-2.20092005696487e-03
2.52200000000000e-08,5.00000000000000e-01,5.00000000000000e-01,-4.50647750399968e-03
2.53480000000000e-08,5.00000000000000e-01,5.00000000000000e-01,1.16058437113232e-02
2.56040000000000e-08,5.00000000000000e-01,5.00000000000000e-01,3.29487782838098e-01
2.61160000000000e-08,5.00000000000000e-01,5.00000000000000e-01,5.21948856444860e-01
2.67792542399310e-08,5.00000000000000e-01,5.00000000000000e-01,4.81128781682136e-01
2.81057627197931e-08,5.00000000000000e-01,5.00000000000000e-01,5.17920399438084e-01
2.99362457666283e-08,5.00000000000000e-01,5.00000000000000e-01,4.82462974417614e-01
3.35643676596276e-08,5.00000000000000e-01,5.00000000000000e-01,5.16808528966273e-01
3.51000000000000e-08,4.99999999999975e-01,5.00000000000000e-01,4.83461929429890e-01
3.51100000000000e-08,4.49999999999985e-01,5.00000000000000e-01,4.89142122758515e-01
3.51300000000000e-08,3.49999999999971e-01,5.00000000000000e-01,4.96584792001318e-01
3.51700000000000e-08,1.49999999999975e-01,5.00000000000000e-01,5.00289741749454e-01
3.52000000000000e-08,0.00000000000000e+00,5.00000000000000e-01,5.01354983762191e-01
3.52080000000000e-08,0.00000000000000e+00,5.00000000000000e-01,5.01699550300295e-01
3.52240000000000e-08,0.00000000000000e+00,5.00000000000000e-01,5.02174161885347e-01
3.52560000000000e-08,0.00000000000000e+00,5.00000000000000e-01,5.02364999220512e-01
3.53200000000000e-08,0.00000000000000e+00,5.00000000000000e-01,4.99095242956253e-01
3.54480000000000e-08,0.00000000000000e+00,5.00000000000000e-01,4.84604430828494e-01
3.57040000000000e-08,0.00000000000000e+00,5.00000000000000e-01,4.90941824633076e-01
3.62160000000000e-08,0.00000000000000e+00,5.00000000000000e-01,5.04261266912027e-01
3.69854715905086e-08,0.00000000000000e+00,5.00000000000000e-01,4.95765262588754e-01
3.84820660382014e-08,0.00000000000000e+00,5.00000000000000e-01,5.03274435567215e-01
4.14752549335872e-08,0.00000000000000e+00,5.00000000000000e-01,4.96589969109583e-01
4.50000000000000e-08,0.00000000000000e+00,5.00000000000000e-01,5.03042954071546e-01
4.50100000000000e-08,4.99999999999905e-02,5.00000000000000e-01,5.02423849544932e-01
4.50300000000000e-08,1.50000000000005e-01,5.00000000000000e-01,5.01441804569445e-01
4.50700000000000e-08,3.50000000000000e-01,5.00000000000000e-01,5.00491195445326e-01
4.51000000000000e-08,5.00000000000000e-01,5.00000000000000e-01,5.00069998576139e-01
4.51080000000000e-08,5.00000000000000e-01,4.60000000000021e-01,4.99859517858962e-01
4.51240000000000e-08,5.00000000000000e-01,3.79999999999996e-01,4.99378050678347e-01
4.51560000000000e-08,5.00000000000000e-01,2.20000000000013e-01,4.98475570729658e-01
4.52000000000000e-08,5.00000000000000e-01,2.86437540353290e-14,4.97837505201634e-01
4.52064000000000e-08,5.00000000000000e-01,0.00000000000000e+00,4.97799258695973e-01
4.52192000000000e-08,5.00000000000000e-01,0.00000000000000e+00,4.97714375348780e-01
4.52448000000000e-08,5.00000000000000e-01,0.00000000000000e+00,4.97578271216632e-01
4.52960000000000e-08,5.00000000000000e-01,0.00000000000000e+00,4.97438356978289e-01
4.53984000000000e-08,5.00000000000000e-01,0.00000000000000e+00,4.98094914902963e-01
4.56032000000000e-08,5.00000000000000e-01,0.00000000000000e+00,4.99743979357203e-01
4.59651551535758e-08,5.00000000000000e-01,0.00000000000000e+00,5.00037018784006e-01
4.66890654607273e-08,5.00000000000000e-01,0.00000000000000e+00,4.99982450779311e-01
4.74295613167999e-08,5.00000000000000e-01,0.00000000000000e+00,5.00008344314806e-01
4.89105530289450e-08,5.00000000000000e-01,0.00000000000000e+00,4.99993889460987e-01
5.18725364532354e-08,5.00000000000000e-01,0.00000000000000e+00,5.00005439760906e-01
5.51000000000000e-08,5.00000000000000e-01,0.00000000000000e+00,4.99995136658330e-01
5.51100000000000e-08,4.50000000000018e-01,0.00000000000000e+00,4.99946438812269e-01
5.51300000000000e-08,3.50000000000004e-01,0.00000000000000e+00,4.99878644332860e-01
5.51700000000000e-08,1.50000000000008e-01,0.00000000000000e+00,5.00074713359131e-01
5.52000000000000e-08,0.00000000000000e+00,0.00000000000000e+00,5.01218597978087e-01
5.52080000000000e-08,0.00000000000000e+00,0.00000000000000e+00,5.01594916175843e-01
5.52240000000000e-08,0.00000000000000e+00,0.00000000000000e+00,5.02149038192515e-01
5.52560000000000e-08,0.00000000000000e+00,0.00000000000000e+00,5.02672062532338e-01
5.53200000000000e-08,0.00000000000000e+00,0.00000000000000e+00,5.03116470500538e-01
5.54480000000000e-08,0.00000000000000e+00,0.00000000000000e+00,5.02173555646847e-01
5.57040000000000e-08,0.00000000000000e+00,0.00000000000000e+00,4.99449470817046e-01
5.61058595410577e-08,0.00000000000000e+00,0.00000000000000e+00,5.00058819589548e-01
5.67754559561982e-08,0.00000000000000e+00,0.00000000000000e+00,4.99772858047571e-01
5.76703489205662e-08,0.00000000000000e+00,0.00000000000000e+00,4.99960082611112e-01
5.94601348493023e-08,0.00000000000000e+00,0.00000000000000e+00,4.99874037089263e-01
6.30397067067745e-08,0.00000000000000e+00,0.00000000000000e+00,4.99967304808791e-01
6.50000000000000e-08,0.00000000000000e+00,0.00000000000000e+00,4.99924088295093e-01
6.50100000000000e-08,4.99999999999905e-02,0.00000000000000e+00,4.99941680856398e-01
6.50300000000000e-08,1.49999999999972e-01,0.00000000000000e+00,4.99972602852747e-01
6.50700000000000e-08,3.49999999999934e-01,0.00000000000000e+00,4.99965834986377e-01
6.51000000000000e-08,4.99999999999971e-01,0.00000000000000e+00,4.99869451287715e-01
6.51080000000000e-08,5.00000000000000e-01,0.00000000000000e+00,4.99816779435818e-01
6.51240000000000e-08,5.00000000000000e-01,0.00000000000000e+00,4.99745268156596e-01
6.51560000000000e-08,5.00000000000000e-01,0.00000000000000e+00,4.99723343484280e-01
6.52200000000000e-08,5.00000000000000e-01,0.00000000000000e+00,4.99761132329421e-01
6.53480000000000e-08,5.00000000000000e-01,0.00000000000000e+00,5.01044201119891e-01
6.56040000000000e-08,5.00000000000000e-01,0.00000000000000e+00,5.11593106365386e-01
6.61159999999999e-08,5.00000000000000e-01,0.00000000000000e+00,7.01031255796138e-02
6.67370202603358e-08,5.00000000000000e-01,0.00000000000000e+00,-4.23969489672747e-02
6.78070538765425e-08,5.00000000000000e-01,0.00000000000000e+00,4.14357437492309e-02
6.93239693687799e-08,5.00000000000000e-01,0.00000000000000e+00,-3.27696614993287e-02
7.20006626099986e-08,5.00000000000000e-01,0.00000000000000e+00,3.42195765846597e-02
7.51000000000000e-08,5.00000000000000e-01,0.00000000000000e+00,-2.93093723436880e-02
7.51100000000000e-08,4.50000000000051e-01,0.00000000000000e+00,-2.29380869275605e-02
7.51300000000000e-08,3.50000000000070e-01,0.00000000000000e+00,-1.35778585539754e-02
7.51700000000000e-08,1.50000000000108e-01,0.00000000000000e+00,-5.01176297144786e-03
7.52000000000000e-08,6.99995617026161e-14,0.00000000000000e+00,-2.25350902190902e-03
7.52080000000000e-08,0.00000000000000e+00,0.00000000000000e+00,-1.80467602158046e-03
7.52240000000000e-08,0.00000000000000e+00,0.00000000000000e+00,-1.06184657388432e-03
7.52560000000000e-08,0.00000000000000e+00,0.00000000000000e+00,-3.46409693170686e-04
7.53200000000000e-08,0.00000000000000e+00,0.00000000000000e+00,-2.27053396209178e-04
7.54480000000000e-08,0.00000000000000e+00,0.00000000000000e+00,-1.21998812159477e-03
7.57040000000000e-08,0.00000000000000e+00,0.00000000000000e+00,1.09307464315384e-04
7.60723855203288e-08,0.00000000000000e+00,0.00000000000000e+00,8.89164426736474e-05
7.68091565609865e-08,0.00000000000000e+00,0.00000000000000e+00,-1.34180485740561e-04
7.77800358907348e-08,0.00000000000000e+00,0.00000000000000e+00,1.69489241748407e-04
7.97217945502315e-08,0.00000000000000e+00,0.00000000000000e+00,-1.74640291455292e-04
8.35217945502315e-08,0.00000000000000e+00,0.00000000000000e+00,1.78911000907834e-04
8.50000000000000e-08,0.00000000000000e+00,0.00000000000000e+00,-1.81994182796748e-04
8.50100000000000e-08,4.99999999999905e-02,0.00000000000000e+00,-9.20437418397424e-06
8.50300000000000e-08,1.49999999999972e-01,0.00000000000000e+00,1.88169633907206e-04
8.50700000000000e-08,3.49999999999934e-01,0.00000000000000e+00,1.74270584232840e-04
8.51000000000000e-08,4.99999999999971e-01,0.00000000000000e+00,-1.77248890082665e-06
8.51080000000000e-08,5.00000000000000e-01,0.00000000000000e+00,-8.14542588601017e-05
8.51240000000000e-08,5.00000000000000e-01,0.00000000000000e+00,-1.88450507546851e-04
8.51560000000000e-08,5.00000000000000e-01,0.00000000000000e+00,-2.17977248263952e-04
8.52200000000000e-08,5.00000000000000e-01,0.00000000000000e+00,-1.22032143200806e-04
8.53480000000000e-08,5.00000000000000e-01,0.00000000000000e+00,-2.86477770985311e-06
8.56040000000000e-08,5.00000000000000e-01,0.00000000000000e+00,6.04891311850285e-05
8.61159999999999e-08,5.00000000000000e-01,0.00000000000000e+00,-1.95962570226256e-05
8.71399999999999e-08,5.00000000000000e-01,0.00000000000000e+00,1.42737559849101e-05
8.84254558612689e-08,5.00000000000000e-01,0.00000000000000e+00,-4.37953255980669e-06
9.00000000000000e-08,5.00000000000000e-01,0.00000000000000e+00,4.18513017232808e-06
9.00100000000000e-08,5.00000000000000e-01,4.99999999999905e-02,9.51043392821010e-06
9.00300000000000e-08,5.00000000000000e-01,1.49999999999972e-01,1.31229307965969e-05
9.00700000000000e-08,5.00000000000000e-01,3.49999999999934e-01,8.88352962850891e-06
9.01000000000000e-08,5.00000000000000e-01,4.99999999999971e-01,4.83037680450160e-06
9.01080000000000e-08,5.00000000000000e-01,5.00000000000000e-01,3.88982785780312e-06
9.01240000000000e-08,5.00000000000000e-01,5.00000000000000e-01,2.98949999466558e-06
9.01560000000000e-08,5.00000000000000e-01,5.00000000000000e-01,4.31989485130679e-06
9.02200000000000e-08,5.00000000000000e-01,5.00000000000000e-01,5.28509802038418e-06
9.03480000000000e-08,5.00000000000000e-01,5.00000000000000e-01,1.16789653429109e-06
9.06040000000000e-08,5.00000000000000e-01,5.00000000000000e-01,1.37633448931557e-06
9.11159999999999e-08,5.00000000000000e-01,5.00000000000000e-01,1.75005781717121e-06
9.21399999999999e-08,5.00000000000000e-01,5.00000000000000e-01,1.19907555953683e-06
9.41879999999998e-08,5.00000000000000e-01,5.00000000000000e-01,1.47530934898536e-06
9.51000000000000e-08,5.00000000000000e-01,5.00000000000000e-01,9.89576322412387e-07
9.51100000000000e-08,4.50000000000051e-01,5.00000000000000e-01,-4.71089419907117e-05
9.51300000000000e-08,3.50000000000070e-01,5.00000000000000e-01,-1.17022538972895e-04
9.51700000000000e-08,1.50000000000108e-01,5.00000000000000e-01,-1.39852405964917e-04
9.52000000000000e-08,6.99995617026161e-14,5.00000000000000e-01,2.43706444948699e-05
9.52080000000000e-08,0.00000000000000e+00,5.00000000000000e-01,1.36662098002581e-04
9.52240000000000e-08,0.00000000000000e+00,5.00000000000000e-01,2.76249180042480e-04
9.52560000000000e-08,0.00000000000000e+00,5.00000000000000e-01,2.82820010797553e-04
9.53200000000000e-08,0.00000000000000e+00,5.00000000000000e-01,7.25402720527270e-05
9.54480000000000e-08,0.00000000000000e+00,5.00000000000000e-01,-1.50931362290184e-04
9.57040000000000e-08,0.00000000000000e+00,5.00000000000000e-01,2.95220848862965e-06
9.62159999999999e-08,0.00000000000000e+00,5.00000000000000e-01,-9.05008656149273e-05
9.69582118022141e-08,0.00000000000000e+00,5.00000000000000e-01,1.09933021218678e-04
9.84075421129028e-08,0.00000000000000e+00,5.00000000000000e-01,-7.07363684332605e-05
1.00123331056912e-07,0.00000000000000e+00,5.00000000000000e-01,4.64632683944721e-05
1.03554908944929e-07,0.00000000000000e+00,5.00000000000000e-01,-3.45377864531481e-05
1.05000000000000e-07,0.00000000000000e+00,5.00000000000000e-01,1.37258403270168e-05
1.05010000000000e-07,4.99999999999905e-02,5.00000000000000e-01,1.13114091437168e-04
1.05030000000000e-07,1.49999999999972e-01,5.00000000000000e-01,2.64106698089614e-04
1.05070000000000e-07,3.49999999999934e-01,5.00000000000000e-01,3.48145732216712e-04
1.05100000000000e-07,4.99999999999971e-01,5.00000000000000e-01,1.86654696911003e-04
1.05108000000000e-07,5.00000000000000e-01,5.00000000000000e-01,-1.04201849140464e-05
1.05124000000000e-07,5.00000000000000e-01,5.00000000000000e-01,-6.06392308882729e-04
1.05156000000000e-07,5.00000000000000e-01,5.00000000000000e-01,-2.20092080264505e-03
1.05220000000000e-07,5.00000000000000e-01,5.00000000000000e-01,-4.50647733563711e-03
1.05348000000000e-07,5.00000000000000e-01,5.00000000000000e-01,1.16058059216168e-02
1.05604000000000e-07,5.00000000000000e-01,5.00000000000000e-01,3.29487672491586e-01
1.06116000000000e-07,5.00000000000000e-01,5.00000000000000e-01,5.21948853220896e-01
1.06779254312795e-07,5.00000000000000e-01,5.00000000000000e-01,4.81128788476535e-01
1.08105762938386e-07,5.00000000000000e-01,5.00000000000000e-01,5.17920396037579e-01
1.09936245890882e-07,5.00000000000000e-01,5.00000000000000e-01,4.82462979955192e-01
1.13564366472112e-07,5.00000000000000e-01,5.00000000000000e-01,5.16808525503319e-01
1.15100000000000e-07,5.00000000000000e-01,5.00000000000000e-01,4.83461933800401e-01
1.15110000000000e-07,4.50000000000051e-01,5.00000000000000e-01,4.89142125943240e-01
1.15130000000000e-07,3.50000000000070e-01,5.00000000000000e-01,4.96584793419521e-01
1.15170000000000e-07,1.50000000000108e-01,5.00000000000000e-01,5.00289741960800e-01
1.15200000000000e-07,6.99995617026161e-14,5.00000000000000e-01,5.01354983868733e-01
1.15208000000000e-07,0.00000000000000e+00,5.00000000000000e-01,5.01699550400190e-01
1.15224000000000e-07,0.00000000000000e+00,5.00000000000000e-01,5.02174161971739e-01
1.15256000000000e-07,0.00000000000000e+00,5.00000000000000e-01,5.02364999227058e-01
1.15320000000000e-07,0.00000000000000e+00,5.00000000000000e-01,4.99095242558086e-01
1.15448000000000e-07,0.00000000000000e+00,5.00000000000000e-01,4.84604430282910e-01
1.15704000000000e-07,0.00000000000000e+00,5.00000000000000e-01,4.90941824808160e-01
1.16216000000000e-07,0.00000000000000e+00,5.00000000000000e-01,5.04261266883385e-01
1.16985471587105e-07,0.00000000000000e+00,5.00000000000000e-01,4.95765262629646e-01
1.18482066045606e-07,0.00000000000000e+00,5.00000000000000e-01,5.03274435550457e-01
1.21475254962608e-07,0.00000000000000e+00,5.00000000000000e-01,4.96589969137613e-01
1.25000000000000e-07,0.00000000000000e+00,5.00000000000000e-01,5.03042954065722e-01
1.25010000000000e-07,4.99999999999243e-02,5.00000000000000e-01,5.02423849535864e-01
1.25030000000000e-07,1.49999999999905e-01,5.00000000000000e-01,5.01441804564717e-01
1.25070000000000e-07,3.49999999999867e-01,5.00000000000000e-01,5.00491195443470e-01
1.25100000000000e-07,4.99999999999905e-01,5.00000000000000e-01,5.00069998579688e-01
1.25108000000000e-07,5.00000000000000e-01,4.59999999999955e-01,4.99859517863971e-01
1.25124000000000e-07,5.00000000000000e-01,3.79999999999996e-01,4.99378050684637e-01
1.25156000000000e-07,5.00000000000000e-01,2.19999999999947e-01,4.98475570734290e-01
1.25200000000000e-07,5.00000000000000e-01,0.00000000000000e+00,4.97837505204066e-01
1.25206400000000e-07,5.00000000000000e-01,0.00000000000000e+00,4.97799258698456e-01
1.25219200000000e-07,5.00000000000000e-01,0.00000000000000e+00,4.97714375352823e-01
1.25244800000000e-07,5.00000000000000e-01,0.00000000000000e+00,4.97578271219054e-01
1.25296000000000e-07,5.00000000000000e-01,0.00000000000000e+00,4.97438356975055e-01
1.25398400000000e-07,5.00000000000000e-01,0.00000000000000e+00,4.98094914892500e-01
1.25603200000000e-07,5.00000000000000e-01,0.00000000000000e+00,4.99743979353442e-01
1.25965155151707e-07,5.00000000000000e-01,0.00000000000000e+00,5.00037018785438e-01
1.26689065455122e-07,5.00000000000000e-01,0.00000000000000e+00,4.99982450777784e-01
1.27429561276693e-07,5.00000000000000e-01,0.00000000000000e+00,5.00008344315649e-01
1.28910552919834e-07,5.00000000000000e-01,0.00000000000000e+00,4.99993889460060e-01
1.31872536206117e-07,5.00000000000000e-01,0.00000000000000e+00,5.00005439761801e-01
1.35100000000000e-07,4.99999999999909e-01,0.00000000000000e+00,4.99995136657461e-01
1.35110000000000e-07,4.49999999999852e-01,0.00000000000000e+00,4.99946438811434e-01
1.35130000000000e-07,3.49999999999871e-01,0.00000000000000e+00,4.99878644331858e-01
1.35170000000000e-07,1.49999999999909e-01,0.00000000000000e+00,5.00074713358950e-01
1.35200000000000e-07,0.00000000000000e+00,0.00000000000000e+00,5.01218597977999e-01
1.35208000000000e-07,0.00000000000000e+00,0.00000000000000e+00,5.01594916175615e-01
1.35224000000000e-07,0.00000000000000e+00,0.00000000000000e+00,5.02149038197628e-01
1.35256000000000e-07,0.00000000000000e+00,0.00000000000000e+00,5.02672062534471e-01
1.35320000000000e-07,0.00000000000000e+00,0.00000000000000e+00,5.03116470500899e-01
1.35448000000000e-07,0.00000000000000e+00,0.00000000000000e+00,5.02173555646730e-01
1.35704000000000e-07,0.00000000000000e+00,0.00000000000000e+00,4.99449470817240e-01
1.36105859541045e-07,0.00000000000000e+00,0.00000000000000e+00,5.00058819589186e-01
1.36775455956170e-07,0.00000000000000e+00,0.00000000000000e+00,4.99772858047896e-01
