Time,v(clk),v(data),v(out),v(reset)
1.00000000000000e-08,5.00000000000000e-01,0.00000000000000e+00,1.37413660294822e-05,0.00000000000000e+00
1.00100000000000e-08,5.00000000000000e-01,4.99999999999988e-02,1.26809549432921e-05,0.00000000000000e+00
1.00300000000000e-08,5.00000000000000e-01,1.49999999999996e-01,1.15829048685789e-05,0.00000000000000e+00
1.00700000000000e-08,5.00000000000000e-01,3.49999999999992e-01,8.88252305496218e-06,0.00000000000000e+00
1.01000000000000e-08,5.00000000000000e-01,4.99999999999996e-01,6.97595193870082e-06,0.00000000000000e+00
1.01080000000000e-08,5.00000000000000e-01,5.00000000000000e-01,6.88541198589493e-06,0.00000000000000e+00
1.01240000000000e-08,5.00000000000000e-01,5.00000000000000e-01,6.81617734345219e-06,0.00000000000000e+00
1.01560000000000e-08,5.00000000000000e-01,5.00000000000000e-01,6.37751523097085e-06,0.00000000000000e+00
1.02200000000000e-08,5.00000000000000e-01,5.00000000000000e-01,6.64469780722876e-06,0.00000000000000e+00
1.03480000000000e-08,5.00000000000000e-01,5.00000000000000e-01,6.67385527267084e-06,0.00000000000000e+00
1.06040000000000e-08,5.00000000000000e-01,5.00000000000000e-01,7.93813385973480e-06,0.00000000000000e+00
1.11160000000000e-08,5.00000000000000e-01,5.00000000000000e-01,6.71500882836948e-06,0.00000000000000e+00
1.21400000000000e-08,5.00000000000000e-01,5.00000000000000e-01,7.44160537295181e-06,0.00000000000000e+00
1.41880000000000e-08,5.00000000000000e-01,5.00000000000000e-01,6.12946060636783e-06,0.00000000000000e+00
1.51000000000000e-08,5.00000000000000e-01,5.00000000000000e-01,6.73659016083884e-06,0.00000000000000e+00
1.51100000000000e-08,4.49999999999993e-01,5.00000000000000e-01,1.71136271509102e-04,5.00000000000071e-02
1.51300000000000e-08,3.49999999999995e-01,5.00000000000000e-01,3.69945643084235e-04,1.50000000000005e-01
1.51700000000000e-08,1.50000000000000e-01,5.00000000000000e-01,3.20589067648862e-04,3.50000000000000e-01
1.52000000000000e-08,0.00000000000000e+00,5.00000000000000e-01,2.50274073033359e-04,5.00000000000000e-01
1.52080000000000e-08,0.00000000000000e+00,5.00000000000000e-01,2.29332991096655e-04,5.00000000000000e-01
1.52240000000000e-08,0.00000000000000e+00,5.00000000000000e-01,1.98391446662748e-04,5.00000000000000e-01
1.52560000000000e-08,0.00000000000000e+00,5.00000000000000e-01,1.73957205692195e-04,5.00000000000000e-01
1.53200000000000e-08,0.00000000000000e+00,5.00000000000000e-01,1.34741914144212e-04,5.00000000000000e-01
1.54480000000000e-08,0.00000000000000e+00,5.00000000000000e-01,-6.11109081462557e-05,5.00000000000000e-01
1.57040000000000e-08,0.00000000000000e+00,5.00000000000000e-01,-1.65795908167291e-04,5.00000000000000e-01
1.62160000000000e-08,0.00000000000000e+00,5.00000000000000e-01,9.48239189610123e-05,5.00000000000000e-01
1.69926997345239e-08,0.00000000000000e+00,5.00000000000000e-01,-1.58967024044509e-04,5.00000000000000e-01
1.85460992035718e-08,0.00000000000000e+00,5.00000000000000e-01,1.69021086357389e-04,5.00000000000000e-01
2.16528981416675e-08,0.00000000000000e+00,5.00000000000000e-01,-1.31507428056934e-04,5.00000000000000e-01
2.46144422850516e-08,0.00000000000000e+00,5.00000000000000e-01,1.11053383546932e-04,5.00000000000000e-01
2.50000000000000e-08,0.00000000000000e+00,5.00000000000000e-01,1.25387673382410e-05,5.00000000000000e-01
2.50100000000000e-08,4.99999999999905e-02,5.00000000000000e-01,1.02750831295108e-04,5.00000000000000e-01
2.50300000000000e-08,1.50000000000005e-01,5.00000000000000e-01,2.66374238983728e-04,5.00000000000000e-01
2.50700000000000e-08,3.50000000000000e-01,5.00000000000000e-01,4.94863744915273e-04,5.00000000000000e-01
2.51000000000000e-08,5.00000000000000e-01,5.00000000000000e-01,5.48119297874843e-04,5.00000000000000e-01
2.51080000000000e-08,5.00000000000000e-01,5.00000000000000e-01,5.01253210076824e-04,5.00000000000000e-01
2.51240000000000e-08,5.00000000000000e-01,5.00000000000000e-01,4.12356592630968e-04,5.00000000000000e-01
2.51560000000000e-08,5.00000000000000e-01,5.00000000000000e-01,2.41728007700663e-04,5.00000000000000e-01
2.52200000000000e-08,5.00000000000000e-01,5.00000000000000e-01,-3.86612698811135e-04,5.00000000000000e-01
2.53480000000000e-08,5.00000000000000e-01,5.00000000000000e-01,-2.37074789456689e-03,5.00000000000000e-01
2.56040000000000e-08,5.00000000000000e-01,5.00000000000000e-01,-3.98211660393204e-03,5.00000000000000e-01
2.61160000000000e-08,5.00000000000000e-01,5.00000000000000e-01,2.20740021980996e-01,5.00000000000000e-01
2.71400000000000e-08,5.00000000000000e-01,5.00000000000000e-01,5.06966701073628e-01,5.00000000000000e-01
2.87178602345326e-08,5.00000000000000e-01,5.00000000000000e-01,4.95807901950069e-01,5.00000000000000e-01
3.13574991446260e-08,5.00000000000000e-01,5.00000000000000e-01,5.04789384224584e-01,5.00000000000000e-01
3.50834050579684e-08,5.00000000000000e-01,5.00000000000000e-01,4.95699175486736e-01,5.00000000000000e-01
3.51000000000000e-08,4.99999999999975e-01,5.00000000000000e-01,4.98349631608489e-01,5.00000000000000e-01
3.51100000000000e-08,4.49999999999985e-01,5.00000000000000e-01,4.98911979559356e-01,5.00000000000000e-01
3.51300000000000e-08,3.49999999999971e-01,5.00000000000000e-01,4.99645669728719e-01,5.00000000000000e-01
3.51700000000000e-08,1.49999999999975e-01,5.00000000000000e-01,5.00255662963824e-01,5.00000000000000e-01
3.52000000000000e-08,0.00000000000000e+00,5.00000000000000e-01,5.01414364428109e-01,5.00000000000000e-01
3.52080000000000e-08,0.00000000000000e+00,5.00000000000000e-01,5.01810407281228e-01,5.00000000000000e-01
3.52240000000000e-08,0.00000000000000e+00,5.00000000000000e-01,5.02372329565884e-01,5.00000000000000e-01
3.52560000000000e-08,0.00000000000000e+00,5.00000000000000e-01,5.02727641795631e-01,5.00000000000000e-01
3.53200000000000e-08,0.00000000000000e+00,5.00000000000000e-01,5.01064145418899e-01,5.00000000000000e-01
3.54480000000000e-08,0.00000000000000e+00,5.00000000000000e-01,4.89362040513329e-01,5.00000000000000e-01
3.57040000000000e-08,0.00000000000000e+00,5.00000000000000e-01,4.89852688042767e-01,5.00000000000000e-01
3.62160000000000e-08,0.00000000000000e+00,5.00000000000000e-01,5.02943729154174e-01,5.00000000000000e-01
3.70184457339712e-08,0.00000000000000e+00,5.00000000000000e-01,4.96726957932531e-01,5.00000000000000e-01
3.85322525479653e-08,0.00000000000000e+00,5.00000000000000e-01,5.02331874556558e-01,5.00000000000000e-01
4.15598661759533e-08,0.00000000000000e+00,5.00000000000000e-01,4.97481326027945e-01,5.00000000000000e-01
4.50000000000000e-08,0.00000000000000e+00,5.00000000000000e-01,5.02192239923692e-01,5.00000000000000e-01
4.50100000000000e-08,4.99999999999905e-02,5.00000000000000e-01,5.01651843031830e-01,4.50000000000010e-01
4.50300000000000e-08,1.50000000000005e-01,5.00000000000000e-01,5.00777771955801e-01,3.49999999999995e-01
4.50700000000000e-08,3.50000000000000e-01,5.00000000000000e-01,5.00632602872741e-01,1.50000000000000e-01
4.51000000000000e-08,5.00000000000000e-01,5.00000000000000e-01,5.03726346100950e-01,0.00000000000000e+00
4.51080000000000e-08,5.00000000000000e-01,5.00000000000000e-01,5.05056067666184e-01,0.00000000000000e+00
4.51240000000000e-08,5.00000000000000e-01,5.00000000000000e-01,5.07418138432379e-01,0.00000000000000e+00
4.51560000000000e-08,5.00000000000000e-01,5.00000000000000e-01,5.11542411697191e-01,0.00000000000000e+00
4.52200000000000e-08,5.00000000000000e-01,5.00000000000000e-01,5.20453456527380e-01,0.00000000000000e+00
4.53480000000000e-08,5.00000000000000e-01,5.00000000000000e-01,5.21346379675192e-01,0.00000000000000e+00
4.56040000000000e-08,5.00000000000000e-01,5.00000000000000e-01,3.10174714816338e-01,0.00000000000000e+00
4.61017500636269e-08,5.00000000000000e-01,5.00000000000000e-01,5.14320607323871e-03,0.00000000000000e+00
4.68847433415047e-08,5.00000000000000e-01,5.00000000000000e-01,4.13213251949859e-05,0.00000000000000e+00
4.81390296784377e-08,5.00000000000000e-01,5.00000000000000e-01,-1.15290929349978e-03,0.00000000000000e+00
5.01000000000000e-08,5.00000000000000e-01,4.99999999999971e-01,1.97667304807464e-03,0.00000000000000e+00
5.02993367263504e-08,5.00000000000000e-01,5.00000000000000e-01,-4.69976336240605e-04,0.00000000000000e+00
5.06980101790511e-08,5.00000000000000e-01,5.00000000000000e-01,-9.11137528639382e-05,0.00000000000000e+00
5.14953570844525e-08,5.00000000000000e-01,5.00000000000000e-01,1.58410447065186e-04,0.00000000000000e+00
5.30900508952553e-08,5.00000000000000e-01,5.00000000000000e-01,-1.64964787175735e-04,0.00000000000000e+00
5.51000000000000e-08,5.00000000000000e-01,5.00000000000000e-01,1.78227856076340e-04,0.00000000000000e+00
5.51100000000000e-08,4.50000000000018e-01,5.00000000000000e-01,2.64534253322714e-04,4.99999999999822e-02
5.51300000000000e-08,3.50000000000004e-01,5.00000000000000e-01,3.70805929001863e-04,1.49999999999996e-01
5.51700000000000e-08,1.50000000000008e-01,5.00000000000000e-01,2.96255866414179e-04,3.49999999999992e-01
5.52000000000000e-08,0.00000000000000e+00,5.00000000000000e-01,2.28845782685262e-04,5.00000000000000e-01
5.52080000000000e-08,0.00000000000000e+00,5.00000000000000e-01,2.07351726532384e-04,5.00000000000000e-01
5.52240000000000e-08,0.00000000000000e+00,5.00000000000000e-01,1.75461536059976e-04,5.00000000000000e-01
5.52560000000000e-08,0.00000000000000e+00,5.00000000000000e-01,1.47913393578010e-04,5.00000000000000e-01
5.53200000000000e-08,0.00000000000000e+00,5.00000000000000e-01,4.68224494691583e-05,5.00000000000000e-01
5.54480000000000e-08,0.00000000000000e+00,5.00000000000000e-01,-6.98497508225371e-04,5.00000000000000e-01
5.57040000000000e-08,0.00000000000000e+00,5.00000000000000e-01,-7.29805938135746e-04,5.00000000000000e-01
5.62160000000000e-08,0.00000000000000e+00,5.00000000000000e-01,3.06015358135483e-04,5.00000000000000e-01
5.69909918362564e-08,0.00000000000000e+00,5.00000000000000e-01,-2.32011592141614e-04,5.00000000000000e-01
5.85409755087693e-08,0.00000000000000e+00,5.00000000000000e-01,1.94577067870588e-04,5.00000000000000e-01
6.16409428537950e-08,0.00000000000000e+00,5.00000000000000e-01,-1.56982508525808e-04,5.00000000000000e-01
6.45943339809148e-08,0.00000000000000e+00,5.00000000000000e-01,1.39291873323271e-04,5.00000000000000e-01
6.50000000000000e-08,0.00000000000000e+00,5.00000000000000e-01,-2.93041569794164e-05,5.00000000000000e-01
6.50100000000000e-08,4.99999999999905e-02,5.00000000000000e-01,7.73323239936369e-05,5.00000000000000e-01
6.50300000000000e-08,1.49999999999972e-01,5.00000000000000e-01,2.58417853904000e-04,5.00000000000000e-01
6.50700000000000e-08,3.49999999999934e-01,5.00000000000000e-01,4.88487463645874e-04,5.00000000000000e-01
6.51000000000000e-08,4.99999999999971e-01,5.00000000000000e-01,5.32612903825440e-04,5.00000000000000e-01
6.51080000000000e-08,5.00000000000000e-01,5.00000000000000e-01,4.79088333696046e-04,5.00000000000000e-01
6.51240000000000e-08,5.00000000000000e-01,5.00000000000000e-01,3.65449950925738e-04,5.00000000000000e-01
6.51560000000000e-08,5.00000000000000e-01,5.00000000000000e-01,6.31051375631422e-05,5.00000000000000e-01
6.52200000000000e-08,5.00000000000000e-01,5.00000000000000e-01,-9.03762370687823e-04,5.00000000000000e-01
6.53480000000000e-08,5.00000000000000e-01,5.00000000000000e-01,-2.92352812392518e-03,5.00000000000000e-01
6.56040000000000e-08,5.00000000000000e-01,5.00000000000000e-01,-3.06658847756758e-03,5.00000000000000e-01
6.61159999999999e-08,5.00000000000000e-01,5.00000000000000e-01,2.48038913836055e-01,5.00000000000000e-01
6.71399999999999e-08,5.00000000000000e-01,5.00000000000000e-01,5.10194930133760e-01,5.00000000000000e-01
6.86108382227222e-08,5.00000000000000e-01,5.00000000000000e-01,4.93679981752714e-01,5.00000000000000e-01
7.13004763224811e-08,5.00000000000000e-01,5.00000000000000e-01,5.06984468094274e-01,5.00000000000000e-01
7.49606522244473e-08,5.00000000000000e-01,5.00000000000000e-01,4.93635135894375e-01,5.00000000000000e-01
7.51000000000000e-08,5.00000000000000e-01,5.00000000000000e-01,5.03750941699535e-01,5.00000000000000e-01
7.51100000000000e-08,4.50000000000051e-01,5.00000000000000e-01,5.02427681749835e-01,5.00000000000000e-01
7.51300000000000e-08,3.50000000000070e-01,5.00000000000000e-01,5.00675305789467e-01,5.00000000000000e-01
7.51700000000000e-08,1.50000000000108e-01,5.00000000000000e-01,5.00125010040999e-01,5.00000000000000e-01
7.52000000000000e-08,6.99995617026161e-14,5.00000000000000e-01,5.01366384129992e-01,5.00000000000000e-01
7.52080000000000e-08,0.00000000000000e+00,5.00000000000000e-01,5.01761313214286e-01,5.00000000000000e-01
7.52240000000000e-08,0.00000000000000e+00,5.00000000000000e-01,5.02319332812288e-01,5.00000000000000e-01
7.52560000000000e-08,0.00000000000000e+00,5.00000000000000e-01,5.02673607380483e-01,5.00000000000000e-01
7.53200000000000e-08,0.00000000000000e+00,5.00000000000000e-01,5.01006480949104e-01,5.00000000000000e-01
7.54480000000000e-08,0.00000000000000e+00,5.00000000000000e-01,4.89189083782785e-01,5.00000000000000e-01
7.57040000000000e-08,0.00000000000000e+00,5.00000000000000e-01,4.89758241829440e-01,5.00000000000000e-01
7.62159999999999e-08,0.00000000000000e+00,5.00000000000000e-01,5.02977959447788e-01,5.00000000000000e-01
7.70183666625830e-08,0.00000000000000e+00,5.00000000000000e-01,4.96697349796543e-01,5.00000000000000e-01
7.85309932687934e-08,0.00000000000000e+00,5.00000000000000e-01,5.02357237632735e-01,5.00000000000000e-01
8.15562464812143e-08,0.00000000000000e+00,5.00000000000000e-01,4.97456472301756e-01,5.00000000000000e-01
8.50000000000000e-08,0.00000000000000e+00,5.00000000000000e-01,5.02215462082371e-01,5.00000000000000e-01
8.50100000000000e-08,4.99999999999905e-02,5.00000000000000e-01,5.01669991967712e-01,4.50000000000010e-01
8.50300000000000e-08,1.49999999999972e-01,5.00000000000000e-01,5.00788109310657e-01,3.50000000000028e-01
8.50700000000000e-08,3.49999999999934e-01,5.00000000000000e-01,5.00635626468729e-01,1.50000000000066e-01
8.51000000000000e-08,4.99999999999971e-01,5.00000000000000e-01,5.03727594609977e-01,2.86437540353290e-14
8.51080000000000e-08,5.00000000000000e-01,5.00000000000000e-01,5.05057120557824e-01,0.00000000000000e+00
8.51240000000000e-08,5.00000000000000e-01,5.00000000000000e-01,5.07418889867707e-01,0.00000000000000e+00
8.51560000000000e-08,5.00000000000000e-01,5.00000000000000e-01,5.11542880549781e-01,0.00000000000000e+00
8.52200000000000e-08,5.00000000000000e-01,5.00000000000000e-01,5.20454031762254e-01,0.00000000000000e+00
8.53480000000000e-08,5.00000000000000e-01,5.00000000000000e-01,5.21347064433425e-01,0.00000000000000e+00
8.56040000000000e-08,5.00000000000000e-01,5.00000000000000e-01,3.10175759267566e-01,0.00000000000000e+00
8.61017508965640e-08,5.00000000000000e-01,5.00000000000000e-01,5.14376071132574e-03,0.00000000000000e+00
8.68847116465263e-08,5.00000000000000e-01,5.00000000000000e-01,4.10764287887347e-05,0.00000000000000e+00
8.81428178020692e-08,5.00000000000000e-01,5.00000000000000e-01,-1.15027229254066e-03,0.00000000000000e+00
9.01000000000000e-08,5.00000000000000e-01,4.99999999999971e-01,1.97573848807276e-03,0.00000000000000e+00
9.02991812431002e-08,5.00000000000000e-01,5.00000000000000e-01,-4.70797368155331e-04,0.00000000000000e+00
9.06975437293005e-08,5.00000000000000e-01,5.00000000000000e-01,-9.13419523412111e-05,0.00000000000000e+00
9.14942687017011e-08,5.00000000000000e-01,5.00000000000000e-01,1.58625328251059e-04,0.00000000000000e+00
9.30877186465023e-08,5.00000000000000e-01,5.00000000000000e-01,-1.65161974668040e-04,0.00000000000000e+00
9.51000000000000e-08,5.00000000000000e-01,5.00000000000000e-01,1.78397043968842e-04,0.00000000000000e+00
9.51100000000000e-08,4.50000000000051e-01,5.00000000000000e-01,2.64643294233209e-04,4.99999999999492e-02
9.51300000000000e-08,3.50000000000070e-01,5.00000000000000e-01,3.70856406947138e-04,1.49999999999930e-01
9.51700000000000e-08,1.50000000000108e-01,5.00000000000000e-01,2.96282973093642e-04,3.49999999999892e-01
9.52000000000000e-08,6.99995617026161e-14,5.00000000000000e-01,2.28868938453433e-04,4.99999999999930e-01
9.52080000000000e-08,0.00000000000000e+00,5.00000000000000e-01,2.07373223778284e-04,5.00000000000000e-01
9.52240000000000e-08,0.00000000000000e+00,5.00000000000000e-01,1.75480443221430e-04,5.00000000000000e-01
9.52560000000000e-08,0.00000000000000e+00,5.00000000000000e-01,1.47929178856761e-04,5.00000000000000e-01
9.53200000000000e-08,0.00000000000000e+00,5.00000000000000e-01,4.68259341065702e-05,5.00000000000000e-01
9.54480000000000e-08,0.00000000000000e+00,5.00000000000000e-01,-6.98628136440095e-04,5.00000000000000e-01
9.57040000000000e-08,0.00000000000000e+00,5.00000000000000e-01,-7.29983653465799e-04,5.00000000000000e-01
9.62159999999999e-08,0.00000000000000e+00,5.00000000000000e-01,3.06061518028613e-04,5.00000000000000e-01
9.69909871683456e-08,0.00000000000000e+00,5.00000000000000e-01,-2.32046716386656e-04,5.00000000000000e-01
9.85409615050370e-08,0.00000000000000e+00,5.00000000000000e-01,1.94610183145163e-04,5.00000000000000e-01
1.01640910178420e-07,0.00000000000000e+00,5.00000000000000e-01,-1.57012408571672e-04,5.00000000000000e-01
1.04594374754719e-07,0.00000000000000e+00,5.00000000000000e-01,1.39319539361986e-04,5.00000000000000e-01
1.05000000000000e-07,0.00000000000000e+00,5.00000000000000e-01,-2.93106234339480e-05,5.00000000000000e-01
1.05010000000000e-07,4.99999999999905e-02,5.00000000000000e-01,7.73267944463030e-05,5.00000000000000e-01
1.05030000000000e-07,1.49999999999972e-01,5.00000000000000e-01,2.58412488936419e-04,5.00000000000000e-01
1.05070000000000e-07,3.49999999999934e-01,5.00000000000000e-01,4.88480612123122e-04,5.00000000000000e-01
1.05100000000000e-07,4.99999999999971e-01,5.00000000000000e-01,5.32606855077063e-04,5.00000000000000e-01
1.05108000000000e-07,5.00000000000000e-01,5.00000000000000e-01,4.79082998678389e-04,5.00000000000000e-01
1.05124000000000e-07,5.00000000000000e-01,5.00000000000000e-01,3.65446943998454e-04,5.00000000000000e-01
1.05156000000000e-07,5.00000000000000e-01,5.00000000000000e-01,6.31105257591844e-05,5.00000000000000e-01
1.05220000000000e-07,5.00000000000000e-01,5.00000000000000e-01,-9.03743504127967e-04,5.00000000000000e-01
1.05348000000000e-07,5.00000000000000e-01,5.00000000000000e-01,-2.92351141745565e-03,5.00000000000000e-01
1.05604000000000e-07,5.00000000000000e-01,5.00000000000000e-01,-3.06662312098685e-03,5.00000000000000e-01
1.06116000000000e-07,5.00000000000000e-01,5.00000000000000e-01,2.48038157660650e-01,5.00000000000000e-01
1.07140000000000e-07,5.00000000000000e-01,5.00000000000000e-01,5.10194846685565e-01,5.00000000000000e-01
1.08610840799163e-07,5.00000000000000e-01,5.00000000000000e-01,4.93680039539969e-01,5.00000000000000e-01
1.11300477294141e-07,5.00000000000000e-01,5.00000000000000e-01,5.06984409924163e-01,5.00000000000000e-01
1.14960654568800e-07,5.00000000000000e-01,5.00000000000000e-01,4.93635191899470e-01,5.00000000000000e-01
1.15100000000000e-07,5.00000000000000e-01,5.00000000000000e-01,5.03750875129200e-01,5.00000000000000e-01
1.15110000000000e-07,4.50000000000051e-01,5.00000000000000e-01,5.02427637981540e-01,5.00000000000000e-01
1.15130000000000e-07,3.50000000000070e-01,5.00000000000000e-01,5.00675292323860e-01,5.00000000000000e-01
1.15170000000000e-07,1.50000000000108e-01,5.00000000000000e-01,5.00125012018986e-01,5.00000000000000e-01
1.15200000000000e-07,6.99995617026161e-14,5.00000000000000e-01,5.01366385242267e-01,5.00000000000000e-01
1.15208000000000e-07,0.00000000000000e+00,5.00000000000000e-01,5.01761314129598e-01,5.00000000000000e-01
1.15224000000000e-07,0.00000000000000e+00,5.00000000000000e-01,5.02319333594473e-01,5.00000000000000e-01
1.15256000000000e-07,0.00000000000000e+00,5.00000000000000e-01,5.02673608379959e-01,5.00000000000000e-01
1.15320000000000e-07,0.00000000000000e+00,5.00000000000000e-01,5.01006483210735e-01,5.00000000000000e-01
1.15448000000000e-07,0.00000000000000e+00,5.00000000000000e-01,4.89189087050642e-01,5.00000000000000e-01
1.15704000000000e-07,0.00000000000000e+00,5.00000000000000e-01,4.89758241983828e-01,5.00000000000000e-01
