Time,v(clk),v(data),v(out)
1.00000000000000e-08,5.00000000000000e-01,0.00000000000000e+00,-3.21421562465667e-06
1.00100000000000e-08,5.00000000000000e-01,4.99999999999988e-02,-3.22977957421811e-06
1.00300000000000e-08,5.00000000000000e-01,1.49999999999996e-01,-2.99482239448506e-06
1.00700000000000e-08,5.00000000000000e-01,3.49999999999992e-01,-3.42773267726637e-06
1.01000000000000e-08,5.00000000000000e-01,4.99999999999996e-01,-5.61472669256824e-06
1.01080000000000e-08,5.00000000000000e-01,5.00000000000000e-01,-5.87456108066403e-06
1.01240000000000e-08,5.00000000000000e-01,5.00000000000000e-01,-5.67485580009464e-06
1.01560000000000e-08,5.00000000000000e-01,5.00000000000000e-01,-4.10647062507041e-06
1.02200000000000e-08,5.00000000000000e-01,5.00000000000000e-01,1.61412302106950e-06
1.03480000000000e-08,5.00000000000000e-01,5.00000000000000e-01,5.95618834178108e-06
1.06040000000000e-08,5.00000000000000e-01,5.00000000000000e-01,2.90192821876881e-06
1.11160000000000e-08,5.00000000000000e-01,5.00000000000000e-01,3.59643938193169e-06
1.21400000000000e-08,5.00000000000000e-01,5.00000000000000e-01,3.48746763719453e-06
1.41880000000000e-08,5.00000000000000e-01,5.00000000000000e-01,2.93828281365711e-06
1.51000000000000e-08,5.00000000000000e-01,5.00000000000000e-01,3.14415391960282e-06
1.51100000000000e-08,4.49999999999993e-01,5.00000000000000e-01,-5.01344641698279e-05
1.51300000000000e-08,3.49999999999995e-01,5.00000000000000e-01,-1.40725938477942e-04
1.51700000000000e-08,1.50000000000000e-01,5.00000000000000e-01,-2.28340484885424e-04
1.52000000000000e-08,0.00000000000000e+00,5.00000000000000e-01,-1.13426928266748e-04
1.52080000000000e-08,0.00000000000000e+00,5.00000000000000e-01,3.81876650625695e-06
1.52240000000000e-08,0.00000000000000e+00,5.00000000000000e-01,1.81976269610522e-04
1.52560000000000e-08,0.00000000000000e+00,5.00000000000000e-01,3.17669908922763e-04
1.53200000000000e-08,0.00000000000000e+00,5.00000000000000e-01,2.66681759741171e-04
1.54480000000000e-08,0.00000000000000e+00,5.00000000000000e-01,-2.45125226775340e-05
1.57040000000000e-08,0.00000000000000e+00,5.00000000000000e-01,-1.66041426617605e-04
1.62160000000000e-08,0.00000000000000e+00,5.00000000000000e-01,3.87912341324320e-06
1.72246894488972e-08,0.00000000000000e+00,5.00000000000000e-01,-1.29931623978063e-05
1.84070928323713e-08,0.00000000000000e+00,5.00000000000000e-01,8.44768630440121e-05
2.07718995993194e-08,0.00000000000000e+00,5.00000000000000e-01,-1.02360375973815e-04
2.37986285623085e-08,0.00000000000000e+00,5.00000000000000e-01,1.10345729930718e-04
2.50000000000000e-08,0.00000000000000e+00,5.00000000000000e-01,-1.10499236328380e-04
2.50100000000000e-08,4.99999999999905e-02,5.00000000000000e-01,-4.59704971240288e-06
2.50300000000000e-08,1.50000000000005e-01,5.00000000000000e-01,1.74425430601442e-04
2.50700000000000e-08,3.50000000000000e-01,5.00000000000000e-01,3.62853284733775e-04
2.51000000000000e-08,5.00000000000000e-01,5.00000000000000e-01,3.32026878416179e-04
2.51080000000000e-08,5.00000000000000e-01,5.00000000000000e-01,2.36824581433544e-04
2.51240000000000e-08,5.00000000000000e-01,5.00000000000000e-01,-9.96116311448303e-06
2.51560000000000e-08,5.00000000000000e-01,5.00000000000000e-01,-8.00704404422571e-04
2.52200000000000e-08,5.00000000000000e-01,5.00000000000000e-01,-2.57799900727949e-03
2.53480000000000e-08,5.00000000000000e-01,5.00000000000000e-01,-4.73208560052304e-03
2.56040000000000e-08,5.00000000000000e-01,5.00000000000000e-01,5.45679069159160e-02
2.61160000000000e-08,5.00000000000000e-01,5.00000000000000e-01,4.33203511582611e-01
2.71400000000000e-08,5.00000000000000e-01,5.00000000000000e-01,5.17990944089427e-01
2.83559377676220e-08,5.00000000000000e-01,5.00000000000000e-01,4.80651743844018e-01
3.07651425466610e-08,5.00000000000000e-01,5.00000000000000e-01,5.15858273131888e-01
3.40070078901865e-08,5.00000000000000e-01,5.00000000000000e-01,4.82588271829696e-01
3.51000000000000e-08,4.99999999999975e-01,5.00000000000000e-01,5.13877620430048e-01
3.51100000000000e-08,4.49999999999985e-01,5.00000000000000e-01,5.10107656728548e-01
3.51300000000000e-08,3.49999999999971e-01,5.00000000000000e-01,5.04559075743505e-01
3.51700000000000e-08,1.49999999999975e-01,5.00000000000000e-01,5.00743746637870e-01
3.52000000000000e-08,0.00000000000000e+00,5.00000000000000e-01,5.01192827909738e-01
3.52080000000000e-08,0.00000000000000e+00,5.00000000000000e-01,5.01497921115031e-01
3.52240000000000e-08,0.00000000000000e+00,5.00000000000000e-01,5.01951780229069e-01
3.52560000000000e-08,0.00000000000000e+00,5.00000000000000e-01,5.02347737111973e-01
3.53200000000000e-08,0.00000000000000e+00,5.00000000000000e-01,5.02021793498938e-01
3.54480000000000e-08,0.00000000000000e+00,5.00000000000000e-01,4.93745645242092e-01
3.57040000000000e-08,0.00000000000000e+00,5.00000000000000e-01,4.83462976838151e-01
3.62160000000000e-08,0.00000000000000e+00,5.00000000000000e-01,4.98442110470335e-01
3.72400000000000e-08,0.00000000000000e+00,5.00000000000000e-01,5.00317007235485e-01
3.86192994370846e-08,0.00000000000000e+00,5.00000000000000e-01,4.99223663789137e-01
4.13778983112537e-08,0.00000000000000e+00,5.00000000000000e-01,5.00309516520821e-01
4.50000000000000e-08,0.00000000000000e+00,5.00000000000000e-01,4.99460262143434e-01
4.50100000000000e-08,4.99999999999905e-02,5.00000000000000e-01,4.99580000721195e-01
4.50300000000000e-08,1.50000000000005e-01,5.00000000000000e-01,4.99779804807242e-01
4.50700000000000e-08,3.50000000000000e-01,5.00000000000000e-01,4.99993752676935e-01
4.51000000000000e-08,5.00000000000000e-01,5.00000000000000e-01,5.00002904151543e-01
4.51080000000000e-08,5.00000000000000e-01,4.60000000000021e-01,4.99941609879254e-01
4.51240000000000e-08,5.00000000000000e-01,3.79999999999996e-01,4.99784017680848e-01
4.51560000000000e-08,5.00000000000000e-01,2.20000000000013e-01,4.99320687389536e-01
4.52000000000000e-08,5.00000000000000e-01,2.86437540353290e-14,4.98683299339489e-01
4.52064000000000e-08,5.00000000000000e-01,0.00000000000000e+00,4.98615793554292e-01
4.52192000000000e-08,5.00000000000000e-01,0.00000000000000e+00,4.98489002940469e-01
4.52448000000000e-08,5.00000000000000e-01,0.00000000000000e+00,4.98288912693260e-01
4.52960000000000e-08,5.00000000000000e-01,0.00000000000000e+00,4.98049323214020e-01
4.53984000000000e-08,5.00000000000000e-01,0.00000000000000e+00,4.97932395073047e-01
4.56032000000000e-08,5.00000000000000e-01,0.00000000000000e+00,4.98451840743958e-01
4.60128000000000e-08,5.00000000000000e-01,0.00000000000000e+00,4.99603178157311e-01
4.65554096002932e-08,5.00000000000000e-01,0.00000000000000e+00,5.00021533051536e-01
4.76406288008797e-08,5.00000000000000e-01,0.00000000000000e+00,4.99987413557431e-01
4.89472972956812e-08,5.00000000000000e-01,0.00000000000000e+00,5.00009770719273e-01
5.15606342852843e-08,5.00000000000000e-01,0.00000000000000e+00,4.99990689879901e-01
5.51000000000000e-08,5.00000000000000e-01,0.00000000000000e+00,5.00009125062013e-01
5.51100000000000e-08,4.50000000000018e-01,0.00000000000000e+00,4.99947657215099e-01
5.51300000000000e-08,3.50000000000004e-01,0.00000000000000e+00,4.99852311206238e-01
5.51700000000000e-08,1.50000000000008e-01,0.00000000000000e+00,4.99983131176879e-01
5.52000000000000e-08,0.00000000000000e+00,0.00000000000000e+00,5.00964441806322e-01
5.52080000000000e-08,0.00000000000000e+00,0.00000000000000e+00,5.01322331189992e-01
5.52240000000000e-08,0.00000000000000e+00,0.00000000000000e+00,5.01873497359834e-01
5.52560000000000e-08,0.00000000000000e+00,0.00000000000000e+00,5.02437609798352e-01
5.53200000000000e-08,0.00000000000000e+00,0.00000000000000e+00,5.02971466450133e-01
5.54480000000000e-08,0.00000000000000e+00,0.00000000000000e+00,5.03141477258121e-01
5.57040000000000e-08,0.00000000000000e+00,0.00000000000000e+00,5.00726626739328e-01
5.62160000000000e-08,0.00000000000000e+00,0.00000000000000e+00,4.99413310762184e-01
5.69239513714505e-08,0.00000000000000e+00,0.00000000000000e+00,5.00057216003190e-01
5.83398541143514e-08,0.00000000000000e+00,0.00000000000000e+00,4.99653746250123e-01
5.98323579834819e-08,0.00000000000000e+00,0.00000000000000e+00,5.00022345434957e-01
6.28173657217429e-08,0.00000000000000e+00,0.00000000000000e+00,4.99753846589907e-01
6.50000000000000e-08,0.00000000000000e+00,0.00000000000000e+00,5.00023579073902e-01
6.50100000000000e-08,4.99999999999905e-02,0.00000000000000e+00,5.00062371224921e-01
6.50300000000000e-08,1.49999999999972e-01,0.00000000000000e+00,5.00113277740573e-01
6.50700000000000e-08,3.49999999999934e-01,0.00000000000000e+00,5.00089152644845e-01
6.51000000000000e-08,4.99999999999971e-01,0.00000000000000e+00,4.99986290823005e-01
6.51080000000000e-08,5.00000000000000e-01,0.00000000000000e+00,4.99925995132664e-01
6.51240000000000e-08,5.00000000000000e-01,0.00000000000000e+00,4.99829321740991e-01
6.51560000000000e-08,5.00000000000000e-01,0.00000000000000e+00,4.99739355239835e-01
6.52200000000000e-08,5.00000000000000e-01,0.00000000000000e+00,4.99721476827968e-01
6.53480000000000e-08,5.00000000000000e-01,0.00000000000000e+00,4.99789372860415e-01
6.56040000000000e-08,5.00000000000000e-01,0.00000000000000e+00,5.02129981614450e-01
6.61159999999999e-08,5.00000000000000e-01,0.00000000000000e+00,2.84128796625496e-01
6.71399999999999e-08,5.00000000000000e-01,0.00000000000000e+00,-3.14534004851754e-02
6.82253574362663e-08,5.00000000000000e-01,0.00000000000000e+00,2.93946191519865e-02
6.84966967953329e-08,5.00000000000000e-01,0.00000000000000e+00,7.46124137622970e-03
6.90393755134662e-08,5.00000000000000e-01,0.00000000000000e+00,-3.78949143248719e-03
7.01247329497326e-08,5.00000000000000e-01,0.00000000000000e+00,2.84055959108735e-03
7.22954478222655e-08,5.00000000000000e-01,0.00000000000000e+00,-2.37694577261297e-03
7.51000000000000e-08,5.00000000000000e-01,0.00000000000000e+00,2.14330259865518e-03
7.51100000000000e-08,4.50000000000051e-01,0.00000000000000e+00,1.80935725936110e-03
7.51300000000000e-08,3.50000000000070e-01,0.00000000000000e+00,1.37191277509020e-03
7.51700000000000e-08,1.50000000000108e-01,0.00000000000000e+00,7.16004837742333e-04
7.52000000000000e-08,6.99995617026161e-14,0.00000000000000e+00,5.37398661360433e-04
7.52080000000000e-08,0.00000000000000e+00,0.00000000000000e+00,5.95255921017904e-04
7.52240000000000e-08,0.00000000000000e+00,0.00000000000000e+00,6.61629295206426e-04
7.52560000000000e-08,0.00000000000000e+00,0.00000000000000e+00,6.36658756151556e-04
7.53200000000000e-08,0.00000000000000e+00,0.00000000000000e+00,3.86920432177910e-04
7.54480000000000e-08,0.00000000000000e+00,0.00000000000000e+00,-2.90347982561692e-04
7.57040000000000e-08,0.00000000000000e+00,0.00000000000000e+00,-4.04114809114980e-04
7.62159999999999e-08,0.00000000000000e+00,0.00000000000000e+00,1.89834241930057e-04
7.72144509621310e-08,0.00000000000000e+00,0.00000000000000e+00,-1.27473913286900e-04
7.85989568834648e-08,0.00000000000000e+00,0.00000000000000e+00,9.99415513092674e-05
8.13679687261324e-08,0.00000000000000e+00,0.00000000000000e+00,-8.46519701465849e-05
8.50000000000000e-08,0.00000000000000e+00,0.00000000000000e+00,7.92672986099064e-05
8.50100000000000e-08,4.99999999999905e-02,0.00000000000000e+00,1.52477237518177e-04
8.50300000000000e-08,1.49999999999972e-01,0.00000000000000e+00,2.65711991953306e-04
8.50700000000000e-08,3.49999999999934e-01,0.00000000000000e+00,3.05884886268419e-04
8.51000000000000e-08,4.99999999999971e-01,0.00000000000000e+00,1.85595403757781e-04
8.51080000000000e-08,5.00000000000000e-01,0.00000000000000e+00,1.04110836884115e-04
8.51240000000000e-08,5.00000000000000e-01,0.00000000000000e+00,-3.21274974034447e-05
8.51560000000000e-08,5.00000000000000e-01,0.00000000000000e+00,-1.76136657044142e-04
8.52200000000000e-08,5.00000000000000e-01,0.00000000000000e+00,-2.14359225808168e-04
8.53480000000000e-08,5.00000000000000e-01,0.00000000000000e+00,-9.61867837973931e-05
8.56040000000000e-08,5.00000000000000e-01,0.00000000000000e+00,2.33384593118328e-05
8.61159999999999e-08,5.00000000000000e-01,0.00000000000000e+00,4.22294064083943e-05
8.71399999999999e-08,5.00000000000000e-01,0.00000000000000e+00,-1.69661758571780e-05
8.90457446660648e-08,5.00000000000000e-01,0.00000000000000e+00,1.99681188355581e-05
9.00000000000000e-08,5.00000000000000e-01,0.00000000000000e+00,-3.72279188686712e-06
9.00100000000000e-08,5.00000000000000e-01,4.99999999999905e-02,-3.58865568100136e-06
9.00300000000000e-08,5.00000000000000e-01,1.49999999999972e-01,-3.17839715164442e-06
9.00700000000000e-08,5.00000000000000e-01,3.49999999999934e-01,-3.32836207243142e-06
9.01000000000000e-08,5.00000000000000e-01,4.99999999999971e-01,-5.33271792770712e-06
9.01080000000000e-08,5.00000000000000e-01,5.00000000000000e-01,-5.59076302043132e-06
9.01240000000000e-08,5.00000000000000e-01,5.00000000000000e-01,-5.34382560836433e-06
9.01560000000000e-08,5.00000000000000e-01,5.00000000000000e-01,-3.75590481070665e-06
9.02200000000000e-08,5.00000000000000e-01,5.00000000000000e-01,1.75703826864326e-06
9.03480000000000e-08,5.00000000000000e-01,5.00000000000000e-01,5.76815356308560e-06
9.06040000000000e-08,5.00000000000000e-01,5.00000000000000e-01,2.94482190405301e-06
9.11159999999999e-08,5.00000000000000e-01,5.00000000000000e-01,3.64261995847333e-06
9.21399999999999e-08,5.00000000000000e-01,5.00000000000000e-01,3.42820722711197e-06
9.41879999999998e-08,5.00000000000000e-01,5.00000000000000e-01,2.99962058239976e-06
9.51000000000000e-08,5.00000000000000e-01,5.00000000000000e-01,3.07409869120152e-06
9.51100000000000e-08,4.50000000000051e-01,5.00000000000000e-01,-5.00269242538418e-05
9.51300000000000e-08,3.50000000000070e-01,5.00000000000000e-01,-1.40728034194348e-04
9.51700000000000e-08,1.50000000000108e-01,5.00000000000000e-01,-2.28389662931587e-04
9.52000000000000e-08,6.99995617026161e-14,5.00000000000000e-01,-1.13511945592497e-04
9.52080000000000e-08,0.00000000000000e+00,5.00000000000000e-01,3.73248184707548e-06
9.52240000000000e-08,0.00000000000000e+00,5.00000000000000e-01,1.81891733516196e-04
9.52560000000000e-08,0.00000000000000e+00,5.00000000000000e-01,3.17600258506162e-04
9.53200000000000e-08,0.00000000000000e+00,5.00000000000000e-01,2.66634252337111e-04
9.54480000000000e-08,0.00000000000000e+00,5.00000000000000e-01,-2.45669303787915e-05
9.57040000000000e-08,0.00000000000000e+00,5.00000000000000e-01,-1.66039251359374e-04
9.62159999999999e-08,0.00000000000000e+00,5.00000000000000e-01,3.88305682878266e-06
9.72246621121436e-08,0.00000000000000e+00,5.00000000000000e-01,-1.29962881290670e-05
9.84070339813887e-08,0.00000000000000e+00,5.00000000000000e-01,8.44885232209177e-05
1.00771777719879e-07,0.00000000000000e+00,5.00000000000000e-01,-1.02375443964155e-04
1.03798440439422e-07,0.00000000000000e+00,5.00000000000000e-01,1.10362341785926e-04
1.05000000000000e-07,0.00000000000000e+00,5.00000000000000e-01,-1.10517946414205e-04
1.05010000000000e-07,4.99999999999905e-02,5.00000000000000e-01,-4.61201813713868e-06
1.05030000000000e-07,1.49999999999972e-01,5.00000000000000e-01,1.74414343721528e-04
1.05070000000000e-07,3.49999999999934e-01,5.00000000000000e-01,3.62846393509010e-04
1.05100000000000e-07,4.99999999999971e-01,5.00000000000000e-01,3.32024119524356e-04
1.05108000000000e-07,5.00000000000000e-01,5.00000000000000e-01,2.36824256614795e-04
1.05124000000000e-07,5.00000000000000e-01,5.00000000000000e-01,-9.95570205484381e-06
1.05156000000000e-07,5.00000000000000e-01,5.00000000000000e-01,-8.00688692020005e-04
1.05220000000000e-07,5.00000000000000e-01,5.00000000000000e-01,-2.57798242231608e-03
1.05348000000000e-07,5.00000000000000e-01,5.00000000000000e-01,-4.73208192314081e-03
1.05604000000000e-07,5.00000000000000e-01,5.00000000000000e-01,5.45677484932704e-02
1.06116000000000e-07,5.00000000000000e-01,5.00000000000000e-01,4.33203390136808e-01
1.07140000000000e-07,5.00000000000000e-01,5.00000000000000e-01,5.17990966737231e-01
1.08355937385996e-07,5.00000000000000e-01,5.00000000000000e-01,4.80651721292323e-01
1.10765142724359e-07,5.00000000000000e-01,5.00000000000000e-01,5.15858292881817e-01
1.14007008432329e-07,5.00000000000000e-01,5.00000000000000e-01,4.82588250263317e-01
1.15100000000000e-07,5.00000000000000e-01,5.00000000000000e-01,5.13877637146961e-01
1.15110000000000e-07,4.50000000000051e-01,5.00000000000000e-01,5.10107668844862e-01
1.15130000000000e-07,3.50000000000070e-01,5.00000000000000e-01,5.04559081148061e-01
1.15170000000000e-07,1.50000000000108e-01,5.00000000000000e-01,5.00743747238055e-01
1.15200000000000e-07,6.99995617026161e-14,5.00000000000000e-01,5.01192827974136e-01
1.15208000000000e-07,0.00000000000000e+00,5.00000000000000e-01,5.01497921136746e-01
1.15224000000000e-07,0.00000000000000e+00,5.00000000000000e-01,5.01951780160544e-01
1.15256000000000e-07,0.00000000000000e+00,5.00000000000000e-01,5.02347736928905e-01
1.15320000000000e-07,0.00000000000000e+00,5.00000000000000e-01,5.02021793146404e-01
1.15448000000000e-07,0.00000000000000e+00,5.00000000000000e-01,4.93745644359589e-01
1.15704000000000e-07,0.00000000000000e+00,5.00000000000000e-01,4.83462976592591e-01
1.16216000000000e-07,0.00000000000000e+00,5.00000000000000e-01,4.98442110706077e-01
1.17240000000000e-07,0.00000000000000e+00,5.00000000000000e-01,5.00317007015406e-01
1.18619299420760e-07,0.00000000000000e+00,5.00000000000000e-01,4.99223663970892e-01
1.21377898262280e-07,0.00000000000000e+00,5.00000000000000e-01,5.00309516351520e-01
1.25000000000000e-07,0.00000000000000e+00,5.00000000000000e-01,4.99460262301791e-01
1.25010000000000e-07,4.99999999999243e-02,5.00000000000000e-01,4.99580000909718e-01
1.25030000000000e-07,1.49999999999905e-01,5.00000000000000e-01,4.99779804976410e-01
1.25070000000000e-07,3.49999999999867e-01,5.00000000000000e-01,4.99993752713675e-01
1.25100000000000e-07,4.99999999999905e-01,5.00000000000000e-01,5.00002904146767e-01
1.25108000000000e-07,5.00000000000000e-01,4.59999999999955e-01,4.99941609874826e-01
1.25124000000000e-07,5.00000000000000e-01,3.79999999999996e-01,4.99784017650483e-01
1.25156000000000e-07,5.00000000000000e-01,2.19999999999947e-01,4.99320687353921e-01
1.25200000000000e-07,5.00000000000000e-01,0.00000000000000e+00,4.98683299370205e-01
1.25206400000000e-07,5.00000000000000e-01,0.00000000000000e+00,4.98615793587116e-01
1.25219200000000e-07,5.00000000000000e-01,0.00000000000000e+00,4.98489002974079e-01
1.25244800000000e-07,5.00000000000000e-01,0.00000000000000e+00,4.98288912729414e-01
1.25296000000000e-07,5.00000000000000e-01,0.00000000000000e+00,4.98049323274155e-01
1.25398400000000e-07,5.00000000000000e-01,0.00000000000000e+00,4.97932395355369e-01
1.25603200000000e-07,5.00000000000000e-01,0.00000000000000e+00,4.98451841311060e-01
1.26012800000000e-07,5.00000000000000e-01,0.00000000000000e+00,4.99603177725499e-01
1.26555409648484e-07,5.00000000000000e-01,0.00000000000000e+00,5.00021533047293e-01
1.27640628945453e-07,5.00000000000000e-01,0.00000000000000e+00,4.99987413563742e-01
1.28947297764120e-07,5.00000000000000e-01,0.00000000000000e+00,5.00009770709779e-01
1.31560635401454e-07,5.00000000000000e-01,0.00000000000000e+00,4.99990689891437e-01
1.35100000000000e-07,4.99999999999909e-01,0.00000000000000e+00,5.00009125049021e-01
1.35110000000000e-07,4.49999999999852e-01,0.00000000000000e+00,4.99947657244687e-01
1.35130000000000e-07,3.49999999999871e-01,0.00000000000000e+00,4.99852311274516e-01
1.35170000000000e-07,1.49999999999909e-01,0.00000000000000e+00,4.99983131227072e-01
1.35200000000000e-07,0.00000000000000e+00,0.00000000000000e+00,5.00964441824572e-01
1.35208000000000e-07,0.00000000000000e+00,0.00000000000000e+00,5.01322331212303e-01
1.35224000000000e-07,0.00000000000000e+00,0.00000000000000e+00,5.01873497384218e-01
1.35256000000000e-07,0.00000000000000e+00,0.00000000000000e+00,5.02437609812458e-01
1.35320000000000e-07,0.00000000000000e+00,0.00000000000000e+00,5.02971466439527e-01
1.35448000000000e-07,0.00000000000000e+00,0.00000000000000e+00,5.03141477255141e-01
1.35704000000000e-07,0.00000000000000e+00,0.00000000000000e+00,5.00726626746254e-01
1.36216000000000e-07,0.00000000000000e+00,0.00000000000000e+00,4.99413310758150e-01
