Time,v(clk),v(data),v(out)
1.00000000000000e-08,3.30000000000000e-01,0.00000000000000e+00,-8.05811991329113e-06
1.00100000000000e-08,3.30000000000000e-01,3.29999999999992e-02,-6.65636749668311e-06
1.00300000000000e-08,3.30000000000000e-01,9.89999999999976e-02,-4.47347528014300e-06
1.00700000000000e-08,3.30000000000000e-01,2.30999999999994e-01,-1.86646775952523e-06
1.01000000000000e-08,3.30000000000000e-01,3.29999999999998e-01,-7.19289293491659e-07
1.01080000000000e-08,3.30000000000000e-01,3.30000000000000e-01,-4.63853962340971e-07
1.01240000000000e-08,3.30000000000000e-01,3.30000000000000e-01,1.56881352870314e-07
1.01560000000000e-08,3.30000000000000e-01,3.30000000000000e-01,1.58247653326074e-06
1.02200000000000e-08,3.30000000000000e-01,3.30000000000000e-01,2.96733176163681e-06
1.03480000000000e-08,3.30000000000000e-01,3.30000000000000e-01,4.40330971005799e-06
1.06040000000000e-08,3.30000000000000e-01,3.30000000000000e-01,6.02590281314520e-06
1.11160000000000e-08,3.30000000000000e-01,3.30000000000000e-01,5.04170535547098e-06
1.21400000000000e-08,3.30000000000000e-01,3.30000000000000e-01,4.15794963781486e-06
1.41880000000000e-08,3.30000000000000e-01,3.30000000000000e-01,4.41338607250121e-06
1.51000000000000e-08,3.30000000000000e-01,3.30000000000000e-01,3.66062832389807e-06
1.51100000000000e-08,2.96999999999995e-01,3.30000000000000e-01,-1.28381087908629e-05
1.51300000000000e-08,2.30999999999997e-01,3.30000000000000e-01,-4.49198570539669e-05
1.51700000000000e-08,9.90000000000001e-02,3.30000000000000e-01,-1.07226141190506e-04
1.52000000000000e-08,0.00000000000000e+00,3.30000000000000e-01,-1.44076853723901e-04
1.52080000000000e-08,0.00000000000000e+00,3.30000000000000e-01,-1.28237312203877e-04
1.52240000000000e-08,0.00000000000000e+00,3.30000000000000e-01,-9.81311659799047e-05
1.52560000000000e-08,0.00000000000000e+00,3.30000000000000e-01,-4.60387684889964e-05
1.53200000000000e-08,0.00000000000000e+00,3.30000000000000e-01,2.18527384553621e-05
1.54480000000000e-08,0.00000000000000e+00,3.30000000000000e-01,6.67092970101611e-05
1.57040000000000e-08,0.00000000000000e+00,3.30000000000000e-01,4.84450361695234e-05
1.62160000000000e-08,0.00000000000000e+00,3.30000000000000e-01,-2.89358778294592e-06
1.72400000000000e-08,0.00000000000000e+00,3.30000000000000e-01,-2.99772303846684e-05
1.92880000000000e-08,0.00000000000000e+00,3.30000000000000e-01,6.02525125890626e-06
2.30880000000000e-08,0.00000000000000e+00,3.30000000000000e-01,-3.40611290908994e-05
2.50000000000000e-08,0.00000000000000e+00,3.30000000000000e-01,4.87360831075605e-05
2.50100000000000e-08,3.29999999999937e-02,3.30000000000000e-01,7.59092539733101e-05
2.50300000000000e-08,9.90000000000031e-02,3.30000000000000e-01,1.18539972504519e-04
2.50700000000000e-08,2.31000000000000e-01,3.30000000000000e-01,1.64563372621242e-04
2.51000000000000e-08,3.30000000000000e-01,3.30000000000000e-01,1.63095510168684e-04
2.51080000000000e-08,3.30000000000000e-01,3.30000000000000e-01,1.45546999952510e-04
2.51240000000000e-08,3.30000000000000e-01,3.30000000000000e-01,1.08261670212044e-04
2.51560000000000e-08,3.30000000000000e-01,3.30000000000000e-01,1.97249001006698e-05
2.52200000000000e-08,3.30000000000000e-01,3.30000000000000e-01,-2.45080950820759e-04
2.53480000000000e-08,3.30000000000000e-01,3.30000000000000e-01,-1.02588378486120e-03
2.56040000000000e-08,3.30000000000000e-01,3.30000000000000e-01,-2.33303489979584e-03
2.61160000000000e-08,3.30000000000000e-01,3.30000000000000e-01,7.26394964795901e-04
2.71400000000000e-08,3.30000000000000e-01,3.30000000000000e-01,1.06155935837334e-01
2.91880000000000e-08,3.30000000000000e-01,3.30000000000000e-01,3.20224379143571e-01
3.01000000000000e-08,3.30000000000000e-01,3.30000000000000e-01,3.29249788164796e-01
3.01100000000000e-08,3.30000000000000e-01,2.97000000000017e-01,3.29363411985119e-01
3.01300000000000e-08,3.30000000000000e-01,2.31000000000008e-01,3.29422080538547e-01
3.01700000000000e-08,3.30000000000000e-01,9.90000000000111e-02,3.29501243012909e-01
3.02000000000000e-08,3.30000000000000e-01,7.93809462606987e-15,3.29533069922143e-01
3.02080000000000e-08,3.30000000000000e-01,0.00000000000000e+00,3.29542407270611e-01
3.02240000000000e-08,3.30000000000000e-01,0.00000000000000e+00,3.29559571104166e-01
3.02560000000000e-08,3.30000000000000e-01,0.00000000000000e+00,3.29590649445600e-01
3.03200000000000e-08,3.30000000000000e-01,0.00000000000000e+00,3.29622385428457e-01
3.04480000000000e-08,3.30000000000000e-01,0.00000000000000e+00,3.29659700597457e-01
3.07040000000000e-08,3.30000000000000e-01,0.00000000000000e+00,3.29705776673001e-01
3.12160000000000e-08,3.30000000000000e-01,0.00000000000000e+00,3.29731857983074e-01
3.22400000000000e-08,3.30000000000000e-01,0.00000000000000e+00,3.29751791154850e-01
3.42880000000000e-08,3.30000000000000e-01,0.00000000000000e+00,3.29792039405356e-01
3.51000000000000e-08,3.29999999999984e-01,0.00000000000000e+00,3.29796856364428e-01
3.51100000000000e-08,2.96999999999990e-01,0.00000000000000e+00,3.29782665521913e-01
3.51300000000000e-08,2.30999999999981e-01,0.00000000000000e+00,3.29748073556301e-01
3.51700000000000e-08,9.89999999999837e-02,0.00000000000000e+00,3.29693089496801e-01
3.52000000000000e-08,0.00000000000000e+00,0.00000000000000e+00,3.29736938167522e-01
3.52080000000000e-08,0.00000000000000e+00,0.00000000000000e+00,3.29779354216219e-01
3.52240000000000e-08,0.00000000000000e+00,0.00000000000000e+00,3.29855898359875e-01
3.52560000000000e-08,0.00000000000000e+00,0.00000000000000e+00,3.29977971843804e-01
3.53200000000000e-08,0.00000000000000e+00,0.00000000000000e+00,3.30155255262118e-01
3.54480000000000e-08,0.00000000000000e+00,0.00000000000000e+00,3.30322290334809e-01
3.57040000000000e-08,0.00000000000000e+00,0.00000000000000e+00,3.30227054686601e-01
3.62160000000000e-08,0.00000000000000e+00,0.00000000000000e+00,3.28692283867007e-01
3.72400000000000e-08,0.00000000000000e+00,0.00000000000000e+00,3.21474757627193e-01
3.91000000000000e-08,0.00000000000000e+00,0.00000000000000e+00,3.18516501830478e-01
3.93048000000000e-08,0.00000000000000e+00,0.00000000000000e+00,3.19788288508132e-01
3.97144000000000e-08,0.00000000000000e+00,0.00000000000000e+00,3.22116498183157e-01
4.05336000000000e-08,0.00000000000000e+00,0.00000000000000e+00,3.25411331693135e-01
4.21720000000000e-08,0.00000000000000e+00,0.00000000000000e+00,3.28031255749022e-01
4.50000000000000e-08,0.00000000000000e+00,0.00000000000000e+00,3.28813875167585e-01
4.50100000000000e-08,3.29999999999937e-02,0.00000000000000e+00,3.28833329240130e-01
4.50300000000000e-08,9.90000000000031e-02,0.00000000000000e+00,3.28867274916768e-01
4.50700000000000e-08,2.31000000000000e-01,0.00000000000000e+00,3.28909609526092e-01
4.51000000000000e-08,3.30000000000000e-01,0.00000000000000e+00,3.28915253957384e-01
4.51080000000000e-08,3.30000000000000e-01,0.00000000000000e+00,3.28905542707445e-01
4.51240000000000e-08,3.30000000000000e-01,0.00000000000000e+00,3.28887502553419e-01
4.51560000000000e-08,3.30000000000000e-01,0.00000000000000e+00,3.28858206139798e-01
4.52200000000000e-08,3.30000000000000e-01,0.00000000000000e+00,3.28818138468748e-01
4.53480000000000e-08,3.30000000000000e-01,0.00000000000000e+00,3.28782632112477e-01
4.56040000000000e-08,3.30000000000000e-01,0.00000000000000e+00,3.28804530002329e-01
4.61160000000000e-08,3.30000000000000e-01,0.00000000000000e+00,3.29097564498742e-01
4.71400000000000e-08,3.30000000000000e-01,0.00000000000000e+00,3.32349997419072e-01
4.91880000000000e-08,3.30000000000000e-01,0.00000000000000e+00,1.03693989822712e-01
5.00000000000000e-08,3.30000000000000e-01,0.00000000000000e+00,2.36232036346114e-03
5.00100000000000e-08,3.30000000000000e-01,3.29999999999937e-02,2.18113889457915e-03
5.00300000000000e-08,3.30000000000000e-01,9.89999999999812e-02,1.87636572790539e-03
5.00700000000000e-08,3.30000000000000e-01,2.31000000000000e-01,1.42445288553456e-03
5.01000000000000e-08,3.30000000000000e-01,3.30000000000000e-01,1.20981281680033e-03
5.01080000000000e-08,3.30000000000000e-01,3.30000000000000e-01,1.15608965814555e-03
5.01240000000000e-08,3.30000000000000e-01,3.30000000000000e-01,1.04827074245372e-03
5.01560000000000e-08,3.30000000000000e-01,3.30000000000000e-01,8.70918344668179e-04
5.02200000000000e-08,3.30000000000000e-01,3.30000000000000e-01,5.94335666710228e-04
5.03480000000000e-08,3.30000000000000e-01,3.30000000000000e-01,2.97697893666606e-04
5.06040000000000e-08,3.30000000000000e-01,3.30000000000000e-01,6.75735345934941e-05
5.11160000000001e-08,3.30000000000000e-01,3.30000000000000e-01,-4.56212125196989e-07
5.21400000000002e-08,3.30000000000000e-01,3.30000000000000e-01,-3.61366322735972e-07
5.41880000000003e-08,3.30000000000000e-01,3.30000000000000e-01,-7.66619003654892e-07
5.51000000000000e-08,3.30000000000000e-01,3.30000000000000e-01,-4.15411164200914e-07
5.51100000000000e-08,2.97000000000012e-01,3.30000000000000e-01,-1.64804370436401e-05
5.51300000000000e-08,2.31000000000002e-01,3.30000000000000e-01,-4.76129325032923e-05
5.51700000000000e-08,9.90000000000056e-02,3.30000000000000e-01,-1.06072922442840e-04
5.52000000000000e-08,0.00000000000000e+00,3.30000000000000e-01,-1.37651341058267e-04
5.52080000000000e-08,0.00000000000000e+00,3.30000000000000e-01,-1.22359395225171e-04
5.52240000000000e-08,0.00000000000000e+00,3.30000000000000e-01,-9.59690748439830e-05
5.52560000000000e-08,0.00000000000000e+00,3.30000000000000e-01,-5.41432315488734e-05
5.53200000000000e-08,0.00000000000000e+00,3.30000000000000e-01,1.68315412921588e-05
5.54480000000000e-08,0.00000000000000e+00,3.30000000000000e-01,6.30252827980501e-05
5.57040000000000e-08,0.00000000000000e+00,3.30000000000000e-01,4.55138064643160e-05
5.62160000000000e-08,0.00000000000000e+00,3.30000000000000e-01,-2.48859634899099e-05
5.72400000000000e-08,0.00000000000000e+00,3.30000000000000e-01,-1.83079975479771e-04
5.92880000000000e-08,0.00000000000000e+00,3.30000000000000e-01,4.10531768817069e-05
6.30880000000000e-08,0.00000000000000e+00,3.30000000000000e-01,-5.96038260820076e-05
6.50000000000000e-08,0.00000000000000e+00,3.30000000000000e-01,5.66885731538447e-05
6.50100000000000e-08,3.29999999999937e-02,3.30000000000000e-01,8.79815091458756e-05
6.50300000000000e-08,9.89999999999812e-02,3.30000000000000e-01,1.36252178988723e-04
6.50700000000000e-08,2.30999999999956e-01,3.30000000000000e-01,1.87217373160117e-04
6.51000000000000e-08,3.29999999999981e-01,3.30000000000000e-01,1.85138501160038e-04
6.51080000000000e-08,3.30000000000000e-01,3.30000000000000e-01,1.67259508690339e-04
6.51240000000000e-08,3.30000000000000e-01,3.30000000000000e-01,1.28796430215631e-04
6.51560000000000e-08,3.30000000000000e-01,3.30000000000000e-01,3.86122716901603e-05
6.52200000000000e-08,3.30000000000000e-01,3.30000000000000e-01,-2.30417722145555e-04
6.53480000000000e-08,3.30000000000000e-01,3.30000000000000e-01,-1.01863273472903e-03
6.56040000000000e-08,3.30000000000000e-01,3.30000000000000e-01,-2.33190247014683e-03
6.61159999999999e-08,3.30000000000000e-01,3.30000000000000e-01,7.32305240167382e-04
6.71399999999999e-08,3.30000000000000e-01,3.30000000000000e-01,1.06186419894500e-01
6.91879999999998e-08,3.30000000000000e-01,3.30000000000000e-01,3.20235805840742e-01
7.01000000000000e-08,3.30000000000000e-01,3.30000000000000e-01,3.29248919783418e-01
7.01100000000000e-08,3.30000000000000e-01,2.97000000000006e-01,3.29362629915369e-01
7.01300000000000e-08,3.30000000000000e-01,2.31000000000019e-01,3.29421415942417e-01
7.01700000000000e-08,3.30000000000000e-01,9.90000000000438e-02,3.29500763699648e-01
7.02000000000000e-08,3.30000000000000e-01,1.88737914186277e-14,3.29532702414985e-01
7.02080000000000e-08,3.30000000000000e-01,0.00000000000000e+00,3.29542059958978e-01
7.02240000000000e-08,3.30000000000000e-01,0.00000000000000e+00,3.29559269458424e-01
7.02560000000000e-08,3.30000000000000e-01,0.00000000000000e+00,3.29590432548098e-01
7.03200000000000e-08,3.30000000000000e-01,0.00000000000000e+00,3.29622273616737e-01
7.04480000000000e-08,3.30000000000000e-01,0.00000000000000e+00,3.29659700434881e-01
7.07040000000000e-08,3.30000000000000e-01,0.00000000000000e+00,3.29705824925743e-01
7.12159999999999e-08,3.30000000000000e-01,0.00000000000000e+00,3.29731891027242e-01
7.22399999999999e-08,3.30000000000000e-01,0.00000000000000e+00,3.29751814087889e-01
7.42879999999998e-08,3.30000000000000e-01,0.00000000000000e+00,3.29792038383690e-01
7.51000000000000e-08,3.30000000000000e-01,0.00000000000000e+00,3.29798083035054e-01
7.51100000000000e-08,2.97000000000034e-01,0.00000000000000e+00,3.29783904003122e-01
7.51300000000000e-08,2.31000000000046e-01,0.00000000000000e+00,3.29749057640388e-01
7.51700000000000e-08,9.90000000000711e-02,0.00000000000000e+00,3.29693483984380e-01
7.52000000000000e-08,4.61852778244065e-14,0.00000000000000e+00,3.29736903504417e-01
7.52080000000000e-08,0.00000000000000e+00,0.00000000000000e+00,3.29779335242182e-01
7.52240000000000e-08,0.00000000000000e+00,0.00000000000000e+00,3.29855900435975e-01
7.52560000000000e-08,0.00000000000000e+00,0.00000000000000e+00,3.29978000769910e-01
7.53200000000000e-08,0.00000000000000e+00,0.00000000000000e+00,3.30155338813884e-01
7.54480000000000e-08,0.00000000000000e+00,0.00000000000000e+00,3.30322323305606e-01
7.57040000000000e-08,0.00000000000000e+00,0.00000000000000e+00,3.30227090919620e-01
7.62159999999999e-08,0.00000000000000e+00,0.00000000000000e+00,3.28692266461412e-01
7.72399999999999e-08,0.00000000000000e+00,0.00000000000000e+00,3.21474724767647e-01
7.81000000000000e-08,0.00000000000000e+00,0.00000000000000e+00,3.17226040602487e-01
7.83048000000000e-08,0.00000000000000e+00,0.00000000000000e+00,3.17415913277830e-01
7.87144000000000e-08,0.00000000000000e+00,0.00000000000000e+00,3.18213888435449e-01
7.95335999999999e-08,0.00000000000000e+00,0.00000000000000e+00,3.21773642281973e-01
8.11719999999998e-08,0.00000000000000e+00,0.00000000000000e+00,3.27462401561289e-01
8.44042506623987e-08,0.00000000000000e+00,0.00000000000000e+00,3.28976374919755e-01
8.50000000000000e-08,0.00000000000000e+00,0.00000000000000e+00,3.28920599830952e-01
8.50100000000000e-08,3.29999999999937e-02,0.00000000000000e+00,3.28937245370447e-01
8.50300000000000e-08,9.89999999999812e-02,0.00000000000000e+00,3.28965788127393e-01
8.50700000000000e-08,2.30999999999956e-01,0.00000000000000e+00,3.29002566904807e-01
8.51000000000000e-08,3.29999999999981e-01,0.00000000000000e+00,3.29007783730062e-01
8.51080000000000e-08,3.30000000000000e-01,0.00000000000000e+00,3.28997432791683e-01
8.51240000000000e-08,3.30000000000000e-01,0.00000000000000e+00,3.28978423606110e-01
8.51560000000000e-08,3.30000000000000e-01,0.00000000000000e+00,3.28948270782219e-01
8.52200000000000e-08,3.30000000000000e-01,0.00000000000000e+00,3.28908821478099e-01
8.53480000000000e-08,3.30000000000000e-01,0.00000000000000e+00,3.28870848593301e-01
8.56040000000000e-08,3.30000000000000e-01,0.00000000000000e+00,3.28885430489648e-01
8.61159999999999e-08,3.30000000000000e-01,0.00000000000000e+00,3.29156044511175e-01
8.71399999999999e-08,3.30000000000000e-01,0.00000000000000e+00,3.32420446744833e-01
8.91879999999998e-08,3.30000000000000e-01,0.00000000000000e+00,1.04883211727681e-01
9.00000000000000e-08,3.30000000000000e-01,0.00000000000000e+00,2.73880763402426e-03
9.00100000000000e-08,3.30000000000000e-01,3.29999999999937e-02,2.52857339187983e-03
9.00300000000000e-08,3.30000000000000e-01,9.89999999999812e-02,2.17933905231749e-03
9.00700000000000e-08,3.30000000000000e-01,2.30999999999956e-01,1.65140629614704e-03
9.01000000000000e-08,3.30000000000000e-01,3.29999999999981e-01,1.39609525683844e-03
9.01080000000000e-08,3.30000000000000e-01,3.30000000000000e-01,1.33129293950545e-03
9.01240000000000e-08,3.30000000000000e-01,3.30000000000000e-01,1.21258795136557e-03
9.01560000000000e-08,3.30000000000000e-01,3.30000000000000e-01,1.01182919852877e-03
9.02200000000000e-08,3.30000000000000e-01,3.30000000000000e-01,6.83003914122666e-04
9.03480000000000e-08,3.30000000000000e-01,3.30000000000000e-01,3.33531904287700e-04
9.06040000000000e-08,3.30000000000000e-01,3.30000000000000e-01,7.18552989066191e-05
9.11159999999999e-08,3.30000000000000e-01,3.30000000000000e-01,-1.24588372379421e-06
9.21399999999999e-08,3.30000000000000e-01,3.30000000000000e-01,-8.85979890763097e-08
9.41879999999998e-08,3.30000000000000e-01,3.30000000000000e-01,-9.48108151485778e-07
9.51000000000000e-08,3.30000000000000e-01,3.30000000000000e-01,-3.29529435213853e-07
9.51100000000000e-08,2.97000000000034e-01,3.30000000000000e-01,-1.69098758221187e-05
9.51300000000000e-08,2.31000000000046e-01,3.30000000000000e-01,-4.86675376930659e-05
9.51700000000000e-08,9.90000000000711e-02,3.30000000000000e-01,-1.07756435414521e-04
9.52000000000000e-08,4.61852778244065e-14,3.30000000000000e-01,-1.40046181387469e-04
9.52080000000000e-08,0.00000000000000e+00,3.30000000000000e-01,-1.24843898782364e-04
9.52240000000000e-08,0.00000000000000e+00,3.30000000000000e-01,-9.83720951975853e-05
9.52560000000000e-08,0.00000000000000e+00,3.30000000000000e-01,-5.65816562983143e-05
9.53200000000000e-08,0.00000000000000e+00,3.30000000000000e-01,1.40753461829318e-05
9.54480000000000e-08,0.00000000000000e+00,3.30000000000000e-01,6.07175396256515e-05
9.57040000000000e-08,0.00000000000000e+00,3.30000000000000e-01,4.44823217798512e-05
9.62159999999999e-08,0.00000000000000e+00,3.30000000000000e-01,-2.47671890323715e-05
9.72399999999999e-08,0.00000000000000e+00,3.30000000000000e-01,-1.83218808974410e-04
9.92879999999998e-08,0.00000000000000e+00,3.30000000000000e-01,4.11149587466646e-05
1.03088000000000e-07,0.00000000000000e+00,3.30000000000000e-01,-5.96629292918382e-05
1.05000000000000e-07,0.00000000000000e+00,3.30000000000000e-01,5.67329209712640e-05
1.05010000000000e-07,3.29999999999937e-02,3.30000000000000e-01,8.80212740542209e-05
1.05030000000000e-07,9.89999999999812e-02,3.30000000000000e-01,1.36284567508315e-04
1.05070000000000e-07,2.30999999999956e-01,3.30000000000000e-01,1.87239383558309e-04
1.05100000000000e-07,3.29999999999981e-01,3.30000000000000e-01,1.85156321545626e-04
1.05108000000000e-07,3.30000000000000e-01,3.30000000000000e-01,1.67276365970661e-04
1.05124000000000e-07,3.30000000000000e-01,3.30000000000000e-01,1.28811462965606e-04
1.05156000000000e-07,3.30000000000000e-01,3.30000000000000e-01,3.86241100038924e-05
1.05220000000000e-07,3.30000000000000e-01,3.30000000000000e-01,-2.30410775887598e-04
1.05348000000000e-07,3.30000000000000e-01,3.30000000000000e-01,-1.01863012398220e-03
1.05604000000000e-07,3.30000000000000e-01,3.30000000000000e-01,-2.33190241710927e-03
1.06116000000000e-07,3.30000000000000e-01,3.30000000000000e-01,7.32307463649037e-04
1.07140000000000e-07,3.30000000000000e-01,3.30000000000000e-01,1.06186430909391e-01
1.09188000000000e-07,3.30000000000000e-01,3.30000000000000e-01,3.20235809982420e-01
1.10100000000000e-07,3.30000000000000e-01,3.30000000000000e-01,3.29248919443179e-01
1.10110000000000e-07,3.30000000000000e-01,2.97000000000050e-01,3.29362629605099e-01
1.10130000000000e-07,3.30000000000000e-01,2.31000000000062e-01,3.29421415675195e-01
1.10170000000000e-07,3.30000000000000e-01,9.90000000000875e-02,3.29500763500432e-01
1.10200000000000e-07,3.30000000000000e-01,6.25610674376276e-14,3.29532702257764e-01
1.10208000000000e-07,3.30000000000000e-01,0.00000000000000e+00,3.29542059809549e-01
1.10224000000000e-07,3.30000000000000e-01,0.00000000000000e+00,3.29559269326417e-01
1.10256000000000e-07,3.30000000000000e-01,0.00000000000000e+00,3.29590432448530e-01
1.10320000000000e-07,3.30000000000000e-01,0.00000000000000e+00,3.29622273558255e-01
1.10448000000000e-07,3.30000000000000e-01,0.00000000000000e+00,3.29659700421719e-01
1.10704000000000e-07,3.30000000000000e-01,0.00000000000000e+00,3.29705824932503e-01
1.11216000000000e-07,3.30000000000000e-01,0.00000000000000e+00,3.29731891033371e-01
1.12240000000000e-07,3.30000000000000e-01,0.00000000000000e+00,3.29751814091346e-01
1.14288000000000e-07,3.30000000000000e-01,0.00000000000000e+00,3.29792038375056e-01
1.15100000000000e-07,3.30000000000000e-01,0.00000000000000e+00,3.29798083025074e-01
