Time,v(clk),v(data),v(out)
1.00000000000000e-08,3.30000000000000e-01,0.00000000000000e+00,-8.05901566913909e-06
1.00100000000000e-08,3.30000000000000e-01,3.29999999999992e-02,-6.65752616101772e-06
1.00300000000000e-08,3.30000000000000e-01,9.89999999999976e-02,-4.47488805729174e-06
1.00700000000000e-08,3.30000000000000e-01,2.30999999999994e-01,-1.86779022554734e-06
1.01000000000000e-08,3.30000000000000e-01,3.29999999999998e-01,-7.20426559696480e-07
1.01080000000000e-08,3.30000000000000e-01,3.30000000000000e-01,-4.64921406564262e-07
1.01240000000000e-08,3.30000000000000e-01,3.30000000000000e-01,1.55958276123330e-07
1.01560000000000e-08,3.30000000000000e-01,3.30000000000000e-01,1.58157016675112e-06
1.02200000000000e-08,3.30000000000000e-01,3.30000000000000e-01,2.96656608088190e-06
1.03480000000000e-08,3.30000000000000e-01,3.30000000000000e-01,4.40257550853376e-06
1.06040000000000e-08,3.30000000000000e-01,3.30000000000000e-01,6.02529465554801e-06
1.11160000000000e-08,3.30000000000000e-01,3.30000000000000e-01,5.04155677259841e-06
1.21400000000000e-08,3.30000000000000e-01,3.30000000000000e-01,4.15831359831895e-06
1.41880000000000e-08,3.30000000000000e-01,3.30000000000000e-01,4.41312394715114e-06
1.51000000000000e-08,3.30000000000000e-01,3.30000000000000e-01,3.66079159703700e-06
1.51100000000000e-08,2.96999999999995e-01,3.30000000000000e-01,-1.28379412074643e-05
1.51300000000000e-08,2.30999999999997e-01,3.30000000000000e-01,-4.49196964369888e-05
1.51700000000000e-08,9.90000000000001e-02,3.30000000000000e-01,-1.07226040337177e-04
1.52000000000000e-08,0.00000000000000e+00,3.30000000000000e-01,-1.44076734907590e-04
1.52080000000000e-08,0.00000000000000e+00,3.30000000000000e-01,-1.28237205245910e-04
1.52240000000000e-08,0.00000000000000e+00,3.30000000000000e-01,-9.81310787564436e-05
1.52560000000000e-08,0.00000000000000e+00,3.30000000000000e-01,-4.60387126744143e-05
1.53200000000000e-08,0.00000000000000e+00,3.30000000000000e-01,2.18527611531190e-05
1.54480000000000e-08,0.00000000000000e+00,3.30000000000000e-01,6.67093003400617e-05
1.57040000000000e-08,0.00000000000000e+00,3.30000000000000e-01,4.84450377447234e-05
1.62160000000000e-08,0.00000000000000e+00,3.30000000000000e-01,-2.89356443887879e-06
1.72400000000000e-08,0.00000000000000e+00,3.30000000000000e-01,-2.99771283483723e-05
1.92880000000000e-08,0.00000000000000e+00,3.30000000000000e-01,6.02520575003398e-06
2.30880000000000e-08,0.00000000000000e+00,3.30000000000000e-01,-3.40610870992798e-05
2.50000000000000e-08,0.00000000000000e+00,3.30000000000000e-01,4.87360730029602e-05
2.50100000000000e-08,3.29999999999937e-02,3.30000000000000e-01,7.59092412768725e-05
2.50300000000000e-08,9.90000000000031e-02,3.30000000000000e-01,1.18539958914490e-04
2.50700000000000e-08,2.31000000000000e-01,3.30000000000000e-01,1.64563364983876e-04
2.51000000000000e-08,3.30000000000000e-01,3.30000000000000e-01,1.63095507261121e-04
2.51080000000000e-08,3.30000000000000e-01,3.30000000000000e-01,1.45546998761799e-04
2.51240000000000e-08,3.30000000000000e-01,3.30000000000000e-01,1.08261673541853e-04
2.51560000000000e-08,3.30000000000000e-01,3.30000000000000e-01,1.97249172790501e-05
2.52200000000000e-08,3.30000000000000e-01,3.30000000000000e-01,-2.45080900256449e-04
2.53480000000000e-08,3.30000000000000e-01,3.30000000000000e-01,-1.02588369885114e-03
2.56040000000000e-08,3.30000000000000e-01,3.30000000000000e-01,-2.33303481671152e-03
2.61160000000000e-08,3.30000000000000e-01,3.30000000000000e-01,7.26394253777532e-04
2.71400000000000e-08,3.30000000000000e-01,3.30000000000000e-01,1.06155932192114e-01
2.91880000000000e-08,3.30000000000000e-01,3.30000000000000e-01,3.20224377816219e-01
3.29880000000000e-08,3.30000000000000e-01,3.30000000000000e-01,3.32391151808171e-01
3.51000000000000e-08,3.29999999999984e-01,3.30000000000000e-01,3.27554901335857e-01
3.51100000000000e-08,2.96999999999990e-01,3.30000000000000e-01,3.27599823088513e-01
3.51300000000000e-08,2.30999999999981e-01,3.30000000000000e-01,3.27669033441024e-01
3.51700000000000e-08,9.89999999999837e-02,3.30000000000000e-01,3.27819150683521e-01
3.52000000000000e-08,0.00000000000000e+00,3.30000000000000e-01,3.28019390043068e-01
3.52080000000000e-08,0.00000000000000e+00,3.30000000000000e-01,3.28099097424343e-01
3.52240000000000e-08,0.00000000000000e+00,3.30000000000000e-01,3.28247339001714e-01
3.52560000000000e-08,0.00000000000000e+00,3.30000000000000e-01,3.28501283171596e-01
3.53200000000000e-08,0.00000000000000e+00,3.30000000000000e-01,3.28915133825277e-01
3.54480000000000e-08,0.00000000000000e+00,3.30000000000000e-01,3.29432307550263e-01
3.57040000000000e-08,0.00000000000000e+00,3.30000000000000e-01,3.29785227183216e-01
3.62160000000000e-08,0.00000000000000e+00,3.30000000000000e-01,3.28660477317097e-01
3.72400000000000e-08,0.00000000000000e+00,3.30000000000000e-01,3.21802903196656e-01
3.92880000000000e-08,0.00000000000000e+00,3.30000000000000e-01,3.19305189264261e-01
4.30880000000000e-08,0.00000000000000e+00,3.30000000000000e-01,3.29416887823041e-01
4.50000000000000e-08,0.00000000000000e+00,3.30000000000000e-01,3.28988066802078e-01
4.50100000000000e-08,3.29999999999937e-02,3.30000000000000e-01,3.29016352214693e-01
4.50300000000000e-08,9.90000000000031e-02,3.30000000000000e-01,3.29065943888750e-01
4.50700000000000e-08,2.31000000000000e-01,3.30000000000000e-01,3.29137458792763e-01
4.51000000000000e-08,3.30000000000000e-01,3.30000000000000e-01,3.29171894844662e-01
4.51080000000000e-08,3.30000000000000e-01,3.03600000000014e-01,3.29169711303548e-01
4.51240000000000e-08,3.30000000000000e-01,2.50799999999998e-01,3.29164652550713e-01
4.51560000000000e-08,3.30000000000000e-01,1.45200000000009e-01,3.29147452822825e-01
4.52000000000000e-08,3.30000000000000e-01,1.88737914186277e-14,3.29095698860787e-01
4.52064000000000e-08,3.30000000000000e-01,0.00000000000000e+00,3.29084444476668e-01
4.52192000000000e-08,3.30000000000000e-01,0.00000000000000e+00,3.29059202257700e-01
4.52448000000000e-08,3.30000000000000e-01,0.00000000000000e+00,3.28994512462381e-01
4.52960000000000e-08,3.30000000000000e-01,0.00000000000000e+00,3.28823064592409e-01
4.53984000000000e-08,3.30000000000000e-01,0.00000000000000e+00,3.28442029753615e-01
4.56032000000000e-08,3.30000000000000e-01,0.00000000000000e+00,3.27899354549932e-01
4.60128000000000e-08,3.30000000000000e-01,0.00000000000000e+00,3.27554165886060e-01
4.68320000000000e-08,3.30000000000000e-01,0.00000000000000e+00,3.28849478742417e-01
4.84704000000000e-08,3.30000000000000e-01,0.00000000000000e+00,3.30379549931042e-01
5.17472000000001e-08,3.30000000000000e-01,0.00000000000000e+00,3.29704136558817e-01
5.51000000000000e-08,3.30000000000000e-01,0.00000000000000e+00,3.30196056287914e-01
5.51100000000000e-08,2.97000000000012e-01,0.00000000000000e+00,3.30169274593475e-01
5.51300000000000e-08,2.31000000000002e-01,0.00000000000000e+00,3.30113803860142e-01
5.51700000000000e-08,9.90000000000056e-02,0.00000000000000e+00,3.30021222747628e-01
5.52000000000000e-08,0.00000000000000e+00,0.00000000000000e+00,3.30033275778960e-01
5.52080000000000e-08,0.00000000000000e+00,0.00000000000000e+00,3.30071303455370e-01
5.52240000000000e-08,0.00000000000000e+00,0.00000000000000e+00,3.30140715157031e-01
5.52560000000000e-08,0.00000000000000e+00,0.00000000000000e+00,3.30258189195182e-01
5.53200000000000e-08,0.00000000000000e+00,0.00000000000000e+00,3.30428062153064e-01
5.54480000000000e-08,0.00000000000000e+00,0.00000000000000e+00,3.30640798396286e-01
5.57040000000000e-08,0.00000000000000e+00,0.00000000000000e+00,3.30854180249013e-01
5.62160000000000e-08,0.00000000000000e+00,0.00000000000000e+00,3.31018527125646e-01
5.72400000000000e-08,0.00000000000000e+00,0.00000000000000e+00,3.30938741065333e-01
5.92880000000000e-08,0.00000000000000e+00,0.00000000000000e+00,3.29419612147854e-01
6.30880000000000e-08,0.00000000000000e+00,0.00000000000000e+00,3.28627753979647e-01
6.50000000000000e-08,0.00000000000000e+00,0.00000000000000e+00,3.29317977151688e-01
6.50100000000000e-08,3.29999999999937e-02,0.00000000000000e+00,3.29334981499919e-01
6.50300000000000e-08,9.89999999999812e-02,0.00000000000000e+00,3.29363587657043e-01
6.50700000000000e-08,2.30999999999956e-01,0.00000000000000e+00,3.29394051043299e-01
6.51000000000000e-08,3.29999999999981e-01,0.00000000000000e+00,3.29395909404342e-01
6.51080000000000e-08,3.30000000000000e-01,0.00000000000000e+00,3.29385553220023e-01
6.51240000000000e-08,3.30000000000000e-01,0.00000000000000e+00,3.29366031656696e-01
6.51560000000000e-08,3.30000000000000e-01,0.00000000000000e+00,3.29332790396228e-01
6.52200000000000e-08,3.30000000000000e-01,0.00000000000000e+00,3.29281845353655e-01
6.53480000000000e-08,3.30000000000000e-01,0.00000000000000e+00,3.29217164772272e-01
6.56040000000000e-08,3.30000000000000e-01,0.00000000000000e+00,3.29176365785446e-01
6.61159999999999e-08,3.30000000000000e-01,0.00000000000000e+00,3.29359362035152e-01
6.71399999999999e-08,3.30000000000000e-01,0.00000000000000e+00,3.32598172441987e-01
6.91879999999998e-08,3.30000000000000e-01,0.00000000000000e+00,1.08750851838218e-01
7.29879999999998e-08,3.30000000000000e-01,0.00000000000000e+00,-1.93763189252885e-02
7.51000000000000e-08,3.30000000000000e-01,0.00000000000000e+00,2.06142731609991e-02
7.51100000000000e-08,2.97000000000034e-01,0.00000000000000e+00,1.94727050137178e-02
7.51300000000000e-08,2.31000000000046e-01,0.00000000000000e+00,1.72662740979143e-02
7.51700000000000e-08,9.90000000000711e-02,0.00000000000000e+00,1.33373846860899e-02
7.52000000000000e-08,4.61852778244065e-14,0.00000000000000e+00,1.09827486659801e-02
7.52080000000000e-08,0.00000000000000e+00,0.00000000000000e+00,1.04580969961189e-02
7.52240000000000e-08,0.00000000000000e+00,0.00000000000000e+00,9.39693175363020e-03
7.52560000000000e-08,0.00000000000000e+00,0.00000000000000e+00,7.46396724365707e-03
7.53200000000000e-08,0.00000000000000e+00,0.00000000000000e+00,4.93549718331318e-03
7.54480000000000e-08,0.00000000000000e+00,0.00000000000000e+00,2.02639207743745e-03
7.57040000000000e-08,0.00000000000000e+00,0.00000000000000e+00,1.95337180907666e-04
7.62159999999999e-08,0.00000000000000e+00,0.00000000000000e+00,-4.93557133949968e-05
7.72399999999999e-08,0.00000000000000e+00,0.00000000000000e+00,-1.70256915460674e-04
7.92879999999998e-08,0.00000000000000e+00,0.00000000000000e+00,3.70730511755814e-05
8.30879999999998e-08,0.00000000000000e+00,0.00000000000000e+00,-2.26603404039811e-05
8.50000000000000e-08,0.00000000000000e+00,0.00000000000000e+00,7.45411766166996e-06
8.50100000000000e-08,3.29999999999937e-02,0.00000000000000e+00,4.03574470617743e-05
8.50300000000000e-08,9.89999999999812e-02,0.00000000000000e+00,9.53785917018127e-05
8.50700000000000e-08,2.30999999999956e-01,0.00000000000000e+00,1.52509375997638e-04
8.51000000000000e-08,3.29999999999981e-01,0.00000000000000e+00,1.54526827176427e-04
8.51080000000000e-08,3.30000000000000e-01,0.00000000000000e+00,1.38295207484238e-04
8.51240000000000e-08,3.30000000000000e-01,0.00000000000000e+00,1.06698263763610e-04
8.51560000000000e-08,3.30000000000000e-01,0.00000000000000e+00,5.26864354173893e-05
8.52200000000000e-08,3.30000000000000e-01,0.00000000000000e+00,-1.91522119733500e-05
8.53480000000000e-08,3.30000000000000e-01,0.00000000000000e+00,-7.19427080333717e-05
8.56040000000000e-08,3.30000000000000e-01,0.00000000000000e+00,-5.51665295079121e-05
8.61159999999999e-08,3.30000000000000e-01,0.00000000000000e+00,-1.30725696392033e-05
8.71399999999999e-08,3.30000000000000e-01,0.00000000000000e+00,3.05991807009005e-05
8.91879999999998e-08,3.30000000000000e-01,0.00000000000000e+00,6.43053093102698e-06
9.00000000000000e-08,3.30000000000000e-01,0.00000000000000e+00,-7.27087958931217e-06
9.00100000000000e-08,3.30000000000000e-01,3.29999999999937e-02,-5.98224654147633e-06
9.00300000000000e-08,3.30000000000000e-01,9.89999999999812e-02,-3.85758147456935e-06
9.00700000000000e-08,3.30000000000000e-01,2.30999999999956e-01,-1.38150876553139e-06
9.01000000000000e-08,3.30000000000000e-01,3.29999999999981e-01,-3.75772439449584e-08
9.01080000000000e-08,3.30000000000000e-01,3.30000000000000e-01,1.94185376462680e-07
9.01240000000000e-08,3.30000000000000e-01,3.30000000000000e-01,8.06143711742924e-07
9.01560000000000e-08,3.30000000000000e-01,3.30000000000000e-01,1.83603142159955e-06
9.02200000000000e-08,3.30000000000000e-01,3.30000000000000e-01,3.18016546959482e-06
9.03480000000000e-08,3.30000000000000e-01,3.30000000000000e-01,4.72333833142179e-06
9.06040000000000e-08,3.30000000000000e-01,3.30000000000000e-01,6.01523234899752e-06
9.11159999999999e-08,3.30000000000000e-01,3.30000000000000e-01,4.92696394454196e-06
9.21399999999999e-08,3.30000000000000e-01,3.30000000000000e-01,4.27695252955967e-06
9.41879999999998e-08,3.30000000000000e-01,3.30000000000000e-01,4.31119600454973e-06
9.51000000000000e-08,3.30000000000000e-01,3.30000000000000e-01,3.71657499449469e-06
9.51100000000000e-08,2.97000000000034e-01,3.30000000000000e-01,-1.29395402480754e-05
9.51300000000000e-08,2.31000000000046e-01,3.30000000000000e-01,-4.49799805807560e-05
9.51700000000000e-08,9.90000000000711e-02,3.30000000000000e-01,-1.07276141667396e-04
9.52000000000000e-08,4.61852778244065e-14,3.30000000000000e-01,-1.44245268502288e-04
9.52080000000000e-08,0.00000000000000e+00,3.30000000000000e-01,-1.28395961777966e-04
9.52240000000000e-08,0.00000000000000e+00,3.30000000000000e-01,-9.82693249091740e-05
9.52560000000000e-08,0.00000000000000e+00,3.30000000000000e-01,-4.61404405175600e-05
9.53200000000000e-08,0.00000000000000e+00,3.30000000000000e-01,2.18000321559053e-05
9.54480000000000e-08,0.00000000000000e+00,3.30000000000000e-01,6.67141281736703e-05
9.57040000000000e-08,0.00000000000000e+00,3.30000000000000e-01,4.84576358615006e-05
9.62159999999999e-08,0.00000000000000e+00,3.30000000000000e-01,-2.90469608769418e-06
9.72399999999999e-08,0.00000000000000e+00,3.30000000000000e-01,-3.00000942791354e-05
9.92879999999998e-08,0.00000000000000e+00,3.30000000000000e-01,6.03588161706813e-06
1.03088000000000e-07,0.00000000000000e+00,3.30000000000000e-01,-3.40678049725936e-05
1.05000000000000e-07,0.00000000000000e+00,3.30000000000000e-01,4.87431527036522e-05
1.05010000000000e-07,3.29999999999937e-02,3.30000000000000e-01,7.59164620828881e-05
1.05030000000000e-07,9.89999999999812e-02,3.30000000000000e-01,1.18548230203686e-04
1.05070000000000e-07,2.30999999999956e-01,3.30000000000000e-01,1.64574150869297e-04
1.05100000000000e-07,3.29999999999981e-01,3.30000000000000e-01,1.63106720112355e-04
1.05108000000000e-07,3.30000000000000e-01,3.30000000000000e-01,1.45558445149987e-04
1.05124000000000e-07,3.30000000000000e-01,3.30000000000000e-01,1.08273926080555e-04
1.05156000000000e-07,3.30000000000000e-01,3.30000000000000e-01,1.97403472519606e-05
1.05220000000000e-07,3.30000000000000e-01,3.30000000000000e-01,-2.45057029964761e-04
1.05348000000000e-07,3.30000000000000e-01,3.30000000000000e-01,-1.02585189104933e-03
1.05604000000000e-07,3.30000000000000e-01,3.30000000000000e-01,-2.33300689812698e-03
1.06116000000000e-07,3.30000000000000e-01,3.30000000000000e-01,7.26161185922617e-04
1.07140000000000e-07,3.30000000000000e-01,3.30000000000000e-01,1.06154727097078e-01
1.09188000000000e-07,3.30000000000000e-01,3.30000000000000e-01,3.20223926523224e-01
1.12988000000000e-07,3.30000000000000e-01,3.30000000000000e-01,3.32391288066667e-01
1.15100000000000e-07,3.30000000000000e-01,3.30000000000000e-01,3.27554743449090e-01
1.15110000000000e-07,2.97000000000034e-01,3.30000000000000e-01,3.27599673542908e-01
1.15130000000000e-07,2.31000000000046e-01,3.30000000000000e-01,3.27668898148143e-01
1.15170000000000e-07,9.90000000000711e-02,3.30000000000000e-01,3.27819040920171e-01
1.15200000000000e-07,4.61852778244065e-14,3.30000000000000e-01,3.28019296256992e-01
1.15208000000000e-07,0.00000000000000e+00,3.30000000000000e-01,3.28099007393439e-01
1.15224000000000e-07,0.00000000000000e+00,3.30000000000000e-01,3.28247256142359e-01
1.15256000000000e-07,0.00000000000000e+00,3.30000000000000e-01,3.28501212846882e-01
1.15320000000000e-07,0.00000000000000e+00,3.30000000000000e-01,3.28915082851390e-01
1.15448000000000e-07,0.00000000000000e+00,3.30000000000000e-01,3.29432280416658e-01
1.15704000000000e-07,0.00000000000000e+00,3.30000000000000e-01,3.29785220095515e-01
1.16216000000000e-07,0.00000000000000e+00,3.30000000000000e-01,3.28660479503323e-01
1.17240000000000e-07,0.00000000000000e+00,3.30000000000000e-01,3.21802906462422e-01
1.19288000000000e-07,0.00000000000000e+00,3.30000000000000e-01,3.19305187629581e-01
1.23088000000000e-07,0.00000000000000e+00,3.30000000000000e-01,3.29416886574860e-01
1.25000000000000e-07,0.00000000000000e+00,3.30000000000000e-01,3.28988067462330e-01
1.25010000000000e-07,3.29999999999501e-02,3.30000000000000e-01,3.29016352863231e-01
1.25030000000000e-07,9.89999999999376e-02,3.30000000000000e-01,3.29065944509389e-01
1.25070000000000e-07,2.30999999999913e-01,3.30000000000000e-01,3.29137459358042e-01
1.25100000000000e-07,3.29999999999937e-01,3.30000000000000e-01,3.29171895384332e-01
1.25108000000000e-07,3.30000000000000e-01,3.03599999999970e-01,3.29169711838960e-01
1.25124000000000e-07,3.30000000000000e-01,2.50799999999998e-01,3.29164653077057e-01
1.25156000000000e-07,3.30000000000000e-01,1.45199999999965e-01,3.29147453327289e-01
1.25200000000000e-07,3.30000000000000e-01,0.00000000000000e+00,3.29095699328769e-01
1.25206400000000e-07,3.30000000000000e-01,0.00000000000000e+00,3.29084444939451e-01
1.25219200000000e-07,3.30000000000000e-01,0.00000000000000e+00,3.29059202709814e-01
1.25244800000000e-07,3.30000000000000e-01,0.00000000000000e+00,3.28994512892911e-01
1.25296000000000e-07,3.30000000000000e-01,0.00000000000000e+00,3.28823064976617e-01
1.25398400000000e-07,3.30000000000000e-01,0.00000000000000e+00,3.28442030055857e-01
1.25603200000000e-07,3.30000000000000e-01,0.00000000000000e+00,3.27899354730566e-01
1.26012800000000e-07,3.30000000000000e-01,0.00000000000000e+00,3.27554165955593e-01
1.26832000000000e-07,3.30000000000000e-01,0.00000000000000e+00,3.28849478703816e-01
1.28470400000000e-07,3.30000000000000e-01,0.00000000000000e+00,3.30379549915528e-01
1.31747200000001e-07,3.30000000000000e-01,0.00000000000000e+00,3.29704136573918e-01
1.35100000000000e-07,3.29999999999940e-01,0.00000000000000e+00,3.30196056269849e-01
1.35110000000000e-07,2.96999999999903e-01,0.00000000000000e+00,3.30169274577846e-01
1.35130000000000e-07,2.30999999999915e-01,0.00000000000000e+00,3.30113803847568e-01
1.35170000000000e-07,9.89999999999401e-02,0.00000000000000e+00,3.30021222739117e-01
1.35200000000000e-07,0.00000000000000e+00,0.00000000000000e+00,3.30033275772433e-01
1.35208000000000e-07,0.00000000000000e+00,0.00000000000000e+00,3.30071303449051e-01
1.35224000000000e-07,0.00000000000000e+00,0.00000000000000e+00,3.30140715150816e-01
1.35256000000000e-07,0.00000000000000e+00,0.00000000000000e+00,3.30258189189472e-01
1.35320000000000e-07,0.00000000000000e+00,0.00000000000000e+00,3.30428062148247e-01
1.35448000000000e-07,0.00000000000000e+00,0.00000000000000e+00,3.30640798395866e-01
1.35704000000000e-07,0.00000000000000e+00,0.00000000000000e+00,3.30854180249145e-01
1.36216000000000e-07,0.00000000000000e+00,0.00000000000000e+00,3.31018527125667e-01
1.37240000000000e-07,0.00000000000000e+00,0.00000000000000e+00,3.30938741067517e-01
1.39288000000000e-07,0.00000000000000e+00,0.00000000000000e+00,3.29419612218660e-01
1.43088000000000e-07,0.00000000000000e+00,0.00000000000000e+00,3.28627754036533e-01
1.45000000000000e-07,0.00000000000000e+00,0.00000000000000e+00,3.29317977167039e-01
1.45010000000000e-07,3.30000000000374e-02,0.00000000000000e+00,3.29334981526457e-01
1.45030000000000e-07,9.90000000000249e-02,0.00000000000000e+00,3.29363587697202e-01
1.45070000000000e-07,2.31000000000000e-01,0.00000000000000e+00,3.29394051092216e-01
1.45100000000000e-07,3.30000000000000e-01,0.00000000000000e+00,3.29395909452743e-01
1.45108000000000e-07,3.30000000000000e-01,0.00000000000000e+00,3.29385553270771e-01
1.45124000000000e-07,3.30000000000000e-01,0.00000000000000e+00,3.29366031710478e-01
