Time,v(clk),v(data),v(out)
1.00000000000000e-08,7.00000000000000e-01,0.00000000000000e+00,-1.46388960210048e-06
1.00100000000000e-08,7.00000000000000e-01,6.99999999999983e-02,3.31071412443956e-06
1.00300000000000e-08,7.00000000000000e-01,2.09999999999995e-01,7.69962360609722e-06
1.00700000000000e-08,7.00000000000000e-01,4.89999999999988e-01,4.93299696269905e-06
1.01000000000000e-08,7.00000000000000e-01,6.99999999999995e-01,7.88548878791206e-07
1.01080000000000e-08,7.00000000000000e-01,7.00000000000000e-01,7.78788577932010e-08
1.01240000000000e-08,7.00000000000000e-01,7.00000000000000e-01,2.55893275770414e-07
1.01560000000000e-08,7.00000000000000e-01,7.00000000000000e-01,3.36990411882454e-06
1.02200000000000e-08,7.00000000000000e-01,7.00000000000000e-01,7.12621372233463e-06
1.03480000000000e-08,7.00000000000000e-01,7.00000000000000e-01,3.86851804746319e-06
1.06040000000000e-08,7.00000000000000e-01,7.00000000000000e-01,5.62575655862346e-07
1.10638127938762e-08,7.00000000000000e-01,7.00000000000000e-01,2.74551872697648e-06
1.19834383816285e-08,7.00000000000000e-01,7.00000000000000e-01,1.12170892774266e-06
1.38226895571331e-08,7.00000000000000e-01,7.00000000000000e-01,2.53091580121670e-06
1.51000000000000e-08,7.00000000000000e-01,7.00000000000000e-01,8.17785653244897e-07
1.51100000000000e-08,6.29999999999990e-01,7.00000000000000e-01,-6.96291798714596e-05
1.51300000000000e-08,4.89999999999994e-01,7.00000000000000e-01,-1.83742339725811e-04
1.51700000000000e-08,2.10000000000000e-01,7.00000000000000e-01,-2.11900652888432e-04
1.52000000000000e-08,0.00000000000000e+00,7.00000000000000e-01,4.51930746181231e-05
1.52080000000000e-08,0.00000000000000e+00,7.00000000000000e-01,1.99750100501161e-04
1.52240000000000e-08,0.00000000000000e+00,7.00000000000000e-01,4.06567587703868e-04
1.52560000000000e-08,0.00000000000000e+00,7.00000000000000e-01,4.69285874584953e-04
1.53200000000000e-08,0.00000000000000e+00,7.00000000000000e-01,2.20670387268175e-04
1.54480000000000e-08,0.00000000000000e+00,7.00000000000000e-01,-2.27919702305887e-04
1.57040000000000e-08,0.00000000000000e+00,7.00000000000000e-01,-7.89984944784133e-05
1.62160000000000e-08,0.00000000000000e+00,7.00000000000000e-01,-9.52378018559841e-05
1.68268076614193e-08,0.00000000000000e+00,7.00000000000000e-01,1.78810838532693e-04
1.80484229842580e-08,0.00000000000000e+00,7.00000000000000e-01,-1.10876481219046e-04
1.93989548307218e-08,0.00000000000000e+00,7.00000000000000e-01,6.70137573846406e-05
2.21000185236492e-08,0.00000000000000e+00,7.00000000000000e-01,-4.78582185684476e-05
2.50000000000000e-08,0.00000000000000e+00,7.00000000000000e-01,3.42292970618580e-05
2.50100000000000e-08,6.99999999999867e-02,7.00000000000000e-01,1.69064926913376e-04
2.50300000000000e-08,2.10000000000007e-01,7.00000000000000e-01,3.82995370056198e-04
2.50700000000000e-08,4.90000000000000e-01,7.00000000000000e-01,5.79922865828274e-04
2.51000000000000e-08,7.00000000000000e-01,7.00000000000000e-01,2.55582999817136e-04
2.51080000000000e-08,7.00000000000000e-01,7.00000000000000e-01,-7.78212878361495e-05
2.51240000000000e-08,7.00000000000000e-01,7.00000000000000e-01,-9.09887448394292e-04
2.51560000000000e-08,7.00000000000000e-01,7.00000000000000e-01,-2.86054465770482e-03
2.52200000000000e-08,7.00000000000000e-01,7.00000000000000e-01,-5.68599051318518e-03
2.53480000000000e-08,7.00000000000000e-01,7.00000000000000e-01,1.77086809321554e-02
2.56040000000000e-08,7.00000000000000e-01,7.00000000000000e-01,4.47510655778675e-01
2.61160000000000e-08,7.00000000000000e-01,7.00000000000000e-01,7.30684036332782e-01
2.67001486433415e-08,7.00000000000000e-01,7.00000000000000e-01,6.74536616535720e-01
2.78684459300244e-08,7.00000000000000e-01,7.00000000000000e-01,7.23783433845547e-01
2.93394968879445e-08,7.00000000000000e-01,7.00000000000000e-01,6.76975351640875e-01
3.01000000000000e-08,7.00000000000000e-01,7.00000000000000e-01,7.20223447990345e-01
3.01100000000000e-08,7.00000000000000e-01,6.30000000000037e-01,7.13294041051749e-01
3.01300000000000e-08,7.00000000000000e-01,4.90000000000017e-01,7.04156831626045e-01
3.01700000000000e-08,7.00000000000000e-01,2.10000000000023e-01,6.99838647927472e-01
3.02000000000000e-08,7.00000000000000e-01,1.68753899743024e-14,6.99949559102126e-01
3.02080000000000e-08,7.00000000000000e-01,0.00000000000000e+00,6.99936025199204e-01
3.02240000000000e-08,7.00000000000000e-01,0.00000000000000e+00,6.99911621450019e-01
3.02560000000000e-08,7.00000000000000e-01,0.00000000000000e+00,6.99928471673395e-01
3.03200000000000e-08,7.00000000000000e-01,0.00000000000000e+00,6.99935005918772e-01
3.04480000000000e-08,7.00000000000000e-01,0.00000000000000e+00,6.99959801310674e-01
3.07040000000000e-08,7.00000000000000e-01,0.00000000000000e+00,6.99989363410489e-01
3.10682361963041e-08,7.00000000000000e-01,0.00000000000000e+00,6.99960490879563e-01
3.17391119195251e-08,7.00000000000000e-01,0.00000000000000e+00,6.99982974330267e-01
3.26596501368404e-08,7.00000000000000e-01,0.00000000000000e+00,6.99970221161467e-01
3.45007265714710e-08,7.00000000000000e-01,0.00000000000000e+00,6.99985046115297e-01
3.51000000000000e-08,6.99999999999965e-01,0.00000000000000e+00,6.99976832963734e-01
3.51100000000000e-08,6.29999999999979e-01,0.00000000000000e+00,6.99898162543191e-01
3.51300000000000e-08,4.89999999999959e-01,0.00000000000000e+00,6.99809202820445e-01
3.51700000000000e-08,2.09999999999966e-01,0.00000000000000e+00,7.00441137781040e-01
3.52000000000000e-08,0.00000000000000e+00,0.00000000000000e+00,7.02158594844803e-01
3.52080000000000e-08,0.00000000000000e+00,0.00000000000000e+00,7.02624801074091e-01
3.52240000000000e-08,0.00000000000000e+00,0.00000000000000e+00,7.03176185354666e-01
3.52560000000000e-08,0.00000000000000e+00,0.00000000000000e+00,7.02240968931539e-01
3.53200000000000e-08,0.00000000000000e+00,0.00000000000000e+00,6.90893008487495e-01
3.54480000000000e-08,0.00000000000000e+00,0.00000000000000e+00,6.70974818731004e-01
3.57040000000000e-08,0.00000000000000e+00,0.00000000000000e+00,6.91821832866668e-01
3.60793851895306e-08,0.00000000000000e+00,0.00000000000000e+00,7.03277332506119e-01
3.67132006635902e-08,0.00000000000000e+00,0.00000000000000e+00,6.96494729525069e-01
3.74962910541566e-08,0.00000000000000e+00,0.00000000000000e+00,7.02178532232647e-01
3.90624718352896e-08,0.00000000000000e+00,0.00000000000000e+00,6.97631594834806e-01
3.91000000000000e-08,0.00000000000000e+00,0.00000000000000e+00,6.99465309511390e-01
3.91750563294209e-08,0.00000000000000e+00,0.00000000000000e+00,6.99520380420689e-01
3.93251689882626e-08,0.00000000000000e+00,0.00000000000000e+00,6.99721116426238e-01
3.96253943059461e-08,0.00000000000000e+00,0.00000000000000e+00,6.99887062295529e-01
4.02258449413130e-08,0.00000000000000e+00,0.00000000000000e+00,6.99844926521470e-01
4.14267462120468e-08,0.00000000000000e+00,0.00000000000000e+00,6.99917198852188e-01
4.38285487535145e-08,0.00000000000000e+00,0.00000000000000e+00,6.99897449302838e-01
4.50000000000000e-08,0.00000000000000e+00,0.00000000000000e+00,6.99948288801189e-01
4.50100000000000e-08,6.99999999999867e-02,0.00000000000000e+00,7.00013593146168e-01
4.50300000000000e-08,2.10000000000007e-01,0.00000000000000e+00,7.00089920768422e-01
4.50700000000000e-08,4.90000000000000e-01,0.00000000000000e+00,7.00056658624717e-01
4.51000000000000e-08,7.00000000000000e-01,0.00000000000000e+00,6.99885905317640e-01
4.51080000000000e-08,7.00000000000000e-01,0.00000000000000e+00,6.99810075829945e-01
4.51240000000000e-08,7.00000000000000e-01,0.00000000000000e+00,6.99704590184274e-01
4.51560000000000e-08,7.00000000000000e-01,0.00000000000000e+00,6.99654826763471e-01
4.52200000000000e-08,7.00000000000000e-01,0.00000000000000e+00,6.99688143646552e-01
4.53480000000000e-08,7.00000000000000e-01,0.00000000000000e+00,7.01389836009369e-01
4.56040000000000e-08,7.00000000000000e-01,0.00000000000000e+00,6.99064069089992e-01
4.61160000000000e-08,7.00000000000000e-01,0.00000000000000e+00,1.24725765372935e-01
4.66559597174120e-08,7.00000000000000e-01,0.00000000000000e+00,-6.19023497654266e-02
4.76669654590846e-08,7.00000000000000e-01,0.00000000000000e+00,5.41719740571105e-02
4.88844599893625e-08,7.00000000000000e-01,0.00000000000000e+00,-4.07779000585074e-02
5.00000000000000e-08,7.00000000000000e-01,0.00000000000000e+00,3.53587439942193e-02
5.00100000000000e-08,7.00000000000000e-01,6.99999999999867e-02,2.92723207101631e-02
5.00300000000000e-08,7.00000000000000e-01,2.09999999999960e-01,2.00363378490450e-02
5.00700000000000e-08,7.00000000000000e-01,4.90000000000000e-01,1.02460980425068e-02
5.01000000000000e-08,7.00000000000000e-01,7.00000000000000e-01,6.23036313314004e-03
5.01080000000000e-08,7.00000000000000e-01,7.00000000000000e-01,5.52788017518182e-03
5.01240000000000e-08,7.00000000000000e-01,7.00000000000000e-01,4.27891858392452e-03
5.01560000000000e-08,7.00000000000000e-01,7.00000000000000e-01,2.52783177130408e-03
5.02200000000000e-08,7.00000000000000e-01,7.00000000000000e-01,8.20255098187062e-04
5.03480000000000e-08,7.00000000000000e-01,7.00000000000000e-01,-7.18168132732983e-06
5.06040000000000e-08,7.00000000000000e-01,7.00000000000000e-01,4.83429915192762e-07
5.10961536621037e-08,7.00000000000000e-01,7.00000000000000e-01,-2.21719040995050e-06
5.20804609863109e-08,7.00000000000000e-01,7.00000000000000e-01,2.09815097268473e-07
5.40490756347254e-08,7.00000000000000e-01,7.00000000000000e-01,-1.83836566193963e-06
5.51000000000000e-08,7.00000000000000e-01,7.00000000000000e-01,-3.04913315238992e-08
5.51100000000000e-08,6.30000000000025e-01,7.00000000000000e-01,-7.04728167815680e-05
5.51300000000000e-08,4.90000000000005e-01,7.00000000000000e-01,-1.82347616811192e-04
5.51700000000000e-08,2.10000000000012e-01,7.00000000000000e-01,-2.04327719110844e-04
5.52000000000000e-08,0.00000000000000e+00,7.00000000000000e-01,5.22160936339347e-05
5.52080000000000e-08,0.00000000000000e+00,7.00000000000000e-01,2.04212888157210e-04
5.52240000000000e-08,0.00000000000000e+00,7.00000000000000e-01,4.01258377482824e-04
5.52560000000000e-08,0.00000000000000e+00,7.00000000000000e-01,3.83922244082249e-04
5.53200000000000e-08,0.00000000000000e+00,7.00000000000000e-01,-5.17588726308672e-04
5.54480000000000e-08,0.00000000000000e+00,7.00000000000000e-01,-2.19034590576912e-03
5.57040000000000e-08,0.00000000000000e+00,7.00000000000000e-01,-7.87677974398854e-05
5.60592089100811e-08,0.00000000000000e+00,7.00000000000000e-01,4.43988680310960e-05
5.67362917474196e-08,0.00000000000000e+00,7.00000000000000e-01,-3.11760483240730e-05
5.75831434258252e-08,0.00000000000000e+00,7.00000000000000e-01,1.84340640128369e-04
5.88873355397874e-08,0.00000000000000e+00,7.00000000000000e-01,-2.42051407261502e-04
6.13123545354252e-08,0.00000000000000e+00,7.00000000000000e-01,2.62788398832567e-04
6.50000000000000e-08,0.00000000000000e+00,7.00000000000000e-01,-2.73911639013428e-04
6.50100000000000e-08,6.99999999999867e-02,7.00000000000000e-01,-3.57691651676692e-05
6.50300000000000e-08,2.09999999999960e-01,7.00000000000000e-01,3.04171391370005e-04
6.50700000000000e-08,4.89999999999907e-01,7.00000000000000e-01,5.74662091306029e-04
6.51000000000000e-08,6.99999999999960e-01,7.00000000000000e-01,4.53951842239390e-04
6.51080000000000e-08,7.00000000000000e-01,7.00000000000000e-01,2.60104649545734e-04
6.51240000000000e-08,7.00000000000000e-01,7.00000000000000e-01,-3.31623199505290e-04
6.51560000000000e-08,7.00000000000000e-01,7.00000000000000e-01,-2.15765332878155e-03
6.52200000000000e-08,7.00000000000000e-01,7.00000000000000e-01,-5.32712166392181e-03
6.53480000000000e-08,7.00000000000000e-01,7.00000000000000e-01,1.10913697086351e-02
6.56040000000000e-08,7.00000000000000e-01,7.00000000000000e-01,4.24738209482157e-01
6.61159999999999e-08,7.00000000000000e-01,7.00000000000000e-01,7.29272469936414e-01
6.67091207386630e-08,7.00000000000000e-01,7.00000000000000e-01,6.76143317068612e-01
6.78953622159890e-08,7.00000000000000e-01,7.00000000000000e-01,7.22589077222024e-01
6.93507843450487e-08,7.00000000000000e-01,7.00000000000000e-01,6.78316112033724e-01
7.01000000000000e-08,7.00000000000000e-01,7.00000000000000e-01,7.19167127607655e-01
7.01100000000000e-08,7.00000000000000e-01,6.30000000000013e-01,7.12573071631708e-01
7.01300000000000e-08,7.00000000000000e-01,4.90000000000040e-01,7.03928492935620e-01
7.01700000000000e-08,7.00000000000000e-01,2.10000000000093e-01,6.99833169876683e-01
7.02000000000000e-08,7.00000000000000e-01,4.00790511889682e-14,6.99940392129054e-01
7.02080000000000e-08,7.00000000000000e-01,0.00000000000000e+00,6.99926865765257e-01
7.02240000000000e-08,7.00000000000000e-01,0.00000000000000e+00,6.99921927413973e-01
7.02560000000000e-08,7.00000000000000e-01,0.00000000000000e+00,6.99922242047429e-01
7.03200000000000e-08,7.00000000000000e-01,0.00000000000000e+00,6.99929526715377e-01
7.04480000000000e-08,7.00000000000000e-01,0.00000000000000e+00,6.99956469490860e-01
7.07040000000000e-08,7.00000000000000e-01,0.00000000000000e+00,6.99995648855604e-01
7.10650488779722e-08,7.00000000000000e-01,0.00000000000000e+00,6.99954147871110e-01
7.17377504428992e-08,7.00000000000000e-01,0.00000000000000e+00,6.99988761148439e-01
7.26438027272486e-08,7.00000000000000e-01,0.00000000000000e+00,6.99965759604643e-01
7.44559072959474e-08,7.00000000000000e-01,0.00000000000000e+00,6.99989669238561e-01
7.51000000000000e-08,7.00000000000000e-01,0.00000000000000e+00,6.99972868456069e-01
7.51100000000000e-08,6.30000000000071e-01,0.00000000000000e+00,6.99896872742656e-01
7.51300000000000e-08,4.90000000000098e-01,0.00000000000000e+00,6.99810219132814e-01
7.51700000000000e-08,2.10000000000151e-01,0.00000000000000e+00,7.00441884956017e-01
7.52000000000000e-08,9.80326930744013e-14,0.00000000000000e+00,7.02159315481711e-01
7.52080000000000e-08,0.00000000000000e+00,0.00000000000000e+00,7.02626159492684e-01
7.52240000000000e-08,0.00000000000000e+00,0.00000000000000e+00,7.03179304863193e-01
7.52560000000000e-08,0.00000000000000e+00,0.00000000000000e+00,7.02252562459008e-01
7.53200000000000e-08,0.00000000000000e+00,0.00000000000000e+00,6.90925423909893e-01
7.54480000000000e-08,0.00000000000000e+00,0.00000000000000e+00,6.70990118413927e-01
7.57040000000000e-08,0.00000000000000e+00,0.00000000000000e+00,6.91808546379894e-01
7.60793907712671e-08,0.00000000000000e+00,0.00000000000000e+00,7.03286204567921e-01
7.67132116347274e-08,0.00000000000000e+00,0.00000000000000e+00,6.96487840608153e-01
7.74963074894420e-08,0.00000000000000e+00,0.00000000000000e+00,7.02184217705295e-01
7.81000000000000e-08,0.00000000000000e+00,0.00000000000000e+00,6.97910861295938e-01
7.82566191709429e-08,0.00000000000000e+00,0.00000000000000e+00,6.99393741422066e-01
7.85698575128288e-08,0.00000000000000e+00,0.00000000000000e+00,7.00044321487126e-01
7.91963341966005e-08,0.00000000000000e+00,0.00000000000000e+00,6.99661605674471e-01
8.04492875641438e-08,0.00000000000000e+00,0.00000000000000e+00,7.00030247750681e-01
8.29551942992305e-08,0.00000000000000e+00,0.00000000000000e+00,6.99768328147388e-01
8.50000000000000e-08,0.00000000000000e+00,0.00000000000000e+00,7.00060747732974e-01
8.50100000000000e-08,6.99999999999867e-02,0.00000000000000e+00,7.00109851846404e-01
8.50300000000000e-08,2.09999999999960e-01,0.00000000000000e+00,7.00154762743941e-01
8.50700000000000e-08,4.89999999999907e-01,0.00000000000000e+00,7.00082693655082e-01
8.51000000000000e-08,6.99999999999960e-01,0.00000000000000e+00,6.99897987278466e-01
8.51080000000000e-08,7.00000000000000e-01,0.00000000000000e+00,6.99821627150900e-01
8.51240000000000e-08,7.00000000000000e-01,0.00000000000000e+00,6.99714445768218e-01
8.51560000000000e-08,7.00000000000000e-01,0.00000000000000e+00,6.99631514743673e-01
8.52200000000000e-08,7.00000000000000e-01,0.00000000000000e+00,6.99693314291827e-01
8.53480000000000e-08,7.00000000000000e-01,0.00000000000000e+00,7.01381769694150e-01
8.56040000000000e-08,7.00000000000000e-01,0.00000000000000e+00,6.99152951798365e-01
8.61159999999999e-08,7.00000000000000e-01,0.00000000000000e+00,1.24814008834517e-01
8.66559456464542e-08,7.00000000000000e-01,0.00000000000000e+00,-6.19084655962999e-02
8.76667552818301e-08,7.00000000000000e-01,0.00000000000000e+00,5.41773169436724e-02
8.88833371918493e-08,7.00000000000000e-01,0.00000000000000e+00,-4.07727096682228e-02
9.00000000000000e-08,7.00000000000000e-01,0.00000000000000e+00,3.53620897783932e-02
9.00100000000000e-08,7.00000000000000e-01,6.99999999999867e-02,2.92766851973048e-02
9.00300000000000e-08,7.00000000000000e-01,2.09999999999960e-01,2.00414132710514e-02
9.00700000000000e-08,7.00000000000000e-01,4.89999999999907e-01,1.02494185978312e-02
9.01000000000000e-08,7.00000000000000e-01,6.99999999999960e-01,6.23250866777277e-03
9.01080000000000e-08,7.00000000000000e-01,7.00000000000000e-01,5.52977889176570e-03
9.01240000000000e-08,7.00000000000000e-01,7.00000000000000e-01,4.28039064790244e-03
9.01560000000000e-08,7.00000000000000e-01,7.00000000000000e-01,2.52870698095582e-03
9.02200000000000e-08,7.00000000000000e-01,7.00000000000000e-01,8.20534945031634e-04
9.03480000000000e-08,7.00000000000000e-01,7.00000000000000e-01,-7.19049969959140e-06
9.06040000000000e-08,7.00000000000000e-01,7.00000000000000e-01,4.80065305681621e-07
9.10962385542638e-08,7.00000000000000e-01,7.00000000000000e-01,-2.22418268876375e-06
9.20807156627915e-08,7.00000000000000e-01,7.00000000000000e-01,2.06017254304747e-07
9.40496698798468e-08,7.00000000000000e-01,7.00000000000000e-01,-1.79269424091261e-06
9.51000000000000e-08,7.00000000000000e-01,7.00000000000000e-01,2.67129899589325e-08
9.51100000000000e-08,6.30000000000071e-01,7.00000000000000e-01,-7.05255477835010e-05
9.51300000000000e-08,4.90000000000098e-01,7.00000000000000e-01,-1.82475089687405e-04
9.51700000000000e-08,2.10000000000151e-01,7.00000000000000e-01,-2.13783958615009e-04
9.52000000000000e-08,9.80326930744013e-14,7.00000000000000e-01,3.96686034999164e-05
9.52080000000000e-08,0.00000000000000e+00,7.00000000000000e-01,1.91920608470633e-04
9.52240000000000e-08,0.00000000000000e+00,7.00000000000000e-01,3.86263161617661e-04
9.52560000000000e-08,0.00000000000000e+00,7.00000000000000e-01,3.74210532562980e-04
9.53200000000000e-08,0.00000000000000e+00,7.00000000000000e-01,-5.22170815900072e-04
9.54480000000000e-08,0.00000000000000e+00,7.00000000000000e-01,-2.19369547792055e-03
9.57040000000000e-08,0.00000000000000e+00,7.00000000000000e-01,-7.92009448148077e-05
9.60589261230863e-08,0.00000000000000e+00,7.00000000000000e-01,4.48956683441887e-05
9.67361732566090e-08,0.00000000000000e+00,7.00000000000000e-01,-3.16759059350198e-05
9.75818615176613e-08,0.00000000000000e+00,7.00000000000000e-01,1.85096108093577e-04
9.88862635502564e-08,0.00000000000000e+00,7.00000000000000e-01,-2.42768762775957e-04
1.01309056941674e-07,0.00000000000000e+00,7.00000000000000e-01,2.63495791443421e-04
1.05000000000000e-07,0.00000000000000e+00,7.00000000000000e-01,-2.74597791848893e-04
1.05010000000000e-07,6.99999999999867e-02,7.00000000000000e-01,-3.62431289743850e-05
1.05030000000000e-07,2.09999999999960e-01,7.00000000000000e-01,3.03932127500059e-04
1.05070000000000e-07,4.89999999999907e-01,7.00000000000000e-01,5.74553579130187e-04
1.05100000000000e-07,6.99999999999960e-01,7.00000000000000e-01,4.54177125175995e-04
1.05108000000000e-07,7.00000000000000e-01,7.00000000000000e-01,2.60677105837312e-04
1.05124000000000e-07,7.00000000000000e-01,7.00000000000000e-01,-3.30343562778695e-04
1.05156000000000e-07,7.00000000000000e-01,7.00000000000000e-01,-2.15578851771005e-03
1.05220000000000e-07,7.00000000000000e-01,7.00000000000000e-01,-5.32606423934207e-03
1.05348000000000e-07,7.00000000000000e-01,7.00000000000000e-01,1.10755402367704e-02
1.05604000000000e-07,7.00000000000000e-01,7.00000000000000e-01,4.24679144696423e-01
1.06116000000000e-07,7.00000000000000e-01,7.00000000000000e-01,7.29268213957225e-01
1.06709139725917e-07,7.00000000000000e-01,7.00000000000000e-01,6.76147972823077e-01
1.07895419177750e-07,7.00000000000000e-01,7.00000000000000e-01,7.22585499835360e-01
1.09350807647210e-07,7.00000000000000e-01,7.00000000000000e-01,6.78320038419921e-01
