Time,v(clk),v(data),v(out),v(reset)
1.00000000000000e-08,4.50000000000000e-01,0.00000000000000e+00,-1.18227892550713e-05,0.00000000000000e+00
1.00100000000000e-08,4.50000000000000e-01,4.49999999999989e-02,-7.17801837985671e-06,0.00000000000000e+00
1.00300000000000e-08,4.50000000000000e-01,1.34999999999997e-01,-8.03714079254669e-07,0.00000000000000e+00
1.00700000000000e-08,4.50000000000000e-01,3.14999999999992e-01,1.51211316570463e-06,0.00000000000000e+00
1.01000000000000e-08,4.50000000000000e-01,4.49999999999997e-01,6.94978703419391e-07,0.00000000000000e+00
1.01080000000000e-08,4.50000000000000e-01,4.50000000000000e-01,8.28982198892991e-07,0.00000000000000e+00
1.01240000000000e-08,4.50000000000000e-01,4.50000000000000e-01,1.37286595729147e-06,0.00000000000000e+00
1.01560000000000e-08,4.50000000000000e-01,4.50000000000000e-01,2.80261187384639e-06,0.00000000000000e+00
1.02200000000000e-08,4.50000000000000e-01,4.50000000000000e-01,3.15878008966611e-06,0.00000000000000e+00
1.03480000000000e-08,4.50000000000000e-01,4.50000000000000e-01,3.05088173980020e-06,0.00000000000000e+00
1.06040000000000e-08,4.50000000000000e-01,4.50000000000000e-01,1.46897010204310e-06,0.00000000000000e+00
1.11160000000000e-08,4.50000000000000e-01,4.50000000000000e-01,2.50548787271779e-06,0.00000000000000e+00
1.21400000000000e-08,4.50000000000000e-01,4.50000000000000e-01,1.32169370706346e-06,0.00000000000000e+00
1.41880000000000e-08,4.50000000000000e-01,4.50000000000000e-01,2.05202102975541e-06,0.00000000000000e+00
1.51000000000000e-08,4.50000000000000e-01,4.50000000000000e-01,1.04108109824814e-06,0.00000000000000e+00
1.51100000000000e-08,4.04999999999994e-01,4.50000000000000e-01,1.50888086527030e-04,4.50000000000064e-02
1.51300000000000e-08,3.14999999999996e-01,4.50000000000000e-01,3.18875236351934e-04,1.35000000000004e-01
1.51700000000000e-08,1.35000000000000e-01,4.50000000000000e-01,1.89229863021820e-04,3.15000000000000e-01
1.52000000000000e-08,0.00000000000000e+00,4.50000000000000e-01,6.33323422927975e-05,4.50000000000000e-01
1.52080000000000e-08,0.00000000000000e+00,4.50000000000000e-01,3.86232532082337e-05,4.50000000000000e-01
1.52240000000000e-08,0.00000000000000e+00,4.50000000000000e-01,7.96849363171592e-06,4.50000000000000e-01
1.52560000000000e-08,0.00000000000000e+00,4.50000000000000e-01,5.21651272435142e-07,4.50000000000000e-01
1.53200000000000e-08,0.00000000000000e+00,4.50000000000000e-01,1.17804824619067e-05,4.50000000000000e-01
1.54480000000000e-08,0.00000000000000e+00,4.50000000000000e-01,-4.08969793484655e-05,4.50000000000000e-01
1.57040000000000e-08,0.00000000000000e+00,4.50000000000000e-01,-7.89131978814611e-05,4.50000000000000e-01
1.62160000000000e-08,0.00000000000000e+00,4.50000000000000e-01,1.83526129583517e-06,4.50000000000000e-01
1.71721629363136e-08,0.00000000000000e+00,4.50000000000000e-01,-1.31349873317230e-05,4.50000000000000e-01
1.83427637848397e-08,0.00000000000000e+00,4.50000000000000e-01,5.83111911795055e-05,4.50000000000000e-01
2.06839654818918e-08,0.00000000000000e+00,4.50000000000000e-01,-7.02195962570752e-05,4.50000000000000e-01
2.38980575992025e-08,0.00000000000000e+00,4.50000000000000e-01,7.64707392458034e-05,4.50000000000000e-01
2.50000000000000e-08,0.00000000000000e+00,4.50000000000000e-01,-8.40662758750587e-05,4.50000000000000e-01
2.50100000000000e-08,4.49999999999915e-02,4.50000000000000e-01,1.30740890036257e-05,4.50000000000000e-01
2.50300000000000e-08,1.35000000000004e-01,4.50000000000000e-01,1.69223679246974e-04,4.50000000000000e-01
2.50700000000000e-08,3.15000000000000e-01,4.50000000000000e-01,2.93515790497578e-04,4.50000000000000e-01
2.51000000000000e-08,4.50000000000000e-01,4.50000000000000e-01,2.05381391265844e-04,4.50000000000000e-01
2.51080000000000e-08,4.50000000000000e-01,4.50000000000000e-01,7.88003596990938e-05,4.50000000000000e-01
2.51240000000000e-08,4.50000000000000e-01,4.50000000000000e-01,-2.83624253241063e-04,4.50000000000000e-01
2.51560000000000e-08,4.50000000000000e-01,4.50000000000000e-01,-1.35494877574351e-03,4.50000000000000e-01
2.52200000000000e-08,4.50000000000000e-01,4.50000000000000e-01,-3.22873757770754e-03,4.50000000000000e-01
2.53480000000000e-08,4.50000000000000e-01,4.50000000000000e-01,-4.87609571550728e-03,4.50000000000000e-01
2.56040000000000e-08,4.50000000000000e-01,4.50000000000000e-01,1.19118600251818e-01,4.50000000000000e-01
2.61160000000000e-08,4.50000000000000e-01,4.50000000000000e-01,4.35182358576260e-01,4.50000000000000e-01
2.71400000000000e-08,4.50000000000000e-01,4.50000000000000e-01,4.54975516143805e-01,4.50000000000000e-01
2.84197156958108e-08,4.50000000000000e-01,4.50000000000000e-01,4.44070212213047e-01,4.50000000000000e-01
3.06920964521668e-08,4.50000000000000e-01,4.50000000000000e-01,4.54165250673669e-01,4.50000000000000e-01
3.37704479875345e-08,4.50000000000000e-01,4.50000000000000e-01,4.45091785235497e-01,4.50000000000000e-01
3.51000000000000e-08,4.49999999999978e-01,4.50000000000000e-01,4.53553195545063e-01,4.50000000000000e-01
3.51100000000000e-08,4.04999999999986e-01,4.50000000000000e-01,4.52613411278691e-01,4.50000000000000e-01
3.51300000000000e-08,3.14999999999974e-01,4.50000000000000e-01,4.51212334725126e-01,4.50000000000000e-01
3.51700000000000e-08,1.34999999999978e-01,4.50000000000000e-01,4.50308965757725e-01,4.50000000000000e-01
3.52000000000000e-08,0.00000000000000e+00,4.50000000000000e-01,4.50995727081519e-01,4.50000000000000e-01
3.52080000000000e-08,0.00000000000000e+00,4.50000000000000e-01,4.51293278446203e-01,4.50000000000000e-01
3.52240000000000e-08,0.00000000000000e+00,4.50000000000000e-01,4.51733170289978e-01,4.50000000000000e-01
3.52560000000000e-08,0.00000000000000e+00,4.50000000000000e-01,4.52118056261878e-01,4.50000000000000e-01
3.53200000000000e-08,0.00000000000000e+00,4.50000000000000e-01,4.51849070874329e-01,4.50000000000000e-01
3.54480000000000e-08,0.00000000000000e+00,4.50000000000000e-01,4.44850653538503e-01,4.50000000000000e-01
3.57040000000000e-08,0.00000000000000e+00,4.50000000000000e-01,4.36252059473452e-01,4.50000000000000e-01
3.62160000000000e-08,0.00000000000000e+00,4.50000000000000e-01,4.48734412963313e-01,4.50000000000000e-01
3.72400000000000e-08,0.00000000000000e+00,4.50000000000000e-01,4.50339342411748e-01,4.50000000000000e-01
3.87065331711308e-08,0.00000000000000e+00,4.50000000000000e-01,4.49340261487032e-01,4.50000000000000e-01
4.16395995133923e-08,0.00000000000000e+00,4.50000000000000e-01,4.50306586024480e-01,4.50000000000000e-01
4.50000000000000e-08,0.00000000000000e+00,4.50000000000000e-01,4.49529613886607e-01,4.50000000000000e-01
4.50100000000000e-08,4.49999999999915e-02,4.50000000000000e-01,4.49509351092983e-01,4.05000000000009e-01
4.50300000000000e-08,1.35000000000004e-01,4.50000000000000e-01,4.49477915478862e-01,3.14999999999996e-01
4.50700000000000e-08,3.15000000000000e-01,4.50000000000000e-01,4.49716152460508e-01,1.35000000000000e-01
4.51000000000000e-08,4.50000000000000e-01,4.50000000000000e-01,4.51771767473002e-01,0.00000000000000e+00
4.51080000000000e-08,4.50000000000000e-01,4.50000000000000e-01,4.52687328862147e-01,0.00000000000000e+00
4.51240000000000e-08,4.50000000000000e-01,4.50000000000000e-01,4.54274340975665e-01,0.00000000000000e+00
4.51560000000000e-08,4.50000000000000e-01,4.50000000000000e-01,4.56729347876633e-01,0.00000000000000e+00
4.52200000000000e-08,4.50000000000000e-01,4.50000000000000e-01,4.61645648365155e-01,0.00000000000000e+00
4.53480000000000e-08,4.50000000000000e-01,4.50000000000000e-01,4.71314186742831e-01,0.00000000000000e+00
4.56040000000000e-08,4.50000000000000e-01,4.50000000000000e-01,2.25182649608254e-01,0.00000000000000e+00
4.61160000000000e-08,4.50000000000000e-01,4.50000000000000e-01,-3.73322611174884e-02,0.00000000000000e+00
4.67761685685466e-08,4.50000000000000e-01,4.50000000000000e-01,3.24958471545478e-02,0.00000000000000e+00
4.80965057056397e-08,4.50000000000000e-01,4.50000000000000e-01,-2.36379745352838e-02,0.00000000000000e+00
4.96135620000448e-08,4.50000000000000e-01,4.50000000000000e-01,2.32730151177228e-02,0.00000000000000e+00
5.01000000000000e-08,4.50000000000000e-01,4.49999999999974e-01,-1.35036793289300e-02,0.00000000000000e+00
5.04034112588810e-08,4.50000000000000e-01,4.50000000000000e-01,-1.90507917653682e-03,0.00000000000000e+00
5.10102337766430e-08,4.50000000000000e-01,4.50000000000000e-01,1.34957594152392e-03,0.00000000000000e+00
5.22238788121671e-08,4.50000000000000e-01,4.50000000000000e-01,-1.12401586021621e-03,0.00000000000000e+00
5.46511688832153e-08,4.50000000000000e-01,4.50000000000000e-01,1.03676886596719e-03,0.00000000000000e+00
5.51000000000000e-08,4.50000000000000e-01,4.50000000000000e-01,-6.38689580862904e-04,0.00000000000000e+00
5.51100000000000e-08,4.05000000000016e-01,4.50000000000000e-01,-3.82617555029392e-04,4.49999999999840e-02
5.51300000000000e-08,3.15000000000003e-01,4.50000000000000e-01,-3.65647204368519e-05,1.34999999999997e-01
5.51700000000000e-08,1.35000000000008e-01,4.50000000000000e-01,2.74023253671041e-05,3.14999999999992e-01
5.52000000000000e-08,0.00000000000000e+00,4.50000000000000e-01,-3.07194390573168e-05,4.50000000000000e-01
5.52080000000000e-08,0.00000000000000e+00,4.50000000000000e-01,-4.45505861506046e-05,4.50000000000000e-01
5.52240000000000e-08,0.00000000000000e+00,4.50000000000000e-01,-5.52845171064714e-05,4.50000000000000e-01
5.52560000000000e-08,0.00000000000000e+00,4.50000000000000e-01,-3.76120327127069e-05,4.50000000000000e-01
5.53200000000000e-08,0.00000000000000e+00,4.50000000000000e-01,-1.00868124678806e-05,4.50000000000000e-01
5.54480000000000e-08,0.00000000000000e+00,4.50000000000000e-01,-3.23023144806218e-04,4.50000000000000e-01
5.57040000000000e-08,0.00000000000000e+00,4.50000000000000e-01,-3.46887846769133e-04,4.50000000000000e-01
5.62084210660445e-08,0.00000000000000e+00,4.50000000000000e-01,2.31558408714388e-04,4.50000000000000e-01
5.71695372719787e-08,0.00000000000000e+00,4.50000000000000e-01,-2.31668684225140e-04,4.50000000000000e-01
5.83316296609740e-08,0.00000000000000e+00,4.50000000000000e-01,2.14004613620579e-04,4.50000000000000e-01
6.06558144389646e-08,0.00000000000000e+00,4.50000000000000e-01,-1.95281460439683e-04,4.50000000000000e-01
6.38550863744059e-08,0.00000000000000e+00,4.50000000000000e-01,1.82947325998456e-04,4.50000000000000e-01
6.50000000000000e-08,0.00000000000000e+00,4.50000000000000e-01,-1.46944777828560e-04,4.50000000000000e-01
6.50100000000000e-08,4.49999999999915e-02,4.50000000000000e-01,-4.95123146474832e-05,4.50000000000000e-01
6.50300000000000e-08,1.34999999999974e-01,4.50000000000000e-01,1.11787672767899e-04,4.50000000000000e-01
6.50700000000000e-08,3.14999999999940e-01,4.50000000000000e-01,2.58967846121998e-04,4.50000000000000e-01
6.51000000000000e-08,4.49999999999974e-01,4.50000000000000e-01,1.85056621591441e-04,4.50000000000000e-01
6.51080000000000e-08,4.50000000000000e-01,4.50000000000000e-01,6.08541833162501e-05,4.50000000000000e-01
6.51240000000000e-08,4.50000000000000e-01,4.50000000000000e-01,-2.97383362686567e-04,4.50000000000000e-01
6.51560000000000e-08,4.50000000000000e-01,4.50000000000000e-01,-1.36175818380686e-03,4.50000000000000e-01
6.52200000000000e-08,4.50000000000000e-01,4.50000000000000e-01,-3.22566091295263e-03,4.50000000000000e-01
6.53480000000000e-08,4.50000000000000e-01,4.50000000000000e-01,-4.90452899596096e-03,4.50000000000000e-01
6.56040000000000e-08,4.50000000000000e-01,4.50000000000000e-01,1.18161041337313e-01,4.50000000000000e-01
6.61159999999999e-08,4.50000000000000e-01,4.50000000000000e-01,4.34809626738581e-01,4.50000000000000e-01
6.71399999999999e-08,4.50000000000000e-01,4.50000000000000e-01,4.55112806530534e-01,4.50000000000000e-01
6.84198239580570e-08,4.50000000000000e-01,4.50000000000000e-01,4.43894589014574e-01,4.50000000000000e-01
7.06929197482789e-08,4.50000000000000e-01,4.50000000000000e-01,4.54292923341400e-01,4.50000000000000e-01
7.37722172826861e-08,4.50000000000000e-01,4.50000000000000e-01,4.44937252364622e-01,4.50000000000000e-01
7.51000000000000e-08,4.50000000000000e-01,4.50000000000000e-01,4.53669346472403e-01,4.50000000000000e-01
7.51100000000000e-08,4.05000000000046e-01,4.50000000000000e-01,4.52694238136122e-01,4.50000000000000e-01
7.51300000000000e-08,3.15000000000063e-01,4.50000000000000e-01,4.51244236316993e-01,4.50000000000000e-01
7.51700000000000e-08,1.35000000000097e-01,4.50000000000000e-01,4.50311120122106e-01,4.50000000000000e-01
7.52000000000000e-08,6.29496454962464e-14,4.50000000000000e-01,4.50996001311916e-01,4.50000000000000e-01
7.52080000000000e-08,0.00000000000000e+00,4.50000000000000e-01,4.51293422735628e-01,4.50000000000000e-01
7.52240000000000e-08,0.00000000000000e+00,4.50000000000000e-01,4.51733131018629e-01,4.50000000000000e-01
7.52560000000000e-08,0.00000000000000e+00,4.50000000000000e-01,4.52117946804317e-01,4.50000000000000e-01
7.53200000000000e-08,0.00000000000000e+00,4.50000000000000e-01,4.51849579741567e-01,4.50000000000000e-01
7.54480000000000e-08,0.00000000000000e+00,4.50000000000000e-01,4.44853568421919e-01,4.50000000000000e-01
7.57040000000000e-08,0.00000000000000e+00,4.50000000000000e-01,4.36253300936939e-01,4.50000000000000e-01
7.62159999999999e-08,0.00000000000000e+00,4.50000000000000e-01,4.48733152523682e-01,4.50000000000000e-01
7.72399999999999e-08,0.00000000000000e+00,4.50000000000000e-01,4.50340476603907e-01,4.50000000000000e-01
7.87065412177251e-08,0.00000000000000e+00,4.50000000000000e-01,4.49339277588947e-01,4.50000000000000e-01
8.16396236531756e-08,0.00000000000000e+00,4.50000000000000e-01,4.50307517308865e-01,4.50000000000000e-01
8.50000000000000e-08,0.00000000000000e+00,4.50000000000000e-01,4.49528729254980e-01,4.50000000000000e-01
8.50100000000000e-08,4.49999999999915e-02,4.50000000000000e-01,4.49508522290330e-01,4.05000000000009e-01
8.50300000000000e-08,1.34999999999974e-01,4.50000000000000e-01,4.49477441593977e-01,3.15000000000026e-01
8.50700000000000e-08,3.14999999999940e-01,4.50000000000000e-01,4.49715991494453e-01,1.35000000000060e-01
8.51000000000000e-08,4.49999999999974e-01,4.50000000000000e-01,4.51771692784939e-01,2.57571741713036e-14
8.51080000000000e-08,4.50000000000000e-01,4.50000000000000e-01,4.52687268419911e-01,0.00000000000000e+00
8.51240000000000e-08,4.50000000000000e-01,4.50000000000000e-01,4.54274300928058e-01,0.00000000000000e+00
8.51560000000000e-08,4.50000000000000e-01,4.50000000000000e-01,4.56729319297525e-01,0.00000000000000e+00
8.52200000000000e-08,4.50000000000000e-01,4.50000000000000e-01,4.61645616642316e-01,0.00000000000000e+00
8.53480000000000e-08,4.50000000000000e-01,4.50000000000000e-01,4.71314185582678e-01,0.00000000000000e+00
8.56040000000000e-08,4.50000000000000e-01,4.50000000000000e-01,2.25184770290194e-01,0.00000000000000e+00
8.61159999999999e-08,4.50000000000000e-01,4.50000000000000e-01,-3.73317636771374e-02,0.00000000000000e+00
8.67761696572534e-08,4.50000000000000e-01,4.50000000000000e-01,3.24950128420475e-02,0.00000000000000e+00
8.80965089717602e-08,4.50000000000000e-01,4.50000000000000e-01,-2.36376619815744e-02,0.00000000000000e+00
8.96135708217860e-08,4.50000000000000e-01,4.50000000000000e-01,2.32725533312682e-02,0.00000000000000e+00
9.01000000000000e-08,4.50000000000000e-01,4.49999999999974e-01,-1.35033966740476e-02,0.00000000000000e+00
9.04034123700051e-08,4.50000000000000e-01,4.50000000000000e-01,-1.90503658275538e-03,0.00000000000000e+00
9.10102371100155e-08,4.50000000000000e-01,4.50000000000000e-01,1.34954845526089e-03,0.00000000000000e+00
9.22238865900361e-08,4.50000000000000e-01,4.50000000000000e-01,-1.12399464281073e-03,0.00000000000000e+00
9.46511855500773e-08,4.50000000000000e-01,4.50000000000000e-01,1.03674955740114e-03,0.00000000000000e+00
9.51000000000000e-08,4.50000000000000e-01,4.50000000000000e-01,-6.38666630651158e-04,0.00000000000000e+00
9.51100000000000e-08,4.05000000000046e-01,4.50000000000000e-01,-3.82598376303882e-04,4.49999999999542e-02
9.51300000000000e-08,3.15000000000063e-01,4.50000000000000e-01,-3.65521013505135e-05,1.34999999999937e-01
9.51700000000000e-08,1.35000000000097e-01,4.50000000000000e-01,2.74082001673129e-05,3.14999999999903e-01
9.52000000000000e-08,6.29496454962464e-14,4.50000000000000e-01,-3.07159845123681e-05,4.49999999999937e-01
9.52080000000000e-08,0.00000000000000e+00,4.50000000000000e-01,-4.45475516914831e-05,4.50000000000000e-01
9.52240000000000e-08,0.00000000000000e+00,4.50000000000000e-01,-5.52823293987828e-05,4.50000000000000e-01
9.52560000000000e-08,0.00000000000000e+00,4.50000000000000e-01,-3.76107273652795e-05,4.50000000000000e-01
9.53200000000000e-08,0.00000000000000e+00,4.50000000000000e-01,-1.00850806455076e-05,4.50000000000000e-01
9.54480000000000e-08,0.00000000000000e+00,4.50000000000000e-01,-3.23009216877987e-04,4.50000000000000e-01
9.57040000000000e-08,0.00000000000000e+00,4.50000000000000e-01,-3.46855497113009e-04,4.50000000000000e-01
9.62083804337949e-08,0.00000000000000e+00,4.50000000000000e-01,2.31542572495138e-04,4.50000000000000e-01
9.71695152779971e-08,0.00000000000000e+00,4.50000000000000e-01,-2.31660936019407e-04,4.50000000000000e-01
9.83315517486613e-08,0.00000000000000e+00,4.50000000000000e-01,2.13997150656634e-04,4.50000000000000e-01
1.00655624689990e-07,0.00000000000000e+00,4.50000000000000e-01,-1.95273476815912e-04,4.50000000000000e-01
1.03854752250430e-07,0.00000000000000e+00,4.50000000000000e-01,1.82939447221891e-04,4.50000000000000e-01
1.05000000000000e-07,0.00000000000000e+00,4.50000000000000e-01,-1.46948184240697e-04,4.50000000000000e-01
1.05010000000000e-07,4.49999999999915e-02,4.50000000000000e-01,-4.95135039034755e-05,4.50000000000000e-01
1.05030000000000e-07,1.34999999999974e-01,4.50000000000000e-01,1.11788132533840e-04,4.50000000000000e-01
1.05070000000000e-07,3.14999999999940e-01,4.50000000000000e-01,2.58968563570883e-04,4.50000000000000e-01
1.05100000000000e-07,4.49999999999974e-01,4.50000000000000e-01,1.85054503941379e-04,4.50000000000000e-01
1.05108000000000e-07,4.50000000000000e-01,4.50000000000000e-01,6.08497214080739e-05,4.50000000000000e-01
1.05124000000000e-07,4.50000000000000e-01,4.50000000000000e-01,-2.97392930623225e-04,4.50000000000000e-01
1.05156000000000e-07,4.50000000000000e-01,4.50000000000000e-01,-1.36178746771363e-03,4.50000000000000e-01
1.05220000000000e-07,4.50000000000000e-01,4.50000000000000e-01,-3.22569634654635e-03,4.50000000000000e-01
1.05348000000000e-07,4.50000000000000e-01,4.50000000000000e-01,-4.90449953157637e-03,4.50000000000000e-01
1.05604000000000e-07,4.50000000000000e-01,4.50000000000000e-01,1.18161651092552e-01,4.50000000000000e-01
1.06116000000000e-07,4.50000000000000e-01,4.50000000000000e-01,4.34809863174395e-01,4.50000000000000e-01
1.07140000000000e-07,4.50000000000000e-01,4.50000000000000e-01,4.55112720766396e-01,4.50000000000000e-01
1.08419823858428e-07,4.50000000000000e-01,4.50000000000000e-01,4.43894700475840e-01,4.50000000000000e-01
1.10692919223752e-07,4.50000000000000e-01,4.50000000000000e-01,4.54292844401987e-01,4.50000000000000e-01
1.13772216265444e-07,4.50000000000000e-01,4.50000000000000e-01,4.44937350398286e-01,4.50000000000000e-01
1.15100000000000e-07,4.50000000000000e-01,4.50000000000000e-01,4.53669272979770e-01,4.50000000000000e-01
1.15110000000000e-07,4.05000000000046e-01,4.50000000000000e-01,4.52694187145256e-01,4.50000000000000e-01
1.15130000000000e-07,3.15000000000063e-01,4.50000000000000e-01,4.51244216170919e-01,4.50000000000000e-01
1.15170000000000e-07,1.35000000000097e-01,4.50000000000000e-01,4.50311118467383e-01,4.50000000000000e-01
1.15200000000000e-07,6.29496454962464e-14,4.50000000000000e-01,4.50996000896528e-01,4.50000000000000e-01
1.15208000000000e-07,0.00000000000000e+00,4.50000000000000e-01,4.51293422446392e-01,4.50000000000000e-01
1.15224000000000e-07,0.00000000000000e+00,4.50000000000000e-01,4.51733130884663e-01,4.50000000000000e-01
1.15256000000000e-07,0.00000000000000e+00,4.50000000000000e-01,4.52117946616641e-01,4.50000000000000e-01
1.15320000000000e-07,0.00000000000000e+00,4.50000000000000e-01,4.51849579151921e-01,4.50000000000000e-01
