Time,v(clk),v(data),v(out)
1.00000000000000e-08,4.50000000000000e-01,0.00000000000000e+00,5.98320823547507e-06
1.00100000000000e-08,4.50000000000000e-01,4.49999999999989e-02,7.56800390284279e-06
1.00300000000000e-08,4.50000000000000e-01,1.34999999999997e-01,8.84217163447942e-06
1.00700000000000e-08,4.50000000000000e-01,3.14999999999992e-01,8.26345063231759e-06
1.01000000000000e-08,4.50000000000000e-01,4.49999999999997e-01,5.26603118496116e-06
1.01080000000000e-08,4.50000000000000e-01,4.50000000000000e-01,4.25177981224628e-06
1.01240000000000e-08,4.50000000000000e-01,4.50000000000000e-01,3.11963327585124e-06
1.01560000000000e-08,4.50000000000000e-01,4.50000000000000e-01,2.71444830964723e-06
1.02200000000000e-08,4.50000000000000e-01,4.50000000000000e-01,3.54289842154770e-06
1.03480000000000e-08,4.50000000000000e-01,4.50000000000000e-01,5.10097067775092e-06
1.06040000000000e-08,4.50000000000000e-01,4.50000000000000e-01,3.72237943722237e-06
1.11160000000000e-08,4.50000000000000e-01,4.50000000000000e-01,1.97919617596701e-06
1.21400000000000e-08,4.50000000000000e-01,4.50000000000000e-01,2.92431373024628e-06
1.41880000000000e-08,4.50000000000000e-01,4.50000000000000e-01,2.25977656838437e-06
1.51000000000000e-08,4.50000000000000e-01,4.50000000000000e-01,2.53917971648407e-06
1.51100000000000e-08,4.04999999999994e-01,4.50000000000000e-01,-4.65360752912453e-05
1.51300000000000e-08,3.14999999999996e-01,4.50000000000000e-01,-1.31928109177198e-04
1.51700000000000e-08,1.35000000000000e-01,4.50000000000000e-01,-2.38664208610337e-04
1.52000000000000e-08,0.00000000000000e+00,4.50000000000000e-01,-1.50622913218837e-04
1.52080000000000e-08,0.00000000000000e+00,4.50000000000000e-01,-3.81753375015975e-05
1.52240000000000e-08,0.00000000000000e+00,4.50000000000000e-01,1.37529214630283e-04
1.52560000000000e-08,0.00000000000000e+00,4.50000000000000e-01,2.97453082328931e-04
1.53200000000000e-08,0.00000000000000e+00,4.50000000000000e-01,3.14830017735343e-04
1.54480000000000e-08,0.00000000000000e+00,4.50000000000000e-01,1.02948877032105e-04
1.57040000000000e-08,0.00000000000000e+00,4.50000000000000e-01,-1.54479565929504e-04
1.62160000000000e-08,0.00000000000000e+00,4.50000000000000e-01,1.24253212899408e-05
1.72400000000000e-08,0.00000000000000e+00,4.50000000000000e-01,-5.48580163450725e-05
1.87175031188802e-08,0.00000000000000e+00,4.50000000000000e-01,4.47206506236147e-05
2.11986972331601e-08,0.00000000000000e+00,4.50000000000000e-01,4.68911997945302e-06
2.49986972331601e-08,0.00000000000000e+00,4.50000000000000e-01,-2.42343495611588e-05
2.50000000000000e-08,0.00000000000000e+00,4.50000000000000e-01,-2.27618009388808e-05
2.50026055336797e-08,1.17249015586469e-02,4.50000000000000e-01,6.53931255787527e-06
2.50078166010391e-08,3.51747046759406e-02,4.50000000000000e-01,6.17749146041360e-05
2.50182387357579e-08,8.20743109105280e-02,4.50000000000000e-01,1.59054420347450e-04
2.50390830051955e-08,1.75873523379703e-01,4.50000000000000e-01,3.19280655241644e-04
2.50807715440707e-08,3.63471948318053e-01,4.50000000000000e-01,4.92561120391623e-04
2.51000000000000e-08,4.50000000000000e-01,4.50000000000000e-01,5.13162659266903e-04
2.51083377077750e-08,4.50000000000000e-01,4.50000000000000e-01,4.69593152366755e-04
2.51250131233251e-08,4.50000000000000e-01,4.50000000000000e-01,3.87918019591489e-04
2.51583639544253e-08,4.50000000000000e-01,4.50000000000000e-01,2.28553795507604e-04
2.52250656166256e-08,4.50000000000000e-01,4.50000000000000e-01,-2.88559253458068e-04
2.53584689410262e-08,4.50000000000000e-01,4.50000000000000e-01,-1.90075027964617e-03
2.56252755898274e-08,4.50000000000000e-01,4.50000000000000e-01,-4.27874423553470e-03
2.61588888874298e-08,4.50000000000000e-01,4.50000000000000e-01,8.20970354114712e-02
2.72261154826346e-08,4.50000000000000e-01,4.50000000000000e-01,4.33041912307092e-01
2.93605686730443e-08,4.50000000000000e-01,4.50000000000000e-01,4.55953716829843e-01
3.01000000000000e-08,4.50000000000000e-01,4.50000000000000e-01,4.44025715828778e-01
3.01100000000000e-08,4.50000000000000e-01,4.05000000000023e-01,4.45580502572574e-01
3.01300000000000e-08,4.50000000000000e-01,3.15000000000011e-01,4.47868190270600e-01
3.01700000000000e-08,4.50000000000000e-01,1.35000000000015e-01,4.49580518980569e-01
3.02000000000000e-08,4.50000000000000e-01,1.08801856413265e-14,4.49846723022985e-01
3.02080000000000e-08,4.50000000000000e-01,0.00000000000000e+00,4.49863881093928e-01
3.02240000000000e-08,4.50000000000000e-01,0.00000000000000e+00,4.49890042044922e-01
3.02560000000000e-08,4.50000000000000e-01,0.00000000000000e+00,4.49941855184538e-01
3.03200000000000e-08,4.50000000000000e-01,0.00000000000000e+00,4.49971917838640e-01
3.04480000000000e-08,4.50000000000000e-01,0.00000000000000e+00,4.49969553333083e-01
3.07040000000000e-08,4.50000000000000e-01,0.00000000000000e+00,4.49982179158652e-01
3.12160000000000e-08,4.50000000000000e-01,0.00000000000000e+00,4.49999540830280e-01
3.21448851441739e-08,4.50000000000000e-01,0.00000000000000e+00,4.49981188900958e-01
3.36470087265084e-08,4.50000000000000e-01,0.00000000000000e+00,4.49998332564189e-01
3.51000000000000e-08,4.49999999999978e-01,0.00000000000000e+00,4.49983698798983e-01
3.51100000000000e-08,4.04999999999986e-01,0.00000000000000e+00,4.49934247979326e-01
3.51300000000000e-08,3.14999999999974e-01,0.00000000000000e+00,4.49861718965024e-01
3.51700000000000e-08,1.34999999999978e-01,0.00000000000000e+00,4.49950315096937e-01
3.52000000000000e-08,0.00000000000000e+00,0.00000000000000e+00,4.50843792651537e-01
3.52080000000000e-08,0.00000000000000e+00,0.00000000000000e+00,4.51191243788103e-01
3.52240000000000e-08,0.00000000000000e+00,0.00000000000000e+00,4.51711140741403e-01
3.52560000000000e-08,0.00000000000000e+00,0.00000000000000e+00,4.52189321461686e-01
3.53200000000000e-08,0.00000000000000e+00,0.00000000000000e+00,4.52275121031267e-01
3.54480000000000e-08,0.00000000000000e+00,0.00000000000000e+00,4.47569570090119e-01
3.57040000000000e-08,0.00000000000000e+00,0.00000000000000e+00,4.38142858754325e-01
3.62160000000000e-08,0.00000000000000e+00,0.00000000000000e+00,4.47434335559753e-01
3.71212945437459e-08,0.00000000000000e+00,0.00000000000000e+00,4.51185774311126e-01
3.85676437142679e-08,0.00000000000000e+00,0.00000000000000e+00,4.48467424382070e-01
3.91000000000000e-08,0.00000000000000e+00,0.00000000000000e+00,4.50697887514879e-01
3.93268313944203e-08,0.00000000000000e+00,0.00000000000000e+00,4.49988953021137e-01
3.97804941832609e-08,0.00000000000000e+00,0.00000000000000e+00,4.49739349314095e-01
4.06878197609421e-08,0.00000000000000e+00,0.00000000000000e+00,4.49946184238846e-01
4.25024709163046e-08,0.00000000000000e+00,0.00000000000000e+00,4.49824146638457e-01
4.50000000000000e-08,0.00000000000000e+00,0.00000000000000e+00,4.49986178713415e-01
4.50100000000000e-08,4.49999999999915e-02,0.00000000000000e+00,4.50030481994145e-01
4.50300000000000e-08,1.35000000000004e-01,0.00000000000000e+00,4.50084871144849e-01
4.50700000000000e-08,3.15000000000000e-01,0.00000000000000e+00,4.50064288807550e-01
4.51000000000000e-08,4.50000000000000e-01,0.00000000000000e+00,4.49985839088049e-01
4.51080000000000e-08,4.50000000000000e-01,0.00000000000000e+00,4.49940137377379e-01
4.51240000000000e-08,4.50000000000000e-01,0.00000000000000e+00,4.49869897738397e-01
4.51560000000000e-08,4.50000000000000e-01,0.00000000000000e+00,4.49815807078367e-01
4.52200000000000e-08,4.50000000000000e-01,0.00000000000000e+00,4.49820774673063e-01
4.53480000000000e-08,4.50000000000000e-01,0.00000000000000e+00,4.49867388452644e-01
4.56040000000000e-08,4.50000000000000e-01,0.00000000000000e+00,4.49883533038395e-01
4.61160000000000e-08,4.50000000000000e-01,0.00000000000000e+00,4.52079094225085e-01
4.71400000000000e-08,4.50000000000000e-01,0.00000000000000e+00,1.74866280346000e-01
4.91880000000000e-08,4.50000000000000e-01,0.00000000000000e+00,-4.72313684002049e-02
5.00000000000000e-08,4.50000000000000e-01,0.00000000000000e+00,3.08086744028547e-02
5.00100000000000e-08,4.50000000000000e-01,4.49999999999915e-02,2.94088171054646e-02
5.00300000000000e-08,4.50000000000000e-01,1.34999999999974e-01,2.65184934572327e-02
5.00700000000000e-08,4.50000000000000e-01,3.15000000000000e-01,2.08277519471510e-02
5.01000000000000e-08,4.50000000000000e-01,4.50000000000000e-01,1.71083120533440e-02
5.01080000000000e-08,4.50000000000000e-01,4.50000000000000e-01,1.62382322482446e-02
5.01240000000000e-08,4.50000000000000e-01,4.50000000000000e-01,1.45835196403071e-02
5.01560000000000e-08,4.50000000000000e-01,4.50000000000000e-01,1.17405092312328e-02
5.02200000000000e-08,4.50000000000000e-01,4.50000000000000e-01,7.52791098903614e-03
5.03480000000000e-08,4.50000000000000e-01,4.50000000000000e-01,2.90820681412166e-03
5.06040000000000e-08,4.50000000000000e-01,4.50000000000000e-01,1.68506805832472e-04
5.11160000000001e-08,4.50000000000000e-01,4.50000000000000e-01,-4.94189147754349e-05
5.21400000000002e-08,4.50000000000000e-01,4.50000000000000e-01,1.97453189757883e-05
5.41880000000003e-08,4.50000000000000e-01,4.50000000000000e-01,-1.38514231172110e-05
5.51000000000000e-08,4.50000000000000e-01,4.50000000000000e-01,2.16203474498345e-05
5.51100000000000e-08,4.05000000000016e-01,4.50000000000000e-01,1.60695907460776e-05
5.51300000000000e-08,3.15000000000003e-01,4.50000000000000e-01,-8.32995453088695e-05
5.51700000000000e-08,1.35000000000008e-01,4.50000000000000e-01,-2.00567523993243e-04
5.52000000000000e-08,0.00000000000000e+00,4.50000000000000e-01,-1.21929005306498e-04
5.52080000000000e-08,0.00000000000000e+00,4.50000000000000e-01,-1.16993561184650e-05
5.52240000000000e-08,0.00000000000000e+00,4.50000000000000e-01,1.55358867201069e-04
5.52560000000000e-08,0.00000000000000e+00,4.50000000000000e-01,3.11368911488509e-04
5.53200000000000e-08,0.00000000000000e+00,4.50000000000000e-01,3.13144315742114e-04
5.54480000000000e-08,0.00000000000000e+00,4.50000000000000e-01,-9.48128846403676e-05
5.57040000000000e-08,0.00000000000000e+00,4.50000000000000e-01,-6.71226921052783e-04
5.62160000000000e-08,0.00000000000000e+00,4.50000000000000e-01,5.57491161536604e-06
5.72400000000000e-08,0.00000000000000e+00,4.50000000000000e-01,-3.32333671377617e-06
5.87191331367006e-08,0.00000000000000e+00,4.50000000000000e-01,-1.58529743625830e-05
6.11992530650971e-08,0.00000000000000e+00,4.50000000000000e-01,6.59748730311325e-05
6.49992530650971e-08,0.00000000000000e+00,4.50000000000000e-01,-8.58360632671430e-05
6.50000000000000e-08,0.00000000000000e+00,4.50000000000000e-01,-8.38592026044804e-05
6.50014938698059e-08,6.72241412664230e-03,4.50000000000000e-01,-6.47247823725092e-05
6.50044816094178e-08,2.01672423799269e-02,4.50000000000000e-01,-2.71218834842837e-05
6.50104570886415e-08,4.70568988864961e-02,4.50000000000000e-01,4.11462380688066e-05
6.50224080470888e-08,1.00836211899634e-01,4.50000000000000e-01,1.58860493403017e-04
6.50463099639835e-08,2.08394837925911e-01,4.50000000000000e-01,3.42951972543970e-04
6.50941137977730e-08,4.23512089978465e-01,4.50000000000000e-01,5.06206581206259e-04
6.51000000000000e-08,4.49999999999974e-01,4.50000000000000e-01,5.11358421161331e-04
6.51095607667579e-08,4.50000000000000e-01,4.50000000000000e-01,4.63104337531835e-04
6.51286823002737e-08,4.50000000000000e-01,4.50000000000000e-01,3.73172763489124e-04
6.51669253673052e-08,4.50000000000000e-01,4.50000000000000e-01,1.88988650823833e-04
6.52434115013684e-08,4.50000000000000e-01,4.50000000000000e-01,-4.91727179002706e-04
6.53963837694946e-08,4.50000000000000e-01,4.50000000000000e-01,-2.34051080196151e-03
6.57023283057472e-08,4.50000000000000e-01,4.50000000000000e-01,-4.35438053521343e-03
6.63142173782522e-08,4.50000000000000e-01,4.50000000000000e-01,1.62970529719391e-01
6.75379955232623e-08,4.50000000000000e-01,4.50000000000000e-01,4.51246530747426e-01
6.98510866278832e-08,4.50000000000000e-01,4.50000000000000e-01,4.48998911414351e-01
7.01000000000000e-08,4.50000000000000e-01,4.50000000000000e-01,4.51227739487084e-01
7.01100000000000e-08,4.50000000000000e-01,4.05000000000009e-01,4.50888342088062e-01
7.01300000000000e-08,4.50000000000000e-01,3.15000000000026e-01,4.50398593569866e-01
7.01700000000000e-08,4.50000000000000e-01,1.35000000000060e-01,4.50091640515024e-01
7.02000000000000e-08,4.50000000000000e-01,2.57571741713036e-14,4.50090355555764e-01
7.02080000000000e-08,4.50000000000000e-01,0.00000000000000e+00,4.50090510621586e-01
7.02240000000000e-08,4.50000000000000e-01,0.00000000000000e+00,4.50088335146566e-01
7.02560000000000e-08,4.50000000000000e-01,0.00000000000000e+00,4.50080546307368e-01
7.03200000000000e-08,4.50000000000000e-01,0.00000000000000e+00,4.50064592809072e-01
7.04480000000000e-08,4.50000000000000e-01,0.00000000000000e+00,4.50027195931135e-01
7.07040000000000e-08,4.50000000000000e-01,0.00000000000000e+00,4.50004937467180e-01
7.12159999999999e-08,4.50000000000000e-01,0.00000000000000e+00,4.49994254899545e-01
7.21450310457258e-08,4.50000000000000e-01,0.00000000000000e+00,4.49983995837858e-01
7.36471322211119e-08,4.50000000000000e-01,0.00000000000000e+00,4.49993027295729e-01
7.51000000000000e-08,4.50000000000000e-01,0.00000000000000e+00,4.49986570737503e-01
7.51100000000000e-08,4.05000000000046e-01,0.00000000000000e+00,4.49935798607252e-01
7.51300000000000e-08,3.15000000000063e-01,0.00000000000000e+00,4.49861692755027e-01
7.51700000000000e-08,1.35000000000097e-01,0.00000000000000e+00,4.49949343494670e-01
7.52000000000000e-08,6.29496454962464e-14,0.00000000000000e+00,4.50842436055366e-01
7.52080000000000e-08,0.00000000000000e+00,0.00000000000000e+00,4.51189779100836e-01
7.52240000000000e-08,0.00000000000000e+00,0.00000000000000e+00,4.51708951985146e-01
7.52560000000000e-08,0.00000000000000e+00,0.00000000000000e+00,4.52182801550324e-01
7.53200000000000e-08,0.00000000000000e+00,0.00000000000000e+00,4.52233308048287e-01
7.54480000000000e-08,0.00000000000000e+00,0.00000000000000e+00,4.47296192835095e-01
7.57040000000000e-08,0.00000000000000e+00,0.00000000000000e+00,4.37945153940216e-01
7.62159999999999e-08,0.00000000000000e+00,0.00000000000000e+00,4.47548612519498e-01
7.71212534898318e-08,0.00000000000000e+00,0.00000000000000e+00,4.51096779211384e-01
7.81000000000000e-08,0.00000000000000e+00,0.00000000000000e+00,4.48599169127984e-01
7.82446204735824e-08,0.00000000000000e+00,0.00000000000000e+00,4.49456794767447e-01
7.85338614207471e-08,0.00000000000000e+00,0.00000000000000e+00,4.49937164353516e-01
7.91123433150766e-08,0.00000000000000e+00,0.00000000000000e+00,4.49715458362041e-01
8.02693071037356e-08,0.00000000000000e+00,0.00000000000000e+00,4.49939487201282e-01
8.25832346810536e-08,0.00000000000000e+00,0.00000000000000e+00,4.49820641445660e-01
8.50000000000000e-08,0.00000000000000e+00,0.00000000000000e+00,4.49989779641609e-01
8.50100000000000e-08,4.49999999999915e-02,0.00000000000000e+00,4.50034561262179e-01
8.50300000000000e-08,1.34999999999974e-01,0.00000000000000e+00,4.50088913368598e-01
8.50700000000000e-08,3.14999999999940e-01,0.00000000000000e+00,4.50066897118277e-01
8.51000000000000e-08,4.49999999999974e-01,0.00000000000000e+00,4.49987400604132e-01
8.51080000000000e-08,4.50000000000000e-01,0.00000000000000e+00,4.49941581560321e-01
8.51240000000000e-08,4.50000000000000e-01,0.00000000000000e+00,4.49871086992786e-01
8.51560000000000e-08,4.50000000000000e-01,0.00000000000000e+00,4.49816561679448e-01
8.52200000000000e-08,4.50000000000000e-01,0.00000000000000e+00,4.49821080267266e-01
8.53480000000000e-08,4.50000000000000e-01,0.00000000000000e+00,4.49867461595828e-01
8.56040000000000e-08,4.50000000000000e-01,0.00000000000000e+00,4.49883645553340e-01
8.61159999999999e-08,4.50000000000000e-01,0.00000000000000e+00,4.52078841769862e-01
8.71399999999999e-08,4.50000000000000e-01,0.00000000000000e+00,1.74871480345762e-01
8.91879999999998e-08,4.50000000000000e-01,0.00000000000000e+00,-4.72307627346746e-02
9.00000000000000e-08,4.50000000000000e-01,0.00000000000000e+00,3.08082366950766e-02
9.00100000000000e-08,4.50000000000000e-01,4.49999999999915e-02,2.94084540472838e-02
9.00300000000000e-08,4.50000000000000e-01,1.34999999999974e-01,2.65182429636600e-02
9.00700000000000e-08,4.50000000000000e-01,3.14999999999940e-01,2.08275984132723e-02
9.01000000000000e-08,4.50000000000000e-01,4.49999999999974e-01,1.71081901152816e-02
9.01080000000000e-08,4.50000000000000e-01,4.50000000000000e-01,1.62381168925402e-02
9.01240000000000e-08,4.50000000000000e-01,4.50000000000000e-01,1.45834169720352e-02
9.01560000000000e-08,4.50000000000000e-01,4.50000000000000e-01,1.17404272589631e-02
9.02200000000000e-08,4.50000000000000e-01,4.50000000000000e-01,7.52785861075607e-03
9.03480000000000e-08,4.50000000000000e-01,4.50000000000000e-01,2.90818621102370e-03
9.06040000000000e-08,4.50000000000000e-01,4.50000000000000e-01,1.68505427518825e-04
9.11159999999999e-08,4.50000000000000e-01,4.50000000000000e-01,-4.94184063099742e-05
9.21399999999999e-08,4.50000000000000e-01,4.50000000000000e-01,1.97452518962242e-05
9.41879999999998e-08,4.50000000000000e-01,4.50000000000000e-01,-1.38513425364051e-05
9.51000000000000e-08,4.50000000000000e-01,4.50000000000000e-01,2.16202652140660e-05
9.51100000000000e-08,4.05000000000046e-01,4.50000000000000e-01,1.60691907894334e-05
9.51300000000000e-08,3.15000000000063e-01,4.50000000000000e-01,-8.32999009433566e-05
9.51700000000000e-08,1.35000000000097e-01,4.50000000000000e-01,-2.00567760934023e-04
9.52000000000000e-08,6.29496454962464e-14,4.50000000000000e-01,-1.21929187519576e-04
9.52080000000000e-08,0.00000000000000e+00,4.50000000000000e-01,-1.16995228399072e-05
9.52240000000000e-08,0.00000000000000e+00,4.50000000000000e-01,1.55358733182238e-04
9.52560000000000e-08,0.00000000000000e+00,4.50000000000000e-01,3.11368863429855e-04
9.53200000000000e-08,0.00000000000000e+00,4.50000000000000e-01,3.13144707624294e-04
9.54480000000000e-08,0.00000000000000e+00,4.50000000000000e-01,-9.48054362194459e-05
9.57040000000000e-08,0.00000000000000e+00,4.50000000000000e-01,-6.71180632084260e-04
9.62159999999999e-08,0.00000000000000e+00,4.50000000000000e-01,5.58199283523693e-06
9.72399999999999e-08,0.00000000000000e+00,4.50000000000000e-01,-3.33329741112470e-06
9.87191332766819e-08,0.00000000000000e+00,4.50000000000000e-01,-1.58428474208994e-05
1.01199253259118e-07,0.00000000000000e+00,4.50000000000000e-01,6.59651162000048e-05
1.04999253259118e-07,0.00000000000000e+00,4.50000000000000e-01,-8.58264775177157e-05
1.05000000000000e-07,0.00000000000000e+00,4.50000000000000e-01,-8.38503456474654e-05
1.05001493481765e-07,6.72066794232085e-03,4.50000000000000e-01,-6.47209919860392e-05
1.05004480445295e-07,2.01620038269626e-02,4.50000000000000e-01,-2.71278900941044e-05
1.05010454372355e-07,4.70446755962460e-02,4.50000000000000e-01,4.11239197018881e-05
1.05022402226474e-07,1.00810019134813e-01,4.50000000000000e-01,1.58812417737138e-04
1.05046297934714e-07,2.08340706211946e-01,4.50000000000000e-01,3.42878968157094e-04
1.05094089351192e-07,4.23402080366214e-01,4.50000000000000e-01,5.06180107849724e-04
1.05100000000000e-07,4.49999999999974e-01,4.50000000000000e-01,5.11353599608771e-04
1.05109558283296e-07,4.50000000000000e-01,4.50000000000000e-01,4.63111747566969e-04
1.05128674849887e-07,4.50000000000000e-01,4.50000000000000e-01,3.73202162902098e-04
1.05166907983070e-07,4.50000000000000e-01,4.50000000000000e-01,1.89088686294393e-04
1.05243374249436e-07,4.50000000000000e-01,4.50000000000000e-01,-4.91287464211440e-04
1.05396306782168e-07,4.50000000000000e-01,4.50000000000000e-01,-2.33964553127127e-03
1.05702171847632e-07,4.50000000000000e-01,4.50000000000000e-01,-4.35508567752888e-03
1.06313901978560e-07,4.50000000000000e-01,4.50000000000000e-01,1.62792223387498e-01
1.07537362240415e-07,4.50000000000000e-01,4.50000000000000e-01,4.51216020297341e-01
1.09851700244258e-07,4.50000000000000e-01,4.50000000000000e-01,4.49013146398301e-01
1.10100000000000e-07,4.50000000000000e-01,4.50000000000000e-01,4.51216947810937e-01
1.10110000000000e-07,4.50000000000000e-01,4.05000000000068e-01,4.50880846759229e-01
1.10130000000000e-07,4.50000000000000e-01,3.15000000000085e-01,4.50395665108802e-01
