Time,v(clk),v(data),v(out)
1.00000000000000e-08,4.50000000000000e-01,0.00000000000000e+00,4.91594539065408e-06
1.00100000000000e-08,4.50000000000000e-01,4.49999999999989e-02,7.05419874836438e-06
1.00300000000000e-08,4.50000000000000e-01,1.34999999999997e-01,9.50821262617196e-06
1.00700000000000e-08,4.50000000000000e-01,3.14999999999992e-01,1.03089358653233e-05
1.01000000000000e-08,4.50000000000000e-01,4.49999999999997e-01,8.00534661749008e-06
1.01080000000000e-08,4.50000000000000e-01,4.50000000000000e-01,7.11928579995996e-06
1.01240000000000e-08,4.50000000000000e-01,4.50000000000000e-01,6.01920329299649e-06
1.01560000000000e-08,4.50000000000000e-01,4.50000000000000e-01,5.81328541192361e-06
1.02200000000000e-08,4.50000000000000e-01,4.50000000000000e-01,6.76693374281057e-06
1.03480000000000e-08,4.50000000000000e-01,4.50000000000000e-01,8.32677767204082e-06
1.06040000000000e-08,4.50000000000000e-01,4.50000000000000e-01,8.23435188735885e-06
1.11160000000000e-08,4.50000000000000e-01,4.50000000000000e-01,6.29866149286923e-06
1.21400000000000e-08,4.50000000000000e-01,4.50000000000000e-01,6.81353794612996e-06
1.40700438074727e-08,4.50000000000000e-01,4.50000000000000e-01,6.31129738316253e-06
1.51000000000000e-08,4.50000000000000e-01,4.50000000000000e-01,6.29233804516280e-06
1.51100000000000e-08,4.04999999999994e-01,4.50000000000000e-01,-4.22104845280921e-05
1.51300000000000e-08,3.14999999999996e-01,4.50000000000000e-01,-1.29689832276958e-04
1.51700000000000e-08,1.35000000000000e-01,4.50000000000000e-01,-2.41216769494047e-04
1.52000000000000e-08,0.00000000000000e+00,4.50000000000000e-01,-1.59583029326088e-04
1.52080000000000e-08,0.00000000000000e+00,4.50000000000000e-01,-5.13733994844251e-05
1.52240000000000e-08,0.00000000000000e+00,4.50000000000000e-01,1.20870466843510e-04
1.52560000000000e-08,0.00000000000000e+00,4.50000000000000e-01,2.89501390986574e-04
1.53200000000000e-08,0.00000000000000e+00,4.50000000000000e-01,3.33702130833176e-04
1.54480000000000e-08,0.00000000000000e+00,4.50000000000000e-01,1.35361137445091e-04
1.57040000000000e-08,0.00000000000000e+00,4.50000000000000e-01,-1.68148362349296e-04
1.62160000000000e-08,0.00000000000000e+00,4.50000000000000e-01,-1.18120181448501e-05
1.72400000000000e-08,0.00000000000000e+00,4.50000000000000e-01,-3.07826344940719e-05
1.87093006970056e-08,0.00000000000000e+00,4.50000000000000e-01,2.36009575528065e-05
2.10905113148336e-08,0.00000000000000e+00,4.50000000000000e-01,3.88307172370199e-05
2.48905113148336e-08,0.00000000000000e+00,4.50000000000000e-01,-5.27771538171122e-05
2.50000000000000e-08,0.00000000000000e+00,4.50000000000000e-01,4.73766236327167e-05
2.50100000000000e-08,4.49999999999915e-02,4.50000000000000e-01,1.40723052249193e-04
2.50300000000000e-08,1.35000000000004e-01,4.50000000000000e-01,3.08300346999427e-04
2.50700000000000e-08,3.15000000000000e-01,4.50000000000000e-01,5.26814074415495e-04
2.51000000000000e-08,4.50000000000000e-01,4.50000000000000e-01,5.84769000962861e-04
2.51080000000000e-08,4.50000000000000e-01,4.50000000000000e-01,5.44468437954970e-04
2.51240000000000e-08,4.50000000000000e-01,4.50000000000000e-01,4.67124557821164e-04
2.51560000000000e-08,4.50000000000000e-01,4.50000000000000e-01,3.17294600370700e-04
2.52200000000000e-08,4.50000000000000e-01,4.50000000000000e-01,-1.09108916929834e-04
2.53480000000000e-08,4.50000000000000e-01,4.50000000000000e-01,-1.44367785013472e-03
2.56040000000000e-08,4.50000000000000e-01,4.50000000000000e-01,-3.60905308787386e-03
2.61160000000000e-08,4.50000000000000e-01,4.50000000000000e-01,3.06561309968948e-02
2.71400000000000e-08,4.50000000000000e-01,4.50000000000000e-01,4.08878066758694e-01
2.91880000000000e-08,4.50000000000000e-01,4.50000000000000e-01,4.61186120983717e-01
3.01000000000000e-08,4.50000000000000e-01,4.50000000000000e-01,4.38560126126540e-01
3.01100000000000e-08,4.50000000000000e-01,4.05000000000023e-01,4.41462669443409e-01
3.01300000000000e-08,4.50000000000000e-01,3.15000000000011e-01,4.45797920473663e-01
3.01700000000000e-08,4.50000000000000e-01,1.35000000000015e-01,4.49191954192070e-01
3.02000000000000e-08,4.50000000000000e-01,1.08801856413265e-14,4.49731177125662e-01
3.02080000000000e-08,4.50000000000000e-01,0.00000000000000e+00,4.49783440236499e-01
3.02240000000000e-08,4.50000000000000e-01,0.00000000000000e+00,4.49862526112356e-01
3.02560000000000e-08,4.50000000000000e-01,0.00000000000000e+00,4.49935001087200e-01
3.03200000000000e-08,4.50000000000000e-01,0.00000000000000e+00,4.49982376840795e-01
3.04480000000000e-08,4.50000000000000e-01,0.00000000000000e+00,4.49970086808644e-01
3.07040000000000e-08,4.50000000000000e-01,0.00000000000000e+00,4.49977138974922e-01
3.12160000000000e-08,4.50000000000000e-01,0.00000000000000e+00,4.49985626569206e-01
3.21744118210994e-08,4.50000000000000e-01,0.00000000000000e+00,4.49979379947780e-01
3.36586115543173e-08,4.50000000000000e-01,0.00000000000000e+00,4.49985417434338e-01
3.51000000000000e-08,4.49999999999978e-01,0.00000000000000e+00,4.49983062612994e-01
3.51100000000000e-08,4.04999999999986e-01,0.00000000000000e+00,4.49936581133360e-01
3.51300000000000e-08,3.14999999999974e-01,0.00000000000000e+00,4.49866394513894e-01
3.51700000000000e-08,1.34999999999978e-01,0.00000000000000e+00,4.49971267688204e-01
3.52000000000000e-08,0.00000000000000e+00,0.00000000000000e+00,4.50865623242271e-01
3.52080000000000e-08,0.00000000000000e+00,0.00000000000000e+00,4.51211489927693e-01
3.52240000000000e-08,0.00000000000000e+00,0.00000000000000e+00,4.51732899339988e-01
3.52560000000000e-08,0.00000000000000e+00,0.00000000000000e+00,4.52208645468468e-01
3.53200000000000e-08,0.00000000000000e+00,0.00000000000000e+00,4.52239958344295e-01
3.54480000000000e-08,0.00000000000000e+00,0.00000000000000e+00,4.47643635733832e-01
3.57040000000000e-08,0.00000000000000e+00,0.00000000000000e+00,4.38067892084210e-01
3.62160000000000e-08,0.00000000000000e+00,0.00000000000000e+00,4.46979779710631e-01
3.71569022028205e-08,0.00000000000000e+00,0.00000000000000e+00,4.51239347468213e-01
3.85831876621679e-08,0.00000000000000e+00,0.00000000000000e+00,4.48302733203889e-01
3.91000000000000e-08,0.00000000000000e+00,0.00000000000000e+00,4.50694475282459e-01
3.93539381391704e-08,0.00000000000000e+00,0.00000000000000e+00,4.49947336672036e-01
3.98618144175111e-08,0.00000000000000e+00,0.00000000000000e+00,4.49700963763952e-01
4.08775669741925e-08,0.00000000000000e+00,0.00000000000000e+00,4.49922575479732e-01
4.29090720875553e-08,0.00000000000000e+00,0.00000000000000e+00,4.49801897966572e-01
4.50000000000000e-08,0.00000000000000e+00,0.00000000000000e+00,4.49967252357582e-01
4.50100000000000e-08,4.49999999999915e-02,0.00000000000000e+00,4.50012494304180e-01
4.50300000000000e-08,1.35000000000004e-01,0.00000000000000e+00,4.50070194584871e-01
4.50700000000000e-08,3.15000000000000e-01,0.00000000000000e+00,4.50057078138327e-01
4.51000000000000e-08,4.50000000000000e-01,0.00000000000000e+00,4.49982027444934e-01
4.51080000000000e-08,4.50000000000000e-01,0.00000000000000e+00,4.49935987545238e-01
4.51240000000000e-08,4.50000000000000e-01,0.00000000000000e+00,4.49864312038536e-01
4.51560000000000e-08,4.50000000000000e-01,0.00000000000000e+00,4.49804524572899e-01
4.52200000000000e-08,4.50000000000000e-01,0.00000000000000e+00,4.49803753677447e-01
4.53480000000000e-08,4.50000000000000e-01,0.00000000000000e+00,4.49850319224842e-01
4.56040000000000e-08,4.50000000000000e-01,0.00000000000000e+00,4.49866779865803e-01
4.61160000000000e-08,4.50000000000000e-01,0.00000000000000e+00,4.50822053704668e-01
4.71400000000000e-08,4.50000000000000e-01,0.00000000000000e+00,2.37125636782416e-01
4.91880000000000e-08,4.50000000000000e-01,0.00000000000000e+00,-3.62301634847491e-02
5.00000000000000e-08,4.50000000000000e-01,0.00000000000000e+00,1.91943333494165e-02
5.00100000000000e-08,4.50000000000000e-01,4.49999999999915e-02,1.87669501878945e-02
5.00300000000000e-08,4.50000000000000e-01,1.34999999999974e-01,1.76586394472241e-02
5.00700000000000e-08,4.50000000000000e-01,3.15000000000000e-01,1.47168590212403e-02
5.01000000000000e-08,4.50000000000000e-01,4.50000000000000e-01,1.25024914166962e-02
5.01080000000000e-08,4.50000000000000e-01,4.50000000000000e-01,1.19620893535898e-02
5.01240000000000e-08,4.50000000000000e-01,4.50000000000000e-01,1.08949183888672e-02
5.01560000000000e-08,4.50000000000000e-01,4.50000000000000e-01,9.07538356483321e-03
5.02200000000000e-08,4.50000000000000e-01,4.50000000000000e-01,6.24049673114448e-03
5.03480000000000e-08,4.50000000000000e-01,4.50000000000000e-01,2.83918823694631e-03
5.06040000000000e-08,4.50000000000000e-01,4.50000000000000e-01,4.00134921680697e-04
5.11160000000001e-08,4.50000000000000e-01,4.50000000000000e-01,-7.90935285737079e-05
5.21400000000002e-08,4.50000000000000e-01,4.50000000000000e-01,3.77604507506499e-05
5.41880000000003e-08,4.50000000000000e-01,4.50000000000000e-01,-2.19207706567606e-05
5.51000000000000e-08,4.50000000000000e-01,4.50000000000000e-01,1.47484089607613e-05
5.51100000000000e-08,4.05000000000016e-01,4.50000000000000e-01,-3.55677323633161e-05
5.51300000000000e-08,3.15000000000003e-01,4.50000000000000e-01,-1.24814389761294e-04
5.51700000000000e-08,1.35000000000008e-01,4.50000000000000e-01,-2.33963822227644e-04
5.52000000000000e-08,0.00000000000000e+00,4.50000000000000e-01,-1.56233016243006e-04
5.52080000000000e-08,0.00000000000000e+00,4.50000000000000e-01,-4.88711635278777e-05
5.52240000000000e-08,0.00000000000000e+00,4.50000000000000e-01,1.21906038148413e-04
5.52560000000000e-08,0.00000000000000e+00,4.50000000000000e-01,2.91530829395703e-04
5.53200000000000e-08,0.00000000000000e+00,4.50000000000000e-01,3.18640957347294e-04
5.54480000000000e-08,0.00000000000000e+00,4.50000000000000e-01,-3.68475062631213e-05
5.57040000000000e-08,0.00000000000000e+00,4.50000000000000e-01,-5.57809501459415e-04
5.62160000000000e-08,0.00000000000000e+00,4.50000000000000e-01,-4.99874679643249e-05
5.72400000000000e-08,0.00000000000000e+00,4.50000000000000e-01,2.10110117118533e-05
5.87107779532048e-08,0.00000000000000e+00,4.50000000000000e-01,-2.58715744440724e-05
6.10913547638956e-08,0.00000000000000e+00,4.50000000000000e-01,8.44890500319639e-05
6.48913547638956e-08,0.00000000000000e+00,4.50000000000000e-01,-9.64974276608487e-05
6.50000000000000e-08,0.00000000000000e+00,4.50000000000000e-01,4.09757377389380e-05
6.50100000000000e-08,4.49999999999915e-02,4.50000000000000e-01,1.34699845247624e-04
6.50300000000000e-08,1.34999999999974e-01,4.50000000000000e-01,3.03396381411206e-04
6.50700000000000e-08,3.14999999999940e-01,4.50000000000000e-01,5.24524558205113e-04
6.51000000000000e-08,4.49999999999974e-01,4.50000000000000e-01,5.83880182657634e-04
6.51080000000000e-08,4.50000000000000e-01,4.50000000000000e-01,5.43841283174702e-04
6.51240000000000e-08,4.50000000000000e-01,4.50000000000000e-01,4.66976854851205e-04
6.51560000000000e-08,4.50000000000000e-01,4.50000000000000e-01,3.17875235114097e-04
6.52200000000000e-08,4.50000000000000e-01,4.50000000000000e-01,-1.07582514554221e-04
6.53480000000000e-08,4.50000000000000e-01,4.50000000000000e-01,-1.44182252161764e-03
6.56040000000000e-08,4.50000000000000e-01,4.50000000000000e-01,-3.60832076482596e-03
6.61159999999999e-08,4.50000000000000e-01,4.50000000000000e-01,3.06474852758193e-02
6.71399999999999e-08,4.50000000000000e-01,4.50000000000000e-01,4.08873380193368e-01
6.91879999999998e-08,4.50000000000000e-01,4.50000000000000e-01,4.61186847048393e-01
7.01000000000000e-08,4.50000000000000e-01,4.50000000000000e-01,4.38559375517828e-01
7.01100000000000e-08,4.50000000000000e-01,4.05000000000009e-01,4.41462109726192e-01
7.01300000000000e-08,4.50000000000000e-01,3.15000000000026e-01,4.45797643995052e-01
7.01700000000000e-08,4.50000000000000e-01,1.35000000000060e-01,4.49191908897463e-01
7.02000000000000e-08,4.50000000000000e-01,2.57571741713036e-14,4.49731165858835e-01
7.02080000000000e-08,4.50000000000000e-01,0.00000000000000e+00,4.49783433573331e-01
7.02240000000000e-08,4.50000000000000e-01,0.00000000000000e+00,4.49862526299239e-01
7.02560000000000e-08,4.50000000000000e-01,0.00000000000000e+00,4.49935005423991e-01
7.03200000000000e-08,4.50000000000000e-01,0.00000000000000e+00,4.49982377845544e-01
7.04480000000000e-08,4.50000000000000e-01,0.00000000000000e+00,4.49970085543941e-01
7.07040000000000e-08,4.50000000000000e-01,0.00000000000000e+00,4.49977139320792e-01
7.12159999999999e-08,4.50000000000000e-01,0.00000000000000e+00,4.49985625850221e-01
7.21744070577498e-08,4.50000000000000e-01,0.00000000000000e+00,4.49979379578419e-01
7.36586085476820e-08,4.50000000000000e-01,0.00000000000000e+00,4.49985416934897e-01
7.51000000000000e-08,4.50000000000000e-01,0.00000000000000e+00,4.49983062308199e-01
7.51100000000000e-08,4.05000000000046e-01,0.00000000000000e+00,4.49936580515904e-01
7.51300000000000e-08,3.15000000000063e-01,0.00000000000000e+00,4.49866393579320e-01
7.51700000000000e-08,1.35000000000097e-01,0.00000000000000e+00,4.49971266980055e-01
7.52000000000000e-08,6.29496454962464e-14,0.00000000000000e+00,4.50865622582534e-01
7.52080000000000e-08,0.00000000000000e+00,0.00000000000000e+00,4.51211489129642e-01
7.52240000000000e-08,0.00000000000000e+00,0.00000000000000e+00,4.51732898226236e-01
7.52560000000000e-08,0.00000000000000e+00,0.00000000000000e+00,4.52208643288391e-01
7.53200000000000e-08,0.00000000000000e+00,0.00000000000000e+00,4.52239948409183e-01
7.54480000000000e-08,0.00000000000000e+00,0.00000000000000e+00,4.47643578699098e-01
7.57040000000000e-08,0.00000000000000e+00,0.00000000000000e+00,4.38067846266188e-01
7.62159999999999e-08,0.00000000000000e+00,0.00000000000000e+00,4.46979802533425e-01
7.71569021962752e-08,0.00000000000000e+00,0.00000000000000e+00,4.51239330843528e-01
7.81000000000000e-08,0.00000000000000e+00,0.00000000000000e+00,4.48368706573988e-01
7.82426285429628e-08,0.00000000000000e+00,0.00000000000000e+00,4.49334777379554e-01
7.85278856288885e-08,0.00000000000000e+00,0.00000000000000e+00,4.49901132293107e-01
7.90983998007398e-08,0.00000000000000e+00,0.00000000000000e+00,4.49658890086028e-01
8.02394281444425e-08,0.00000000000000e+00,0.00000000000000e+00,4.49910494587509e-01
8.25214848318478e-08,0.00000000000000e+00,0.00000000000000e+00,4.49789190422059e-01
8.50000000000000e-08,0.00000000000000e+00,0.00000000000000e+00,4.49974887152145e-01
8.50100000000000e-08,4.49999999999915e-02,0.00000000000000e+00,4.50019504046818e-01
8.50300000000000e-08,1.34999999999974e-01,0.00000000000000e+00,4.50075071547112e-01
8.50700000000000e-08,3.14999999999940e-01,0.00000000000000e+00,4.50059447094610e-01
8.51000000000000e-08,4.49999999999974e-01,0.00000000000000e+00,4.49983467384619e-01
8.51080000000000e-08,4.50000000000000e-01,0.00000000000000e+00,4.49937244924128e-01
8.51240000000000e-08,4.50000000000000e-01,0.00000000000000e+00,4.49865245881519e-01
8.51560000000000e-08,4.50000000000000e-01,0.00000000000000e+00,4.49805091488737e-01
8.52200000000000e-08,4.50000000000000e-01,0.00000000000000e+00,4.49804078655328e-01
8.53480000000000e-08,4.50000000000000e-01,0.00000000000000e+00,4.49850505984661e-01
8.56040000000000e-08,4.50000000000000e-01,0.00000000000000e+00,4.49867001445704e-01
8.61159999999999e-08,4.50000000000000e-01,0.00000000000000e+00,4.50822068211841e-01
8.71399999999999e-08,4.50000000000000e-01,0.00000000000000e+00,2.37139771842568e-01
8.91879999999998e-08,4.50000000000000e-01,0.00000000000000e+00,-3.62274802599846e-02
9.00000000000000e-08,4.50000000000000e-01,0.00000000000000e+00,1.91925277339561e-02
9.00100000000000e-08,4.50000000000000e-01,4.49999999999915e-02,1.87653350788219e-02
9.00300000000000e-08,4.50000000000000e-01,1.34999999999974e-01,1.76573263614494e-02
9.00700000000000e-08,4.50000000000000e-01,3.14999999999940e-01,1.47158779872030e-02
9.01000000000000e-08,4.50000000000000e-01,4.49999999999974e-01,1.25016638815891e-02
9.01080000000000e-08,4.50000000000000e-01,4.50000000000000e-01,1.19612975604150e-02
9.01240000000000e-08,4.50000000000000e-01,4.50000000000000e-01,1.08941979067672e-02
9.01560000000000e-08,4.50000000000000e-01,4.50000000000000e-01,9.07478267146400e-03
9.02200000000000e-08,4.50000000000000e-01,4.50000000000000e-01,6.24008176449224e-03
9.03480000000000e-08,4.50000000000000e-01,4.50000000000000e-01,2.83899743896521e-03
9.06040000000000e-08,4.50000000000000e-01,4.50000000000000e-01,4.00107324525365e-04
9.11159999999999e-08,4.50000000000000e-01,4.50000000000000e-01,-7.90878511181189e-05
9.21399999999999e-08,4.50000000000000e-01,4.50000000000000e-01,3.77586244014842e-05
9.41879999999998e-08,4.50000000000000e-01,4.50000000000000e-01,-2.19195096067288e-05
9.51000000000000e-08,4.50000000000000e-01,4.50000000000000e-01,1.47478793036653e-05
9.51100000000000e-08,4.05000000000046e-01,4.50000000000000e-01,-3.55683261044834e-05
9.51300000000000e-08,3.15000000000063e-01,4.50000000000000e-01,-1.24814765924450e-04
9.51700000000000e-08,1.35000000000097e-01,4.50000000000000e-01,-2.33963917086834e-04
9.52000000000000e-08,6.29496454962464e-14,4.50000000000000e-01,-1.56233090819080e-04
9.52080000000000e-08,0.00000000000000e+00,4.50000000000000e-01,-4.88712394487237e-05
9.52240000000000e-08,0.00000000000000e+00,4.50000000000000e-01,1.21905956021469e-04
9.52560000000000e-08,0.00000000000000e+00,4.50000000000000e-01,2.91530707044546e-04
9.53200000000000e-08,0.00000000000000e+00,4.50000000000000e-01,3.18640625872828e-04
9.54480000000000e-08,0.00000000000000e+00,4.50000000000000e-01,-3.68527035837160e-05
9.57040000000000e-08,0.00000000000000e+00,4.50000000000000e-01,-5.57833097812880e-04
9.62159999999999e-08,0.00000000000000e+00,4.50000000000000e-01,-4.99933657299306e-05
9.72399999999999e-08,0.00000000000000e+00,4.50000000000000e-01,2.10169239552201e-05
9.87107778829008e-08,0.00000000000000e+00,4.50000000000000e-01,-2.58768792046702e-05
1.01091354684963e-07,0.00000000000000e+00,4.50000000000000e-01,8.44938523980833e-05
1.04891354684963e-07,0.00000000000000e+00,4.50000000000000e-01,-9.65019935505926e-05
1.05000000000000e-07,0.00000000000000e+00,4.50000000000000e-01,4.09755489044067e-05
1.05010000000000e-07,4.49999999999915e-02,4.50000000000000e-01,1.34699556345583e-04
1.05030000000000e-07,1.34999999999974e-01,4.50000000000000e-01,3.03395990517562e-04
1.05070000000000e-07,3.14999999999940e-01,4.50000000000000e-01,5.24524322987219e-04
1.05100000000000e-07,4.49999999999974e-01,4.50000000000000e-01,5.83880072378244e-04
1.05108000000000e-07,4.50000000000000e-01,4.50000000000000e-01,5.43841194662290e-04
1.05124000000000e-07,4.50000000000000e-01,4.50000000000000e-01,4.66976804871302e-04
1.05156000000000e-07,4.50000000000000e-01,4.50000000000000e-01,3.17875235142227e-04
1.05220000000000e-07,4.50000000000000e-01,4.50000000000000e-01,-1.07582487715405e-04
1.05348000000000e-07,4.50000000000000e-01,4.50000000000000e-01,-1.44182251055743e-03
1.05604000000000e-07,4.50000000000000e-01,4.50000000000000e-01,-3.60832075821057e-03
1.06116000000000e-07,4.50000000000000e-01,4.50000000000000e-01,3.06474859524089e-02
1.07140000000000e-07,4.50000000000000e-01,4.50000000000000e-01,4.08873380560324e-01
1.09188000000000e-07,4.50000000000000e-01,4.50000000000000e-01,4.61186847009336e-01
1.10100000000000e-07,4.50000000000000e-01,4.50000000000000e-01,4.38559375579494e-01
1.10110000000000e-07,4.50000000000000e-01,4.05000000000068e-01,4.41462109768715e-01
1.10130000000000e-07,4.50000000000000e-01,3.15000000000085e-01,4.45797644016344e-01
1.10170000000000e-07,4.50000000000000e-01,1.35000000000119e-01,4.49191908901139e-01
1.10200000000000e-07,4.50000000000000e-01,8.53206394424433e-14,4.49731165859797e-01
1.10208000000000e-07,4.50000000000000e-01,0.00000000000000e+00,4.49783433573967e-01
1.10224000000000e-07,4.50000000000000e-01,0.00000000000000e+00,4.49862526299492e-01
1.10256000000000e-07,4.50000000000000e-01,0.00000000000000e+00,4.49935005423854e-01
1.10320000000000e-07,4.50000000000000e-01,0.00000000000000e+00,4.49982377845481e-01
1.10448000000000e-07,4.50000000000000e-01,0.00000000000000e+00,4.49970085544107e-01
1.10704000000000e-07,4.50000000000000e-01,0.00000000000000e+00,4.49977139320817e-01
