Time,v(clk),v(data),v(out),v(reset)
1.00000000000000e-08,4.50000000000000e-01,0.00000000000000e+00,9.40171127013396e-06,0.00000000000000e+00
1.00100000000000e-08,4.50000000000000e-01,4.49999999999989e-02,1.08087873115573e-05,0.00000000000000e+00
1.00300000000000e-08,4.50000000000000e-01,1.34999999999997e-01,1.19475767797750e-05,0.00000000000000e+00
1.00700000000000e-08,4.50000000000000e-01,3.14999999999992e-01,1.06382543790112e-05,0.00000000000000e+00
1.01000000000000e-08,4.50000000000000e-01,4.49999999999997e-01,9.02709951625807e-06,0.00000000000000e+00
1.01080000000000e-08,4.50000000000000e-01,4.50000000000000e-01,8.70214226143806e-06,0.00000000000000e+00
1.01240000000000e-08,4.50000000000000e-01,4.50000000000000e-01,8.60180741971833e-06,0.00000000000000e+00
1.01560000000000e-08,4.50000000000000e-01,4.50000000000000e-01,9.59122094647269e-06,0.00000000000000e+00
1.02200000000000e-08,4.50000000000000e-01,4.50000000000000e-01,9.79937568356543e-06,0.00000000000000e+00
1.03480000000000e-08,4.50000000000000e-01,4.50000000000000e-01,9.76224023730224e-06,0.00000000000000e+00
1.06040000000000e-08,4.50000000000000e-01,4.50000000000000e-01,7.44566628402277e-06,0.00000000000000e+00
1.11160000000000e-08,4.50000000000000e-01,4.50000000000000e-01,6.80211018605492e-06,0.00000000000000e+00
1.21400000000000e-08,4.50000000000000e-01,4.50000000000000e-01,7.70782088646560e-06,0.00000000000000e+00
1.41880000000000e-08,4.50000000000000e-01,4.50000000000000e-01,7.00809993422428e-06,0.00000000000000e+00
1.51000000000000e-08,4.50000000000000e-01,4.50000000000000e-01,6.66201270729631e-06,0.00000000000000e+00
1.51100000000000e-08,4.04999999999994e-01,4.50000000000000e-01,1.68527473200814e-04,4.50000000000064e-02
1.51300000000000e-08,3.14999999999996e-01,4.50000000000000e-01,3.83445948843160e-04,1.35000000000004e-01
1.51700000000000e-08,1.35000000000000e-01,4.50000000000000e-01,3.78660258819621e-04,3.15000000000000e-01
1.52000000000000e-08,0.00000000000000e+00,4.50000000000000e-01,2.87905804602868e-04,4.50000000000000e-01
1.52080000000000e-08,0.00000000000000e+00,4.50000000000000e-01,2.53883520001934e-04,4.50000000000000e-01
1.52240000000000e-08,0.00000000000000e+00,4.50000000000000e-01,2.02165520179216e-04,4.50000000000000e-01
1.52560000000000e-08,0.00000000000000e+00,4.50000000000000e-01,1.54425842663480e-04,4.50000000000000e-01
1.53200000000000e-08,0.00000000000000e+00,4.50000000000000e-01,1.19790958607466e-04,4.50000000000000e-01
1.54480000000000e-08,0.00000000000000e+00,4.50000000000000e-01,4.21524704059192e-05,4.50000000000000e-01
1.57040000000000e-08,0.00000000000000e+00,4.50000000000000e-01,-1.42159022134589e-04,4.50000000000000e-01
1.62160000000000e-08,0.00000000000000e+00,4.50000000000000e-01,-1.30994982991163e-05,4.50000000000000e-01
1.71441279868960e-08,0.00000000000000e+00,4.50000000000000e-01,-1.23254735234397e-05,4.50000000000000e-01
1.86475203449912e-08,0.00000000000000e+00,4.50000000000000e-01,-4.16844832663334e-06,4.50000000000000e-01
2.08129603894300e-08,0.00000000000000e+00,4.50000000000000e-01,6.26251342749559e-05,4.50000000000000e-01
2.46129603894300e-08,0.00000000000000e+00,4.50000000000000e-01,-7.20240833808452e-05,4.50000000000000e-01
2.50000000000000e-08,0.00000000000000e+00,4.50000000000000e-01,9.84775654213413e-05,4.50000000000000e-01
2.50100000000000e-08,4.49999999999915e-02,4.50000000000000e-01,1.88463877639634e-04,4.50000000000000e-01
2.50300000000000e-08,1.35000000000004e-01,4.50000000000000e-01,3.48395161186267e-04,4.50000000000000e-01
2.50700000000000e-08,3.15000000000000e-01,4.50000000000000e-01,5.62432300374789e-04,4.50000000000000e-01
2.51000000000000e-08,4.50000000000000e-01,4.50000000000000e-01,6.16074684379450e-04,4.50000000000000e-01
2.51080000000000e-08,4.50000000000000e-01,4.50000000000000e-01,5.73681608620584e-04,4.50000000000000e-01
2.51240000000000e-08,4.50000000000000e-01,4.50000000000000e-01,4.91168462074212e-04,4.50000000000000e-01
2.51560000000000e-08,4.50000000000000e-01,4.50000000000000e-01,3.23515735416467e-04,4.50000000000000e-01
2.52200000000000e-08,4.50000000000000e-01,4.50000000000000e-01,-1.60968256385334e-04,4.50000000000000e-01
2.53480000000000e-08,4.50000000000000e-01,4.50000000000000e-01,-1.54611751540405e-03,4.50000000000000e-01
2.56040000000000e-08,4.50000000000000e-01,4.50000000000000e-01,-3.64804096939161e-03,4.50000000000000e-01
2.61160000000000e-08,4.50000000000000e-01,4.50000000000000e-01,3.17957481822082e-02,4.50000000000000e-01
2.71400000000000e-08,4.50000000000000e-01,4.50000000000000e-01,4.09492396830044e-01,4.50000000000000e-01
2.91880000000000e-08,4.50000000000000e-01,4.50000000000000e-01,4.61090130176016e-01,4.50000000000000e-01
3.14875766631577e-08,4.50000000000000e-01,4.50000000000000e-01,4.37421964183806e-01,4.50000000000000e-01
3.51000000000000e-08,4.49999999999978e-01,4.50000000000000e-01,4.60549000828296e-01,4.50000000000000e-01
3.51100000000000e-08,4.04999999999986e-01,4.50000000000000e-01,4.57562117042138e-01,4.50000000000000e-01
3.51300000000000e-08,3.14999999999974e-01,4.50000000000000e-01,4.53209289488949e-01,4.50000000000000e-01
3.51700000000000e-08,1.34999999999978e-01,4.50000000000000e-01,4.50432339265133e-01,4.50000000000000e-01
3.52000000000000e-08,0.00000000000000e+00,4.50000000000000e-01,4.51018284649387e-01,4.50000000000000e-01
3.52080000000000e-08,0.00000000000000e+00,4.50000000000000e-01,4.51334462018242e-01,4.50000000000000e-01
3.52240000000000e-08,0.00000000000000e+00,4.50000000000000e-01,4.51809593630178e-01,4.50000000000000e-01
3.52560000000000e-08,0.00000000000000e+00,4.50000000000000e-01,4.52246066761984e-01,4.50000000000000e-01
3.53200000000000e-08,0.00000000000000e+00,4.50000000000000e-01,4.52285966258805e-01,4.50000000000000e-01
3.54480000000000e-08,0.00000000000000e+00,4.50000000000000e-01,4.47694997738655e-01,4.50000000000000e-01
3.57040000000000e-08,0.00000000000000e+00,4.50000000000000e-01,4.37997143355267e-01,4.50000000000000e-01
3.62160000000000e-08,0.00000000000000e+00,4.50000000000000e-01,4.46978232287734e-01,4.50000000000000e-01
3.72400000000000e-08,0.00000000000000e+00,4.50000000000000e-01,4.51298514340048e-01,4.50000000000000e-01
3.87349228070836e-08,0.00000000000000e+00,4.50000000000000e-01,4.48301815881866e-01,4.50000000000000e-01
4.17247684212508e-08,0.00000000000000e+00,4.50000000000000e-01,4.51185669900543e-01,4.50000000000000e-01
4.50000000000000e-08,0.00000000000000e+00,4.50000000000000e-01,4.48661360695102e-01,4.50000000000000e-01
4.50100000000000e-08,4.49999999999915e-02,4.50000000000000e-01,4.48793260174532e-01,4.05000000000009e-01
4.50300000000000e-08,1.35000000000004e-01,4.50000000000000e-01,4.48995943445637e-01,3.14999999999996e-01
4.50700000000000e-08,3.15000000000000e-01,4.50000000000000e-01,4.49589402973625e-01,1.35000000000000e-01
4.51000000000000e-08,4.50000000000000e-01,4.50000000000000e-01,4.51895986986300e-01,0.00000000000000e+00
4.51080000000000e-08,4.50000000000000e-01,4.50000000000000e-01,4.52889558986672e-01,0.00000000000000e+00
4.51240000000000e-08,4.50000000000000e-01,4.50000000000000e-01,4.54686544437648e-01,0.00000000000000e+00
4.51560000000000e-08,4.50000000000000e-01,4.50000000000000e-01,4.57592043244197e-01,0.00000000000000e+00
4.52200000000000e-08,4.50000000000000e-01,4.50000000000000e-01,4.63103057205554e-01,0.00000000000000e+00
4.53480000000000e-08,4.50000000000000e-01,4.50000000000000e-01,4.74106580390890e-01,0.00000000000000e+00
4.56040000000000e-08,4.50000000000000e-01,4.50000000000000e-01,4.10259859298618e-01,0.00000000000000e+00
4.61160000000000e-08,4.50000000000000e-01,4.50000000000000e-01,9.48094213002660e-02,0.00000000000000e+00
4.69940889451193e-08,4.50000000000000e-01,4.50000000000000e-01,-2.62706138056338e-02,0.00000000000000e+00
4.84804950897987e-08,4.50000000000000e-01,4.50000000000000e-01,2.04390403630953e-02,0.00000000000000e+00
5.01000000000000e-08,4.50000000000000e-01,4.49999999999974e-01,-1.30820260280361e-02,0.00000000000000e+00
5.03466195854941e-08,4.50000000000000e-01,4.50000000000000e-01,-4.10394620926860e-03,0.00000000000000e+00
5.08398587564824e-08,4.50000000000000e-01,4.50000000000000e-01,9.88635429230226e-04,0.00000000000000e+00
5.18263370984590e-08,4.50000000000000e-01,4.50000000000000e-01,-5.69793192964779e-04,0.00000000000000e+00
5.37992937824120e-08,4.50000000000000e-01,4.50000000000000e-01,4.62009222856258e-04,0.00000000000000e+00
5.51000000000000e-08,4.50000000000000e-01,4.50000000000000e-01,-3.32003445921443e-04,0.00000000000000e+00
5.51100000000000e-08,4.05000000000016e-01,4.50000000000000e-01,-9.96450425279627e-05,4.49999999999840e-02
5.51300000000000e-08,3.15000000000003e-01,4.50000000000000e-01,2.15540011055462e-04,1.34999999999997e-01
5.51700000000000e-08,1.35000000000008e-01,4.50000000000000e-01,2.79007629574238e-04,3.14999999999992e-01
5.52000000000000e-08,0.00000000000000e+00,4.50000000000000e-01,2.01211458789256e-04,4.50000000000000e-01
5.52080000000000e-08,0.00000000000000e+00,4.50000000000000e-01,1.70032102274453e-04,4.50000000000000e-01
5.52240000000000e-08,0.00000000000000e+00,4.50000000000000e-01,1.23609021273188e-04,4.50000000000000e-01
5.52560000000000e-08,0.00000000000000e+00,4.50000000000000e-01,8.39213216637102e-05,4.50000000000000e-01
5.53200000000000e-08,0.00000000000000e+00,4.50000000000000e-01,6.17515142796662e-05,4.50000000000000e-01
5.54480000000000e-08,0.00000000000000e+00,4.50000000000000e-01,-2.04176375591905e-04,4.50000000000000e-01
5.57040000000000e-08,0.00000000000000e+00,4.50000000000000e-01,-7.63925930925148e-04,4.50000000000000e-01
5.62160000000000e-08,0.00000000000000e+00,4.50000000000000e-01,-1.12729434859061e-04,4.50000000000000e-01
5.71113094723652e-08,0.00000000000000e+00,4.50000000000000e-01,1.66262964652915e-04,4.50000000000000e-01
5.86277147437389e-08,0.00000000000000e+00,4.50000000000000e-01,-1.93704159944590e-04,4.50000000000000e-01
6.07329509659505e-08,0.00000000000000e+00,4.50000000000000e-01,2.07388365465011e-04,4.50000000000000e-01
6.45329509659505e-08,0.00000000000000e+00,4.50000000000000e-01,-1.93193643335361e-04,4.50000000000000e-01
6.50000000000000e-08,0.00000000000000e+00,4.50000000000000e-01,1.18119594072399e-04,4.50000000000000e-01
6.50100000000000e-08,4.49999999999915e-02,4.50000000000000e-01,2.04189896979061e-04,4.50000000000000e-01
6.50300000000000e-08,1.34999999999974e-01,4.50000000000000e-01,3.58499641297215e-04,4.50000000000000e-01
6.50700000000000e-08,3.14999999999940e-01,4.50000000000000e-01,5.66886014606145e-04,4.50000000000000e-01
6.51000000000000e-08,4.49999999999974e-01,4.50000000000000e-01,6.17442347022018e-04,4.50000000000000e-01
6.51080000000000e-08,4.50000000000000e-01,4.50000000000000e-01,5.74268502077820e-04,4.50000000000000e-01
6.51240000000000e-08,4.50000000000000e-01,4.50000000000000e-01,4.88604199293863e-04,4.50000000000000e-01
6.51560000000000e-08,4.50000000000000e-01,4.50000000000000e-01,3.09098879682057e-04,4.50000000000000e-01
6.52200000000000e-08,4.50000000000000e-01,4.50000000000000e-01,-2.11447110585378e-04,4.50000000000000e-01
6.53480000000000e-08,4.50000000000000e-01,4.50000000000000e-01,-1.61859836743925e-03,4.50000000000000e-01
6.56040000000000e-08,4.50000000000000e-01,4.50000000000000e-01,-3.67470892130054e-03,4.50000000000000e-01
6.61159999999999e-08,4.50000000000000e-01,4.50000000000000e-01,3.33007892747327e-02,4.50000000000000e-01
6.71399999999999e-08,4.50000000000000e-01,4.50000000000000e-01,4.10270815657938e-01,4.50000000000000e-01
6.91879999999998e-08,4.50000000000000e-01,4.50000000000000e-01,4.60960921421995e-01,4.50000000000000e-01
7.14954697147556e-08,4.50000000000000e-01,4.50000000000000e-01,4.37561810212900e-01,4.50000000000000e-01
7.51000000000000e-08,4.50000000000000e-01,4.50000000000000e-01,4.60429518307407e-01,4.50000000000000e-01
7.51100000000000e-08,4.05000000000046e-01,4.50000000000000e-01,4.57475580631643e-01,4.50000000000000e-01
7.51300000000000e-08,3.15000000000063e-01,4.50000000000000e-01,4.53186606750858e-01,4.50000000000000e-01
7.51700000000000e-08,1.35000000000097e-01,4.50000000000000e-01,4.50440919410313e-01,4.50000000000000e-01
7.52000000000000e-08,6.29496454962464e-14,4.50000000000000e-01,4.51018345788670e-01,4.50000000000000e-01
7.52080000000000e-08,0.00000000000000e+00,4.50000000000000e-01,4.51332505304841e-01,4.50000000000000e-01
7.52240000000000e-08,0.00000000000000e+00,4.50000000000000e-01,4.51804268560011e-01,4.50000000000000e-01
7.52560000000000e-08,0.00000000000000e+00,4.50000000000000e-01,4.52238526241241e-01,4.50000000000000e-01
7.53200000000000e-08,0.00000000000000e+00,4.50000000000000e-01,4.52279475818023e-01,4.50000000000000e-01
7.54480000000000e-08,0.00000000000000e+00,4.50000000000000e-01,4.47704097978879e-01,4.50000000000000e-01
7.57040000000000e-08,0.00000000000000e+00,4.50000000000000e-01,4.38002268583103e-01,4.50000000000000e-01
7.62159999999999e-08,0.00000000000000e+00,4.50000000000000e-01,4.46973588524891e-01,4.50000000000000e-01
7.72399999999999e-08,0.00000000000000e+00,4.50000000000000e-01,4.51301530439586e-01,4.50000000000000e-01
7.87350187483136e-08,0.00000000000000e+00,4.50000000000000e-01,4.48299039658340e-01,4.50000000000000e-01
8.17250562449410e-08,0.00000000000000e+00,4.50000000000000e-01,4.51188219194585e-01,4.50000000000000e-01
8.50000000000000e-08,0.00000000000000e+00,4.50000000000000e-01,4.48658930718446e-01,4.50000000000000e-01
8.50100000000000e-08,4.49999999999915e-02,4.50000000000000e-01,4.48791340323874e-01,4.05000000000009e-01
8.50300000000000e-08,1.34999999999974e-01,4.50000000000000e-01,4.48994645599491e-01,3.15000000000026e-01
8.50700000000000e-08,3.14999999999940e-01,4.50000000000000e-01,4.49588790645759e-01,1.35000000000060e-01
8.51000000000000e-08,4.49999999999974e-01,4.50000000000000e-01,4.51895652129871e-01,2.57571741713036e-14
8.51080000000000e-08,4.50000000000000e-01,4.50000000000000e-01,4.52889267938714e-01,0.00000000000000e+00
8.51240000000000e-08,4.50000000000000e-01,4.50000000000000e-01,4.54686324660543e-01,0.00000000000000e+00
8.51560000000000e-08,4.50000000000000e-01,4.50000000000000e-01,4.57591911755443e-01,0.00000000000000e+00
8.52200000000000e-08,4.50000000000000e-01,4.50000000000000e-01,4.63103010198847e-01,0.00000000000000e+00
8.53480000000000e-08,4.50000000000000e-01,4.50000000000000e-01,4.74106556110176e-01,0.00000000000000e+00
8.56040000000000e-08,4.50000000000000e-01,4.50000000000000e-01,4.10259510612777e-01,0.00000000000000e+00
8.61159999999999e-08,4.50000000000000e-01,4.50000000000000e-01,9.48091911656390e-02,0.00000000000000e+00
8.69944320774021e-08,4.50000000000000e-01,4.50000000000000e-01,-2.62814313773608e-02,0.00000000000000e+00
8.84807573097082e-08,4.50000000000000e-01,4.50000000000000e-01,2.04475866099341e-02,0.00000000000000e+00
9.01000000000000e-08,4.50000000000000e-01,4.49999999999974e-01,-1.30859594942672e-02,0.00000000000000e+00
9.03466550260824e-08,4.50000000000000e-01,4.50000000000000e-01,-4.10513078535022e-03,0.00000000000000e+00
9.08399650782472e-08,4.50000000000000e-01,4.50000000000000e-01,9.89136116561061e-04,0.00000000000000e+00
9.18265851825769e-08,4.50000000000000e-01,4.50000000000000e-01,-5.70073629236176e-04,0.00000000000000e+00
9.37998253912361e-08,4.50000000000000e-01,4.50000000000000e-01,4.62219407428092e-04,0.00000000000000e+00
9.51000000000000e-08,4.50000000000000e-01,4.50000000000000e-01,-3.32082311968068e-04,0.00000000000000e+00
9.51100000000000e-08,4.05000000000046e-01,4.50000000000000e-01,-9.97241889856143e-05,4.49999999999542e-02
9.51300000000000e-08,3.15000000000063e-01,4.50000000000000e-01,2.15462913064887e-04,1.34999999999937e-01
9.51700000000000e-08,1.35000000000097e-01,4.50000000000000e-01,2.78944766931528e-04,3.14999999999903e-01
9.52000000000000e-08,6.29496454962464e-14,4.50000000000000e-01,2.01159164306693e-04,4.49999999999937e-01
9.52080000000000e-08,0.00000000000000e+00,4.50000000000000e-01,1.69982228418707e-04,4.50000000000000e-01
9.52240000000000e-08,0.00000000000000e+00,4.50000000000000e-01,1.23563749121453e-04,4.50000000000000e-01
9.52560000000000e-08,0.00000000000000e+00,4.50000000000000e-01,8.38840880967168e-05,4.50000000000000e-01
9.53200000000000e-08,0.00000000000000e+00,4.50000000000000e-01,6.17261752178175e-05,4.50000000000000e-01
9.54480000000000e-08,0.00000000000000e+00,4.50000000000000e-01,-2.04186504069483e-04,4.50000000000000e-01
9.57040000000000e-08,0.00000000000000e+00,4.50000000000000e-01,-7.63919254553290e-04,4.50000000000000e-01
9.62159999999999e-08,0.00000000000000e+00,4.50000000000000e-01,-1.12726372444204e-04,4.50000000000000e-01
9.71113351743236e-08,0.00000000000000e+00,4.50000000000000e-01,1.66258106732731e-04,4.50000000000000e-01
9.86277292391482e-08,0.00000000000000e+00,4.50000000000000e-01,-1.93698981057991e-04,4.50000000000000e-01
1.00733012530290e-07,0.00000000000000e+00,4.50000000000000e-01,2.07384147977020e-04,4.50000000000000e-01
1.04533012530290e-07,0.00000000000000e+00,4.50000000000000e-01,-1.93190121278624e-04,4.50000000000000e-01
1.05000000000000e-07,0.00000000000000e+00,4.50000000000000e-01,1.18109011709413e-04,4.50000000000000e-01
1.05010000000000e-07,4.49999999999915e-02,4.50000000000000e-01,2.04180294799648e-04,4.50000000000000e-01
1.05030000000000e-07,1.34999999999974e-01,4.50000000000000e-01,3.58491555274350e-04,4.50000000000000e-01
1.05070000000000e-07,3.14999999999940e-01,4.50000000000000e-01,5.66879546766534e-04,4.50000000000000e-01
1.05100000000000e-07,4.49999999999974e-01,4.50000000000000e-01,6.17436824250452e-04,4.50000000000000e-01
1.05108000000000e-07,4.50000000000000e-01,4.50000000000000e-01,5.74263242098881e-04,4.50000000000000e-01
1.05124000000000e-07,4.50000000000000e-01,4.50000000000000e-01,4.88599453279996e-04,4.50000000000000e-01
1.05156000000000e-07,4.50000000000000e-01,4.50000000000000e-01,3.09095045474481e-04,4.50000000000000e-01
1.05220000000000e-07,4.50000000000000e-01,4.50000000000000e-01,-2.11449467544388e-04,4.50000000000000e-01
1.05348000000000e-07,4.50000000000000e-01,4.50000000000000e-01,-1.61859916938984e-03,4.50000000000000e-01
1.05604000000000e-07,4.50000000000000e-01,4.50000000000000e-01,-3.67470921937025e-03,4.50000000000000e-01
1.06116000000000e-07,4.50000000000000e-01,4.50000000000000e-01,3.33008791916599e-02,4.50000000000000e-01
1.07140000000000e-07,4.50000000000000e-01,4.50000000000000e-01,4.10270861576204e-01,4.50000000000000e-01
1.09188000000000e-07,4.50000000000000e-01,4.50000000000000e-01,4.60960913544254e-01,4.50000000000000e-01
1.11495470184966e-07,4.50000000000000e-01,4.50000000000000e-01,4.37561818676699e-01,4.50000000000000e-01
1.15100000000000e-07,4.50000000000000e-01,4.50000000000000e-01,4.60429511018012e-01,4.50000000000000e-01
1.15110000000000e-07,4.05000000000046e-01,4.50000000000000e-01,4.57475575356343e-01,4.50000000000000e-01
1.15130000000000e-07,3.15000000000063e-01,4.50000000000000e-01,4.53186604511941e-01,4.50000000000000e-01
1.15170000000000e-07,1.35000000000097e-01,4.50000000000000e-01,4.50440919188006e-01,4.50000000000000e-01
1.15200000000000e-07,6.29496454962464e-14,4.50000000000000e-01,4.51018345751955e-01,4.50000000000000e-01
1.15208000000000e-07,0.00000000000000e+00,4.50000000000000e-01,4.51332505292429e-01,4.50000000000000e-01
1.15224000000000e-07,0.00000000000000e+00,4.50000000000000e-01,4.51804268584070e-01,4.50000000000000e-01
1.15256000000000e-07,0.00000000000000e+00,4.50000000000000e-01,4.52238526295914e-01,4.50000000000000e-01
1.15320000000000e-07,0.00000000000000e+00,4.50000000000000e-01,4.52279475912618e-01,4.50000000000000e-01
1.15448000000000e-07,0.00000000000000e+00,4.50000000000000e-01,4.47704098285138e-01,4.50000000000000e-01
1.15704000000000e-07,0.00000000000000e+00,4.50000000000000e-01,4.38002269023545e-01,4.50000000000000e-01
1.16216000000000e-07,0.00000000000000e+00,4.50000000000000e-01,4.46973588488896e-01,4.50000000000000e-01
1.17240000000000e-07,0.00000000000000e+00,4.50000000000000e-01,4.51301530474454e-01,4.50000000000000e-01
1.18735018753902e-07,0.00000000000000e+00,4.50000000000000e-01,4.48299039628144e-01,4.50000000000000e-01
