Time,v(clk),v(data),v(out)
1.00000000000000e-08,4.50000000000000e-01,0.00000000000000e+00,1.38284622628075e-05
1.00100000000000e-08,4.50000000000000e-01,4.49999999999989e-02,1.11138609023079e-05
1.00300000000000e-08,4.50000000000000e-01,1.34999999999997e-01,7.30131051012578e-06
1.00700000000000e-08,4.50000000000000e-01,3.14999999999992e-01,2.86604524760842e-06
1.01000000000000e-08,4.50000000000000e-01,4.49999999999997e-01,-6.01927693466564e-07
1.01080000000000e-08,4.50000000000000e-01,4.50000000000000e-01,-1.22048436920763e-06
1.01240000000000e-08,4.50000000000000e-01,4.50000000000000e-01,-1.90102329779979e-06
1.01560000000000e-08,4.50000000000000e-01,4.50000000000000e-01,-2.85256667240802e-06
1.02200000000000e-08,4.50000000000000e-01,4.50000000000000e-01,-3.31778073178052e-06
1.03480000000000e-08,4.50000000000000e-01,4.50000000000000e-01,8.24151128005907e-07
1.06040000000000e-08,4.50000000000000e-01,4.50000000000000e-01,7.27398199313993e-06
1.11160000000000e-08,4.50000000000000e-01,4.50000000000000e-01,5.17694755027345e-06
1.21400000000000e-08,4.50000000000000e-01,4.50000000000000e-01,6.45620852238443e-06
1.41880000000000e-08,4.50000000000000e-01,4.50000000000000e-01,4.42427694134556e-06
1.51000000000000e-08,4.50000000000000e-01,4.50000000000000e-01,5.23759574492643e-06
1.51100000000000e-08,4.04999999999994e-01,4.50000000000000e-01,-4.60900334606218e-05
1.51300000000000e-08,3.14999999999996e-01,4.50000000000000e-01,-1.35569949446857e-04
1.51700000000000e-08,1.35000000000000e-01,4.50000000000000e-01,-2.65479042955104e-04
1.52000000000000e-08,0.00000000000000e+00,4.50000000000000e-01,-2.63172210263819e-04
1.52080000000000e-08,0.00000000000000e+00,4.50000000000000e-01,-1.81172786285204e-04
1.52240000000000e-08,0.00000000000000e+00,4.50000000000000e-01,-3.96852562496511e-05
1.52560000000000e-08,0.00000000000000e+00,4.50000000000000e-01,1.34472457369521e-04
1.53200000000000e-08,0.00000000000000e+00,4.50000000000000e-01,2.32015736834106e-04
1.54480000000000e-08,0.00000000000000e+00,4.50000000000000e-01,1.38548926636110e-04
1.57040000000000e-08,0.00000000000000e+00,4.50000000000000e-01,-8.29839610673941e-05
1.62160000000000e-08,0.00000000000000e+00,4.50000000000000e-01,-6.26094972374525e-05
1.72400000000000e-08,0.00000000000000e+00,4.50000000000000e-01,-4.33559230290648e-05
1.89247637843459e-08,0.00000000000000e+00,4.50000000000000e-01,4.31835870491788e-05
2.12992201407613e-08,0.00000000000000e+00,4.50000000000000e-01,2.37721682985678e-05
2.50000000000000e-08,0.00000000000000e+00,4.50000000000000e-01,-4.12392903242991e-05
2.50100000000000e-08,4.49999999999915e-02,4.50000000000000e-01,5.09398252444906e-05
2.50300000000000e-08,1.35000000000004e-01,4.50000000000000e-01,1.97492877371946e-04
2.50700000000000e-08,3.15000000000000e-01,4.50000000000000e-01,3.44524150193683e-04
2.51000000000000e-08,4.50000000000000e-01,4.50000000000000e-01,3.18933385807095e-04
2.51080000000000e-08,4.50000000000000e-01,4.50000000000000e-01,2.42185948801772e-04
2.51240000000000e-08,4.50000000000000e-01,4.50000000000000e-01,5.62105086178918e-05
2.51560000000000e-08,4.50000000000000e-01,4.50000000000000e-01,-5.34265809387077e-04
2.52200000000000e-08,4.50000000000000e-01,4.50000000000000e-01,-2.02253153478623e-03
2.53480000000000e-08,4.50000000000000e-01,4.50000000000000e-01,-4.11450485928931e-03
2.56040000000000e-08,4.50000000000000e-01,4.50000000000000e-01,9.20348274300297e-03
2.61160000000000e-08,4.50000000000000e-01,4.50000000000000e-01,2.32481753155050e-01
2.71400000000000e-08,4.50000000000000e-01,4.50000000000000e-01,4.65696776840781e-01
2.87888353297821e-08,4.50000000000000e-01,4.50000000000000e-01,4.38433141285429e-01
3.01000000000000e-08,4.50000000000000e-01,4.50000000000000e-01,4.60883217247447e-01
3.01100000000000e-08,4.50000000000000e-01,4.05000000000023e-01,4.59304997164501e-01
3.01300000000000e-08,4.50000000000000e-01,3.15000000000011e-01,4.56598033338371e-01
3.01700000000000e-08,4.50000000000000e-01,1.35000000000015e-01,4.53157369180944e-01
3.02000000000000e-08,4.50000000000000e-01,1.08801856413265e-14,4.51737233901542e-01
3.02080000000000e-08,4.50000000000000e-01,0.00000000000000e+00,4.51477179517275e-01
3.02240000000000e-08,4.50000000000000e-01,0.00000000000000e+00,4.50957479607245e-01
3.02560000000000e-08,4.50000000000000e-01,0.00000000000000e+00,4.50330690800870e-01
3.03200000000000e-08,4.50000000000000e-01,0.00000000000000e+00,4.49777013806366e-01
3.04480000000000e-08,4.50000000000000e-01,0.00000000000000e+00,4.49620018314402e-01
3.07040000000000e-08,4.50000000000000e-01,0.00000000000000e+00,4.49790602732877e-01
3.12160000000000e-08,4.50000000000000e-01,0.00000000000000e+00,4.49848787789212e-01
3.22400000000000e-08,4.50000000000000e-01,0.00000000000000e+00,4.49855768258595e-01
3.38489564237507e-08,4.50000000000000e-01,0.00000000000000e+00,4.49865254495158e-01
3.51000000000000e-08,4.49999999999978e-01,0.00000000000000e+00,4.49888922088901e-01
3.51100000000000e-08,4.04999999999986e-01,0.00000000000000e+00,4.49830500093962e-01
3.51300000000000e-08,3.14999999999974e-01,0.00000000000000e+00,4.49726698914091e-01
3.51700000000000e-08,1.34999999999978e-01,0.00000000000000e+00,4.49694386360431e-01
3.52000000000000e-08,0.00000000000000e+00,0.00000000000000e+00,4.50108793340466e-01
3.52080000000000e-08,0.00000000000000e+00,0.00000000000000e+00,4.50324616748929e-01
3.52240000000000e-08,0.00000000000000e+00,0.00000000000000e+00,4.50691633600040e-01
3.52560000000000e-08,0.00000000000000e+00,0.00000000000000e+00,4.51169401729057e-01
3.53200000000000e-08,0.00000000000000e+00,0.00000000000000e+00,4.51587884952111e-01
3.54480000000000e-08,0.00000000000000e+00,0.00000000000000e+00,4.51244140745703e-01
3.57040000000000e-08,0.00000000000000e+00,0.00000000000000e+00,4.45185202026850e-01
3.62160000000000e-08,0.00000000000000e+00,0.00000000000000e+00,4.33398688642217e-01
3.72400000000000e-08,0.00000000000000e+00,0.00000000000000e+00,4.44741186483522e-01
3.84004659270949e-08,0.00000000000000e+00,0.00000000000000e+00,4.51327337996130e-01
3.91000000000000e-08,0.00000000000000e+00,0.00000000000000e+00,4.48361943160468e-01
3.93320931854190e-08,0.00000000000000e+00,0.00000000000000e+00,4.48913236973366e-01
3.97962795562569e-08,0.00000000000000e+00,0.00000000000000e+00,4.49368888985733e-01
4.07246522979329e-08,0.00000000000000e+00,0.00000000000000e+00,4.49342540263149e-01
4.25813977812847e-08,0.00000000000000e+00,0.00000000000000e+00,4.49492992825385e-01
4.50000000000000e-08,0.00000000000000e+00,0.00000000000000e+00,4.49509135356383e-01
4.50100000000000e-08,4.49999999999915e-02,0.00000000000000e+00,4.49563672623483e-01
4.50300000000000e-08,1.35000000000004e-01,0.00000000000000e+00,4.49653446877050e-01
4.50700000000000e-08,3.15000000000000e-01,0.00000000000000e+00,4.49730480655386e-01
4.51000000000000e-08,4.50000000000000e-01,0.00000000000000e+00,4.49690127086326e-01
4.51080000000000e-08,4.50000000000000e-01,0.00000000000000e+00,4.49636499496350e-01
4.51240000000000e-08,4.50000000000000e-01,0.00000000000000e+00,4.49540775300784e-01
4.51560000000000e-08,4.50000000000000e-01,0.00000000000000e+00,4.49406301735044e-01
4.52200000000000e-08,4.50000000000000e-01,0.00000000000000e+00,4.49269680637988e-01
4.53480000000000e-08,4.50000000000000e-01,0.00000000000000e+00,4.49222112605847e-01
4.56040000000000e-08,4.50000000000000e-01,0.00000000000000e+00,4.50233618218738e-01
4.61160000000000e-08,4.50000000000000e-01,0.00000000000000e+00,4.61488477368586e-01
4.71400000000000e-08,4.50000000000000e-01,0.00000000000000e+00,7.97002519116618e-02
4.86960873801449e-08,4.50000000000000e-01,0.00000000000000e+00,-4.28937461228008e-02
5.00000000000000e-08,4.50000000000000e-01,0.00000000000000e+00,4.21770279245177e-02
5.00100000000000e-08,4.50000000000000e-01,4.49999999999915e-02,3.79481356125133e-02
5.00300000000000e-08,4.50000000000000e-01,1.34999999999974e-01,3.02773509499316e-02
5.00700000000000e-08,4.50000000000000e-01,3.15000000000000e-01,1.90231957926832e-02
5.01000000000000e-08,4.50000000000000e-01,4.50000000000000e-01,1.33620432339287e-02
5.01080000000000e-08,4.50000000000000e-01,4.50000000000000e-01,1.22114505873758e-02
5.01240000000000e-08,4.50000000000000e-01,4.50000000000000e-01,9.94638885632844e-03
5.01560000000000e-08,4.50000000000000e-01,4.50000000000000e-01,6.79311751330261e-03
5.02200000000000e-08,4.50000000000000e-01,4.50000000000000e-01,3.05701591539042e-03
5.03480000000000e-08,4.50000000000000e-01,4.50000000000000e-01,4.26292866979212e-04
5.06040000000000e-08,4.50000000000000e-01,4.50000000000000e-01,-7.78645367117067e-05
5.11160000000001e-08,4.50000000000000e-01,4.50000000000000e-01,3.08357144024329e-05
5.21400000000002e-08,4.50000000000000e-01,4.50000000000000e-01,-2.50818950531823e-05
5.41880000000003e-08,4.50000000000000e-01,4.50000000000000e-01,1.93424859348049e-05
5.51000000000000e-08,4.50000000000000e-01,4.50000000000000e-01,-1.53026627823004e-05
5.51100000000000e-08,4.05000000000016e-01,4.50000000000000e-01,-6.26942207705913e-05
5.51300000000000e-08,3.15000000000003e-01,4.50000000000000e-01,-1.48439975582081e-04
5.51700000000000e-08,1.35000000000008e-01,4.50000000000000e-01,-2.64345605890802e-04
5.52000000000000e-08,0.00000000000000e+00,4.50000000000000e-01,-2.52297202851963e-04
5.52080000000000e-08,0.00000000000000e+00,4.50000000000000e-01,-1.73003461464372e-04
5.52240000000000e-08,0.00000000000000e+00,4.50000000000000e-01,-4.35029986248642e-05
5.52560000000000e-08,0.00000000000000e+00,4.50000000000000e-01,1.27669973345512e-04
5.53200000000000e-08,0.00000000000000e+00,4.50000000000000e-01,2.22194246157034e-04
5.54480000000000e-08,0.00000000000000e+00,4.50000000000000e-01,1.10519888219595e-04
5.57040000000000e-08,0.00000000000000e+00,4.50000000000000e-01,-3.13627074170514e-04
5.62160000000000e-08,0.00000000000000e+00,4.50000000000000e-01,-4.12798605110060e-04
5.72400000000000e-08,0.00000000000000e+00,4.50000000000000e-01,1.70557746374642e-04
5.89272637852984e-08,0.00000000000000e+00,4.50000000000000e-01,-1.00431415698890e-04
6.13012592127424e-08,0.00000000000000e+00,4.50000000000000e-01,1.30130261009814e-04
6.50000000000000e-08,0.00000000000000e+00,4.50000000000000e-01,-1.32577135715561e-04
6.50100000000000e-08,4.49999999999915e-02,4.50000000000000e-01,-4.59740589770635e-05
6.50300000000000e-08,1.34999999999974e-01,4.50000000000000e-01,9.84088925854998e-05
6.50700000000000e-08,3.14999999999940e-01,4.50000000000000e-01,2.61657258601826e-04
6.51000000000000e-08,4.49999999999974e-01,4.50000000000000e-01,2.52510704601902e-04
6.51080000000000e-08,4.50000000000000e-01,4.50000000000000e-01,1.79991671736386e-04
6.51240000000000e-08,4.50000000000000e-01,4.50000000000000e-01,2.02349589572409e-06
6.51560000000000e-08,4.50000000000000e-01,4.50000000000000e-01,-5.75101982039909e-04
6.52200000000000e-08,4.50000000000000e-01,4.50000000000000e-01,-2.04448602816856e-03
6.53480000000000e-08,4.50000000000000e-01,4.50000000000000e-01,-4.12174294966964e-03
6.56040000000000e-08,4.50000000000000e-01,4.50000000000000e-01,9.20330589801598e-03
6.61159999999999e-08,4.50000000000000e-01,4.50000000000000e-01,2.32485112373624e-01
6.71399999999999e-08,4.50000000000000e-01,4.50000000000000e-01,4.65697403802826e-01
6.87889135593047e-08,4.50000000000000e-01,4.50000000000000e-01,4.38432754770276e-01
7.01000000000000e-08,4.50000000000000e-01,4.50000000000000e-01,4.60883513560058e-01
7.01100000000000e-08,4.50000000000000e-01,4.05000000000009e-01,4.59305261751974e-01
7.01300000000000e-08,4.50000000000000e-01,3.15000000000026e-01,4.56598240648800e-01
7.01700000000000e-08,4.50000000000000e-01,1.35000000000060e-01,4.53157496924972e-01
7.02000000000000e-08,4.50000000000000e-01,2.57571741713036e-14,4.51737327309947e-01
7.02080000000000e-08,4.50000000000000e-01,0.00000000000000e+00,4.51477266941670e-01
7.02240000000000e-08,4.50000000000000e-01,0.00000000000000e+00,4.50957554828323e-01
7.02560000000000e-08,4.50000000000000e-01,0.00000000000000e+00,4.50330749708493e-01
7.03200000000000e-08,4.50000000000000e-01,0.00000000000000e+00,4.49777050374885e-01
7.04480000000000e-08,4.50000000000000e-01,0.00000000000000e+00,4.49620044946125e-01
7.07040000000000e-08,4.50000000000000e-01,0.00000000000000e+00,4.49790622962006e-01
7.12159999999999e-08,4.50000000000000e-01,0.00000000000000e+00,4.49848806586899e-01
7.22399999999999e-08,4.50000000000000e-01,0.00000000000000e+00,4.49855782118446e-01
7.38489520467220e-08,4.50000000000000e-01,0.00000000000000e+00,4.49865264950172e-01
7.51000000000000e-08,4.50000000000000e-01,0.00000000000000e+00,4.49888929002942e-01
7.51100000000000e-08,4.05000000000046e-01,0.00000000000000e+00,4.49830507020732e-01
7.51300000000000e-08,3.15000000000063e-01,0.00000000000000e+00,4.49726705899631e-01
7.51700000000000e-08,1.35000000000097e-01,0.00000000000000e+00,4.49694393248138e-01
7.52000000000000e-08,6.29496454962464e-14,0.00000000000000e+00,4.50108800691873e-01
7.52080000000000e-08,0.00000000000000e+00,0.00000000000000e+00,4.50324624148588e-01
7.52240000000000e-08,0.00000000000000e+00,0.00000000000000e+00,4.50691641468262e-01
7.52560000000000e-08,0.00000000000000e+00,0.00000000000000e+00,4.51169411607899e-01
7.53200000000000e-08,0.00000000000000e+00,0.00000000000000e+00,4.51587903390602e-01
7.54480000000000e-08,0.00000000000000e+00,0.00000000000000e+00,4.51244204284819e-01
7.57040000000000e-08,0.00000000000000e+00,0.00000000000000e+00,4.45185432704527e-01
7.62159999999999e-08,0.00000000000000e+00,0.00000000000000e+00,4.33398833571182e-01
7.72399999999999e-08,0.00000000000000e+00,0.00000000000000e+00,4.44741090661858e-01
7.81000000000000e-08,0.00000000000000e+00,0.00000000000000e+00,4.50841889790272e-01
7.82160465950459e-08,0.00000000000000e+00,0.00000000000000e+00,4.50089614782447e-01
7.84481397851377e-08,0.00000000000000e+00,0.00000000000000e+00,4.49273268913776e-01
7.89123261653212e-08,0.00000000000000e+00,0.00000000000000e+00,4.49155540278940e-01
7.98406989256882e-08,0.00000000000000e+00,0.00000000000000e+00,4.49320140861350e-01
8.16974444464223e-08,0.00000000000000e+00,0.00000000000000e+00,4.49424489394506e-01
8.50000000000000e-08,0.00000000000000e+00,0.00000000000000e+00,4.49536841783648e-01
8.50100000000000e-08,4.49999999999915e-02,0.00000000000000e+00,4.49595073330032e-01
8.50300000000000e-08,1.34999999999974e-01,0.00000000000000e+00,4.49689087553911e-01
8.50700000000000e-08,3.14999999999940e-01,0.00000000000000e+00,4.49762924733525e-01
8.51000000000000e-08,4.49999999999974e-01,0.00000000000000e+00,4.49717800290086e-01
8.51080000000000e-08,4.50000000000000e-01,0.00000000000000e+00,4.49664508361957e-01
8.51240000000000e-08,4.50000000000000e-01,0.00000000000000e+00,4.49568519276705e-01
8.51560000000000e-08,4.50000000000000e-01,0.00000000000000e+00,4.49429520857059e-01
8.52200000000000e-08,4.50000000000000e-01,0.00000000000000e+00,4.49282678756616e-01
8.53480000000000e-08,4.50000000000000e-01,0.00000000000000e+00,4.49221578954298e-01
8.56040000000000e-08,4.50000000000000e-01,0.00000000000000e+00,4.50242656597993e-01
8.61159999999999e-08,4.50000000000000e-01,0.00000000000000e+00,4.61481250256681e-01
8.71399999999999e-08,4.50000000000000e-01,0.00000000000000e+00,7.96740295502216e-02
8.86973333110635e-08,4.50000000000000e-01,0.00000000000000e+00,-4.29036284987955e-02
9.00000000000000e-08,4.50000000000000e-01,0.00000000000000e+00,4.21723293629074e-02
9.00100000000000e-08,4.50000000000000e-01,4.49999999999915e-02,3.79429756994899e-02
9.00300000000000e-08,4.50000000000000e-01,1.34999999999974e-01,3.02718380587855e-02
9.00700000000000e-08,4.50000000000000e-01,3.14999999999940e-01,1.90185114260785e-02
9.01000000000000e-08,4.50000000000000e-01,4.49999999999974e-01,1.33582197712792e-02
9.01080000000000e-08,4.50000000000000e-01,4.50000000000000e-01,1.22078525431281e-02
9.01240000000000e-08,4.50000000000000e-01,4.50000000000000e-01,9.94322333538198e-03
9.01560000000000e-08,4.50000000000000e-01,4.50000000000000e-01,6.79788874454227e-03
9.02200000000000e-08,4.50000000000000e-01,4.50000000000000e-01,3.05850153721832e-03
9.03480000000000e-08,4.50000000000000e-01,4.50000000000000e-01,4.26804597593415e-04
9.06040000000000e-08,4.50000000000000e-01,4.50000000000000e-01,-7.81180943825212e-05
9.11159999999999e-08,4.50000000000000e-01,4.50000000000000e-01,3.10570137359752e-05
9.21399999999999e-08,4.50000000000000e-01,4.50000000000000e-01,-2.52748743170828e-05
9.41879999999998e-08,4.50000000000000e-01,4.50000000000000e-01,1.95435053702364e-05
9.51000000000000e-08,4.50000000000000e-01,4.50000000000000e-01,-1.54767321375324e-05
9.51100000000000e-08,4.05000000000046e-01,4.50000000000000e-01,-6.27678493746453e-05
9.51300000000000e-08,3.15000000000063e-01,4.50000000000000e-01,-1.48414507872792e-04
9.51700000000000e-08,1.35000000000097e-01,4.50000000000000e-01,-2.64308319568474e-04
9.52000000000000e-08,6.29496454962464e-14,4.50000000000000e-01,-2.52256971576881e-04
9.52080000000000e-08,0.00000000000000e+00,4.50000000000000e-01,-1.72966551743349e-04
9.52240000000000e-08,0.00000000000000e+00,4.50000000000000e-01,-4.34760075390742e-05
9.52560000000000e-08,0.00000000000000e+00,4.50000000000000e-01,1.27691740224360e-04
9.53200000000000e-08,0.00000000000000e+00,4.50000000000000e-01,2.22215205515176e-04
9.54480000000000e-08,0.00000000000000e+00,4.50000000000000e-01,1.10576276251422e-04
9.57040000000000e-08,0.00000000000000e+00,4.50000000000000e-01,-3.13338603513551e-04
9.62159999999999e-08,0.00000000000000e+00,4.50000000000000e-01,-4.12127405256339e-04
9.72399999999999e-08,0.00000000000000e+00,4.50000000000000e-01,1.70184172648712e-04
9.89272599167972e-08,0.00000000000000e+00,4.50000000000000e-01,-1.00179304683214e-04
1.01301256170647e-07,0.00000000000000e+00,4.50000000000000e-01,1.29958285433363e-04
1.05000000000000e-07,0.00000000000000e+00,4.50000000000000e-01,-1.32439791559885e-04
1.05010000000000e-07,4.49999999999915e-02,4.50000000000000e-01,-4.58063217626675e-05
1.05030000000000e-07,1.34999999999974e-01,4.50000000000000e-01,9.86064057080932e-05
1.05070000000000e-07,3.14999999999940e-01,4.50000000000000e-01,2.61838863733731e-04
1.05100000000000e-07,4.49999999999974e-01,4.50000000000000e-01,2.52661582973615e-04
1.05108000000000e-07,4.50000000000000e-01,4.50000000000000e-01,1.80133689050226e-04
1.05124000000000e-07,4.50000000000000e-01,4.50000000000000e-01,2.14862711886421e-06
1.05156000000000e-07,4.50000000000000e-01,4.50000000000000e-01,-5.75006487669630e-04
1.05220000000000e-07,4.50000000000000e-01,4.50000000000000e-01,-2.04443405898310e-03
1.05348000000000e-07,4.50000000000000e-01,4.50000000000000e-01,-4.12172927887988e-03
1.05604000000000e-07,4.50000000000000e-01,4.50000000000000e-01,9.20330062944214e-03
1.06116000000000e-07,4.50000000000000e-01,4.50000000000000e-01,2.32485091729932e-01
1.07140000000000e-07,4.50000000000000e-01,4.50000000000000e-01,4.65697400992245e-01
1.08788913484254e-07,4.50000000000000e-01,4.50000000000000e-01,4.38432757151741e-01
1.10100000000000e-07,4.50000000000000e-01,4.50000000000000e-01,4.60883511810037e-01
1.10110000000000e-07,4.50000000000000e-01,4.05000000000068e-01,4.59305260218402e-01
1.10130000000000e-07,4.50000000000000e-01,3.15000000000085e-01,4.56598239482669e-01
1.10170000000000e-07,4.50000000000000e-01,1.35000000000119e-01,4.53157496269669e-01
1.10200000000000e-07,4.50000000000000e-01,8.53206394424433e-14,4.51737326873997e-01
1.10208000000000e-07,4.50000000000000e-01,0.00000000000000e+00,4.51477266543158e-01
1.10224000000000e-07,4.50000000000000e-01,0.00000000000000e+00,4.50957554507517e-01
1.10256000000000e-07,4.50000000000000e-01,0.00000000000000e+00,4.50330749488447e-01
1.10320000000000e-07,4.50000000000000e-01,0.00000000000000e+00,4.49777050281669e-01
1.10448000000000e-07,4.50000000000000e-01,0.00000000000000e+00,4.49620044916851e-01
1.10704000000000e-07,4.50000000000000e-01,0.00000000000000e+00,4.49790622959177e-01
1.11216000000000e-07,4.50000000000000e-01,0.00000000000000e+00,4.49848806578021e-01
1.12240000000000e-07,4.50000000000000e-01,0.00000000000000e+00,4.49855782116406e-01
1.13848952039522e-07,4.50000000000000e-01,0.00000000000000e+00,4.49865264943213e-01
