Time,v(clk),v(data),v(out),v(reset)
1.00000000000000e-08,4.50000000000000e-01,0.00000000000000e+00,-2.52594317748725e-07,0.00000000000000e+00
1.00100000000000e-08,4.50000000000000e-01,4.49999999999989e-02,-1.88625846459650e-06,0.00000000000000e+00
1.00300000000000e-08,4.50000000000000e-01,1.34999999999997e-01,-3.67093101506094e-06,0.00000000000000e+00
1.00700000000000e-08,4.50000000000000e-01,3.14999999999992e-01,-4.92239604432676e-06,0.00000000000000e+00
1.01000000000000e-08,4.50000000000000e-01,4.49999999999997e-01,-5.87471221495661e-06,0.00000000000000e+00
1.01080000000000e-08,4.50000000000000e-01,4.50000000000000e-01,-5.86796840381515e-06,0.00000000000000e+00
1.01240000000000e-08,4.50000000000000e-01,4.50000000000000e-01,-5.47520239866511e-06,0.00000000000000e+00
1.01560000000000e-08,4.50000000000000e-01,4.50000000000000e-01,-3.98480689726283e-06,0.00000000000000e+00
1.02200000000000e-08,4.50000000000000e-01,4.50000000000000e-01,-1.56709659335230e-06,0.00000000000000e+00
1.03480000000000e-08,4.50000000000000e-01,4.50000000000000e-01,5.61547423241771e-07,0.00000000000000e+00
1.06040000000000e-08,4.50000000000000e-01,4.50000000000000e-01,1.44399515294991e-06,0.00000000000000e+00
1.11160000000000e-08,4.50000000000000e-01,4.50000000000000e-01,2.47184687175890e-06,0.00000000000000e+00
1.21400000000000e-08,4.50000000000000e-01,4.50000000000000e-01,2.30376180875794e-06,0.00000000000000e+00
1.41880000000000e-08,4.50000000000000e-01,4.50000000000000e-01,1.75082180906179e-06,0.00000000000000e+00
1.51000000000000e-08,4.50000000000000e-01,4.50000000000000e-01,2.07421708716023e-06,0.00000000000000e+00
1.51100000000000e-08,4.04999999999994e-01,4.50000000000000e-01,1.65048304218103e-04,4.50000000000064e-02
1.51300000000000e-08,3.14999999999996e-01,4.50000000000000e-01,3.80809239378797e-04,1.35000000000004e-01
1.51700000000000e-08,1.35000000000000e-01,4.50000000000000e-01,3.36621529691022e-04,3.15000000000000e-01
1.52000000000000e-08,0.00000000000000e+00,4.50000000000000e-01,1.86800546435890e-04,4.50000000000000e-01
1.52080000000000e-08,0.00000000000000e+00,4.50000000000000e-01,1.40284487172404e-04,4.50000000000000e-01
1.52240000000000e-08,0.00000000000000e+00,4.50000000000000e-01,6.86410082672423e-05,4.50000000000000e-01
1.52560000000000e-08,0.00000000000000e+00,4.50000000000000e-01,1.00072826611994e-05,4.50000000000000e-01
1.53200000000000e-08,0.00000000000000e+00,4.50000000000000e-01,-4.52493151503058e-06,4.50000000000000e-01
1.54480000000000e-08,0.00000000000000e+00,4.50000000000000e-01,5.03234307762043e-06,4.50000000000000e-01
1.57040000000000e-08,0.00000000000000e+00,4.50000000000000e-01,-6.46034269794656e-05,4.50000000000000e-01
1.62160000000000e-08,0.00000000000000e+00,4.50000000000000e-01,-1.41874790643357e-05,4.50000000000000e-01
1.71691042316459e-08,0.00000000000000e+00,4.50000000000000e-01,-5.71970258934976e-05,4.50000000000000e-01
1.87637005658843e-08,0.00000000000000e+00,4.50000000000000e-01,6.19865841911833e-05,4.50000000000000e-01
2.14782805354991e-08,0.00000000000000e+00,4.50000000000000e-01,-2.60087978705263e-05,4.50000000000000e-01
2.50000000000000e-08,0.00000000000000e+00,4.50000000000000e-01,6.68916830746653e-06,4.50000000000000e-01
2.50100000000000e-08,4.49999999999915e-02,4.50000000000000e-01,9.94826625475079e-05,4.50000000000000e-01
2.50300000000000e-08,1.35000000000004e-01,4.50000000000000e-01,2.55649677015315e-04,4.50000000000000e-01
2.50700000000000e-08,3.15000000000000e-01,4.50000000000000e-01,4.06613626699422e-04,4.50000000000000e-01
2.51000000000000e-08,4.50000000000000e-01,4.50000000000000e-01,3.99240087154432e-04,4.50000000000000e-01
2.51080000000000e-08,4.50000000000000e-01,4.50000000000000e-01,3.44609840468163e-04,4.50000000000000e-01
2.51240000000000e-08,4.50000000000000e-01,4.50000000000000e-01,2.38457680698315e-04,4.50000000000000e-01
2.51560000000000e-08,4.50000000000000e-01,4.50000000000000e-01,-6.07174191452273e-05,4.50000000000000e-01
2.52200000000000e-08,4.50000000000000e-01,4.50000000000000e-01,-1.25819967830019e-03,4.50000000000000e-01
2.53480000000000e-08,4.50000000000000e-01,4.50000000000000e-01,-3.62631178344808e-03,4.50000000000000e-01
2.56040000000000e-08,4.50000000000000e-01,4.50000000000000e-01,1.07893271436862e-03,4.50000000000000e-01
2.61160000000000e-08,4.50000000000000e-01,4.50000000000000e-01,2.62552995856020e-01,4.50000000000000e-01
2.71400000000000e-08,4.50000000000000e-01,4.50000000000000e-01,4.68289200225739e-01,4.50000000000000e-01
2.86031286077629e-08,4.50000000000000e-01,4.50000000000000e-01,4.36250868133117e-01,4.50000000000000e-01
3.13605384630410e-08,4.50000000000000e-01,4.50000000000000e-01,4.64488227652530e-01,4.50000000000000e-01
3.51000000000000e-08,4.49999999999978e-01,4.50000000000000e-01,4.36815004803159e-01,4.50000000000000e-01
3.51100000000000e-08,4.04999999999986e-01,4.50000000000000e-01,4.39780587492895e-01,4.50000000000000e-01
3.51300000000000e-08,3.14999999999974e-01,4.50000000000000e-01,4.44375321436605e-01,4.50000000000000e-01
3.51700000000000e-08,1.34999999999978e-01,4.50000000000000e-01,4.48612522631205e-01,4.50000000000000e-01
3.52000000000000e-08,0.00000000000000e+00,4.50000000000000e-01,4.50179046601954e-01,4.50000000000000e-01
3.52080000000000e-08,0.00000000000000e+00,4.50000000000000e-01,4.50582938762408e-01,4.50000000000000e-01
3.52240000000000e-08,0.00000000000000e+00,4.50000000000000e-01,4.51215864638243e-01,4.50000000000000e-01
3.52560000000000e-08,0.00000000000000e+00,4.50000000000000e-01,4.51864615790090e-01,4.50000000000000e-01
3.53200000000000e-08,0.00000000000000e+00,4.50000000000000e-01,4.52168339455814e-01,4.50000000000000e-01
3.54480000000000e-08,0.00000000000000e+00,4.50000000000000e-01,4.49670699255978e-01,4.50000000000000e-01
3.57040000000000e-08,0.00000000000000e+00,4.50000000000000e-01,4.36714031641520e-01,4.50000000000000e-01
3.62160000000000e-08,0.00000000000000e+00,4.50000000000000e-01,4.41487581290387e-01,4.50000000000000e-01
3.72400000000000e-08,0.00000000000000e+00,4.50000000000000e-01,4.53752598576487e-01,4.50000000000000e-01
3.88658355378011e-08,0.00000000000000e+00,4.50000000000000e-01,4.46098130218969e-01,4.50000000000000e-01
4.20002723390479e-08,0.00000000000000e+00,4.50000000000000e-01,4.52988865229291e-01,4.50000000000000e-01
4.50000000000000e-08,0.00000000000000e+00,4.50000000000000e-01,4.46970991323417e-01,4.50000000000000e-01
4.50100000000000e-08,4.49999999999915e-02,4.50000000000000e-01,4.47251111531080e-01,4.05000000000009e-01
4.50300000000000e-08,1.35000000000004e-01,4.50000000000000e-01,4.47743118084694e-01,3.14999999999996e-01
4.50700000000000e-08,3.15000000000000e-01,4.50000000000000e-01,4.48598428307711e-01,1.35000000000000e-01
4.51000000000000e-08,4.50000000000000e-01,4.50000000000000e-01,4.50454502049025e-01,0.00000000000000e+00
4.51080000000000e-08,4.50000000000000e-01,4.50000000000000e-01,4.51272606331322e-01,0.00000000000000e+00
4.51240000000000e-08,4.50000000000000e-01,4.50000000000000e-01,4.52703633713629e-01,0.00000000000000e+00
4.51560000000000e-08,4.50000000000000e-01,4.50000000000000e-01,4.54834147765150e-01,0.00000000000000e+00
4.52200000000000e-08,4.50000000000000e-01,4.50000000000000e-01,4.58299522566938e-01,0.00000000000000e+00
4.53480000000000e-08,4.50000000000000e-01,4.50000000000000e-01,4.66170106408488e-01,0.00000000000000e+00
4.56040000000000e-08,4.50000000000000e-01,4.50000000000000e-01,4.06591476010670e-01,0.00000000000000e+00
4.61160000000000e-08,4.50000000000000e-01,4.50000000000000e-01,4.88141575078529e-02,0.00000000000000e+00
4.69793275871354e-08,4.50000000000000e-01,4.50000000000000e-01,-2.66647609562076e-02,0.00000000000000e+00
4.83105129501515e-08,4.50000000000000e-01,4.50000000000000e-01,2.46759664082483e-02,0.00000000000000e+00
5.01000000000000e-08,4.50000000000000e-01,4.49999999999974e-01,-1.84914884248535e-02,0.00000000000000e+00
5.03000300856837e-08,4.50000000000000e-01,4.50000000000000e-01,-4.58283383429042e-03,0.00000000000000e+00
5.07000902570510e-08,4.50000000000000e-01,4.50000000000000e-01,2.03046425221541e-03,0.00000000000000e+00
5.15002105997856e-08,4.50000000000000e-01,4.50000000000000e-01,-1.36647570177641e-03,0.00000000000000e+00
5.31004512852549e-08,4.50000000000000e-01,4.50000000000000e-01,1.14097289384620e-03,0.00000000000000e+00
5.51000000000000e-08,4.50000000000000e-01,4.50000000000000e-01,-9.80151104168988e-04,0.00000000000000e+00
5.51100000000000e-08,4.05000000000016e-01,4.50000000000000e-01,-6.64264936658464e-04,4.49999999999840e-02
5.51300000000000e-08,3.15000000000003e-01,4.50000000000000e-01,-2.11058278154153e-04,1.34999999999997e-01
5.51700000000000e-08,1.35000000000008e-01,4.50000000000000e-01,-1.11687099141472e-05,3.14999999999992e-01
5.52000000000000e-08,0.00000000000000e+00,4.50000000000000e-01,-5.47961732835570e-05,4.50000000000000e-01
5.52080000000000e-08,0.00000000000000e+00,4.50000000000000e-01,-8.09622744796235e-05,4.50000000000000e-01
5.52240000000000e-08,0.00000000000000e+00,4.50000000000000e-01,-1.15066067438163e-04,4.50000000000000e-01
5.52560000000000e-08,0.00000000000000e+00,4.50000000000000e-01,-1.19187803379106e-04,4.50000000000000e-01
5.53200000000000e-08,0.00000000000000e+00,4.50000000000000e-01,-6.18029742704626e-05,4.50000000000000e-01
5.54480000000000e-08,0.00000000000000e+00,4.50000000000000e-01,-6.57069653485394e-05,4.50000000000000e-01
5.57040000000000e-08,0.00000000000000e+00,4.50000000000000e-01,-5.40353823703404e-04,4.50000000000000e-01
5.62160000000000e-08,0.00000000000000e+00,4.50000000000000e-01,6.79052212128658e-05,4.50000000000000e-01
5.70765316513274e-08,0.00000000000000e+00,4.50000000000000e-01,9.59533960167257e-06,4.50000000000000e-01
5.87179103980805e-08,0.00000000000000e+00,4.50000000000000e-01,-5.36251841691130e-05,4.50000000000000e-01
6.11563172349751e-08,0.00000000000000e+00,4.50000000000000e-01,8.16441298286102e-05,4.50000000000000e-01
6.48378939122747e-08,0.00000000000000e+00,4.50000000000000e-01,-9.26528216644441e-05,4.50000000000000e-01
6.50000000000000e-08,0.00000000000000e+00,4.50000000000000e-01,9.23465312961842e-05,4.50000000000000e-01
6.50100000000000e-08,4.49999999999915e-02,4.50000000000000e-01,1.66710797393908e-04,4.50000000000000e-01
6.50300000000000e-08,1.34999999999974e-01,4.50000000000000e-01,3.01891686189847e-04,4.50000000000000e-01
6.50700000000000e-08,3.14999999999940e-01,4.50000000000000e-01,4.40769248628618e-04,4.50000000000000e-01
6.51000000000000e-08,4.49999999999974e-01,4.50000000000000e-01,4.09644220608525e-04,4.50000000000000e-01
6.51080000000000e-08,4.50000000000000e-01,4.50000000000000e-01,3.37024957721435e-04,4.50000000000000e-01
6.51240000000000e-08,4.50000000000000e-01,4.50000000000000e-01,1.67455289767672e-04,4.50000000000000e-01
6.51560000000000e-08,4.50000000000000e-01,4.50000000000000e-01,-3.75617907918575e-04,4.50000000000000e-01
6.52200000000000e-08,4.50000000000000e-01,4.50000000000000e-01,-1.79633316373700e-03,4.50000000000000e-01
6.53480000000000e-08,4.50000000000000e-01,4.50000000000000e-01,-3.91477006035915e-03,4.50000000000000e-01
6.56040000000000e-08,4.50000000000000e-01,4.50000000000000e-01,3.91673305963534e-03,4.50000000000000e-01
6.61159999999999e-08,4.50000000000000e-01,4.50000000000000e-01,2.75490230943789e-01,4.50000000000000e-01
6.71399999999999e-08,4.50000000000000e-01,4.50000000000000e-01,4.69204244998201e-01,4.50000000000000e-01
6.85715872366668e-08,4.50000000000000e-01,4.50000000000000e-01,4.35070574645412e-01,4.50000000000000e-01
7.14130005130406e-08,4.50000000000000e-01,4.50000000000000e-01,4.65378603301181e-01,4.50000000000000e-01
7.51000000000000e-08,4.50000000000000e-01,4.50000000000000e-01,4.35753967361355e-01,4.50000000000000e-01
7.51100000000000e-08,4.05000000000046e-01,4.50000000000000e-01,4.38929170652905e-01,4.50000000000000e-01
7.51300000000000e-08,3.15000000000063e-01,4.50000000000000e-01,4.43855779067134e-01,4.50000000000000e-01
7.51700000000000e-08,1.35000000000097e-01,4.50000000000000e-01,4.48433664750419e-01,4.50000000000000e-01
7.52000000000000e-08,6.29496454962464e-14,4.50000000000000e-01,4.50084030041584e-01,4.50000000000000e-01
7.52080000000000e-08,0.00000000000000e+00,4.50000000000000e-01,4.50500630770436e-01,4.50000000000000e-01
7.52240000000000e-08,0.00000000000000e+00,4.50000000000000e-01,4.51156370982326e-01,4.50000000000000e-01
7.52560000000000e-08,0.00000000000000e+00,4.50000000000000e-01,4.51830706152983e-01,4.50000000000000e-01
7.53200000000000e-08,0.00000000000000e+00,4.50000000000000e-01,4.52159692244098e-01,4.50000000000000e-01
7.54480000000000e-08,0.00000000000000e+00,4.50000000000000e-01,4.49714948508940e-01,4.50000000000000e-01
7.57040000000000e-08,0.00000000000000e+00,4.50000000000000e-01,4.36781291636439e-01,4.50000000000000e-01
7.62159999999999e-08,0.00000000000000e+00,4.50000000000000e-01,4.41466949059332e-01,4.50000000000000e-01
7.72399999999999e-08,0.00000000000000e+00,4.50000000000000e-01,4.53757477459953e-01,4.50000000000000e-01
7.88656813857479e-08,0.00000000000000e+00,4.50000000000000e-01,4.46093900833936e-01,4.50000000000000e-01
8.19984225381505e-08,0.00000000000000e+00,4.50000000000000e-01,4.52992483965616e-01,4.50000000000000e-01
8.50000000000000e-08,0.00000000000000e+00,4.50000000000000e-01,4.46967400875333e-01,4.50000000000000e-01
8.50100000000000e-08,4.49999999999915e-02,4.50000000000000e-01,4.47247992310694e-01,4.05000000000009e-01
8.50300000000000e-08,1.34999999999974e-01,4.50000000000000e-01,4.47740844988701e-01,3.15000000000026e-01
8.50700000000000e-08,3.14999999999940e-01,4.50000000000000e-01,4.48597264456508e-01,1.35000000000060e-01
8.51000000000000e-08,4.49999999999974e-01,4.50000000000000e-01,4.50453644223348e-01,2.57571741713036e-14
8.51080000000000e-08,4.50000000000000e-01,4.50000000000000e-01,4.51271791315059e-01,0.00000000000000e+00
8.51240000000000e-08,4.50000000000000e-01,4.50000000000000e-01,4.52702900594347e-01,0.00000000000000e+00
8.51560000000000e-08,4.50000000000000e-01,4.50000000000000e-01,4.54833550431114e-01,0.00000000000000e+00
8.52200000000000e-08,4.50000000000000e-01,4.50000000000000e-01,4.58299101744287e-01,0.00000000000000e+00
8.53480000000000e-08,4.50000000000000e-01,4.50000000000000e-01,4.66169833221995e-01,0.00000000000000e+00
8.56040000000000e-08,4.50000000000000e-01,4.50000000000000e-01,4.06597439677454e-01,0.00000000000000e+00
8.61159999999999e-08,4.50000000000000e-01,4.50000000000000e-01,4.88191481361553e-02,0.00000000000000e+00
8.69793335860733e-08,4.50000000000000e-01,4.50000000000000e-01,-2.66670465722117e-02,0.00000000000000e+00
8.83105006721118e-08,4.50000000000000e-01,4.50000000000000e-01,2.46782584169705e-02,0.00000000000000e+00
9.01000000000000e-08,4.50000000000000e-01,4.49999999999974e-01,-1.84930556018216e-02,0.00000000000000e+00
9.03000352018228e-08,4.50000000000000e-01,4.50000000000000e-01,-4.58321059962255e-03,0.00000000000000e+00
9.07001056054686e-08,4.50000000000000e-01,4.50000000000000e-01,2.03066782827543e-03,0.00000000000000e+00
9.15002464127600e-08,4.50000000000000e-01,4.50000000000000e-01,-1.36661939127837e-03,0.00000000000000e+00
9.31005280273429e-08,4.50000000000000e-01,4.50000000000000e-01,1.14109493198951e-03,0.00000000000000e+00
9.51000000000000e-08,4.50000000000000e-01,4.50000000000000e-01,-9.80247486824008e-04,0.00000000000000e+00
9.51100000000000e-08,4.05000000000046e-01,4.50000000000000e-01,-6.64351476906321e-04,4.49999999999542e-02
9.51300000000000e-08,3.15000000000063e-01,4.50000000000000e-01,-2.11128353560075e-04,1.34999999999937e-01
9.51700000000000e-08,1.35000000000097e-01,4.50000000000000e-01,-1.12118436021297e-05,3.14999999999903e-01
9.52000000000000e-08,6.29496454962464e-14,4.50000000000000e-01,-5.48263521952461e-05,4.49999999999937e-01
9.52080000000000e-08,0.00000000000000e+00,4.50000000000000e-01,-8.09898504109743e-05,4.50000000000000e-01
9.52240000000000e-08,0.00000000000000e+00,4.50000000000000e-01,-1.15088500694346e-04,4.50000000000000e-01
9.52560000000000e-08,0.00000000000000e+00,4.50000000000000e-01,-1.19201153396163e-04,4.50000000000000e-01
9.53200000000000e-08,0.00000000000000e+00,4.50000000000000e-01,-6.18078846118808e-05,4.50000000000000e-01
9.54480000000000e-08,0.00000000000000e+00,4.50000000000000e-01,-6.57157334739804e-05,4.50000000000000e-01
9.57040000000000e-08,0.00000000000000e+00,4.50000000000000e-01,-5.40427050404749e-04,4.50000000000000e-01
9.62159999999999e-08,0.00000000000000e+00,4.50000000000000e-01,6.79134936166677e-05,4.50000000000000e-01
9.70769143582774e-08,0.00000000000000e+00,4.50000000000000e-01,9.55606402246612e-06,4.50000000000000e-01
9.87180721298716e-08,0.00000000000000e+00,4.50000000000000e-01,-5.35900533727837e-05,4.50000000000000e-01
1.01157574135545e-07,0.00000000000000e+00,4.50000000000000e-01,8.16047428621354e-05,4.50000000000000e-01
1.04839347412546e-07,0.00000000000000e+00,4.50000000000000e-01,-9.26175741147303e-05,4.50000000000000e-01
1.05000000000000e-07,0.00000000000000e+00,4.50000000000000e-01,9.19391539718796e-05,4.50000000000000e-01
1.05010000000000e-07,4.49999999999915e-02,4.50000000000000e-01,1.66399918598958e-04,4.50000000000000e-01
1.05030000000000e-07,1.34999999999974e-01,4.50000000000000e-01,3.01728333540897e-04,4.50000000000000e-01
1.05070000000000e-07,3.14999999999940e-01,4.50000000000000e-01,4.40704186639419e-04,4.50000000000000e-01
1.05100000000000e-07,4.49999999999974e-01,4.50000000000000e-01,4.09608527389173e-04,4.50000000000000e-01
1.05108000000000e-07,4.50000000000000e-01,4.50000000000000e-01,3.36988967603452e-04,4.50000000000000e-01
1.05124000000000e-07,4.50000000000000e-01,4.50000000000000e-01,1.67413801463193e-04,4.50000000000000e-01
1.05156000000000e-07,4.50000000000000e-01,4.50000000000000e-01,-3.75683645354487e-04,4.50000000000000e-01
1.05220000000000e-07,4.50000000000000e-01,4.50000000000000e-01,-1.79640058628792e-03,4.50000000000000e-01
1.05348000000000e-07,4.50000000000000e-01,4.50000000000000e-01,-3.91483573627237e-03,4.50000000000000e-01
1.05604000000000e-07,4.50000000000000e-01,4.50000000000000e-01,3.91909734984829e-03,4.50000000000000e-01
1.06116000000000e-07,4.50000000000000e-01,4.50000000000000e-01,2.75499869996031e-01,4.50000000000000e-01
1.07140000000000e-07,4.50000000000000e-01,4.50000000000000e-01,4.69204804391650e-01,4.50000000000000e-01
1.08571565394880e-07,4.50000000000000e-01,4.50000000000000e-01,4.35069756124832e-01,4.50000000000000e-01
1.11413046499450e-07,4.50000000000000e-01,4.50000000000000e-01,4.65379177023817e-01,4.50000000000000e-01
1.15100000000000e-07,4.50000000000000e-01,4.50000000000000e-01,4.35753234195776e-01,4.50000000000000e-01
1.15110000000000e-07,4.05000000000046e-01,4.50000000000000e-01,4.38928577094196e-01,4.50000000000000e-01
1.15130000000000e-07,3.15000000000063e-01,4.50000000000000e-01,4.43855410260942e-01,4.50000000000000e-01
1.15170000000000e-07,1.35000000000097e-01,4.50000000000000e-01,4.48433533258751e-01,4.50000000000000e-01
1.15200000000000e-07,6.29496454962464e-14,4.50000000000000e-01,4.50083959860513e-01,4.50000000000000e-01
1.15208000000000e-07,0.00000000000000e+00,4.50000000000000e-01,4.50500570471333e-01,4.50000000000000e-01
1.15224000000000e-07,0.00000000000000e+00,4.50000000000000e-01,4.51156326866869e-01,4.50000000000000e-01
1.15256000000000e-07,0.00000000000000e+00,4.50000000000000e-01,4.51830680452608e-01,4.50000000000000e-01
1.15320000000000e-07,0.00000000000000e+00,4.50000000000000e-01,4.52159685325601e-01,4.50000000000000e-01
1.15448000000000e-07,0.00000000000000e+00,4.50000000000000e-01,4.49714982474555e-01,4.50000000000000e-01
1.15704000000000e-07,0.00000000000000e+00,4.50000000000000e-01,4.36781343789869e-01,4.50000000000000e-01
1.16216000000000e-07,0.00000000000000e+00,4.50000000000000e-01,4.41466933130389e-01,4.50000000000000e-01
1.17240000000000e-07,0.00000000000000e+00,4.50000000000000e-01,4.53757481199100e-01,4.50000000000000e-01
1.18865681304556e-07,0.00000000000000e+00,4.50000000000000e-01,4.46093897577758e-01,4.50000000000000e-01
1.21998421145373e-07,0.00000000000000e+00,4.50000000000000e-01,4.52992486754469e-01,4.50000000000000e-01
