Time,v(clk),v(data),v(out)
1.00000000000000e-08,4.75000000000000e-01,0.00000000000000e+00,2.75270173193641e-05
1.00100000000000e-08,4.75000000000000e-01,4.74999999999989e-02,2.61087230998408e-05
1.00300000000000e-08,4.75000000000000e-01,1.42499999999997e-01,2.48084757164119e-05
1.00700000000000e-08,4.75000000000000e-01,3.32499999999992e-01,1.97858379711799e-05
1.01000000000000e-08,4.75000000000000e-01,4.74999999999996e-01,1.55933682282061e-05
1.01080000000000e-08,4.75000000000000e-01,4.75000000000000e-01,1.39141260085407e-05
1.01240000000000e-08,4.75000000000000e-01,4.75000000000000e-01,1.18572727362404e-05
1.01560000000000e-08,4.75000000000000e-01,4.75000000000000e-01,1.05247633965036e-05
1.02200000000000e-08,4.75000000000000e-01,4.75000000000000e-01,9.51356223947292e-06
1.03480000000000e-08,4.75000000000000e-01,4.75000000000000e-01,1.75391940025540e-05
1.06040000000000e-08,4.75000000000000e-01,4.75000000000000e-01,1.61427861841978e-05
1.11160000000000e-08,4.75000000000000e-01,4.75000000000000e-01,1.44558257265739e-05
1.21079685496675e-08,4.75000000000000e-01,4.75000000000000e-01,1.56313881145981e-05
1.40919056490024e-08,4.75000000000000e-01,4.75000000000000e-01,1.36129183837194e-05
1.51000000000000e-08,4.75000000000000e-01,4.75000000000000e-01,1.43511588473824e-05
1.51100000000000e-08,4.27499999999993e-01,4.75000000000000e-01,-6.72357523327644e-05
1.51300000000000e-08,3.32499999999996e-01,4.75000000000000e-01,-2.09073597440539e-04
1.51700000000000e-08,1.42500000000000e-01,4.75000000000000e-01,-3.49073671789719e-04
1.52000000000000e-08,0.00000000000000e+00,4.75000000000000e-01,-1.74449590306693e-04
1.52080000000000e-08,0.00000000000000e+00,4.75000000000000e-01,-1.52595761469809e-06
1.52240000000000e-08,0.00000000000000e+00,4.75000000000000e-01,2.66960889668010e-04
1.52560000000000e-08,0.00000000000000e+00,4.75000000000000e-01,4.97601928405624e-04
1.53200000000000e-08,0.00000000000000e+00,4.75000000000000e-01,4.86893292748730e-04
1.54480000000000e-08,0.00000000000000e+00,4.75000000000000e-01,3.35554534566865e-05
1.57040000000000e-08,0.00000000000000e+00,4.75000000000000e-01,-3.35780413864561e-04
1.62160000000000e-08,0.00000000000000e+00,4.75000000000000e-01,1.34023184470353e-04
1.71138589036040e-08,0.00000000000000e+00,4.75000000000000e-01,-1.58678701194227e-04
1.84913291307521e-08,0.00000000000000e+00,4.75000000000000e-01,1.79307309374373e-04
2.12462695850484e-08,0.00000000000000e+00,4.75000000000000e-01,-1.14680288396464e-04
2.42073064811867e-08,0.00000000000000e+00,4.75000000000000e-01,1.04705060815344e-04
2.50000000000000e-08,0.00000000000000e+00,4.75000000000000e-01,-2.28670930176207e-06
2.50100000000000e-08,4.74999999999910e-02,4.75000000000000e-01,1.34500818884553e-04
2.50300000000000e-08,1.42500000000004e-01,4.75000000000000e-01,3.76193808081397e-04
2.50700000000000e-08,3.32500000000000e-01,4.75000000000000e-01,6.94077682584893e-04
2.51000000000000e-08,4.75000000000000e-01,4.75000000000000e-01,7.70419483381433e-04
2.51080000000000e-08,4.75000000000000e-01,4.75000000000000e-01,6.91137344213083e-04
2.51240000000000e-08,4.75000000000000e-01,4.75000000000000e-01,5.35574152725586e-04
2.51560000000000e-08,4.75000000000000e-01,4.75000000000000e-01,1.60926888337659e-04
2.52200000000000e-08,4.75000000000000e-01,4.75000000000000e-01,-9.82644821843522e-04
2.53480000000000e-08,4.75000000000000e-01,4.75000000000000e-01,-3.26459640479092e-03
2.56040000000000e-08,4.75000000000000e-01,4.75000000000000e-01,-3.08664285103164e-03
2.61160000000000e-08,4.75000000000000e-01,4.75000000000000e-01,2.20301803440586e-01
2.71400000000000e-08,4.75000000000000e-01,4.75000000000000e-01,4.83648408846859e-01
2.86966225400115e-08,4.75000000000000e-01,4.75000000000000e-01,4.69275377851957e-01
3.01000000000000e-08,4.75000000000000e-01,4.75000000000000e-01,4.81223664232474e-01
3.01100000000000e-08,4.75000000000000e-01,4.27500000000025e-01,4.79435809808663e-01
3.01300000000000e-08,4.75000000000000e-01,3.32500000000011e-01,4.76843755927805e-01
3.01700000000000e-08,4.75000000000000e-01,1.42500000000016e-01,4.75018414458328e-01
3.02000000000000e-08,4.75000000000000e-01,1.14352971536391e-14,4.74845494722929e-01
3.02080000000000e-08,4.75000000000000e-01,0.00000000000000e+00,4.74834289274754e-01
3.02240000000000e-08,4.75000000000000e-01,0.00000000000000e+00,4.74813128642677e-01
3.02560000000000e-08,4.75000000000000e-01,0.00000000000000e+00,4.74792438512593e-01
3.03200000000000e-08,4.75000000000000e-01,0.00000000000000e+00,4.74818078729140e-01
3.04480000000000e-08,4.75000000000000e-01,0.00000000000000e+00,4.74838595262857e-01
3.07040000000000e-08,4.75000000000000e-01,0.00000000000000e+00,4.74935957426016e-01
3.12160000000000e-08,4.75000000000000e-01,0.00000000000000e+00,4.74959127117903e-01
3.21146228064966e-08,4.75000000000000e-01,0.00000000000000e+00,4.74954155301390e-01
3.34659162330322e-08,4.75000000000000e-01,0.00000000000000e+00,4.74966938635116e-01
3.51000000000000e-08,4.74999999999976e-01,0.00000000000000e+00,4.74962260189991e-01
3.51100000000000e-08,4.27499999999985e-01,0.00000000000000e+00,4.74884279607355e-01
3.51300000000000e-08,3.32499999999972e-01,0.00000000000000e+00,4.74772492749770e-01
3.51700000000000e-08,1.42499999999977e-01,0.00000000000000e+00,4.74962754421644e-01
3.52000000000000e-08,0.00000000000000e+00,0.00000000000000e+00,4.76225271317686e-01
3.52080000000000e-08,0.00000000000000e+00,0.00000000000000e+00,4.76697524129919e-01
3.52240000000000e-08,0.00000000000000e+00,0.00000000000000e+00,4.77400127152740e-01
3.52560000000000e-08,0.00000000000000e+00,0.00000000000000e+00,4.78002530636916e-01
3.53200000000000e-08,0.00000000000000e+00,0.00000000000000e+00,4.77755227039237e-01
3.54480000000000e-08,0.00000000000000e+00,0.00000000000000e+00,4.70545346220678e-01
3.57040000000000e-08,0.00000000000000e+00,0.00000000000000e+00,4.62658063113062e-01
3.62160000000000e-08,0.00000000000000e+00,0.00000000000000e+00,4.74260964213651e-01
3.70882473779923e-08,0.00000000000000e+00,0.00000000000000e+00,4.74459019022547e-01
3.84674605704161e-08,0.00000000000000e+00,0.00000000000000e+00,4.74760818838553e-01
3.91000000000000e-08,0.00000000000000e+00,0.00000000000000e+00,4.74705289443218e-01
3.92916830455194e-08,0.00000000000000e+00,0.00000000000000e+00,4.74742593691310e-01
3.96750491365582e-08,0.00000000000000e+00,0.00000000000000e+00,4.74774174177285e-01
4.04417813186358e-08,0.00000000000000e+00,0.00000000000000e+00,4.74790183593078e-01
4.19752456827909e-08,0.00000000000000e+00,0.00000000000000e+00,4.74830841490180e-01
4.50000000000000e-08,0.00000000000000e+00,0.00000000000000e+00,4.74861406977964e-01
4.50100000000000e-08,4.74999999999910e-02,0.00000000000000e+00,4.74945406591626e-01
4.50300000000000e-08,1.42500000000004e-01,0.00000000000000e+00,4.75061201106360e-01
4.50700000000000e-08,3.32500000000000e-01,0.00000000000000e+00,4.75083974378404e-01
4.51000000000000e-08,4.75000000000000e-01,0.00000000000000e+00,4.74996086073012e-01
4.51080000000000e-08,4.75000000000000e-01,0.00000000000000e+00,4.74924742504178e-01
4.51240000000000e-08,4.75000000000000e-01,0.00000000000000e+00,4.74814000396586e-01
4.51560000000000e-08,4.75000000000000e-01,0.00000000000000e+00,4.74711493156504e-01
4.52200000000000e-08,4.75000000000000e-01,0.00000000000000e+00,4.74651020609058e-01
4.53480000000000e-08,4.75000000000000e-01,0.00000000000000e+00,4.74728113020887e-01
4.56040000000000e-08,4.75000000000000e-01,0.00000000000000e+00,4.75001386955180e-01
4.61160000000000e-08,4.75000000000000e-01,0.00000000000000e+00,4.90570075597963e-01
4.71400000000000e-08,4.75000000000000e-01,0.00000000000000e+00,1.17346729202427e-01
4.84636916350557e-08,4.75000000000000e-01,0.00000000000000e+00,-5.07407920596725e-02
5.00000000000000e-08,4.75000000000000e-01,0.00000000000000e+00,4.58164284763678e-02
5.00100000000000e-08,4.75000000000000e-01,4.74999999999910e-02,4.24102092245018e-02
5.00300000000000e-08,4.75000000000000e-01,1.42499999999973e-01,3.61562618372537e-02
5.00700000000000e-08,4.75000000000000e-01,3.32500000000000e-01,2.63017717479538e-02
5.01000000000000e-08,4.75000000000000e-01,4.75000000000000e-01,2.07436956173376e-02
5.01080000000000e-08,4.75000000000000e-01,4.75000000000000e-01,1.95077700781103e-02
5.01240000000000e-08,4.75000000000000e-01,4.75000000000000e-01,1.70571603682311e-02
5.01560000000000e-08,4.75000000000000e-01,4.75000000000000e-01,1.32211405301769e-02
5.02200000000000e-08,4.75000000000000e-01,4.75000000000000e-01,7.83739066452148e-03
5.03480000000000e-08,4.75000000000000e-01,4.75000000000000e-01,2.50928885477977e-03
5.06040000000000e-08,4.75000000000000e-01,4.75000000000000e-01,-4.06565135664359e-05
5.11160000000001e-08,4.75000000000000e-01,4.75000000000000e-01,2.04386538170467e-05
5.21400000000002e-08,4.75000000000000e-01,4.75000000000000e-01,-2.63624629183098e-06
5.41880000000003e-08,4.75000000000000e-01,4.75000000000000e-01,1.36460310047378e-05
5.51000000000000e-08,4.75000000000000e-01,4.75000000000000e-01,2.65037188751024e-06
5.51100000000000e-08,4.27500000000017e-01,4.75000000000000e-01,-7.37986172951663e-05
5.51300000000000e-08,3.32500000000003e-01,4.75000000000000e-01,-2.12439360065216e-04
5.51700000000000e-08,1.42500000000008e-01,4.75000000000000e-01,-3.53929933253144e-04
5.52000000000000e-08,0.00000000000000e+00,4.75000000000000e-01,-1.81006593103744e-04
5.52080000000000e-08,0.00000000000000e+00,4.75000000000000e-01,-8.79309535960215e-06
5.52240000000000e-08,0.00000000000000e+00,4.75000000000000e-01,2.50540741374553e-04
5.52560000000000e-08,0.00000000000000e+00,4.75000000000000e-01,4.79138330859399e-04
5.53200000000000e-08,0.00000000000000e+00,4.75000000000000e-01,4.22895639790512e-04
5.54480000000000e-08,0.00000000000000e+00,4.75000000000000e-01,-5.07302234120245e-04
5.57040000000000e-08,0.00000000000000e+00,4.75000000000000e-01,-1.33833931896105e-03
5.62160000000000e-08,0.00000000000000e+00,4.75000000000000e-01,2.43116713513174e-04
5.71119515081487e-08,0.00000000000000e+00,4.75000000000000e-01,-1.26415198599173e-04
5.84567788240245e-08,0.00000000000000e+00,4.75000000000000e-01,1.04187331293878e-04
6.11464334557763e-08,0.00000000000000e+00,4.75000000000000e-01,-2.53524440197144e-05
6.40880014314834e-08,0.00000000000000e+00,4.75000000000000e-01,8.90896318461471e-06
6.50000000000000e-08,0.00000000000000e+00,4.75000000000000e-01,8.92598677326838e-05
6.50100000000000e-08,4.74999999999910e-02,4.75000000000000e-01,2.07018677083802e-04
6.50300000000000e-08,1.42499999999973e-01,4.75000000000000e-01,4.18891202066091e-04
6.50700000000000e-08,3.32499999999937e-01,4.75000000000000e-01,7.04750402702320e-04
6.51000000000000e-08,4.74999999999973e-01,4.75000000000000e-01,7.68907710768749e-04
6.51080000000000e-08,4.75000000000000e-01,4.75000000000000e-01,6.87369898128780e-04
6.51240000000000e-08,4.75000000000000e-01,4.75000000000000e-01,5.27201954943261e-04
6.51560000000000e-08,4.75000000000000e-01,4.75000000000000e-01,1.42934371249820e-04
6.52200000000000e-08,4.75000000000000e-01,4.75000000000000e-01,-1.01125363869559e-03
6.53480000000000e-08,4.75000000000000e-01,4.75000000000000e-01,-3.28474666145986e-03
6.56040000000000e-08,4.75000000000000e-01,4.75000000000000e-01,-3.05215270298434e-03
6.61159999999999e-08,4.75000000000000e-01,4.75000000000000e-01,2.20925149039561e-01
6.71399999999999e-08,4.75000000000000e-01,4.75000000000000e-01,4.83737675767138e-01
6.86941453045146e-08,4.75000000000000e-01,4.75000000000000e-01,4.69217474010005e-01
7.01000000000000e-08,4.75000000000000e-01,4.75000000000000e-01,4.81281120040011e-01
7.01100000000000e-08,4.75000000000000e-01,4.27500000000009e-01,4.79477701716106e-01
7.01300000000000e-08,4.75000000000000e-01,3.32500000000027e-01,4.76863237898619e-01
7.01700000000000e-08,4.75000000000000e-01,1.42500000000063e-01,4.75021785611191e-01
7.02000000000000e-08,4.75000000000000e-01,2.72004641033163e-14,4.74846597632991e-01
7.02080000000000e-08,4.75000000000000e-01,0.00000000000000e+00,4.74835183827437e-01
7.02240000000000e-08,4.75000000000000e-01,0.00000000000000e+00,4.74813664758654e-01
7.02560000000000e-08,4.75000000000000e-01,0.00000000000000e+00,4.74792606796789e-01
7.03200000000000e-08,4.75000000000000e-01,0.00000000000000e+00,4.74818084039152e-01
7.04480000000000e-08,4.75000000000000e-01,0.00000000000000e+00,4.74838682122513e-01
7.07040000000000e-08,4.75000000000000e-01,0.00000000000000e+00,4.74935924253642e-01
7.12159999999999e-08,4.75000000000000e-01,0.00000000000000e+00,4.74959120635552e-01
7.21146221259455e-08,4.75000000000000e-01,0.00000000000000e+00,4.74954109386390e-01
7.34659235405196e-08,4.75000000000000e-01,0.00000000000000e+00,4.74966942053145e-01
7.51000000000000e-08,4.75000000000000e-01,0.00000000000000e+00,4.74962224215921e-01
7.51100000000000e-08,4.27500000000048e-01,0.00000000000000e+00,4.74884251643884e-01
7.51300000000000e-08,3.32500000000066e-01,0.00000000000000e+00,4.74772475511358e-01
7.51700000000000e-08,1.42500000000102e-01,0.00000000000000e+00,4.74962744914496e-01
7.52000000000000e-08,6.65023591750469e-14,0.00000000000000e+00,4.76225255639150e-01
7.52080000000000e-08,0.00000000000000e+00,0.00000000000000e+00,4.76697505245083e-01
7.52240000000000e-08,0.00000000000000e+00,0.00000000000000e+00,4.77400098754922e-01
7.52560000000000e-08,0.00000000000000e+00,0.00000000000000e+00,4.78002459716575e-01
7.53200000000000e-08,0.00000000000000e+00,0.00000000000000e+00,4.77754877548937e-01
7.54480000000000e-08,0.00000000000000e+00,0.00000000000000e+00,4.70544038390447e-01
7.57040000000000e-08,0.00000000000000e+00,0.00000000000000e+00,4.62657462332763e-01
7.62159999999999e-08,0.00000000000000e+00,0.00000000000000e+00,4.74261485868528e-01
7.70882466518551e-08,0.00000000000000e+00,0.00000000000000e+00,4.74458586520686e-01
7.81000000000000e-08,0.00000000000000e+00,0.00000000000000e+00,4.74724256017296e-01
7.82379212041435e-08,0.00000000000000e+00,0.00000000000000e+00,4.74700261079733e-01
7.85137636124305e-08,0.00000000000000e+00,0.00000000000000e+00,4.74697828696615e-01
7.90654484290044e-08,0.00000000000000e+00,0.00000000000000e+00,4.74742680781510e-01
8.01688180621523e-08,0.00000000000000e+00,0.00000000000000e+00,4.74782003930652e-01
8.23755573284481e-08,0.00000000000000e+00,0.00000000000000e+00,4.74837245998659e-01
8.50000000000000e-08,0.00000000000000e+00,0.00000000000000e+00,4.74861220592468e-01
8.50100000000000e-08,4.74999999999910e-02,0.00000000000000e+00,4.74947993471326e-01
8.50300000000000e-08,1.42499999999973e-01,0.00000000000000e+00,4.75067296424321e-01
8.50700000000000e-08,3.32499999999937e-01,0.00000000000000e+00,4.75088839377918e-01
8.51000000000000e-08,4.74999999999973e-01,0.00000000000000e+00,4.74982585894587e-01
8.51080000000000e-08,4.75000000000000e-01,0.00000000000000e+00,4.74899316613111e-01
8.51240000000000e-08,4.75000000000000e-01,0.00000000000000e+00,4.74770623357032e-01
8.51560000000000e-08,4.75000000000000e-01,0.00000000000000e+00,4.74663145308331e-01
8.52200000000000e-08,4.75000000000000e-01,0.00000000000000e+00,4.74658593597445e-01
8.53480000000000e-08,4.75000000000000e-01,0.00000000000000e+00,4.74736408254337e-01
8.56040000000000e-08,4.75000000000000e-01,0.00000000000000e+00,4.75006216451483e-01
8.61159999999999e-08,4.75000000000000e-01,0.00000000000000e+00,4.90556099640598e-01
8.71399999999999e-08,4.75000000000000e-01,0.00000000000000e+00,1.17343661518118e-01
8.84641922417702e-08,4.75000000000000e-01,0.00000000000000e+00,-5.07522048882188e-02
9.00000000000000e-08,4.75000000000000e-01,0.00000000000000e+00,4.58218055261324e-02
9.00100000000000e-08,4.75000000000000e-01,4.74999999999910e-02,4.24150326208317e-02
9.00300000000000e-08,4.75000000000000e-01,1.42499999999973e-01,3.61600160110868e-02
9.00700000000000e-08,4.75000000000000e-01,3.32499999999937e-01,2.63040870345656e-02
9.01000000000000e-08,4.75000000000000e-01,4.74999999999973e-01,2.07454459480648e-02
9.01080000000000e-08,4.75000000000000e-01,4.75000000000000e-01,1.95094080294247e-02
9.01240000000000e-08,4.75000000000000e-01,4.75000000000000e-01,1.70585693793450e-02
9.01560000000000e-08,4.75000000000000e-01,4.75000000000000e-01,1.32222253869444e-02
9.02200000000000e-08,4.75000000000000e-01,4.75000000000000e-01,7.83803597495150e-03
9.03480000000000e-08,4.75000000000000e-01,4.75000000000000e-01,2.50950490695188e-03
9.06040000000000e-08,4.75000000000000e-01,4.75000000000000e-01,-4.06515528164966e-05
9.11159999999999e-08,4.75000000000000e-01,4.75000000000000e-01,2.04473684137681e-05
9.21399999999999e-08,4.75000000000000e-01,4.75000000000000e-01,-2.62912526832228e-06
9.41879999999998e-08,4.75000000000000e-01,4.75000000000000e-01,1.36537772289095e-05
9.51000000000000e-08,4.75000000000000e-01,4.75000000000000e-01,2.65721702016712e-06
9.51100000000000e-08,4.27500000000048e-01,4.75000000000000e-01,-7.37924343605437e-05
9.51300000000000e-08,3.32500000000066e-01,4.75000000000000e-01,-2.12434037299536e-04
9.51700000000000e-08,1.42500000000102e-01,4.75000000000000e-01,-3.53924102746372e-04
9.52000000000000e-08,6.65023591750469e-14,4.75000000000000e-01,-1.80999839603423e-04
9.52080000000000e-08,0.00000000000000e+00,4.75000000000000e-01,-8.78574631694995e-06
9.52240000000000e-08,0.00000000000000e+00,4.75000000000000e-01,2.50550384592103e-04
9.52560000000000e-08,0.00000000000000e+00,4.75000000000000e-01,4.79157176976046e-04
9.53200000000000e-08,0.00000000000000e+00,4.75000000000000e-01,4.22985157986652e-04
9.54480000000000e-08,0.00000000000000e+00,4.75000000000000e-01,-5.06869779400697e-04
9.57040000000000e-08,0.00000000000000e+00,4.75000000000000e-01,-1.33708477163809e-03
9.62159999999999e-08,0.00000000000000e+00,4.75000000000000e-01,2.43175779866975e-04
9.71119507538614e-08,0.00000000000000e+00,4.75000000000000e-01,-1.26637018470604e-04
9.84573099181068e-08,0.00000000000000e+00,4.75000000000000e-01,1.04462473815847e-04
1.01148028246598e-07,0.00000000000000e+00,4.75000000000000e-01,-2.56494274544191e-05
1.04089859694752e-07,0.00000000000000e+00,4.75000000000000e-01,9.20523461080212e-06
1.05000000000000e-07,0.00000000000000e+00,4.75000000000000e-01,8.90981538133693e-05
1.05010000000000e-07,4.74999999999910e-02,4.75000000000000e-01,2.06915232794515e-04
1.05030000000000e-07,1.42499999999973e-01,4.75000000000000e-01,4.18869015659032e-04
1.05070000000000e-07,3.32499999999937e-01,4.75000000000000e-01,7.04789381801650e-04
1.05100000000000e-07,4.74999999999973e-01,4.75000000000000e-01,7.68972050395049e-04
1.05108000000000e-07,4.75000000000000e-01,4.75000000000000e-01,6.87444141418025e-04
1.05124000000000e-07,4.75000000000000e-01,4.75000000000000e-01,5.27305432813402e-04
1.05156000000000e-07,4.75000000000000e-01,4.75000000000000e-01,1.43150061436170e-04
1.05220000000000e-07,4.75000000000000e-01,4.75000000000000e-01,-1.01087692987661e-03
1.05348000000000e-07,4.75000000000000e-01,4.75000000000000e-01,-3.28447363836751e-03
1.05604000000000e-07,4.75000000000000e-01,4.75000000000000e-01,-3.05280546428808e-03
1.06116000000000e-07,4.75000000000000e-01,4.75000000000000e-01,2.20913666425473e-01
1.07140000000000e-07,4.75000000000000e-01,4.75000000000000e-01,4.83736031913041e-01
1.08694191250054e-07,4.75000000000000e-01,4.75000000000000e-01,4.69218541825049e-01
1.10100000000000e-07,4.75000000000000e-01,4.75000000000000e-01,4.81280061677840e-01
1.10110000000000e-07,4.75000000000000e-01,4.27500000000072e-01,4.79476929816520e-01
1.10130000000000e-07,4.75000000000000e-01,3.32500000000090e-01,4.76862878664331e-01
1.10170000000000e-07,4.75000000000000e-01,1.42500000000126e-01,4.75021723318895e-01
1.10200000000000e-07,4.75000000000000e-01,9.00390872971002e-14,4.74846577202151e-01
1.10208000000000e-07,4.75000000000000e-01,0.00000000000000e+00,4.74835167244282e-01
1.10224000000000e-07,4.75000000000000e-01,0.00000000000000e+00,4.74813654789096e-01
1.10256000000000e-07,4.75000000000000e-01,0.00000000000000e+00,4.74792603613412e-01
1.10320000000000e-07,4.75000000000000e-01,0.00000000000000e+00,4.74818083897851e-01
1.10448000000000e-07,4.75000000000000e-01,0.00000000000000e+00,4.74838680520684e-01
1.10704000000000e-07,4.75000000000000e-01,0.00000000000000e+00,4.74935924855296e-01
