Time,v(clk),v(data),v(out),v(reset)
1.00000000000000e-08,7.50000000000000e-01,0.00000000000000e+00,-1.81456057859715e-06,0.00000000000000e+00
1.00100000000000e-08,7.50000000000000e-01,7.49999999999982e-02,-1.98609497983199e-06,0.00000000000000e+00
1.00300000000000e-08,7.50000000000000e-01,2.24999999999995e-01,-1.92901978838395e-06,0.00000000000000e+00
1.00700000000000e-08,7.50000000000000e-01,5.24999999999987e-01,-8.63389462354980e-08,0.00000000000000e+00
1.01000000000000e-08,7.50000000000000e-01,7.49999999999994e-01,1.30882696479026e-06,0.00000000000000e+00
1.01080000000000e-08,7.50000000000000e-01,7.50000000000000e-01,1.59035900439142e-06,0.00000000000000e+00
1.01240000000000e-08,7.50000000000000e-01,7.50000000000000e-01,2.27290858451773e-06,0.00000000000000e+00
1.01560000000000e-08,7.50000000000000e-01,7.50000000000000e-01,3.41467294995637e-06,0.00000000000000e+00
1.02200000000000e-08,7.50000000000000e-01,7.50000000000000e-01,4.29403326393865e-06,0.00000000000000e+00
1.03480000000000e-08,7.50000000000000e-01,7.50000000000000e-01,3.09695653880060e-06,0.00000000000000e+00
1.06040000000000e-08,7.50000000000000e-01,7.50000000000000e-01,2.56488316304621e-06,0.00000000000000e+00
1.11160000000000e-08,7.50000000000000e-01,7.50000000000000e-01,3.13678498049287e-06,0.00000000000000e+00
1.21400000000000e-08,7.50000000000000e-01,7.50000000000000e-01,2.09253515697947e-06,0.00000000000000e+00
1.41880000000000e-08,7.50000000000000e-01,7.50000000000000e-01,2.63078435032730e-06,0.00000000000000e+00
1.51000000000000e-08,7.50000000000000e-01,7.50000000000000e-01,1.66496649670923e-06,0.00000000000000e+00
1.51100000000000e-08,6.74999999999989e-01,7.50000000000000e-01,6.65220380684783e-05,7.50000000000106e-02
1.51300000000000e-08,5.24999999999993e-01,7.50000000000000e-01,1.11483067240244e-04,2.25000000000007e-01
1.51700000000000e-08,2.25000000000000e-01,7.50000000000000e-01,5.76705919690494e-05,5.25000000000000e-01
1.52000000000000e-08,0.00000000000000e+00,7.50000000000000e-01,4.42446162794118e-05,7.50000000000000e-01
1.52080000000000e-08,0.00000000000000e+00,7.50000000000000e-01,4.54761642499843e-05,7.50000000000000e-01
1.52240000000000e-08,0.00000000000000e+00,7.50000000000000e-01,4.16677144404742e-05,7.50000000000000e-01
1.52560000000000e-08,0.00000000000000e+00,7.50000000000000e-01,-1.72503379290839e-05,7.50000000000000e-01
1.53200000000000e-08,0.00000000000000e+00,7.50000000000000e-01,-1.48510412041961e-04,7.50000000000000e-01
1.54480000000000e-08,0.00000000000000e+00,7.50000000000000e-01,-4.89711122514461e-05,7.50000000000000e-01
1.57040000000000e-08,0.00000000000000e+00,7.50000000000000e-01,-2.49773222463579e-04,7.50000000000000e-01
1.60889144473339e-08,0.00000000000000e+00,7.50000000000000e-01,2.65421281875886e-04,7.50000000000000e-01
1.66765952185190e-08,0.00000000000000e+00,7.50000000000000e-01,-8.99271026643038e-05,7.50000000000000e-01
1.74653597260459e-08,0.00000000000000e+00,7.50000000000000e-01,1.17181391334851e-05,7.50000000000000e-01
1.88347928707298e-08,0.00000000000000e+00,7.50000000000000e-01,2.51643371272856e-05,7.50000000000000e-01
2.15736591600974e-08,0.00000000000000e+00,7.50000000000000e-01,-3.75611973367699e-05,7.50000000000000e-01
2.50000000000000e-08,0.00000000000000e+00,7.50000000000000e-01,4.99717761349055e-05,7.50000000000000e-01
2.50100000000000e-08,7.49999999999858e-02,7.50000000000000e-01,4.84108237900141e-05,7.50000000000000e-01
2.50300000000000e-08,2.25000000000007e-01,7.50000000000000e-01,6.16025618991670e-05,7.50000000000000e-01
2.50700000000000e-08,5.25000000000000e-01,7.50000000000000e-01,-6.18773511522272e-05,7.50000000000000e-01
2.51000000000000e-08,7.50000000000000e-01,7.50000000000000e-01,-2.00455472950981e-03,7.50000000000000e-01
2.51080000000000e-08,7.50000000000000e-01,7.50000000000000e-01,-2.91031261272762e-03,7.50000000000000e-01
2.51240000000000e-08,7.50000000000000e-01,7.50000000000000e-01,-4.48805756772412e-03,7.50000000000000e-01
2.51560000000000e-08,7.50000000000000e-01,7.50000000000000e-01,-3.74145228190106e-03,7.50000000000000e-01
2.52200000000000e-08,7.50000000000000e-01,7.50000000000000e-01,8.02554160379429e-02,7.50000000000000e-01
2.53480000000000e-08,7.50000000000000e-01,7.50000000000000e-01,5.21906902871833e-01,7.50000000000000e-01
2.56040000000000e-08,7.50000000000000e-01,7.50000000000000e-01,7.81052790504441e-01,7.50000000000000e-01
2.59290204570595e-08,7.50000000000000e-01,7.50000000000000e-01,7.23983978232512e-01,7.50000000000000e-01
2.65085656174628e-08,7.50000000000000e-01,7.50000000000000e-01,7.72386905848609e-01,7.50000000000000e-01
2.73224372216004e-08,7.50000000000000e-01,7.50000000000000e-01,7.28619971197079e-01,7.50000000000000e-01
2.89501804298757e-08,7.50000000000000e-01,7.50000000000000e-01,7.69810402270849e-01,7.50000000000000e-01
3.22056668464263e-08,7.50000000000000e-01,7.50000000000000e-01,7.29943520959732e-01,7.50000000000000e-01
3.51000000000000e-08,7.49999999999963e-01,7.50000000000000e-01,7.68986500956641e-01,7.50000000000000e-01
3.51100000000000e-08,6.74999999999977e-01,7.50000000000000e-01,7.61728719818520e-01,7.50000000000000e-01
3.51300000000000e-08,5.24999999999956e-01,7.50000000000000e-01,7.52672879362722e-01,7.50000000000000e-01
3.51700000000000e-08,2.24999999999963e-01,7.50000000000000e-01,7.50044113216974e-01,7.50000000000000e-01
3.52000000000000e-08,0.00000000000000e+00,7.50000000000000e-01,7.51390870973219e-01,7.50000000000000e-01
3.52080000000000e-08,0.00000000000000e+00,7.50000000000000e-01,7.51570995677178e-01,7.50000000000000e-01
3.52240000000000e-08,0.00000000000000e+00,7.50000000000000e-01,7.51492216142312e-01,7.50000000000000e-01
3.52560000000000e-08,0.00000000000000e+00,7.50000000000000e-01,7.47705805083764e-01,7.50000000000000e-01
3.53200000000000e-08,0.00000000000000e+00,7.50000000000000e-01,7.27440548509113e-01,7.50000000000000e-01
3.54480000000000e-08,0.00000000000000e+00,7.50000000000000e-01,7.16365682356650e-01,7.50000000000000e-01
3.57040000000000e-08,0.00000000000000e+00,7.50000000000000e-01,7.49444357142408e-01,7.50000000000000e-01
3.62160000000000e-08,0.00000000000000e+00,7.50000000000000e-01,7.48914641661007e-01,7.50000000000000e-01
3.67793001625864e-08,0.00000000000000e+00,7.50000000000000e-01,7.50239905145928e-01,7.50000000000000e-01
3.79059004877592e-08,0.00000000000000e+00,7.50000000000000e-01,7.49141665979741e-01,7.50000000000000e-01
4.01591011381047e-08,0.00000000000000e+00,7.50000000000000e-01,7.50409092771842e-01,7.50000000000000e-01
4.39591011381047e-08,0.00000000000000e+00,7.50000000000000e-01,7.49252447830285e-01,7.50000000000000e-01
4.50000000000000e-08,0.00000000000000e+00,7.50000000000000e-01,7.50400455550316e-01,7.50000000000000e-01
4.50100000000000e-08,7.49999999999858e-02,7.50000000000000e-01,7.50186851276522e-01,6.75000000000014e-01
4.50300000000000e-08,2.25000000000007e-01,7.50000000000000e-01,7.49899010798084e-01,5.24999999999993e-01
4.50700000000000e-08,5.25000000000000e-01,7.50000000000000e-01,7.51226254038534e-01,2.25000000000000e-01
4.51000000000000e-08,7.50000000000000e-01,7.50000000000000e-01,7.54526859979541e-01,0.00000000000000e+00
4.51080000000000e-08,7.50000000000000e-01,7.50000000000000e-01,7.55548131673749e-01,0.00000000000000e+00
4.51240000000000e-08,7.50000000000000e-01,7.50000000000000e-01,7.57382247690287e-01,0.00000000000000e+00
4.51560000000000e-08,7.50000000000000e-01,7.50000000000000e-01,7.60530807524174e-01,0.00000000000000e+00
4.52200000000000e-08,7.50000000000000e-01,7.50000000000000e-01,7.26524838213567e-01,0.00000000000000e+00
4.53480000000000e-08,7.50000000000000e-01,7.50000000000000e-01,2.18056769055457e-01,0.00000000000000e+00
4.56024969247094e-08,7.50000000000000e-01,7.50000000000000e-01,-8.27409955082720e-02,0.00000000000000e+00
4.58696268231922e-08,7.50000000000000e-01,7.50000000000000e-01,6.27441403234252e-02,0.00000000000000e+00
4.64038866201578e-08,7.50000000000000e-01,7.50000000000000e-01,-4.62101124906951e-02,0.00000000000000e+00
4.69695002423129e-08,7.50000000000000e-01,7.50000000000000e-01,4.16324977360661e-02,0.00000000000000e+00
4.81007274866230e-08,7.50000000000000e-01,7.50000000000000e-01,-3.54854260082877e-02,0.00000000000000e+00
4.98719978384452e-08,7.50000000000000e-01,7.50000000000000e-01,3.56701346511255e-02,0.00000000000000e+00
5.01000000000000e-08,7.50000000000000e-01,7.49999999999957e-01,-2.17402975950043e-02,0.00000000000000e+00
5.03935945974047e-08,7.50000000000000e-01,7.50000000000000e-01,-1.55114004234637e-03,0.00000000000000e+00
5.09807837922140e-08,7.50000000000000e-01,7.50000000000000e-01,1.30618490840606e-03,0.00000000000000e+00
5.21551621818326e-08,7.50000000000000e-01,7.50000000000000e-01,-1.19127422052575e-03,0.00000000000000e+00
5.45039189610699e-08,7.50000000000000e-01,7.50000000000000e-01,1.14497139806157e-03,0.00000000000000e+00
5.51000000000000e-08,7.50000000000000e-01,7.50000000000000e-01,-9.60113647895897e-04,0.00000000000000e+00
5.51100000000000e-08,6.75000000000027e-01,7.50000000000000e-01,-6.15015167264574e-04,7.49999999999734e-02
5.51300000000000e-08,5.25000000000005e-01,7.50000000000000e-01,-1.83294692646836e-04,2.24999999999995e-01
5.51700000000000e-08,2.25000000000013e-01,7.50000000000000e-01,1.34387699053627e-05,5.24999999999987e-01
5.52000000000000e-08,0.00000000000000e+00,7.50000000000000e-01,2.88017582947241e-05,7.50000000000000e-01
5.52080000000000e-08,0.00000000000000e+00,7.50000000000000e-01,2.68912480443154e-05,7.50000000000000e-01
5.52240000000000e-08,0.00000000000000e+00,7.50000000000000e-01,1.39218315021589e-05,7.50000000000000e-01
5.52560000000000e-08,0.00000000000000e+00,7.50000000000000e-01,-1.49045858951608e-04,7.50000000000000e-01
5.53200000000000e-08,0.00000000000000e+00,7.50000000000000e-01,-9.86006403845958e-04,7.50000000000000e-01
5.54480000000000e-08,0.00000000000000e+00,7.50000000000000e-01,-2.56910958456430e-04,7.50000000000000e-01
5.56775537593958e-08,0.00000000000000e+00,7.50000000000000e-01,2.08485588885289e-04,7.50000000000000e-01
5.60688938984664e-08,0.00000000000000e+00,7.50000000000000e-01,-2.41579076087891e-04,7.50000000000000e-01
5.66002857067561e-08,0.00000000000000e+00,7.50000000000000e-01,2.67348561468270e-04,7.50000000000000e-01
5.73883716504867e-08,0.00000000000000e+00,7.50000000000000e-01,-2.56048619014958e-04,7.50000000000000e-01
5.89278281818188e-08,0.00000000000000e+00,7.50000000000000e-01,2.52716943527122e-04,7.50000000000000e-01
6.13227404289257e-08,0.00000000000000e+00,7.50000000000000e-01,-2.46483687591319e-04,7.50000000000000e-01
6.50000000000000e-08,0.00000000000000e+00,7.50000000000000e-01,2.46048771732485e-04,7.50000000000000e-01
6.50100000000000e-08,7.49999999999858e-02,7.50000000000000e-01,1.85153232478731e-04,7.50000000000000e-01
6.50300000000000e-08,2.24999999999957e-01,7.50000000000000e-01,1.45818763092644e-04,7.50000000000000e-01
6.50700000000000e-08,5.24999999999900e-01,7.50000000000000e-01,-2.13267264942751e-04,7.50000000000000e-01
6.51000000000000e-08,7.49999999999957e-01,7.50000000000000e-01,-2.31198230590031e-03,7.50000000000000e-01
6.51080000000000e-08,7.50000000000000e-01,7.50000000000000e-01,-3.19584485024596e-03,7.50000000000000e-01
6.51240000000000e-08,7.50000000000000e-01,7.50000000000000e-01,-4.67686938458820e-03,7.50000000000000e-01
6.51560000000000e-08,7.50000000000000e-01,7.50000000000000e-01,-2.77857978731820e-03,7.50000000000000e-01
6.52200000000000e-08,7.50000000000000e-01,7.50000000000000e-01,8.99128359084170e-02,7.50000000000000e-01
6.53480000000000e-08,7.50000000000000e-01,7.50000000000000e-01,5.36217147568576e-01,7.50000000000000e-01
6.56040000000000e-08,7.50000000000000e-01,7.50000000000000e-01,7.80921029752432e-01,7.50000000000000e-01
6.59302496744916e-08,7.50000000000000e-01,7.50000000000000e-01,7.23944348574359e-01,7.50000000000000e-01
6.65066038642971e-08,7.50000000000000e-01,7.50000000000000e-01,7.72293225673688e-01,7.50000000000000e-01
6.73103984650107e-08,7.50000000000000e-01,7.50000000000000e-01,7.28679255239936e-01,7.50000000000000e-01
6.89179876664379e-08,7.50000000000000e-01,7.50000000000000e-01,7.69683469552857e-01,7.50000000000000e-01
7.21331660692923e-08,7.50000000000000e-01,7.50000000000000e-01,7.30025265402440e-01,7.50000000000000e-01
7.51000000000000e-08,7.50000000000000e-01,7.50000000000000e-01,7.68865875687853e-01,7.50000000000000e-01
7.51100000000000e-08,6.75000000000076e-01,7.50000000000000e-01,7.61662882142242e-01,7.50000000000000e-01
7.51300000000000e-08,5.25000000000105e-01,7.50000000000000e-01,7.52668770304695e-01,7.50000000000000e-01
7.51700000000000e-08,2.25000000000162e-01,7.50000000000000e-01,7.50054201362484e-01,7.50000000000000e-01
7.52000000000000e-08,1.05027098129540e-13,7.50000000000000e-01,7.51407300142381e-01,7.50000000000000e-01
7.52080000000000e-08,0.00000000000000e+00,7.50000000000000e-01,7.51586292045106e-01,7.50000000000000e-01
7.52240000000000e-08,0.00000000000000e+00,7.50000000000000e-01,7.51511258720839e-01,7.50000000000000e-01
7.52560000000000e-08,0.00000000000000e+00,7.50000000000000e-01,7.47766684491221e-01,7.50000000000000e-01
7.53200000000000e-08,0.00000000000000e+00,7.50000000000000e-01,7.27549723186856e-01,7.50000000000000e-01
7.54480000000000e-08,0.00000000000000e+00,7.50000000000000e-01,7.16366428010362e-01,7.50000000000000e-01
7.57040000000000e-08,0.00000000000000e+00,7.50000000000000e-01,7.49423122166605e-01,7.50000000000000e-01
7.62159999999999e-08,0.00000000000000e+00,7.50000000000000e-01,7.48933820176368e-01,7.50000000000000e-01
7.67792017011370e-08,0.00000000000000e+00,7.50000000000000e-01,7.50226495707185e-01,7.50000000000000e-01
7.79056051034110e-08,0.00000000000000e+00,7.50000000000000e-01,7.49154113809882e-01,7.50000000000000e-01
8.01584119079592e-08,0.00000000000000e+00,7.50000000000000e-01,7.50397685108349e-01,7.50000000000000e-01
8.39584119079592e-08,0.00000000000000e+00,7.50000000000000e-01,7.49263474304309e-01,7.50000000000000e-01
8.50000000000000e-08,0.00000000000000e+00,7.50000000000000e-01,7.50390997332970e-01,7.50000000000000e-01
8.50100000000000e-08,7.49999999999858e-02,7.50000000000000e-01,7.50179187955367e-01,6.75000000000014e-01
8.50300000000000e-08,2.24999999999957e-01,7.50000000000000e-01,7.49894921185776e-01,5.25000000000043e-01
8.50700000000000e-08,5.24999999999900e-01,7.50000000000000e-01,7.51224939092845e-01,2.25000000000100e-01
8.51000000000000e-08,7.49999999999957e-01,7.50000000000000e-01,7.54525881524031e-01,4.29656310529936e-14
8.51080000000000e-08,7.50000000000000e-01,7.50000000000000e-01,7.55547226717724e-01,0.00000000000000e+00
8.51240000000000e-08,7.50000000000000e-01,7.50000000000000e-01,7.57381557937806e-01,0.00000000000000e+00
8.51560000000000e-08,7.50000000000000e-01,7.50000000000000e-01,7.60530676825701e-01,0.00000000000000e+00
8.52200000000000e-08,7.50000000000000e-01,7.50000000000000e-01,7.26529022793422e-01,0.00000000000000e+00
8.53480000000000e-08,7.50000000000000e-01,7.50000000000000e-01,2.18059074284676e-01,0.00000000000000e+00
8.56024935502319e-08,7.50000000000000e-01,7.50000000000000e-01,-8.27425396864526e-02,0.00000000000000e+00
8.58696217119335e-08,7.50000000000000e-01,7.50000000000000e-01,6.27451165020083e-02,0.00000000000000e+00
8.64038780353369e-08,7.50000000000000e-01,7.50000000000000e-01,-4.62109223606284e-02,0.00000000000000e+00
8.69694826424653e-08,7.50000000000000e-01,7.50000000000000e-01,4.16329580678600e-02,0.00000000000000e+00
8.81006918567222e-08,7.50000000000000e-01,7.50000000000000e-01,-3.54859649009625e-02,0.00000000000000e+00
8.98719354437636e-08,7.50000000000000e-01,7.50000000000000e-01,3.56704740956537e-02,0.00000000000000e+00
9.01000000000000e-08,7.50000000000000e-01,7.49999999999957e-01,-2.17433546942635e-02,0.00000000000000e+00
9.03935891580484e-08,7.50000000000000e-01,7.50000000000000e-01,-1.55139264640980e-03,0.00000000000000e+00
9.09807674741451e-08,7.50000000000000e-01,7.50000000000000e-01,1.30639388870034e-03,0.00000000000000e+00
9.21551241063387e-08,7.50000000000000e-01,7.50000000000000e-01,-1.19146305849617e-03,0.00000000000000e+00
9.45038373707257e-08,7.50000000000000e-01,7.50000000000000e-01,1.14515192416448e-03,0.00000000000000e+00
9.51000000000000e-08,7.50000000000000e-01,7.50000000000000e-01,-9.60288194421901e-04,0.00000000000000e+00
9.51100000000000e-08,6.75000000000076e-01,7.50000000000000e-01,-6.15140219034596e-04,7.49999999999237e-02
9.51300000000000e-08,5.25000000000105e-01,7.50000000000000e-01,-1.83348234836317e-04,2.24999999999895e-01
9.51700000000000e-08,2.25000000000162e-01,7.50000000000000e-01,1.34323525088770e-05,5.24999999999838e-01
9.52000000000000e-08,1.05027098129540e-13,7.50000000000000e-01,2.87999877423804e-05,7.49999999999895e-01
9.52080000000000e-08,0.00000000000000e+00,7.50000000000000e-01,2.68890509754829e-05,7.50000000000000e-01
9.52240000000000e-08,0.00000000000000e+00,7.50000000000000e-01,1.39160542063019e-05,7.50000000000000e-01
9.52560000000000e-08,0.00000000000000e+00,7.50000000000000e-01,-1.49072123005526e-04,7.50000000000000e-01
9.53200000000000e-08,0.00000000000000e+00,7.50000000000000e-01,-9.86125784917739e-04,7.50000000000000e-01
9.54480000000000e-08,0.00000000000000e+00,7.50000000000000e-01,-2.56968714758153e-04,7.50000000000000e-01
9.56775425386458e-08,0.00000000000000e+00,7.50000000000000e-01,2.08522334076724e-04,7.50000000000000e-01
9.60688879884476e-08,0.00000000000000e+00,7.50000000000000e-01,-2.41610527610227e-04,7.50000000000000e-01
9.66002579454591e-08,0.00000000000000e+00,7.50000000000000e-01,2.67375135556862e-04,7.50000000000000e-01
9.73883491275668e-08,0.00000000000000e+00,7.50000000000000e-01,-2.56070411657169e-04,7.50000000000000e-01
9.89277263605561e-08,0.00000000000000e+00,7.50000000000000e-01,2.52736414271683e-04,7.50000000000000e-01
1.01322550662639e-07,0.00000000000000e+00,7.50000000000000e-01,-2.46501714470544e-04,7.50000000000000e-01
1.05000000000000e-07,0.00000000000000e+00,7.50000000000000e-01,2.46066178407282e-04,7.50000000000000e-01
1.05010000000000e-07,7.49999999999858e-02,7.50000000000000e-01,1.85164812197963e-04,7.50000000000000e-01
1.05030000000000e-07,2.24999999999957e-01,7.50000000000000e-01,1.45826346925858e-04,7.50000000000000e-01
1.05070000000000e-07,5.24999999999900e-01,7.50000000000000e-01,-2.13265608671152e-04,7.50000000000000e-01
1.05100000000000e-07,7.49999999999957e-01,7.50000000000000e-01,-2.31197935034953e-03,7.50000000000000e-01
1.05108000000000e-07,7.50000000000000e-01,7.50000000000000e-01,-3.19584220351981e-03,7.50000000000000e-01
1.05124000000000e-07,7.50000000000000e-01,7.50000000000000e-01,-4.67686773779107e-03,7.50000000000000e-01
1.05156000000000e-07,7.50000000000000e-01,7.50000000000000e-01,-2.77858761875689e-03,7.50000000000000e-01
1.05220000000000e-07,7.50000000000000e-01,7.50000000000000e-01,8.99127643838858e-02,7.50000000000000e-01
1.05348000000000e-07,7.50000000000000e-01,7.50000000000000e-01,5.36217047432677e-01,7.50000000000000e-01
1.05604000000000e-07,7.50000000000000e-01,7.50000000000000e-01,7.80921031572551e-01,7.50000000000000e-01
1.05930249662212e-07,7.50000000000000e-01,7.50000000000000e-01,7.23944348105710e-01,7.50000000000000e-01
1.06506603874061e-07,7.50000000000000e-01,7.50000000000000e-01,7.72293226819424e-01,7.50000000000000e-01
1.07310398535249e-07,7.50000000000000e-01,7.50000000000000e-01,7.28679254282978e-01,7.50000000000000e-01
1.08917987857626e-07,7.50000000000000e-01,7.50000000000000e-01,7.69683470844017e-01,7.50000000000000e-01
1.12133166502380e-07,7.50000000000000e-01,7.50000000000000e-01,7.30025264357570e-01,7.50000000000000e-01
1.15100000000000e-07,7.50000000000000e-01,7.50000000000000e-01,7.68865876915911e-01,7.50000000000000e-01
1.15110000000000e-07,6.75000000000076e-01,7.50000000000000e-01,7.61662882848356e-01,7.50000000000000e-01
1.15130000000000e-07,5.25000000000105e-01,7.50000000000000e-01,7.52668770410966e-01,7.50000000000000e-01
1.15170000000000e-07,2.25000000000162e-01,7.50000000000000e-01,7.50054201212614e-01,7.50000000000000e-01
1.15200000000000e-07,1.05027098129540e-13,7.50000000000000e-01,7.51407300067150e-01,7.50000000000000e-01
