Time,v(clk),v(data),v(out),v(reset)
1.00000000000000e-08,7.50000000000000e-01,0.00000000000000e+00,-9.48835046632142e-06,0.00000000000000e+00
1.00100000000000e-08,7.50000000000000e-01,7.49999999999982e-02,-8.27204568068854e-06,0.00000000000000e+00
1.00300000000000e-08,7.50000000000000e-01,2.24999999999995e-01,-6.52524637330051e-06,0.00000000000000e+00
1.00700000000000e-08,7.50000000000000e-01,5.24999999999987e-01,-3.30936381085986e-06,0.00000000000000e+00
1.01000000000000e-08,7.50000000000000e-01,7.49999999999994e-01,-7.52524550329953e-07,0.00000000000000e+00
1.01080000000000e-08,7.50000000000000e-01,7.50000000000000e-01,-4.12630798168889e-07,0.00000000000000e+00
1.01240000000000e-08,7.50000000000000e-01,7.50000000000000e-01,3.31286199008185e-07,0.00000000000000e+00
1.01560000000000e-08,7.50000000000000e-01,7.50000000000000e-01,1.55829519620648e-06,0.00000000000000e+00
1.02200000000000e-08,7.50000000000000e-01,7.50000000000000e-01,2.29607619687405e-06,0.00000000000000e+00
1.03480000000000e-08,7.50000000000000e-01,7.50000000000000e-01,2.07183902557924e-06,0.00000000000000e+00
1.06040000000000e-08,7.50000000000000e-01,7.50000000000000e-01,8.19674629159821e-07,0.00000000000000e+00
1.11160000000000e-08,7.50000000000000e-01,7.50000000000000e-01,1.85793302296972e-06,0.00000000000000e+00
1.21400000000000e-08,7.50000000000000e-01,7.50000000000000e-01,5.97794893963987e-07,0.00000000000000e+00
1.41880000000000e-08,7.50000000000000e-01,7.50000000000000e-01,1.42420457741965e-06,0.00000000000000e+00
1.51000000000000e-08,7.50000000000000e-01,7.50000000000000e-01,3.38290581531394e-07,0.00000000000000e+00
1.51100000000000e-08,6.74999999999989e-01,7.50000000000000e-01,7.06437021465792e-05,7.50000000000106e-02
1.51300000000000e-08,5.24999999999993e-01,7.50000000000000e-01,1.31190042563130e-04,2.25000000000007e-01
1.51700000000000e-08,2.25000000000000e-01,7.50000000000000e-01,6.86655103880433e-05,5.25000000000000e-01
1.52000000000000e-08,0.00000000000000e+00,7.50000000000000e-01,1.13941604931445e-05,7.50000000000000e-01
1.52080000000000e-08,0.00000000000000e+00,7.50000000000000e-01,9.11973231748631e-06,7.50000000000000e-01
1.52240000000000e-08,0.00000000000000e+00,7.50000000000000e-01,7.48540801793346e-06,7.50000000000000e-01
1.52560000000000e-08,0.00000000000000e+00,7.50000000000000e-01,8.54257438875558e-06,7.50000000000000e-01
1.53200000000000e-08,0.00000000000000e+00,7.50000000000000e-01,-2.96708937246870e-05,7.50000000000000e-01
1.54480000000000e-08,0.00000000000000e+00,7.50000000000000e-01,-6.64751500699390e-05,7.50000000000000e-01
1.57040000000000e-08,0.00000000000000e+00,7.50000000000000e-01,-8.64993099550689e-05,7.50000000000000e-01
1.61917442027721e-08,0.00000000000000e+00,7.50000000000000e-01,-1.56869898107269e-05,7.50000000000000e-01
1.68148524566346e-08,0.00000000000000e+00,7.50000000000000e-01,1.09159005592476e-04,7.50000000000000e-01
1.78347819377086e-08,0.00000000000000e+00,7.50000000000000e-01,-9.47962398576458e-05,7.50000000000000e-01
1.91529069778660e-08,0.00000000000000e+00,7.50000000000000e-01,8.17245007044298e-05,7.50000000000000e-01
2.17891570581808e-08,0.00000000000000e+00,7.50000000000000e-01,-7.51526943234580e-05,7.50000000000000e-01
2.50000000000000e-08,0.00000000000000e+00,7.50000000000000e-01,7.07187073346944e-05,7.50000000000000e-01
2.50100000000000e-08,7.49999999999858e-02,7.50000000000000e-01,1.12954556586109e-04,7.50000000000000e-01
2.50300000000000e-08,2.25000000000007e-01,7.50000000000000e-01,1.60340924933278e-04,7.50000000000000e-01
2.50700000000000e-08,5.25000000000000e-01,7.50000000000000e-01,-1.95910274255990e-04,7.50000000000000e-01
2.51000000000000e-08,7.50000000000000e-01,7.50000000000000e-01,-2.61737447712677e-03,7.50000000000000e-01
2.51080000000000e-08,7.50000000000000e-01,7.50000000000000e-01,-3.58775725108096e-03,7.50000000000000e-01
2.51240000000000e-08,7.50000000000000e-01,7.50000000000000e-01,-5.16861426935869e-03,7.50000000000000e-01
2.51560000000000e-08,7.50000000000000e-01,7.50000000000000e-01,-3.90049466551234e-03,7.50000000000000e-01
2.52200000000000e-08,7.50000000000000e-01,7.50000000000000e-01,6.50070511299991e-02,7.50000000000000e-01
2.53480000000000e-08,7.50000000000000e-01,7.50000000000000e-01,3.90246181375562e-01,7.50000000000000e-01
2.56040000000000e-08,7.50000000000000e-01,7.50000000000000e-01,7.49998108162685e-01,7.50000000000000e-01
2.60277602645477e-08,7.50000000000000e-01,7.50000000000000e-01,7.48130865502531e-01,7.50000000000000e-01
2.66056074834331e-08,7.50000000000000e-01,7.50000000000000e-01,7.52081732128961e-01,7.50000000000000e-01
2.75931107616185e-08,7.50000000000000e-01,7.50000000000000e-01,7.47674091987888e-01,7.50000000000000e-01
2.90190915141780e-08,7.50000000000000e-01,7.50000000000000e-01,7.52236210297829e-01,7.50000000000000e-01
3.16836243356596e-08,7.50000000000000e-01,7.50000000000000e-01,7.47704808654579e-01,7.50000000000000e-01
3.51000000000000e-08,7.49999999999963e-01,7.50000000000000e-01,7.52265102606524e-01,7.50000000000000e-01
3.51100000000000e-08,6.74999999999977e-01,7.50000000000000e-01,7.51392435808522e-01,7.50000000000000e-01
3.51300000000000e-08,5.24999999999956e-01,7.50000000000000e-01,7.50167376195154e-01,7.50000000000000e-01
3.51700000000000e-08,2.24999999999963e-01,7.50000000000000e-01,7.49842693682726e-01,7.50000000000000e-01
3.52000000000000e-08,0.00000000000000e+00,7.50000000000000e-01,7.50743131745346e-01,7.50000000000000e-01
3.52080000000000e-08,0.00000000000000e+00,7.50000000000000e-01,7.51018349796413e-01,7.50000000000000e-01
3.52240000000000e-08,0.00000000000000e+00,7.50000000000000e-01,7.51403980287768e-01,7.50000000000000e-01
3.52560000000000e-08,0.00000000000000e+00,7.50000000000000e-01,7.51266842558020e-01,7.50000000000000e-01
3.53200000000000e-08,0.00000000000000e+00,7.50000000000000e-01,7.44913968699537e-01,7.50000000000000e-01
3.54480000000000e-08,0.00000000000000e+00,7.50000000000000e-01,7.18413409963735e-01,7.50000000000000e-01
3.57040000000000e-08,0.00000000000000e+00,7.50000000000000e-01,7.16131696503254e-01,7.50000000000000e-01
3.62160000000000e-08,0.00000000000000e+00,7.50000000000000e-01,7.53865415891176e-01,7.50000000000000e-01
3.71995727572128e-08,0.00000000000000e+00,7.50000000000000e-01,7.45471859291953e-01,7.50000000000000e-01
3.82752151954339e-08,0.00000000000000e+00,7.50000000000000e-01,7.52929462385236e-01,7.50000000000000e-01
4.04265000718761e-08,0.00000000000000e+00,7.50000000000000e-01,7.46717881420838e-01,7.50000000000000e-01
4.42265000718761e-08,0.00000000000000e+00,7.50000000000000e-01,7.52608097194233e-01,7.50000000000000e-01
4.50000000000000e-08,0.00000000000000e+00,7.50000000000000e-01,7.47678253123116e-01,7.50000000000000e-01
4.50100000000000e-08,7.49999999999858e-02,7.50000000000000e-01,7.47923929636204e-01,6.75000000000014e-01
4.50300000000000e-08,2.25000000000007e-01,7.50000000000000e-01,7.48343871886372e-01,5.24999999999993e-01
4.50700000000000e-08,5.25000000000000e-01,7.50000000000000e-01,7.49699646924086e-01,2.25000000000000e-01
4.51000000000000e-08,7.50000000000000e-01,7.50000000000000e-01,7.51896511721811e-01,0.00000000000000e+00
4.51080000000000e-08,7.50000000000000e-01,7.50000000000000e-01,7.52644448270453e-01,0.00000000000000e+00
4.51240000000000e-08,7.50000000000000e-01,7.50000000000000e-01,7.54041521254382e-01,0.00000000000000e+00
4.51560000000000e-08,7.50000000000000e-01,7.50000000000000e-01,7.56509570380838e-01,0.00000000000000e+00
4.52200000000000e-08,7.50000000000000e-01,7.50000000000000e-01,7.60693606261946e-01,0.00000000000000e+00
4.53480000000000e-08,7.50000000000000e-01,7.50000000000000e-01,5.76136382080973e-01,0.00000000000000e+00
4.56040000000000e-08,7.50000000000000e-01,7.50000000000000e-01,2.13684956381216e-02,0.00000000000000e+00
4.59602445804659e-08,7.50000000000000e-01,7.50000000000000e-01,-1.54016497330910e-02,0.00000000000000e+00
4.64866575504730e-08,7.50000000000000e-01,7.50000000000000e-01,1.35802404828596e-02,0.00000000000000e+00
4.71617503098121e-08,7.50000000000000e-01,7.50000000000000e-01,-1.15790622411665e-02,0.00000000000000e+00
4.81898504252348e-08,7.50000000000000e-01,7.50000000000000e-01,1.09413560137725e-02,0.00000000000000e+00
5.00415866629296e-08,7.50000000000000e-01,3.11899971971677e-01,-1.02162416426516e-02,0.00000000000000e+00
5.01000000000000e-08,7.50000000000000e-01,7.49999999999957e-01,2.08127823619956e-03,0.00000000000000e+00
5.02168266741409e-08,7.50000000000000e-01,7.50000000000000e-01,2.23397735125218e-04,0.00000000000000e+00
5.04504800224226e-08,7.50000000000000e-01,7.50000000000000e-01,-1.62888029702377e-04,0.00000000000000e+00
5.09177867189861e-08,7.50000000000000e-01,7.50000000000000e-01,1.43805809091268e-04,0.00000000000000e+00
5.18524001121131e-08,7.50000000000000e-01,7.50000000000000e-01,-1.32474605747152e-04,0.00000000000000e+00
5.37216268983671e-08,7.50000000000000e-01,7.50000000000000e-01,1.27591635931018e-04,0.00000000000000e+00
5.51000000000000e-08,7.50000000000000e-01,7.50000000000000e-01,-1.20663543099778e-04,0.00000000000000e+00
5.51100000000000e-08,6.75000000000027e-01,7.50000000000000e-01,-2.24026808152283e-06,7.49999999999734e-02
5.51300000000000e-08,5.25000000000005e-01,7.50000000000000e-01,1.08644105339138e-04,2.24999999999995e-01
5.51700000000000e-08,2.25000000000013e-01,7.50000000000000e-01,6.75650962854053e-05,5.24999999999987e-01
5.52000000000000e-08,0.00000000000000e+00,7.50000000000000e-01,7.04497205300525e-06,7.50000000000000e-01
5.52080000000000e-08,0.00000000000000e+00,7.50000000000000e-01,4.04221367194396e-06,7.50000000000000e-01
5.52240000000000e-08,0.00000000000000e+00,7.50000000000000e-01,1.83059744436609e-06,7.50000000000000e-01
5.52560000000000e-08,0.00000000000000e+00,7.50000000000000e-01,-8.02999571079821e-07,7.50000000000000e-01
5.53200000000000e-08,0.00000000000000e+00,7.50000000000000e-01,-1.30929457472638e-04,7.50000000000000e-01
5.54480000000000e-08,0.00000000000000e+00,7.50000000000000e-01,-5.81913277510370e-04,7.50000000000000e-01
5.57040000000000e-08,0.00000000000000e+00,7.50000000000000e-01,2.75568327827671e-04,7.50000000000000e-01
5.61123882725904e-08,0.00000000000000e+00,7.50000000000000e-01,-2.54375574069881e-04,7.50000000000000e-01
5.67671649381365e-08,0.00000000000000e+00,7.50000000000000e-01,1.98750543178049e-04,7.50000000000000e-01
5.77003361625204e-08,0.00000000000000e+00,7.50000000000000e-01,-1.31380863059301e-04,7.50000000000000e-01
5.89954946664778e-08,0.00000000000000e+00,7.50000000000000e-01,9.49924470403857e-05,7.50000000000000e-01
6.15858116743926e-08,0.00000000000000e+00,7.50000000000000e-01,-7.79796635931872e-05,7.50000000000000e-01
6.50000000000000e-08,0.00000000000000e+00,7.50000000000000e-01,6.73492176400419e-05,7.50000000000000e-01
6.50100000000000e-08,7.49999999999858e-02,7.50000000000000e-01,1.71456944322419e-04,7.50000000000000e-01
6.50300000000000e-08,2.24999999999957e-01,7.50000000000000e-01,2.44296254140401e-04,7.50000000000000e-01
6.50700000000000e-08,5.24999999999900e-01,7.50000000000000e-01,-2.72588279174125e-04,7.50000000000000e-01
6.51000000000000e-08,7.49999999999957e-01,7.50000000000000e-01,-2.75010246117578e-03,7.50000000000000e-01
6.51080000000000e-08,7.50000000000000e-01,7.50000000000000e-01,-3.69326136623156e-03,7.50000000000000e-01
6.51240000000000e-08,7.50000000000000e-01,7.50000000000000e-01,-5.23470616434796e-03,7.50000000000000e-01
6.51560000000000e-08,7.50000000000000e-01,7.50000000000000e-01,-3.51111704863850e-03,7.50000000000000e-01
6.52200000000000e-08,7.50000000000000e-01,7.50000000000000e-01,6.78467028676655e-02,7.50000000000000e-01
6.53480000000000e-08,7.50000000000000e-01,7.50000000000000e-01,3.95154780600134e-01,7.50000000000000e-01
6.56040000000000e-08,7.50000000000000e-01,7.50000000000000e-01,7.50685378120858e-01,7.50000000000000e-01
6.60289359283339e-08,7.50000000000000e-01,7.50000000000000e-01,7.47750828534602e-01,7.50000000000000e-01
6.66063395062288e-08,7.50000000000000e-01,7.50000000000000e-01,7.52390914899201e-01,7.50000000000000e-01
6.75975009886411e-08,7.50000000000000e-01,7.50000000000000e-01,7.47429984837063e-01,7.50000000000000e-01
6.90439171791505e-08,7.50000000000000e-01,7.50000000000000e-01,7.52464240515887e-01,7.50000000000000e-01
7.17414338384478e-08,7.50000000000000e-01,7.50000000000000e-01,7.47498063492613e-01,7.50000000000000e-01
7.51000000000000e-08,7.50000000000000e-01,7.50000000000000e-01,7.52467421683574e-01,7.50000000000000e-01
7.51100000000000e-08,6.75000000000076e-01,7.50000000000000e-01,7.51555004615828e-01,7.50000000000000e-01
7.51300000000000e-08,5.25000000000105e-01,7.50000000000000e-01,7.50265098131776e-01,7.50000000000000e-01
7.51700000000000e-08,2.25000000000162e-01,7.50000000000000e-01,7.49873619395602e-01,7.50000000000000e-01
7.52000000000000e-08,1.05027098129540e-13,7.50000000000000e-01,7.50759826355393e-01,7.50000000000000e-01
7.52080000000000e-08,0.00000000000000e+00,7.50000000000000e-01,7.51032880971120e-01,7.50000000000000e-01
7.52240000000000e-08,0.00000000000000e+00,7.50000000000000e-01,7.51415564964478e-01,7.50000000000000e-01
7.52560000000000e-08,0.00000000000000e+00,7.50000000000000e-01,7.51278044987201e-01,7.50000000000000e-01
7.53200000000000e-08,0.00000000000000e+00,7.50000000000000e-01,7.44943896608136e-01,7.50000000000000e-01
7.54480000000000e-08,0.00000000000000e+00,7.50000000000000e-01,7.18448379151916e-01,7.50000000000000e-01
7.57040000000000e-08,0.00000000000000e+00,7.50000000000000e-01,7.16123819172683e-01,7.50000000000000e-01
7.62159999999999e-08,0.00000000000000e+00,7.50000000000000e-01,7.53869473963157e-01,7.50000000000000e-01
7.71996274233117e-08,0.00000000000000e+00,7.50000000000000e-01,7.45468800345202e-01,7.50000000000000e-01
7.82752835626577e-08,0.00000000000000e+00,7.50000000000000e-01,7.52931922582977e-01,7.50000000000000e-01
8.04265958413498e-08,0.00000000000000e+00,7.50000000000000e-01,7.46715690863929e-01,7.50000000000000e-01
8.42265958413498e-08,0.00000000000000e+00,7.50000000000000e-01,7.52610132630987e-01,7.50000000000000e-01
8.50000000000000e-08,0.00000000000000e+00,7.50000000000000e-01,7.47676850888121e-01,7.50000000000000e-01
8.50100000000000e-08,7.49999999999858e-02,7.50000000000000e-01,7.47922702509401e-01,6.75000000000014e-01
8.50300000000000e-08,2.24999999999957e-01,7.50000000000000e-01,7.48342971762750e-01,5.25000000000043e-01
8.50700000000000e-08,5.24999999999900e-01,7.50000000000000e-01,7.49699145713532e-01,2.25000000000100e-01
8.51000000000000e-08,7.49999999999957e-01,7.50000000000000e-01,7.51896047707749e-01,4.29656310529936e-14
8.51080000000000e-08,7.50000000000000e-01,7.50000000000000e-01,7.52644003390716e-01,0.00000000000000e+00
8.51240000000000e-08,7.50000000000000e-01,7.50000000000000e-01,7.54041127819705e-01,0.00000000000000e+00
8.51560000000000e-08,7.50000000000000e-01,7.50000000000000e-01,7.56509321145758e-01,0.00000000000000e+00
8.52200000000000e-08,7.50000000000000e-01,7.50000000000000e-01,7.60693519162620e-01,0.00000000000000e+00
8.53480000000000e-08,7.50000000000000e-01,7.50000000000000e-01,5.76147963228774e-01,0.00000000000000e+00
8.56040000000000e-08,7.50000000000000e-01,7.50000000000000e-01,2.13738554877899e-02,0.00000000000000e+00
8.59602574488797e-08,7.50000000000000e-01,7.50000000000000e-01,-1.54054615244450e-02,0.00000000000000e+00
8.64865118070087e-08,7.50000000000000e-01,7.50000000000000e-01,1.35830270791876e-02,0.00000000000000e+00
8.71616800531022e-08,7.50000000000000e-01,7.50000000000000e-01,-1.15814704215423e-02,0.00000000000000e+00
8.81898669199034e-08,7.50000000000000e-01,7.50000000000000e-01,1.09437777164894e-02,0.00000000000000e+00
9.00417531843671e-08,7.50000000000000e-01,3.13148882753218e-01,-1.02184433467725e-02,0.00000000000000e+00
9.01000000000000e-08,7.50000000000000e-01,7.49999999999957e-01,2.06816437371037e-03,0.00000000000000e+00
9.02164936312658e-08,7.50000000000000e-01,7.50000000000000e-01,2.21897759072356e-04,0.00000000000000e+00
9.04494808937974e-08,7.50000000000000e-01,7.50000000000000e-01,-1.61756316916936e-04,0.00000000000000e+00
9.09154554188606e-08,7.50000000000000e-01,7.50000000000000e-01,1.42797224817858e-04,0.00000000000000e+00
9.18474044689869e-08,7.50000000000000e-01,7.50000000000000e-01,-1.31529738809877e-04,0.00000000000000e+00
9.37113025692397e-08,7.50000000000000e-01,7.50000000000000e-01,1.26677214233714e-04,0.00000000000000e+00
9.51000000000000e-08,7.50000000000000e-01,7.50000000000000e-01,-1.19855011960692e-04,0.00000000000000e+00
9.51100000000000e-08,6.75000000000076e-01,7.50000000000000e-01,-1.67742163698081e-06,7.49999999999237e-02
9.51300000000000e-08,5.25000000000105e-01,7.50000000000000e-01,1.08859410090943e-04,2.24999999999895e-01
9.51700000000000e-08,2.25000000000162e-01,7.50000000000000e-01,6.75688767379085e-05,5.24999999999838e-01
9.52000000000000e-08,1.05027098129540e-13,7.50000000000000e-01,7.04863651129761e-06,7.49999999999895e-01
9.52080000000000e-08,0.00000000000000e+00,7.50000000000000e-01,4.04447637784161e-06,7.50000000000000e-01
9.52240000000000e-08,0.00000000000000e+00,7.50000000000000e-01,1.83146471167267e-06,7.50000000000000e-01
9.52560000000000e-08,0.00000000000000e+00,7.50000000000000e-01,-8.04047569590710e-07,7.50000000000000e-01
9.53200000000000e-08,0.00000000000000e+00,7.50000000000000e-01,-1.30941727541915e-04,7.50000000000000e-01
9.54480000000000e-08,0.00000000000000e+00,7.50000000000000e-01,-5.81964228366207e-04,7.50000000000000e-01
9.57040000000000e-08,0.00000000000000e+00,7.50000000000000e-01,2.75590030109613e-04,7.50000000000000e-01
9.61123706342180e-08,0.00000000000000e+00,7.50000000000000e-01,-2.54387117967411e-04,7.50000000000000e-01
9.67671559062020e-08,0.00000000000000e+00,7.50000000000000e-01,1.98757454563002e-04,7.50000000000000e-01
9.77003069859757e-08,0.00000000000000e+00,7.50000000000000e-01,-1.31380102023268e-04,7.50000000000000e-01
9.89954600687051e-08,0.00000000000000e+00,7.50000000000000e-01,9.49904275609106e-05,7.50000000000000e-01
1.01585766234164e-07,0.00000000000000e+00,7.50000000000000e-01,-7.79768707301887e-05,7.50000000000000e-01
1.05000000000000e-07,0.00000000000000e+00,7.50000000000000e-01,6.73461498405750e-05,7.50000000000000e-01
1.05010000000000e-07,7.49999999999858e-02,7.50000000000000e-01,1.71460662033763e-04,7.50000000000000e-01
1.05030000000000e-07,2.24999999999957e-01,7.50000000000000e-01,2.44302921301474e-04,7.50000000000000e-01
1.05070000000000e-07,5.24999999999900e-01,7.50000000000000e-01,-2.72583828041188e-04,7.50000000000000e-01
1.05100000000000e-07,7.49999999999957e-01,7.50000000000000e-01,-2.75009803905737e-03,7.50000000000000e-01
1.05108000000000e-07,7.50000000000000e-01,7.50000000000000e-01,-3.69325810170362e-03,7.50000000000000e-01
1.05124000000000e-07,7.50000000000000e-01,7.50000000000000e-01,-5.23470490164395e-03,7.50000000000000e-01
1.05156000000000e-07,7.50000000000000e-01,7.50000000000000e-01,-3.51112362639502e-03,7.50000000000000e-01
1.05220000000000e-07,7.50000000000000e-01,7.50000000000000e-01,6.78466640890505e-02,7.50000000000000e-01
1.05348000000000e-07,7.50000000000000e-01,7.50000000000000e-01,3.95154719522156e-01,7.50000000000000e-01
1.05604000000000e-07,7.50000000000000e-01,7.50000000000000e-01,7.50685370070723e-01,7.50000000000000e-01
1.06028935906984e-07,7.50000000000000e-01,7.50000000000000e-01,7.47750832958014e-01,7.50000000000000e-01
1.06606339487793e-07,7.50000000000000e-01,7.50000000000000e-01,7.52390911315617e-01,7.50000000000000e-01
1.07597500915720e-07,7.50000000000000e-01,7.50000000000000e-01,7.47429987664134e-01,7.50000000000000e-01
1.09043916836861e-07,7.50000000000000e-01,7.50000000000000e-01,7.52464237876351e-01,7.50000000000000e-01
1.11741433073548e-07,7.50000000000000e-01,7.50000000000000e-01,7.47498065890502e-01,7.50000000000000e-01
1.15100000000000e-07,7.50000000000000e-01,7.50000000000000e-01,7.52467419343421e-01,7.50000000000000e-01
1.15110000000000e-07,6.75000000000076e-01,7.50000000000000e-01,7.51555002743107e-01,7.50000000000000e-01
1.15130000000000e-07,5.25000000000105e-01,7.50000000000000e-01,7.50265097002030e-01,7.50000000000000e-01
