Time,v(clk),v(data),v(out),v(reset)
1.00000000000000e-08,7.50000000000000e-01,0.00000000000000e+00,8.93420650503068e-06,0.00000000000000e+00
1.00100000000000e-08,7.50000000000000e-01,7.49999999999982e-02,5.82486386041525e-06,0.00000000000000e+00
1.00300000000000e-08,7.50000000000000e-01,2.24999999999995e-01,1.19568428298689e-06,0.00000000000000e+00
1.00700000000000e-08,7.50000000000000e-01,5.24999999999987e-01,-1.69091612349515e-06,0.00000000000000e+00
1.01000000000000e-08,7.50000000000000e-01,7.49999999999994e-01,-3.85366745951632e-07,0.00000000000000e+00
1.01080000000000e-08,7.50000000000000e-01,7.50000000000000e-01,7.64380421666710e-08,0.00000000000000e+00
1.01240000000000e-08,7.50000000000000e-01,7.50000000000000e-01,1.32101304244764e-06,0.00000000000000e+00
1.01560000000000e-08,7.50000000000000e-01,7.50000000000000e-01,2.42344969311400e-06,0.00000000000000e+00
1.02200000000000e-08,7.50000000000000e-01,7.50000000000000e-01,2.68055199054498e-06,0.00000000000000e+00
1.03480000000000e-08,7.50000000000000e-01,7.50000000000000e-01,2.37125917564550e-06,0.00000000000000e+00
1.06040000000000e-08,7.50000000000000e-01,7.50000000000000e-01,1.88954225638794e-06,0.00000000000000e+00
1.11160000000000e-08,7.50000000000000e-01,7.50000000000000e-01,2.32429744708405e-06,0.00000000000000e+00
1.21400000000000e-08,7.50000000000000e-01,7.50000000000000e-01,1.45069315379744e-06,0.00000000000000e+00
1.41880000000000e-08,7.50000000000000e-01,7.50000000000000e-01,1.78383022908686e-06,0.00000000000000e+00
1.51000000000000e-08,7.50000000000000e-01,7.50000000000000e-01,1.05213026296326e-06,0.00000000000000e+00
1.51100000000000e-08,6.74999999999989e-01,7.50000000000000e-01,7.32677598099599e-05,7.50000000000106e-02
1.51300000000000e-08,5.24999999999993e-01,7.50000000000000e-01,1.43992096874379e-04,2.25000000000007e-01
1.51700000000000e-08,2.25000000000000e-01,7.50000000000000e-01,9.40586789202509e-05,5.25000000000000e-01
1.52000000000000e-08,0.00000000000000e+00,7.50000000000000e-01,2.98202923205843e-05,7.50000000000000e-01
1.52080000000000e-08,0.00000000000000e+00,7.50000000000000e-01,2.13806241002451e-05,7.50000000000000e-01
1.52240000000000e-08,0.00000000000000e+00,7.50000000000000e-01,1.06556929901427e-05,7.50000000000000e-01
1.52560000000000e-08,0.00000000000000e+00,7.50000000000000e-01,5.44004507495310e-06,7.50000000000000e-01
1.53200000000000e-08,0.00000000000000e+00,7.50000000000000e-01,-3.06532465053078e-05,7.50000000000000e-01
1.54480000000000e-08,0.00000000000000e+00,7.50000000000000e-01,-1.04766456013063e-04,7.50000000000000e-01
1.57040000000000e-08,0.00000000000000e+00,7.50000000000000e-01,-4.16440951673137e-05,7.50000000000000e-01
1.62160000000000e-08,0.00000000000000e+00,7.50000000000000e-01,-1.14436698086417e-04,7.50000000000000e-01
1.68473839992319e-08,0.00000000000000e+00,7.50000000000000e-01,1.84404724007259e-04,7.50000000000000e-01
1.79831929597735e-08,0.00000000000000e+00,7.50000000000000e-01,-1.15919061154926e-04,7.50000000000000e-01
1.93835342330020e-08,0.00000000000000e+00,7.50000000000000e-01,8.01940307969694e-05,7.50000000000000e-01
2.21842167794590e-08,0.00000000000000e+00,7.50000000000000e-01,-6.37901466543949e-05,7.50000000000000e-01
2.50000000000000e-08,0.00000000000000e+00,7.50000000000000e-01,5.18583406509367e-05,7.50000000000000e-01
2.50100000000000e-08,7.49999999999858e-02,7.50000000000000e-01,1.14202861871006e-04,7.50000000000000e-01
2.50300000000000e-08,2.25000000000007e-01,7.50000000000000e-01,1.85470686660222e-04,7.50000000000000e-01
2.50700000000000e-08,5.25000000000000e-01,7.50000000000000e-01,-4.86602615487400e-05,7.50000000000000e-01
2.51000000000000e-08,7.50000000000000e-01,7.50000000000000e-01,-2.10779971696742e-03,7.50000000000000e-01
2.51080000000000e-08,7.50000000000000e-01,7.50000000000000e-01,-3.01407120724510e-03,7.50000000000000e-01
2.51240000000000e-08,7.50000000000000e-01,7.50000000000000e-01,-4.59567845962643e-03,7.50000000000000e-01
2.51560000000000e-08,7.50000000000000e-01,7.50000000000000e-01,-5.26760469534159e-03,7.50000000000000e-01
2.52200000000000e-08,7.50000000000000e-01,7.50000000000000e-01,3.44367861632380e-02,7.50000000000000e-01
2.53480000000000e-08,7.50000000000000e-01,7.50000000000000e-01,2.98264048159722e-01,7.50000000000000e-01
2.56040000000000e-08,7.50000000000000e-01,7.50000000000000e-01,7.20695856864131e-01,7.50000000000000e-01
2.60652463517404e-08,7.50000000000000e-01,7.50000000000000e-01,7.61620271966741e-01,7.50000000000000e-01
2.66004043978298e-08,7.50000000000000e-01,7.50000000000000e-01,7.40772765821920e-01,7.50000000000000e-01
2.76577753308015e-08,7.50000000000000e-01,7.50000000000000e-01,7.56329462298839e-01,7.50000000000000e-01
2.87615463890686e-08,7.50000000000000e-01,7.50000000000000e-01,7.44079814354274e-01,7.50000000000000e-01
3.09690885056027e-08,7.50000000000000e-01,7.50000000000000e-01,7.54740881390825e-01,7.50000000000000e-01
3.44877213141606e-08,7.50000000000000e-01,7.50000000000000e-01,7.45061047549739e-01,7.50000000000000e-01
3.51000000000000e-08,7.49999999999963e-01,7.50000000000000e-01,7.53083999912929e-01,7.50000000000000e-01
3.51100000000000e-08,6.74999999999977e-01,7.50000000000000e-01,7.52625112822261e-01,7.50000000000000e-01
3.51300000000000e-08,5.24999999999956e-01,7.50000000000000e-01,7.51748561020432e-01,7.50000000000000e-01
3.51700000000000e-08,2.24999999999963e-01,7.50000000000000e-01,7.50981622294140e-01,7.50000000000000e-01
3.52000000000000e-08,0.00000000000000e+00,7.50000000000000e-01,7.51428713109064e-01,7.50000000000000e-01
3.52080000000000e-08,0.00000000000000e+00,7.50000000000000e-01,7.51614070357796e-01,7.50000000000000e-01
3.52240000000000e-08,0.00000000000000e+00,7.50000000000000e-01,7.51872228200255e-01,7.50000000000000e-01
3.52560000000000e-08,0.00000000000000e+00,7.50000000000000e-01,7.51710788498502e-01,7.50000000000000e-01
3.53200000000000e-08,0.00000000000000e+00,7.50000000000000e-01,7.47191281590541e-01,7.50000000000000e-01
3.54480000000000e-08,0.00000000000000e+00,7.50000000000000e-01,7.23517376869695e-01,7.50000000000000e-01
3.57040000000000e-08,0.00000000000000e+00,7.50000000000000e-01,7.11977470996657e-01,7.50000000000000e-01
3.62160000000000e-08,0.00000000000000e+00,7.50000000000000e-01,7.49578789069631e-01,7.50000000000000e-01
3.72400000000000e-08,0.00000000000000e+00,7.50000000000000e-01,7.48227762287694e-01,7.50000000000000e-01
3.83207511503732e-08,0.00000000000000e+00,7.50000000000000e-01,7.50567516752573e-01,7.50000000000000e-01
4.04822534511195e-08,0.00000000000000e+00,7.50000000000000e-01,7.48603442733015e-01,7.50000000000000e-01
4.42822534511195e-08,0.00000000000000e+00,7.50000000000000e-01,7.50628843417072e-01,7.50000000000000e-01
4.50000000000000e-08,0.00000000000000e+00,7.50000000000000e-01,7.48924924632950e-01,7.50000000000000e-01
4.50100000000000e-08,7.49999999999858e-02,7.50000000000000e-01,7.48978400342337e-01,6.75000000000014e-01
4.50300000000000e-08,2.25000000000007e-01,7.50000000000000e-01,7.49058112973688e-01,5.24999999999993e-01
4.50700000000000e-08,5.25000000000000e-01,7.50000000000000e-01,7.49963473529027e-01,2.25000000000000e-01
4.51000000000000e-08,7.50000000000000e-01,7.50000000000000e-01,7.51904999828659e-01,0.00000000000000e+00
4.51080000000000e-08,7.50000000000000e-01,7.50000000000000e-01,7.52585184701571e-01,0.00000000000000e+00
4.51240000000000e-08,7.50000000000000e-01,7.50000000000000e-01,7.53844511567638e-01,0.00000000000000e+00
4.51560000000000e-08,7.50000000000000e-01,7.50000000000000e-01,7.56075182637081e-01,0.00000000000000e+00
4.52200000000000e-08,7.50000000000000e-01,7.50000000000000e-01,7.59909144820062e-01,0.00000000000000e+00
4.53480000000000e-08,7.50000000000000e-01,7.50000000000000e-01,6.80435439603402e-01,0.00000000000000e+00
4.56040000000000e-08,7.50000000000000e-01,7.50000000000000e-01,8.58060220648780e-02,0.00000000000000e+00
4.60929991580737e-08,7.50000000000000e-01,7.50000000000000e-01,-5.44427702466012e-02,0.00000000000000e+00
4.65847000796605e-08,7.50000000000000e-01,7.50000000000000e-01,4.90352489231517e-02,0.00000000000000e+00
4.74619188185706e-08,7.50000000000000e-01,7.50000000000000e-01,-3.91816167340044e-02,0.00000000000000e+00
4.84532720245159e-08,7.50000000000000e-01,7.50000000000000e-01,3.81539869274256e-02,0.00000000000000e+00
5.01000000000000e-08,7.50000000000000e-01,7.49999999999957e-01,-3.32212857556393e-02,0.00000000000000e+00
5.02940946536377e-08,7.50000000000000e-01,7.50000000000000e-01,-3.75682873518772e-03,0.00000000000000e+00
5.06822839609131e-08,7.50000000000000e-01,7.50000000000000e-01,2.87650429097279e-03,0.00000000000000e+00
5.14586625754639e-08,7.50000000000000e-01,7.50000000000000e-01,-2.49391659851417e-03,0.00000000000000e+00
5.30114198045654e-08,7.50000000000000e-01,7.50000000000000e-01,2.32956305590506e-03,0.00000000000000e+00
5.51000000000000e-08,7.50000000000000e-01,7.50000000000000e-01,-2.20367137529625e-03,0.00000000000000e+00
5.51100000000000e-08,6.75000000000027e-01,7.50000000000000e-01,-1.50828589915774e-03,7.49999999999734e-02
5.51300000000000e-08,5.25000000000005e-01,7.50000000000000e-01,-5.50520661854924e-04,2.24999999999995e-01
5.51700000000000e-08,2.25000000000013e-01,7.50000000000000e-01,-1.52308684382013e-06,5.24999999999987e-01
5.52000000000000e-08,0.00000000000000e+00,7.50000000000000e-01,-1.13389770013683e-06,7.50000000000000e-01
5.52080000000000e-08,0.00000000000000e+00,7.50000000000000e-01,-4.80400093647720e-06,7.50000000000000e-01
5.52240000000000e-08,0.00000000000000e+00,7.50000000000000e-01,-8.04409618174878e-06,7.50000000000000e-01
5.52560000000000e-08,0.00000000000000e+00,7.50000000000000e-01,-1.10971603535411e-05,7.50000000000000e-01
5.53200000000000e-08,0.00000000000000e+00,7.50000000000000e-01,-1.22942915496162e-04,7.50000000000000e-01
5.54480000000000e-08,0.00000000000000e+00,7.50000000000000e-01,-7.73907438704943e-04,7.50000000000000e-01
5.57040000000000e-08,0.00000000000000e+00,7.50000000000000e-01,2.13947628899798e-04,7.50000000000000e-01
5.60857235461740e-08,0.00000000000000e+00,7.50000000000000e-01,-1.58169154677618e-04,7.50000000000000e-01
5.67458884284345e-08,0.00000000000000e+00,7.50000000000000e-01,8.53249910308493e-05,7.50000000000000e-01
5.77539353008048e-08,0.00000000000000e+00,7.50000000000000e-01,-1.75246040985673e-05,7.50000000000000e-01
5.90743811085892e-08,0.00000000000000e+00,7.50000000000000e-01,-1.79783336421361e-05,7.50000000000000e-01
6.17152727241578e-08,0.00000000000000e+00,7.50000000000000e-01,3.42631302348996e-05,7.50000000000000e-01
6.50000000000000e-08,0.00000000000000e+00,7.50000000000000e-01,-4.42422562635130e-05,7.50000000000000e-01
6.50100000000000e-08,7.49999999999858e-02,7.50000000000000e-01,1.03401406828345e-04,7.50000000000000e-01
6.50300000000000e-08,2.24999999999957e-01,7.50000000000000e-01,2.36750467524596e-04,7.50000000000000e-01
6.50700000000000e-08,5.24999999999900e-01,7.50000000000000e-01,-1.75028481949686e-04,7.50000000000000e-01
6.51000000000000e-08,7.49999999999957e-01,7.50000000000000e-01,-2.35252932177795e-03,7.50000000000000e-01
6.51080000000000e-08,7.50000000000000e-01,7.50000000000000e-01,-3.23442264452153e-03,7.50000000000000e-01
6.51240000000000e-08,7.50000000000000e-01,7.50000000000000e-01,-4.76095718331206e-03,7.50000000000000e-01
6.51560000000000e-08,7.50000000000000e-01,7.50000000000000e-01,-5.04891283475602e-03,7.50000000000000e-01
6.52200000000000e-08,7.50000000000000e-01,7.50000000000000e-01,3.76554091005320e-02,7.50000000000000e-01
6.53480000000000e-08,7.50000000000000e-01,7.50000000000000e-01,3.05730548831054e-01,7.50000000000000e-01
6.56040000000000e-08,7.50000000000000e-01,7.50000000000000e-01,7.22649879978912e-01,7.50000000000000e-01
6.60639222174891e-08,7.50000000000000e-01,7.50000000000000e-01,7.60836275657656e-01,7.50000000000000e-01
6.66017641504569e-08,7.50000000000000e-01,7.50000000000000e-01,7.41437448461884e-01,7.50000000000000e-01
6.76575641099899e-08,7.50000000000000e-01,7.50000000000000e-01,7.55829696042763e-01,7.50000000000000e-01
6.87725493681131e-08,7.50000000000000e-01,7.50000000000000e-01,7.44547483021069e-01,7.50000000000000e-01
7.10025198843595e-08,7.50000000000000e-01,7.50000000000000e-01,7.54349724154032e-01,7.50000000000000e-01
7.45573613684320e-08,7.50000000000000e-01,7.50000000000000e-01,7.45466355352170e-01,7.50000000000000e-01
7.51000000000000e-08,7.50000000000000e-01,7.50000000000000e-01,7.52651578070865e-01,7.50000000000000e-01
7.51100000000000e-08,6.75000000000076e-01,7.50000000000000e-01,7.52272839927585e-01,7.50000000000000e-01
7.51300000000000e-08,5.25000000000105e-01,7.50000000000000e-01,7.51530299107613e-01,7.50000000000000e-01
7.51700000000000e-08,2.25000000000162e-01,7.50000000000000e-01,7.50902615914823e-01,7.50000000000000e-01
7.52000000000000e-08,1.05027098129540e-13,7.50000000000000e-01,7.51395549636319e-01,7.50000000000000e-01
7.52080000000000e-08,0.00000000000000e+00,7.50000000000000e-01,7.51585433496584e-01,7.50000000000000e-01
7.52240000000000e-08,0.00000000000000e+00,7.50000000000000e-01,7.51849980586113e-01,7.50000000000000e-01
7.52560000000000e-08,0.00000000000000e+00,7.50000000000000e-01,7.51698239181691e-01,7.50000000000000e-01
7.53200000000000e-08,0.00000000000000e+00,7.50000000000000e-01,7.47187640696211e-01,7.50000000000000e-01
7.54480000000000e-08,0.00000000000000e+00,7.50000000000000e-01,7.23517902711579e-01,7.50000000000000e-01
7.57040000000000e-08,0.00000000000000e+00,7.50000000000000e-01,7.11974190521323e-01,7.50000000000000e-01
7.62159999999999e-08,0.00000000000000e+00,7.50000000000000e-01,7.49574947329712e-01,7.50000000000000e-01
7.72399999999999e-08,0.00000000000000e+00,7.50000000000000e-01,7.48230937496147e-01,7.50000000000000e-01
7.83207101788448e-08,0.00000000000000e+00,7.50000000000000e-01,7.50565447694421e-01,7.50000000000000e-01
8.04821305365347e-08,0.00000000000000e+00,7.50000000000000e-01,7.48605310983591e-01,7.50000000000000e-01
8.42821305365347e-08,0.00000000000000e+00,7.50000000000000e-01,7.50627187146811e-01,7.50000000000000e-01
8.50000000000000e-08,0.00000000000000e+00,7.50000000000000e-01,7.48925914376757e-01,7.50000000000000e-01
8.50100000000000e-08,7.49999999999858e-02,7.50000000000000e-01,7.48978824832699e-01,6.75000000000014e-01
8.50300000000000e-08,2.24999999999957e-01,7.50000000000000e-01,7.49058551675313e-01,5.25000000000043e-01
8.50700000000000e-08,5.24999999999900e-01,7.50000000000000e-01,7.49963838751530e-01,2.25000000000100e-01
8.51000000000000e-08,7.49999999999957e-01,7.50000000000000e-01,7.51905183513873e-01,4.29656310529936e-14
8.51080000000000e-08,7.50000000000000e-01,7.50000000000000e-01,7.52585334793689e-01,0.00000000000000e+00
8.51240000000000e-08,7.50000000000000e-01,7.50000000000000e-01,7.53844610813528e-01,0.00000000000000e+00
8.51560000000000e-08,7.50000000000000e-01,7.50000000000000e-01,7.56075297822783e-01,0.00000000000000e+00
8.52200000000000e-08,7.50000000000000e-01,7.50000000000000e-01,7.59909276259122e-01,0.00000000000000e+00
8.53480000000000e-08,7.50000000000000e-01,7.50000000000000e-01,6.80443948186621e-01,0.00000000000000e+00
8.56040000000000e-08,7.50000000000000e-01,7.50000000000000e-01,8.58111287655694e-02,0.00000000000000e+00
8.60930045595550e-08,7.50000000000000e-01,7.50000000000000e-01,-5.44457163563201e-02,0.00000000000000e+00
8.65846995822667e-08,7.50000000000000e-01,7.50000000000000e-01,4.90380284619758e-02,0.00000000000000e+00
8.74619340085184e-08,7.50000000000000e-01,7.50000000000000e-01,-3.91836992379709e-02,0.00000000000000e+00
8.84533557734749e-08,7.50000000000000e-01,7.50000000000000e-01,3.81564396127960e-02,0.00000000000000e+00
9.01000000000000e-08,7.50000000000000e-01,7.49999999999957e-01,-3.32231680256400e-02,0.00000000000000e+00
9.02940971091212e-08,7.50000000000000e-01,7.50000000000000e-01,-3.75700385118226e-03,0.00000000000000e+00
9.06822913273636e-08,7.50000000000000e-01,7.50000000000000e-01,2.87664918364694e-03,0.00000000000000e+00
9.14586797638484e-08,7.50000000000000e-01,7.50000000000000e-01,-2.49404556110229e-03,0.00000000000000e+00
9.30114566368179e-08,7.50000000000000e-01,7.50000000000000e-01,2.32968548177222e-03,0.00000000000000e+00
9.51000000000000e-08,7.50000000000000e-01,7.50000000000000e-01,-2.20378466323388e-03,0.00000000000000e+00
9.51100000000000e-08,6.75000000000076e-01,7.50000000000000e-01,-1.50836752172152e-03,7.49999999999237e-02
9.51300000000000e-08,5.25000000000105e-01,7.50000000000000e-01,-5.50556161965920e-04,2.24999999999895e-01
9.51700000000000e-08,2.25000000000162e-01,7.50000000000000e-01,-1.52751564826831e-06,5.24999999999838e-01
9.52000000000000e-08,1.05027098129540e-13,7.50000000000000e-01,-1.13526984528781e-06,7.49999999999895e-01
9.52080000000000e-08,0.00000000000000e+00,7.50000000000000e-01,-4.80481373713038e-06,7.50000000000000e-01
9.52240000000000e-08,0.00000000000000e+00,7.50000000000000e-01,-8.04470282659425e-06,7.50000000000000e-01
9.52560000000000e-08,0.00000000000000e+00,7.50000000000000e-01,-1.10991936301714e-05,7.50000000000000e-01
9.53200000000000e-08,0.00000000000000e+00,7.50000000000000e-01,-1.22956369505458e-04,7.50000000000000e-01
9.54480000000000e-08,0.00000000000000e+00,7.50000000000000e-01,-7.73963700728596e-04,7.50000000000000e-01
9.57040000000000e-08,0.00000000000000e+00,7.50000000000000e-01,2.13958566505442e-04,7.50000000000000e-01
9.60857107654028e-08,0.00000000000000e+00,7.50000000000000e-01,-1.58155670518438e-04,7.50000000000000e-01
9.67458850647523e-08,0.00000000000000e+00,7.50000000000000e-01,8.53068854446541e-05,7.50000000000000e-01
9.77539159161253e-08,0.00000000000000e+00,7.50000000000000e-01,-1.75111134832606e-05,7.50000000000000e-01
9.90743589440813e-08,0.00000000000000e+00,7.50000000000000e-01,-1.79886766146626e-05,7.50000000000000e-01
1.01715244999993e-07,0.00000000000000e+00,7.50000000000000e-01,3.42723126895903e-05,7.50000000000000e-01
1.05000000000000e-07,0.00000000000000e+00,7.50000000000000e-01,-4.42505492803038e-05,7.50000000000000e-01
1.05010000000000e-07,7.49999999999858e-02,7.50000000000000e-01,1.03397964933187e-04,7.50000000000000e-01
1.05030000000000e-07,2.24999999999957e-01,7.50000000000000e-01,2.36750579910544e-04,7.50000000000000e-01
1.05070000000000e-07,5.24999999999900e-01,7.50000000000000e-01,-1.75035813963664e-04,7.50000000000000e-01
1.05100000000000e-07,7.49999999999957e-01,7.50000000000000e-01,-2.35253988977779e-03,7.50000000000000e-01
1.05108000000000e-07,7.50000000000000e-01,7.50000000000000e-01,-3.23443224972029e-03,7.50000000000000e-01
1.05124000000000e-07,7.50000000000000e-01,7.50000000000000e-01,-4.76096434110320e-03,7.50000000000000e-01
1.05156000000000e-07,7.50000000000000e-01,7.50000000000000e-01,-5.04891032441574e-03,7.50000000000000e-01
1.05220000000000e-07,7.50000000000000e-01,7.50000000000000e-01,3.76554717745578e-02,7.50000000000000e-01
1.05348000000000e-07,7.50000000000000e-01,7.50000000000000e-01,3.05730694797335e-01,7.50000000000000e-01
1.05604000000000e-07,7.50000000000000e-01,7.50000000000000e-01,7.22649918352366e-01,7.50000000000000e-01
1.06063922196397e-07,7.50000000000000e-01,7.50000000000000e-01,7.60836260214043e-01,7.50000000000000e-01
1.06601764182002e-07,7.50000000000000e-01,7.50000000000000e-01,7.41437461570987e-01,7.50000000000000e-01
1.07657564115394e-07,7.50000000000000e-01,7.50000000000000e-01,7.55829686204588e-01,7.50000000000000e-01
1.08772549610320e-07,7.50000000000000e-01,7.50000000000000e-01,7.44547492226223e-01,7.50000000000000e-01
1.11002520600173e-07,7.50000000000000e-01,7.50000000000000e-01,7.54349716462149e-01,7.50000000000000e-01
1.14557362849244e-07,7.50000000000000e-01,7.50000000000000e-01,7.45466363324265e-01,7.50000000000000e-01
1.15100000000000e-07,7.50000000000000e-01,7.50000000000000e-01,7.52651569215435e-01,7.50000000000000e-01
1.15110000000000e-07,6.75000000000076e-01,7.50000000000000e-01,7.52272832678192e-01,7.50000000000000e-01
1.15130000000000e-07,5.25000000000105e-01,7.50000000000000e-01,7.51530294565437e-01,7.50000000000000e-01
1.15170000000000e-07,2.25000000000162e-01,7.50000000000000e-01,7.50902614225499e-01,7.50000000000000e-01
