Time,v(clk),v(data),v(out)
1.00000000000000e-08,6.00000000000000e-01,0.00000000000000e+00,2.54293057877042e-05
1.00100000000000e-08,6.00000000000000e-01,5.99999999999985e-02,1.87361114655435e-05
1.00300000000000e-08,6.00000000000000e-01,1.79999999999996e-01,9.95638404804877e-06
1.00700000000000e-08,6.00000000000000e-01,4.19999999999990e-01,3.38352159619942e-06
1.01000000000000e-08,6.00000000000000e-01,5.99999999999995e-01,-4.65973663529851e-07
1.01080000000000e-08,6.00000000000000e-01,6.00000000000000e-01,-1.30221034878863e-07
1.01240000000000e-08,6.00000000000000e-01,6.00000000000000e-01,1.49310227937072e-06
1.01560000000000e-08,6.00000000000000e-01,6.00000000000000e-01,5.70608945368173e-06
1.02200000000000e-08,6.00000000000000e-01,6.00000000000000e-01,7.01831428012722e-06
1.03480000000000e-08,6.00000000000000e-01,6.00000000000000e-01,1.66782363516041e-06
1.06040000000000e-08,6.00000000000000e-01,6.00000000000000e-01,4.53384790151390e-06
1.11160000000000e-08,6.00000000000000e-01,6.00000000000000e-01,2.81305223245702e-06
1.21400000000000e-08,6.00000000000000e-01,6.00000000000000e-01,3.89390424456511e-06
1.41880000000000e-08,6.00000000000000e-01,6.00000000000000e-01,2.47710701914905e-06
1.51000000000000e-08,6.00000000000000e-01,6.00000000000000e-01,3.41752547624186e-06
1.51100000000000e-08,5.39999999999991e-01,6.00000000000000e-01,-6.91653006715323e-05
1.51300000000000e-08,4.19999999999994e-01,6.00000000000000e-01,-1.62396655269188e-04
1.51700000000000e-08,1.80000000000000e-01,6.00000000000000e-01,-7.64697737651240e-05
1.52000000000000e-08,0.00000000000000e+00,6.00000000000000e-01,2.66534360342664e-04
1.52080000000000e-08,0.00000000000000e+00,6.00000000000000e-01,4.10123779843855e-04
1.52240000000000e-08,0.00000000000000e+00,6.00000000000000e-01,5.31949270696414e-04
1.52560000000000e-08,0.00000000000000e+00,6.00000000000000e-01,2.85258171743061e-04
1.53200000000000e-08,0.00000000000000e+00,6.00000000000000e-01,-2.92449196930167e-04
1.54480000000000e-08,0.00000000000000e+00,6.00000000000000e-01,-1.50780779556662e-04
1.57040000000000e-08,0.00000000000000e+00,6.00000000000000e-01,-3.22635927549192e-05
1.60562489539933e-08,0.00000000000000e+00,6.00000000000000e-01,1.36818442788567e-05
1.66100810864981e-08,0.00000000000000e+00,6.00000000000000e-01,1.15184040704085e-04
1.75618029425423e-08,0.00000000000000e+00,6.00000000000000e-01,-1.53863929933818e-04
1.89504870226091e-08,0.00000000000000e+00,6.00000000000000e-01,1.75394284741282e-04
2.16120405003963e-08,0.00000000000000e+00,6.00000000000000e-01,-1.79348719329723e-04
2.50000000000000e-08,0.00000000000000e+00,6.00000000000000e-01,1.86737134008402e-04
2.50100000000000e-08,5.99999999999886e-02,6.00000000000000e-01,2.70690053040576e-04
2.50300000000000e-08,1.80000000000006e-01,6.00000000000000e-01,3.79662862395089e-04
2.50700000000000e-08,4.20000000000000e-01,6.00000000000000e-01,4.54280562641088e-04
2.51000000000000e-08,6.00000000000000e-01,6.00000000000000e-01,-3.73426722858554e-04
2.51080000000000e-08,6.00000000000000e-01,6.00000000000000e-01,-9.90918056147858e-04
2.51240000000000e-08,6.00000000000000e-01,6.00000000000000e-01,-2.28598717423496e-03
2.51560000000000e-08,6.00000000000000e-01,6.00000000000000e-01,-4.42506796039982e-03
2.52200000000000e-08,6.00000000000000e-01,6.00000000000000e-01,-4.96527139374246e-03
2.53480000000000e-08,6.00000000000000e-01,6.00000000000000e-01,1.57055728513105e-01
2.56040000000000e-08,6.00000000000000e-01,6.00000000000000e-01,5.80226531449830e-01
2.61160000000000e-08,6.00000000000000e-01,6.00000000000000e-01,6.06309320898634e-01
2.66955713922078e-08,6.00000000000000e-01,6.00000000000000e-01,5.93531352833343e-01
2.76641910855173e-08,6.00000000000000e-01,6.00000000000000e-01,6.05311870030344e-01
2.89857807673117e-08,6.00000000000000e-01,6.00000000000000e-01,5.94448423562860e-01
3.01000000000000e-08,6.00000000000000e-01,6.00000000000000e-01,6.04845071886235e-01
3.01100000000000e-08,6.00000000000000e-01,5.40000000000031e-01,6.02643889458424e-01
3.01300000000000e-08,6.00000000000000e-01,4.20000000000014e-01,6.00267026578298e-01
3.01700000000000e-08,6.00000000000000e-01,1.80000000000020e-01,6.00033447383187e-01
3.02000000000000e-08,6.00000000000000e-01,1.44328993201270e-14,6.00079850044678e-01
3.02080000000000e-08,6.00000000000000e-01,0.00000000000000e+00,6.00060112950066e-01
3.02240000000000e-08,6.00000000000000e-01,0.00000000000000e+00,6.00035111458910e-01
3.02560000000000e-08,6.00000000000000e-01,0.00000000000000e+00,5.99995641840484e-01
3.03200000000000e-08,6.00000000000000e-01,0.00000000000000e+00,5.99986162312273e-01
3.04480000000000e-08,6.00000000000000e-01,0.00000000000000e+00,6.00005181620525e-01
3.06527501990663e-08,6.00000000000000e-01,0.00000000000000e+00,5.99977015126091e-01
3.10266194886825e-08,6.00000000000000e-01,0.00000000000000e+00,5.99986264605782e-01
3.15133054319203e-08,6.00000000000000e-01,0.00000000000000e+00,5.99986372609302e-01
3.24866773183961e-08,6.00000000000000e-01,0.00000000000000e+00,5.99984659655554e-01
3.44334210913476e-08,6.00000000000000e-01,0.00000000000000e+00,5.99990278257722e-01
3.51000000000000e-08,5.99999999999970e-01,0.00000000000000e+00,5.99985108039516e-01
3.51100000000000e-08,5.39999999999982e-01,0.00000000000000e+00,5.99921273478439e-01
3.51300000000000e-08,4.19999999999965e-01,0.00000000000000e+00,5.99860100029182e-01
3.51700000000000e-08,1.79999999999970e-01,0.00000000000000e+00,6.00601141862121e-01
3.52000000000000e-08,0.00000000000000e+00,0.00000000000000e+00,6.02702240450097e-01
3.52080000000000e-08,0.00000000000000e+00,0.00000000000000e+00,6.03191556494477e-01
3.52240000000000e-08,0.00000000000000e+00,0.00000000000000e+00,6.03500049870072e-01
3.52560000000000e-08,0.00000000000000e+00,0.00000000000000e+00,5.99341839643916e-01
3.53200000000000e-08,0.00000000000000e+00,0.00000000000000e+00,5.84144660055215e-01
3.54480000000000e-08,0.00000000000000e+00,0.00000000000000e+00,5.89703988191467e-01
3.56812796873600e-08,0.00000000000000e+00,0.00000000000000e+00,6.03840020749198e-01
3.59910034160375e-08,0.00000000000000e+00,0.00000000000000e+00,5.96044915393105e-01
3.66078768954205e-08,0.00000000000000e+00,0.00000000000000e+00,6.02776529751209e-01
3.73841783163190e-08,0.00000000000000e+00,0.00000000000000e+00,5.97137686406455e-01
3.89367811581160e-08,0.00000000000000e+00,0.00000000000000e+00,6.02441653027952e-01
3.91000000000000e-08,0.00000000000000e+00,0.00000000000000e+00,5.98415606976128e-01
3.94105205683594e-08,0.00000000000000e+00,0.00000000000000e+00,5.99810671449169e-01
4.00315617050782e-08,0.00000000000000e+00,0.00000000000000e+00,6.00006261353361e-01
4.12736439785158e-08,0.00000000000000e+00,0.00000000000000e+00,5.99847904546679e-01
4.37578085253910e-08,0.00000000000000e+00,0.00000000000000e+00,6.00018933174102e-01
4.50000000000000e-08,0.00000000000000e+00,0.00000000000000e+00,5.99870699628556e-01
4.50100000000000e-08,5.99999999999886e-02,0.00000000000000e+00,5.99959711353959e-01
4.50300000000000e-08,1.80000000000006e-01,0.00000000000000e+00,6.00041738534735e-01
4.50700000000000e-08,4.20000000000000e-01,0.00000000000000e+00,5.99971043899238e-01
4.51000000000000e-08,6.00000000000000e-01,0.00000000000000e+00,5.99815928648082e-01
4.51080000000000e-08,6.00000000000000e-01,0.00000000000000e+00,5.99758267970347e-01
4.51240000000000e-08,6.00000000000000e-01,0.00000000000000e+00,5.99685190621439e-01
4.51560000000000e-08,6.00000000000000e-01,0.00000000000000e+00,5.99697784458803e-01
4.52200000000000e-08,6.00000000000000e-01,0.00000000000000e+00,6.00029035682396e-01
4.53480000000000e-08,6.00000000000000e-01,0.00000000000000e+00,6.07585314259359e-01
4.56040000000000e-08,6.00000000000000e-01,0.00000000000000e+00,2.31992565201301e-01
4.60343650779571e-08,6.00000000000000e-01,0.00000000000000e+00,-7.05663896158492e-02
4.64775437799509e-08,6.00000000000000e-01,0.00000000000000e+00,5.77069876485147e-02
4.73580150042879e-08,6.00000000000000e-01,0.00000000000000e+00,-3.95077905715363e-02
4.82883325925767e-08,6.00000000000000e-01,0.00000000000000e+00,3.72245377033826e-02
5.00000000000000e-08,6.00000000000000e-01,0.00000000000000e+00,-2.97153847832491e-02
5.00100000000000e-08,6.00000000000000e-01,5.99999999999886e-02,-2.44962180096065e-02
5.00300000000000e-08,6.00000000000000e-01,1.79999999999966e-01,-1.52460897107099e-02
5.00700000000000e-08,6.00000000000000e-01,4.20000000000000e-01,-4.98438675924275e-03
5.01000000000000e-08,6.00000000000000e-01,6.00000000000000e-01,-2.34414161004976e-03
5.01080000000000e-08,6.00000000000000e-01,6.00000000000000e-01,-1.93789109038336e-03
5.01240000000000e-08,6.00000000000000e-01,6.00000000000000e-01,-1.28178704015508e-03
5.01560000000000e-08,6.00000000000000e-01,6.00000000000000e-01,-5.47280141176006e-04
5.02200000000000e-08,6.00000000000000e-01,6.00000000000000e-01,-5.95320143211217e-05
5.03480000000000e-08,6.00000000000000e-01,6.00000000000000e-01,1.34717524425260e-05
5.06040000000000e-08,6.00000000000000e-01,6.00000000000000e-01,-5.79629328720591e-06
5.11160000000001e-08,6.00000000000000e-01,6.00000000000000e-01,7.35705498284417e-06
5.21400000000002e-08,6.00000000000000e-01,6.00000000000000e-01,-4.33647493968195e-06
5.41880000000003e-08,6.00000000000000e-01,6.00000000000000e-01,5.17740760451902e-06
5.51000000000000e-08,6.00000000000000e-01,6.00000000000000e-01,-2.34863411139284e-06
5.51100000000000e-08,5.40000000000021e-01,6.00000000000000e-01,-7.18032027783727e-05
5.51300000000000e-08,4.20000000000004e-01,6.00000000000000e-01,-1.56935571140285e-04
5.51700000000000e-08,1.80000000000010e-01,6.00000000000000e-01,-6.41221030693653e-05
5.52000000000000e-08,0.00000000000000e+00,6.00000000000000e-01,2.64040801211396e-04
5.52080000000000e-08,0.00000000000000e+00,6.00000000000000e-01,4.02832526798388e-04
5.52240000000000e-08,0.00000000000000e+00,6.00000000000000e-01,4.98332136455573e-04
5.52560000000000e-08,0.00000000000000e+00,6.00000000000000e-01,3.25331935414758e-05
5.53200000000000e-08,0.00000000000000e+00,6.00000000000000e-01,-1.14662742239393e-03
5.54480000000000e-08,0.00000000000000e+00,6.00000000000000e-01,-3.50178088607964e-04
5.57022269015800e-08,0.00000000000000e+00,6.00000000000000e-01,1.71224860632094e-04
5.60548476839183e-08,0.00000000000000e+00,6.00000000000000e-01,-1.70641880844287e-04
5.66052267856073e-08,0.00000000000000e+00,6.00000000000000e-01,2.84711666641190e-04
5.75552161189059e-08,0.00000000000000e+00,6.00000000000000e-01,-3.15817152446414e-04
5.89384061102044e-08,0.00000000000000e+00,6.00000000000000e-01,3.29630373966863e-04
6.15792013584457e-08,0.00000000000000e+00,6.00000000000000e-01,-3.31923963674855e-04
6.50000000000000e-08,0.00000000000000e+00,6.00000000000000e-01,3.35484461178583e-04
6.50100000000000e-08,5.99999999999886e-02,6.00000000000000e-01,3.55663945580093e-04
6.50300000000000e-08,1.79999999999966e-01,6.00000000000000e-01,4.00392920316232e-04
6.50700000000000e-08,4.19999999999920e-01,6.00000000000000e-01,4.53368954543718e-04
6.51000000000000e-08,5.99999999999966e-01,6.00000000000000e-01,-3.76354348000277e-04
6.51080000000000e-08,6.00000000000000e-01,6.00000000000000e-01,-9.91998498792238e-04
6.51240000000000e-08,6.00000000000000e-01,6.00000000000000e-01,-2.28543280766611e-03
6.51560000000000e-08,6.00000000000000e-01,6.00000000000000e-01,-4.42470925397402e-03
6.52200000000000e-08,6.00000000000000e-01,6.00000000000000e-01,-4.96843641268818e-03
6.53480000000000e-08,6.00000000000000e-01,6.00000000000000e-01,1.56982182817684e-01
6.56040000000000e-08,6.00000000000000e-01,6.00000000000000e-01,5.80201492892470e-01
6.61159999999999e-08,6.00000000000000e-01,6.00000000000000e-01,6.06318299824379e-01
6.66955611557413e-08,6.00000000000000e-01,6.00000000000000e-01,5.93521547549543e-01
6.76642106534787e-08,6.00000000000000e-01,6.00000000000000e-01,6.05320141212252e-01
6.89858015471329e-08,6.00000000000000e-01,6.00000000000000e-01,5.94439578458996e-01
7.01000000000000e-08,6.00000000000000e-01,6.00000000000000e-01,6.04852869279015e-01
7.01100000000000e-08,6.00000000000000e-01,5.40000000000011e-01,6.02647837183647e-01
7.01300000000000e-08,6.00000000000000e-01,4.20000000000034e-01,6.00267059389303e-01
7.01700000000000e-08,6.00000000000000e-01,1.80000000000080e-01,6.00033428686593e-01
7.02000000000000e-08,6.00000000000000e-01,3.44169137633799e-14,6.00079856153633e-01
7.02080000000000e-08,6.00000000000000e-01,0.00000000000000e+00,6.00060112785119e-01
7.02240000000000e-08,6.00000000000000e-01,0.00000000000000e+00,6.00035101873278e-01
7.02560000000000e-08,6.00000000000000e-01,0.00000000000000e+00,5.99995634220028e-01
7.03200000000000e-08,6.00000000000000e-01,0.00000000000000e+00,5.99986158635780e-01
7.04480000000000e-08,6.00000000000000e-01,0.00000000000000e+00,6.00005178055596e-01
7.06527490409715e-08,6.00000000000000e-01,0.00000000000000e+00,5.99977015332698e-01
7.10266200064475e-08,6.00000000000000e-01,0.00000000000000e+00,5.99986262102688e-01
7.15133014683114e-08,6.00000000000000e-01,0.00000000000000e+00,5.99986373076850e-01
7.24866643920392e-08,6.00000000000000e-01,0.00000000000000e+00,5.99984657311181e-01
7.44333902394947e-08,6.00000000000000e-01,0.00000000000000e+00,5.99990279086867e-01
7.51000000000000e-08,6.00000000000000e-01,0.00000000000000e+00,5.99985106118921e-01
7.51100000000000e-08,5.40000000000061e-01,0.00000000000000e+00,5.99921272160740e-01
7.51300000000000e-08,4.20000000000084e-01,0.00000000000000e+00,5.99860099264421e-01
7.51700000000000e-08,1.80000000000129e-01,0.00000000000000e+00,6.00601140872412e-01
7.52000000000000e-08,8.40438829641244e-14,0.00000000000000e+00,6.02702236103058e-01
7.52080000000000e-08,0.00000000000000e+00,0.00000000000000e+00,6.03191547998634e-01
7.52240000000000e-08,0.00000000000000e+00,0.00000000000000e+00,6.03500022500310e-01
7.52560000000000e-08,0.00000000000000e+00,0.00000000000000e+00,5.99341724094208e-01
7.53200000000000e-08,0.00000000000000e+00,0.00000000000000e+00,5.84144527952242e-01
7.54480000000000e-08,0.00000000000000e+00,0.00000000000000e+00,5.89704027904376e-01
7.56812796882972e-08,0.00000000000000e+00,0.00000000000000e+00,6.03840000408242e-01
7.59910034179437e-08,0.00000000000000e+00,0.00000000000000e+00,5.96044931807473e-01
7.66078768868911e-08,0.00000000000000e+00,0.00000000000000e+00,6.02776515766671e-01
7.73841783231110e-08,0.00000000000000e+00,0.00000000000000e+00,5.97137699286567e-01
7.81000000000000e-08,0.00000000000000e+00,0.00000000000000e+00,6.02259814677273e-01
7.82552602872440e-08,0.00000000000000e+00,0.00000000000000e+00,6.00166551240205e-01
7.85657808617319e-08,0.00000000000000e+00,0.00000000000000e+00,5.99678589400113e-01
7.91868220107078e-08,0.00000000000000e+00,0.00000000000000e+00,6.00090762953195e-01
8.04289043086596e-08,0.00000000000000e+00,0.00000000000000e+00,5.99749105966449e-01
8.29130689045632e-08,0.00000000000000e+00,0.00000000000000e+00,6.00103822625061e-01
8.50000000000000e-08,0.00000000000000e+00,0.00000000000000e+00,5.99783777340857e-01
8.50100000000000e-08,5.99999999999886e-02,0.00000000000000e+00,5.99895081345938e-01
8.50300000000000e-08,1.79999999999966e-01,0.00000000000000e+00,6.00009696610645e-01
8.50700000000000e-08,4.19999999999920e-01,0.00000000000000e+00,5.99968875411996e-01
8.51000000000000e-08,5.99999999999966e-01,0.00000000000000e+00,5.99815595106778e-01
8.51080000000000e-08,6.00000000000000e-01,0.00000000000000e+00,5.99756466106588e-01
8.51240000000000e-08,6.00000000000000e-01,0.00000000000000e+00,5.99704543947698e-01
8.51560000000000e-08,6.00000000000000e-01,0.00000000000000e+00,5.99711097273698e-01
8.52200000000000e-08,6.00000000000000e-01,0.00000000000000e+00,6.00021258388260e-01
8.53480000000000e-08,6.00000000000000e-01,0.00000000000000e+00,6.07594747943994e-01
8.56040000000000e-08,6.00000000000000e-01,0.00000000000000e+00,2.31950338918444e-01
8.60341973240759e-08,6.00000000000000e-01,0.00000000000000e+00,-7.05531804056414e-02
8.64774288401435e-08,6.00000000000000e-01,0.00000000000000e+00,5.76955890902172e-02
8.73576355518399e-08,6.00000000000000e-01,0.00000000000000e+00,-3.94997405739586e-02
8.82879416470410e-08,6.00000000000000e-01,0.00000000000000e+00,3.72157121689259e-02
9.00000000000000e-08,6.00000000000000e-01,0.00000000000000e+00,-2.97107587788916e-02
9.00100000000000e-08,6.00000000000000e-01,5.99999999999886e-02,-2.44918159786552e-02
9.00300000000000e-08,6.00000000000000e-01,1.79999999999966e-01,-1.52429353373724e-02
9.00700000000000e-08,6.00000000000000e-01,4.19999999999920e-01,-4.98345233988866e-03
9.01000000000000e-08,6.00000000000000e-01,5.99999999999966e-01,-2.34363670494950e-03
9.01080000000000e-08,6.00000000000000e-01,6.00000000000000e-01,-1.93748897261831e-03
9.01240000000000e-08,6.00000000000000e-01,6.00000000000000e-01,-1.28153259758912e-03
9.01560000000000e-08,6.00000000000000e-01,6.00000000000000e-01,-5.47170651564906e-04
9.02200000000000e-08,6.00000000000000e-01,6.00000000000000e-01,-5.95230716425588e-05
9.03480000000000e-08,6.00000000000000e-01,6.00000000000000e-01,1.34693487611054e-05
9.06040000000000e-08,6.00000000000000e-01,6.00000000000000e-01,-5.79599455035468e-06
9.11159999999999e-08,6.00000000000000e-01,6.00000000000000e-01,7.35536962338801e-06
9.21399999999999e-08,6.00000000000000e-01,6.00000000000000e-01,-4.33652062505150e-06
9.41879999999998e-08,6.00000000000000e-01,6.00000000000000e-01,5.17617824921353e-06
9.51000000000000e-08,6.00000000000000e-01,6.00000000000000e-01,-2.34900834785150e-06
9.51100000000000e-08,5.40000000000061e-01,6.00000000000000e-01,-7.18035722911473e-05
9.51300000000000e-08,4.20000000000084e-01,6.00000000000000e-01,-1.56936397278692e-04
9.51700000000000e-08,1.80000000000129e-01,6.00000000000000e-01,-6.41241681121549e-05
9.52000000000000e-08,8.40438829641244e-14,6.00000000000000e-01,2.64036603087603e-04
9.52080000000000e-08,0.00000000000000e+00,6.00000000000000e-01,4.02825104253782e-04
9.52240000000000e-08,0.00000000000000e+00,6.00000000000000e-01,4.98305842885030e-04
9.52560000000000e-08,0.00000000000000e+00,6.00000000000000e-01,3.24111071188932e-05
9.53200000000000e-08,0.00000000000000e+00,6.00000000000000e-01,-1.14720534949520e-03
9.54480000000000e-08,0.00000000000000e+00,6.00000000000000e-01,-3.50384633276041e-04
9.57021504776299e-08,0.00000000000000e+00,6.00000000000000e-01,1.71352081298197e-04
9.60547993916051e-08,0.00000000000000e+00,6.00000000000000e-01,-1.70777230033094e-04
9.66050305251435e-08,0.00000000000000e+00,6.00000000000000e-01,2.84879074901585e-04
9.75549492443015e-08,0.00000000000000e+00,6.00000000000000e-01,-3.15980685527242e-04
9.89379107995015e-08,0.00000000000000e+00,6.00000000000000e-01,3.29787335558335e-04
1.01577893769660e-07,0.00000000000000e+00,6.00000000000000e-01,-3.32079087146585e-04
1.05000000000000e-07,0.00000000000000e+00,6.00000000000000e-01,3.35634185970019e-04
1.05010000000000e-07,5.99999999999886e-02,6.00000000000000e-01,3.55762263266925e-04
1.05030000000000e-07,1.79999999999966e-01,6.00000000000000e-01,4.00434841495038e-04
1.05070000000000e-07,4.19999999999920e-01,6.00000000000000e-01,4.53394502038490e-04
1.05100000000000e-07,5.99999999999966e-01,6.00000000000000e-01,-3.76255448388936e-04
1.05108000000000e-07,6.00000000000000e-01,6.00000000000000e-01,-9.91878403184009e-04
1.05124000000000e-07,6.00000000000000e-01,6.00000000000000e-01,-2.28529726107865e-03
1.05156000000000e-07,6.00000000000000e-01,6.00000000000000e-01,-4.42461970813147e-03
1.05220000000000e-07,6.00000000000000e-01,6.00000000000000e-01,-4.96861261551553e-03
1.05348000000000e-07,6.00000000000000e-01,6.00000000000000e-01,1.56977924441461e-01
1.05604000000000e-07,6.00000000000000e-01,6.00000000000000e-01,5.80200041213020e-01
1.06116000000000e-07,6.00000000000000e-01,6.00000000000000e-01,6.06318823792116e-01
1.06695560213841e-07,6.00000000000000e-01,6.00000000000000e-01,5.93520973502085e-01
1.07664211632269e-07,6.00000000000000e-01,6.00000000000000e-01,6.05320625778689e-01
1.08985802995494e-07,6.00000000000000e-01,6.00000000000000e-01,5.94439060164666e-01
1.10100000000000e-07,6.00000000000000e-01,6.00000000000000e-01,6.04853326352289e-01
