Time,v(clk),v(data),v(out)
1.00000000000000e-08,6.00000000000000e-01,0.00000000000000e+00,2.06805860881315e-05
1.00100000000000e-08,6.00000000000000e-01,5.99999999999985e-02,1.21211511797045e-05
1.00300000000000e-08,6.00000000000000e-01,1.79999999999996e-01,2.24044078517283e-06
1.00700000000000e-08,6.00000000000000e-01,4.19999999999990e-01,-3.00932567673384e-06
1.01000000000000e-08,6.00000000000000e-01,5.99999999999995e-01,-2.56868358769480e-06
1.01080000000000e-08,6.00000000000000e-01,6.00000000000000e-01,-1.92403831381777e-06
1.01240000000000e-08,6.00000000000000e-01,6.00000000000000e-01,6.61630495876753e-08
1.01560000000000e-08,6.00000000000000e-01,6.00000000000000e-01,2.81641773743069e-06
1.02200000000000e-08,6.00000000000000e-01,6.00000000000000e-01,3.29677824244257e-06
1.03480000000000e-08,6.00000000000000e-01,6.00000000000000e-01,-1.72745865268525e-07
1.06040000000000e-08,6.00000000000000e-01,6.00000000000000e-01,2.42216132850283e-06
1.11160000000000e-08,6.00000000000000e-01,6.00000000000000e-01,7.12557683009950e-07
1.21400000000000e-08,6.00000000000000e-01,6.00000000000000e-01,1.92835709863885e-06
1.41880000000000e-08,6.00000000000000e-01,6.00000000000000e-01,5.65541585635394e-07
1.51000000000000e-08,6.00000000000000e-01,6.00000000000000e-01,1.58383699956199e-06
1.51100000000000e-08,5.39999999999991e-01,6.00000000000000e-01,-4.27565206643291e-05
1.51300000000000e-08,4.19999999999994e-01,6.00000000000000e-01,-1.00322403817479e-04
1.51700000000000e-08,1.80000000000000e-01,6.00000000000000e-01,-6.77313515064157e-05
1.52000000000000e-08,0.00000000000000e+00,6.00000000000000e-01,1.18258873231900e-04
1.52080000000000e-08,0.00000000000000e+00,6.00000000000000e-01,2.08851433451049e-04
1.52240000000000e-08,0.00000000000000e+00,6.00000000000000e-01,2.93856106835765e-04
1.52560000000000e-08,0.00000000000000e+00,6.00000000000000e-01,1.85283012746208e-04
1.53200000000000e-08,0.00000000000000e+00,6.00000000000000e-01,-1.07850249326441e-04
1.54480000000000e-08,0.00000000000000e+00,6.00000000000000e-01,-1.18993614794324e-04
1.57040000000000e-08,0.00000000000000e+00,6.00000000000000e-01,-9.29491620759015e-05
1.61490747374506e-08,0.00000000000000e+00,6.00000000000000e-01,9.07918545484969e-05
1.66950331600880e-08,0.00000000000000e+00,6.00000000000000e-01,3.52017477722377e-05
1.77225250667970e-08,0.00000000000000e+00,6.00000000000000e-01,-7.41986385809543e-05
1.91821710055608e-08,0.00000000000000e+00,6.00000000000000e-01,9.47200870891887e-05
2.17282324688997e-08,0.00000000000000e+00,6.00000000000000e-01,-1.03925188807728e-04
2.50000000000000e-08,0.00000000000000e+00,6.00000000000000e-01,1.10218600646843e-04
2.50100000000000e-08,5.99999999999886e-02,6.00000000000000e-01,1.53144904315068e-04
2.50300000000000e-08,1.80000000000006e-01,6.00000000000000e-01,2.16091205140448e-04
2.50700000000000e-08,4.20000000000000e-01,6.00000000000000e-01,2.49525038440834e-04
2.51000000000000e-08,6.00000000000000e-01,6.00000000000000e-01,-5.97464656202008e-04
2.51080000000000e-08,6.00000000000000e-01,6.00000000000000e-01,-1.20988590460159e-03
2.51240000000000e-08,6.00000000000000e-01,6.00000000000000e-01,-2.50542077173860e-03
2.51560000000000e-08,6.00000000000000e-01,6.00000000000000e-01,-4.59177396164558e-03
2.52200000000000e-08,6.00000000000000e-01,6.00000000000000e-01,-5.18813369568695e-04
2.53480000000000e-08,6.00000000000000e-01,6.00000000000000e-01,2.27679481633458e-01
2.56040000000000e-08,6.00000000000000e-01,6.00000000000000e-01,6.02242370594065e-01
2.60297666492074e-08,6.00000000000000e-01,6.00000000000000e-01,5.97216595287668e-01
2.66279040281909e-08,6.00000000000000e-01,6.00000000000000e-01,6.03332918374890e-01
2.75418562499623e-08,6.00000000000000e-01,6.00000000000000e-01,5.96923482266581e-01
2.87781674639225e-08,6.00000000000000e-01,6.00000000000000e-01,6.03272539009457e-01
3.01000000000000e-08,6.00000000000000e-01,6.00000000000000e-01,5.96918283947876e-01
3.01100000000000e-08,6.00000000000000e-01,5.40000000000031e-01,5.98450884478467e-01
3.01300000000000e-08,6.00000000000000e-01,4.20000000000014e-01,6.00055943512089e-01
3.01700000000000e-08,6.00000000000000e-01,1.80000000000020e-01,6.00184270107301e-01
3.02000000000000e-08,6.00000000000000e-01,1.44328993201270e-14,6.00097240885808e-01
3.02080000000000e-08,6.00000000000000e-01,0.00000000000000e+00,6.00083822019725e-01
3.02240000000000e-08,6.00000000000000e-01,0.00000000000000e+00,6.00065315058462e-01
3.02560000000000e-08,6.00000000000000e-01,0.00000000000000e+00,6.00015432257764e-01
3.03200000000000e-08,6.00000000000000e-01,0.00000000000000e+00,5.99980026709441e-01
3.04480000000000e-08,6.00000000000000e-01,0.00000000000000e+00,5.99987436189585e-01
3.06793940987253e-08,6.00000000000000e-01,0.00000000000000e+00,5.99982154507001e-01
3.11395687591766e-08,6.00000000000000e-01,0.00000000000000e+00,5.99975654649585e-01
3.16345638125030e-08,6.00000000000000e-01,0.00000000000000e+00,5.99989507661648e-01
3.26245539191558e-08,6.00000000000000e-01,0.00000000000000e+00,5.99975449300207e-01
3.46045341324614e-08,6.00000000000000e-01,0.00000000000000e+00,5.99993824378099e-01
3.51000000000000e-08,5.99999999999970e-01,0.00000000000000e+00,5.99977026218481e-01
3.51100000000000e-08,5.39999999999982e-01,0.00000000000000e+00,5.99934657736732e-01
3.51300000000000e-08,4.19999999999965e-01,0.00000000000000e+00,5.99886880301314e-01
3.51700000000000e-08,1.79999999999970e-01,0.00000000000000e+00,6.00349450606930e-01
3.52000000000000e-08,0.00000000000000e+00,0.00000000000000e+00,6.01746600785123e-01
3.52080000000000e-08,0.00000000000000e+00,0.00000000000000e+00,6.02094516487597e-01
3.52240000000000e-08,0.00000000000000e+00,0.00000000000000e+00,6.02412860352048e-01
3.52560000000000e-08,0.00000000000000e+00,0.00000000000000e+00,6.00468935473616e-01
3.53200000000000e-08,0.00000000000000e+00,0.00000000000000e+00,5.85834225265076e-01
3.54480000000000e-08,0.00000000000000e+00,0.00000000000000e+00,5.80204460549053e-01
3.56941254569261e-08,0.00000000000000e+00,0.00000000000000e+00,6.02091211310523e-01
3.59915146597275e-08,0.00000000000000e+00,0.00000000000000e+00,5.97573445211363e-01
3.65862930653302e-08,0.00000000000000e+00,0.00000000000000e+00,6.01433028727801e-01
3.72567729676519e-08,0.00000000000000e+00,0.00000000000000e+00,5.98328755253057e-01
3.85977327722954e-08,0.00000000000000e+00,0.00000000000000e+00,6.01247984540218e-01
3.91000000000000e-08,0.00000000000000e+00,0.00000000000000e+00,5.98756902776855e-01
3.93529837009711e-08,0.00000000000000e+00,0.00000000000000e+00,5.99790825151741e-01
3.98589511029134e-08,0.00000000000000e+00,0.00000000000000e+00,5.99986585117673e-01
4.08708859067979e-08,0.00000000000000e+00,0.00000000000000e+00,5.99839194105214e-01
4.28947555145670e-08,0.00000000000000e+00,0.00000000000000e+00,6.00003271014762e-01
4.50000000000000e-08,0.00000000000000e+00,0.00000000000000e+00,5.99870711036118e-01
4.50100000000000e-08,5.99999999999886e-02,0.00000000000000e+00,5.99934706357521e-01
4.50300000000000e-08,1.80000000000006e-01,0.00000000000000e+00,6.00003195507666e-01
4.50700000000000e-08,4.20000000000000e-01,0.00000000000000e+00,5.99960942834620e-01
4.51000000000000e-08,6.00000000000000e-01,0.00000000000000e+00,5.99807394394017e-01
4.51080000000000e-08,6.00000000000000e-01,0.00000000000000e+00,5.99759140083775e-01
4.51240000000000e-08,6.00000000000000e-01,0.00000000000000e+00,5.99711341306590e-01
4.51560000000000e-08,6.00000000000000e-01,0.00000000000000e+00,5.99715542954619e-01
4.52200000000000e-08,6.00000000000000e-01,0.00000000000000e+00,6.00447514911371e-01
4.53480000000000e-08,6.00000000000000e-01,0.00000000000000e+00,6.10747168731995e-01
4.56040000000000e-08,6.00000000000000e-01,0.00000000000000e+00,1.73449479742227e-01
4.59851478306317e-08,6.00000000000000e-01,0.00000000000000e+00,-6.92079575607734e-02
4.64176701843868e-08,6.00000000000000e-01,0.00000000000000e+00,6.15823004168254e-02
4.72557270705748e-08,6.00000000000000e-01,0.00000000000000e+00,-4.37782396370274e-02
4.81727679065624e-08,6.00000000000000e-01,0.00000000000000e+00,4.33305465122616e-02
4.99653367380601e-08,6.00000000000000e-01,0.00000000000000e+00,-3.53658748913889e-02
5.00000000000000e-08,6.00000000000000e-01,0.00000000000000e+00,-1.03630662008701e-02
5.00100000000000e-08,6.00000000000000e-01,5.99999999999886e-02,-7.66938332368353e-03
5.00300000000000e-08,6.00000000000000e-01,1.79999999999966e-01,-3.82588082782662e-03
5.00700000000000e-08,6.00000000000000e-01,4.20000000000000e-01,-8.72498158244667e-04
5.01000000000000e-08,6.00000000000000e-01,6.00000000000000e-01,-2.88434994223652e-04
5.01080000000000e-08,6.00000000000000e-01,6.00000000000000e-01,-2.37995654826260e-04
5.01240000000000e-08,6.00000000000000e-01,6.00000000000000e-01,-1.40311945758073e-04
5.01560000000000e-08,6.00000000000000e-01,6.00000000000000e-01,-2.20912254953118e-05
5.02200000000000e-08,6.00000000000000e-01,6.00000000000000e-01,-2.56950929256039e-07
5.03480000000000e-08,6.00000000000000e-01,6.00000000000000e-01,-4.32918284689471e-07
5.06040000000000e-08,6.00000000000000e-01,6.00000000000000e-01,-3.84349654670643e-07
5.11160000000001e-08,6.00000000000000e-01,6.00000000000000e-01,4.65818034332821e-07
5.21400000000002e-08,6.00000000000000e-01,6.00000000000000e-01,-4.27170408049543e-07
5.41880000000003e-08,6.00000000000000e-01,6.00000000000000e-01,-1.17945065603465e-07
5.51000000000000e-08,6.00000000000000e-01,6.00000000000000e-01,-4.95583536180844e-07
5.51100000000000e-08,5.40000000000021e-01,6.00000000000000e-01,-4.40351941045219e-05
5.51300000000000e-08,4.20000000000004e-01,6.00000000000000e-01,-1.00624019067630e-04
5.51700000000000e-08,1.80000000000010e-01,6.00000000000000e-01,-6.57696573136621e-05
5.52000000000000e-08,0.00000000000000e+00,6.00000000000000e-01,1.14238633865026e-04
5.52080000000000e-08,0.00000000000000e+00,6.00000000000000e-01,2.02319678635376e-04
5.52240000000000e-08,0.00000000000000e+00,6.00000000000000e-01,2.76007639787718e-04
5.52560000000000e-08,0.00000000000000e+00,6.00000000000000e-01,7.73622080772057e-05
5.53200000000000e-08,0.00000000000000e+00,6.00000000000000e-01,-9.60439198831067e-04
5.54480000000000e-08,0.00000000000000e+00,6.00000000000000e-01,-4.81359904365236e-04
5.56905652398416e-08,0.00000000000000e+00,6.00000000000000e-01,1.57557780220974e-04
5.61430561365094e-08,0.00000000000000e+00,6.00000000000000e-01,-1.21165243991613e-04
5.66646664626144e-08,0.00000000000000e+00,6.00000000000000e-01,2.24027943862967e-04
5.77011535078437e-08,0.00000000000000e+00,6.00000000000000e-01,-2.51997781717964e-04
5.90895416968683e-08,0.00000000000000e+00,6.00000000000000e-01,2.62776260708435e-04
6.15555267185110e-08,0.00000000000000e+00,6.00000000000000e-01,-2.68760478477799e-04
6.50000000000000e-08,0.00000000000000e+00,6.00000000000000e-01,2.69957991283623e-04
6.50100000000000e-08,5.99999999999886e-02,6.00000000000000e-01,2.48294040539575e-04
6.50300000000000e-08,1.79999999999966e-01,6.00000000000000e-01,2.46484200829962e-04
6.50700000000000e-08,4.19999999999920e-01,6.00000000000000e-01,2.56713128189513e-04
6.51000000000000e-08,5.99999999999966e-01,6.00000000000000e-01,-5.73803455224814e-04
6.51080000000000e-08,6.00000000000000e-01,6.00000000000000e-01,-1.17849607781149e-03
6.51240000000000e-08,6.00000000000000e-01,6.00000000000000e-01,-2.47081275660965e-03
6.51560000000000e-08,6.00000000000000e-01,6.00000000000000e-01,-4.57193096356266e-03
6.52200000000000e-08,6.00000000000000e-01,6.00000000000000e-01,-6.85976639013985e-04
6.53480000000000e-08,6.00000000000000e-01,6.00000000000000e-01,2.26580405058274e-01
6.56040000000000e-08,6.00000000000000e-01,6.00000000000000e-01,6.01982208986461e-01
6.60307079209766e-08,6.00000000000000e-01,6.00000000000000e-01,5.97357143682184e-01
6.66285124391062e-08,6.00000000000000e-01,6.00000000000000e-01,6.03189621406697e-01
6.75434465048839e-08,6.00000000000000e-01,6.00000000000000e-01,5.97047114528084e-01
6.87795687475093e-08,6.00000000000000e-01,6.00000000000000e-01,6.03147452110654e-01
7.01000000000000e-08,6.00000000000000e-01,6.00000000000000e-01,5.97032365543333e-01
7.01100000000000e-08,6.00000000000000e-01,5.40000000000011e-01,5.98517826870540e-01
7.01300000000000e-08,6.00000000000000e-01,4.20000000000034e-01,6.00068208468685e-01
7.01700000000000e-08,6.00000000000000e-01,1.80000000000080e-01,6.00182286866483e-01
7.02000000000000e-08,6.00000000000000e-01,3.44169137633799e-14,6.00097746442074e-01
7.02080000000000e-08,6.00000000000000e-01,0.00000000000000e+00,6.00084259232765e-01
7.02240000000000e-08,6.00000000000000e-01,0.00000000000000e+00,6.00065635112595e-01
7.02560000000000e-08,6.00000000000000e-01,0.00000000000000e+00,6.00015538697427e-01
7.03200000000000e-08,6.00000000000000e-01,0.00000000000000e+00,5.99980060157444e-01
7.04480000000000e-08,6.00000000000000e-01,0.00000000000000e+00,5.99987432919144e-01
7.06793157740208e-08,6.00000000000000e-01,0.00000000000000e+00,5.99982247324219e-01
7.11395325922146e-08,6.00000000000000e-01,0.00000000000000e+00,5.99975665990659e-01
7.16342773162696e-08,6.00000000000000e-01,0.00000000000000e+00,5.99989578606619e-01
7.26237667643795e-08,6.00000000000000e-01,0.00000000000000e+00,5.99975456350811e-01
7.46027456605994e-08,6.00000000000000e-01,0.00000000000000e+00,5.99993875392861e-01
7.51000000000000e-08,6.00000000000000e-01,0.00000000000000e+00,5.99977028669767e-01
7.51100000000000e-08,5.40000000000061e-01,0.00000000000000e+00,5.99934670386173e-01
7.51300000000000e-08,4.20000000000084e-01,0.00000000000000e+00,5.99886902866061e-01
7.51700000000000e-08,1.80000000000129e-01,0.00000000000000e+00,6.00349480305037e-01
7.52000000000000e-08,8.40438829641244e-14,0.00000000000000e+00,6.01746704389195e-01
7.52080000000000e-08,0.00000000000000e+00,0.00000000000000e+00,6.02094697363188e-01
7.52240000000000e-08,0.00000000000000e+00,0.00000000000000e+00,6.02413382354553e-01
7.52560000000000e-08,0.00000000000000e+00,0.00000000000000e+00,6.00471875541625e-01
7.53200000000000e-08,0.00000000000000e+00,0.00000000000000e+00,5.85840234492982e-01
7.54480000000000e-08,0.00000000000000e+00,0.00000000000000e+00,5.80204767839451e-01
7.56941266067955e-08,0.00000000000000e+00,0.00000000000000e+00,6.02089962550944e-01
7.59915158337197e-08,0.00000000000000e+00,0.00000000000000e+00,5.97574527468768e-01
7.65862942875681e-08,0.00000000000000e+00,0.00000000000000e+00,6.01432214272520e-01
7.72567756732344e-08,0.00000000000000e+00,0.00000000000000e+00,5.98329495814307e-01
7.81000000000000e-08,0.00000000000000e+00,0.00000000000000e+00,6.01170248953588e-01
7.82340962771333e-08,0.00000000000000e+00,0.00000000000000e+00,6.00062432256055e-01
7.85022888313998e-08,0.00000000000000e+00,0.00000000000000e+00,5.99732463710218e-01
7.90386739399328e-08,0.00000000000000e+00,0.00000000000000e+00,6.00000960092908e-01
8.01114441569989e-08,0.00000000000000e+00,0.00000000000000e+00,5.99800975770041e-01
8.22569845911311e-08,0.00000000000000e+00,0.00000000000000e+00,6.00026865951533e-01
8.50000000000000e-08,0.00000000000000e+00,0.00000000000000e+00,5.99843486185640e-01
8.50100000000000e-08,5.99999999999886e-02,0.00000000000000e+00,5.99913295972136e-01
8.50300000000000e-08,1.79999999999966e-01,0.00000000000000e+00,5.99991302963485e-01
8.50700000000000e-08,4.19999999999920e-01,0.00000000000000e+00,5.99958870260439e-01
8.51000000000000e-08,5.99999999999966e-01,0.00000000000000e+00,5.99807105689872e-01
8.51080000000000e-08,6.00000000000000e-01,0.00000000000000e+00,5.99766426875000e-01
8.51240000000000e-08,6.00000000000000e-01,0.00000000000000e+00,5.99704218102345e-01
8.51560000000000e-08,6.00000000000000e-01,0.00000000000000e+00,5.99716897528568e-01
8.52200000000000e-08,6.00000000000000e-01,0.00000000000000e+00,6.00443035679964e-01
8.53480000000000e-08,6.00000000000000e-01,0.00000000000000e+00,6.10750667418970e-01
8.56040000000000e-08,6.00000000000000e-01,0.00000000000000e+00,1.73477492054508e-01
8.59850613031361e-08,6.00000000000000e-01,0.00000000000000e+00,-6.91934729168154e-02
8.64175916812338e-08,6.00000000000000e-01,0.00000000000000e+00,6.15712691758977e-02
8.72551576154816e-08,6.00000000000000e-01,0.00000000000000e+00,-4.37643339612825e-02
8.81721861890532e-08,6.00000000000000e-01,0.00000000000000e+00,4.33172230983322e-02
8.99642290400605e-08,6.00000000000000e-01,0.00000000000000e+00,-3.53534199571508e-02
9.00000000000000e-08,6.00000000000000e-01,0.00000000000000e+00,-9.84139620435724e-03
9.00100000000000e-08,6.00000000000000e-01,5.99999999999886e-02,-7.27219419159703e-03
9.00300000000000e-08,6.00000000000000e-01,1.79999999999966e-01,-3.62370642810995e-03
9.00700000000000e-08,6.00000000000000e-01,4.19999999999920e-01,-8.20041253864465e-04
9.01000000000000e-08,6.00000000000000e-01,5.99999999999966e-01,-2.69800486258069e-04
9.01080000000000e-08,6.00000000000000e-01,6.00000000000000e-01,-2.23131899658155e-04
9.01240000000000e-08,6.00000000000000e-01,6.00000000000000e-01,-1.31789146970346e-04
9.01560000000000e-08,6.00000000000000e-01,6.00000000000000e-01,-2.09327046972393e-05
9.02200000000000e-08,6.00000000000000e-01,6.00000000000000e-01,-1.98641634752139e-07
9.03480000000000e-08,6.00000000000000e-01,6.00000000000000e-01,-1.11325193151712e-05
9.06040000000000e-08,6.00000000000000e-01,6.00000000000000e-01,5.70172350580420e-06
9.11159999999999e-08,6.00000000000000e-01,6.00000000000000e-01,-4.71633902408234e-06
9.21399999999999e-08,6.00000000000000e-01,6.00000000000000e-01,3.71699840943972e-06
9.41879999999998e-08,6.00000000000000e-01,6.00000000000000e-01,-3.69038113795669e-06
9.51000000000000e-08,6.00000000000000e-01,6.00000000000000e-01,3.29869341891224e-06
9.51100000000000e-08,5.40000000000061e-01,6.00000000000000e-01,-3.47965910241707e-05
9.51300000000000e-08,4.20000000000084e-01,6.00000000000000e-01,-8.25452724674131e-05
9.51700000000000e-08,1.80000000000129e-01,6.00000000000000e-01,-4.61204451653596e-05
9.52000000000000e-08,8.40438829641244e-14,6.00000000000000e-01,1.22740890929389e-04
9.52080000000000e-08,0.00000000000000e+00,6.00000000000000e-01,2.09221508834401e-04
9.52240000000000e-08,0.00000000000000e+00,6.00000000000000e-01,2.80199055620003e-04
9.52560000000000e-08,0.00000000000000e+00,6.00000000000000e-01,7.86788175030292e-05
9.53200000000000e-08,0.00000000000000e+00,6.00000000000000e-01,-9.60414785548001e-04
9.54480000000000e-08,0.00000000000000e+00,6.00000000000000e-01,-4.81324410632231e-04
9.56905684168855e-08,0.00000000000000e+00,6.00000000000000e-01,1.57545266016837e-04
9.61430574975094e-08,0.00000000000000e+00,6.00000000000000e-01,-1.21157319467759e-04
9.66646727930766e-08,0.00000000000000e+00,6.00000000000000e-01,2.24021314373154e-04
9.77011579044212e-08,0.00000000000000e+00,6.00000000000000e-01,-2.51992761819352e-04
9.90895573993314e-08,0.00000000000000e+00,6.00000000000000e-01,2.62771857742615e-04
1.01555555006960e-07,0.00000000000000e+00,6.00000000000000e-01,-2.68756732989981e-04
1.05000000000000e-07,0.00000000000000e+00,6.00000000000000e-01,2.69954412317190e-04
1.05010000000000e-07,5.99999999999886e-02,6.00000000000000e-01,2.48288894284139e-04
1.05030000000000e-07,1.79999999999966e-01,6.00000000000000e-01,2.46479499338183e-04
1.05070000000000e-07,4.19999999999920e-01,6.00000000000000e-01,2.56711579459473e-04
1.05100000000000e-07,5.99999999999966e-01,6.00000000000000e-01,-5.73813769582668e-04
1.05108000000000e-07,6.00000000000000e-01,6.00000000000000e-01,-1.17850877367958e-03
1.05124000000000e-07,6.00000000000000e-01,6.00000000000000e-01,-2.47082635796879e-03
1.05156000000000e-07,6.00000000000000e-01,6.00000000000000e-01,-4.57193893204659e-03
1.05220000000000e-07,6.00000000000000e-01,6.00000000000000e-01,-6.85912550942358e-04
1.05348000000000e-07,6.00000000000000e-01,6.00000000000000e-01,2.26580829161675e-01
1.05604000000000e-07,6.00000000000000e-01,6.00000000000000e-01,6.01982310004395e-01
1.06030707555596e-07,6.00000000000000e-01,6.00000000000000e-01,5.97357089207505e-01
1.06628512205770e-07,6.00000000000000e-01,6.00000000000000e-01,6.03189677004139e-01
1.07543445887088e-07,6.00000000000000e-01,6.00000000000000e-01,5.97047066601751e-01
