Time,v(clk),v(data),v(out),v(reset)
1.67772160000000e-09,0.00000000000000e+00,0.00000000000000e+00,8.48221845507063e-06,6.00000000000000e-01
3.35544320000000e-09,0.00000000000000e+00,0.00000000000000e+00,6.48950058357300e-07,6.00000000000000e-01
5.00000000000000e-09,0.00000000000000e+00,0.00000000000000e+00,5.97326354874125e-06,6.00000000000000e-01
5.01000000000000e-09,5.99999999999986e-02,0.00000000000000e+00,1.82897729316039e-04,5.40000000000002e-01
5.03000000000000e-09,1.80000000000001e-01,0.00000000000000e+00,-3.85263287607102e-05,4.19999999999999e-01
5.07000000000000e-09,4.20000000000000e-01,0.00000000000000e+00,-3.12932611875213e-03,1.80000000000000e-01
5.10000000000000e-09,6.00000000000000e-01,0.00000000000000e+00,-6.16597298470939e-03,0.00000000000000e+00
5.10800000000000e-09,6.00000000000000e-01,0.00000000000000e+00,-5.82549858586370e-03,0.00000000000000e+00
5.12400000000000e-09,6.00000000000000e-01,0.00000000000000e+00,-5.19066923853780e-03,0.00000000000000e+00
5.15600000000000e-09,6.00000000000000e-01,0.00000000000000e+00,-4.15431237188651e-03,0.00000000000000e+00
5.22000000000000e-09,6.00000000000000e-01,0.00000000000000e+00,-2.43441752694618e-03,0.00000000000000e+00
5.34800000000000e-09,6.00000000000000e-01,0.00000000000000e+00,-4.46516586574339e-04,0.00000000000000e+00
5.60400000000000e-09,6.00000000000000e-01,0.00000000000000e+00,-3.89435609839339e-04,0.00000000000000e+00
6.11600000000000e-09,6.00000000000000e-01,0.00000000000000e+00,-1.59751955014407e-03,0.00000000000000e+00
7.01665320405777e-09,6.00000000000000e-01,0.00000000000000e+00,4.56598696040138e-04,0.00000000000000e+00
8.81795961217330e-09,6.00000000000000e-01,0.00000000000000e+00,4.27607735850818e-04,0.00000000000000e+00
1.00000000000000e-08,6.00000000000000e-01,0.00000000000000e+00,-3.63269655276645e-05,0.00000000000000e+00
1.00100000000000e-08,6.00000000000000e-01,5.99999999999986e-02,2.02874549753984e-06,0.00000000000000e+00
1.00300000000000e-08,6.00000000000000e-01,1.79999999999996e-01,5.58105311248835e-05,0.00000000000000e+00
1.00700000000000e-08,6.00000000000000e-01,4.19999999999990e-01,9.31093999992638e-05,0.00000000000000e+00
1.01000000000000e-08,6.00000000000000e-01,5.99999999999995e-01,6.33387289160070e-05,0.00000000000000e+00
1.01080000000000e-08,6.00000000000000e-01,6.00000000000000e-01,4.28128009549167e-05,0.00000000000000e+00
1.01240000000000e-08,6.00000000000000e-01,6.00000000000000e-01,1.05243991774528e-05,0.00000000000000e+00
1.01560000000000e-08,6.00000000000000e-01,6.00000000000000e-01,-2.21621777227177e-05,0.00000000000000e+00
1.02200000000000e-08,6.00000000000000e-01,6.00000000000000e-01,-1.09308451803486e-05,0.00000000000000e+00
1.03480000000000e-08,6.00000000000000e-01,6.00000000000000e-01,6.31424226654603e-05,0.00000000000000e+00
1.06040000000000e-08,6.00000000000000e-01,6.00000000000000e-01,1.36323317179138e-04,0.00000000000000e+00
1.11160000000000e-08,6.00000000000000e-01,6.00000000000000e-01,9.29693931167111e-05,0.00000000000000e+00
1.21400000000000e-08,6.00000000000000e-01,6.00000000000000e-01,6.38118300842171e-05,0.00000000000000e+00
1.41880000000000e-08,6.00000000000000e-01,6.00000000000000e-01,5.29712125683160e-05,0.00000000000000e+00
1.51000000000000e-08,6.00000000000000e-01,6.00000000000000e-01,3.82964030963065e-05,0.00000000000000e+00
1.51100000000000e-08,5.39999999999992e-01,6.00000000000000e-01,1.11821361076241e-03,6.00000000000085e-02
1.51300000000000e-08,4.19999999999994e-01,6.00000000000000e-01,2.80861130700429e-03,1.80000000000006e-01
1.51700000000000e-08,1.80000000000000e-01,6.00000000000000e-01,3.97988488454046e-03,4.20000000000000e-01
1.52000000000000e-08,0.00000000000000e+00,6.00000000000000e-01,2.78317385673503e-03,6.00000000000000e-01
1.52080000000000e-08,0.00000000000000e+00,6.00000000000000e-01,2.54590330110106e-03,6.00000000000000e-01
1.52240000000000e-08,0.00000000000000e+00,6.00000000000000e-01,2.15705810582106e-03,6.00000000000000e-01
1.52560000000000e-08,0.00000000000000e+00,6.00000000000000e-01,1.59098920375630e-03,6.00000000000000e-01
1.53200000000000e-08,0.00000000000000e+00,6.00000000000000e-01,1.05693434723991e-03,6.00000000000000e-01
1.54480000000000e-08,0.00000000000000e+00,6.00000000000000e-01,9.48590170940095e-04,6.00000000000000e-01
1.57040000000000e-08,0.00000000000000e+00,6.00000000000000e-01,1.16842450293882e-03,6.00000000000000e-01
1.62160000000000e-08,0.00000000000000e+00,6.00000000000000e-01,-2.64139971323525e-04,6.00000000000000e-01
1.71071370865742e-08,0.00000000000000e+00,6.00000000000000e-01,-6.08943320345633e-04,6.00000000000000e-01
1.85921624922646e-08,0.00000000000000e+00,6.00000000000000e-01,3.62953159689320e-04,6.00000000000000e-01
2.07378828667292e-08,0.00000000000000e+00,6.00000000000000e-01,-5.54207322216803e-04,6.00000000000000e-01
2.35288057292017e-08,0.00000000000000e+00,6.00000000000000e-01,7.93474130203311e-04,6.00000000000000e-01
2.50000000000000e-08,0.00000000000000e+00,6.00000000000000e-01,-7.55692265696675e-04,6.00000000000000e-01
2.50100000000000e-08,5.99999999999886e-02,6.00000000000000e-01,7.34076339403145e-05,6.00000000000000e-01
2.50300000000000e-08,1.80000000000006e-01,6.00000000000000e-01,1.65929235546390e-03,6.00000000000000e-01
2.50700000000000e-08,4.20000000000000e-01,6.00000000000000e-01,4.19119102970099e-03,6.00000000000000e-01
2.51000000000000e-08,6.00000000000000e-01,6.00000000000000e-01,4.61693749229626e-03,6.00000000000000e-01
2.51080000000000e-08,6.00000000000000e-01,6.00000000000000e-01,4.27089533914489e-03,6.00000000000000e-01
2.51240000000000e-08,6.00000000000000e-01,6.00000000000000e-01,3.59020443036820e-03,6.00000000000000e-01
2.51560000000000e-08,6.00000000000000e-01,6.00000000000000e-01,2.32691936955062e-03,6.00000000000000e-01
2.52200000000000e-08,6.00000000000000e-01,6.00000000000000e-01,-3.08280078718373e-04,6.00000000000000e-01
2.53480000000000e-08,6.00000000000000e-01,6.00000000000000e-01,-6.13142934010545e-03,6.00000000000000e-01
2.56040000000000e-08,6.00000000000000e-01,6.00000000000000e-01,-1.41026762559342e-02,6.00000000000000e-01
2.61160000000000e-08,6.00000000000000e-01,6.00000000000000e-01,4.65226473424576e-04,6.00000000000000e-01
2.70110362426141e-08,6.00000000000000e-01,6.00000000000000e-01,3.52805527518848e-01,6.00000000000000e-01
2.88011087278423e-08,6.00000000000000e-01,6.00000000000000e-01,6.21293687393783e-01,6.00000000000000e-01
3.01000000000000e-08,6.00000000000000e-01,6.00000000000000e-01,5.81651276954127e-01,6.00000000000000e-01
3.01100000000000e-08,6.00000000000000e-01,5.40000000000031e-01,5.83354490061137e-01,6.00000000000000e-01
3.01300000000000e-08,6.00000000000000e-01,4.20000000000014e-01,5.86447152002348e-01,6.00000000000000e-01
3.01700000000000e-08,6.00000000000000e-01,1.80000000000020e-01,5.91123634337205e-01,6.00000000000000e-01
3.02000000000000e-08,6.00000000000000e-01,1.44328993201270e-14,5.93639949752136e-01,6.00000000000000e-01
3.02080000000000e-08,6.00000000000000e-01,0.00000000000000e+00,5.94211061109299e-01,6.00000000000000e-01
3.02240000000000e-08,6.00000000000000e-01,0.00000000000000e+00,5.95226588672461e-01,6.00000000000000e-01
3.02560000000000e-08,6.00000000000000e-01,0.00000000000000e+00,5.96857560302310e-01,6.00000000000000e-01
3.03200000000000e-08,6.00000000000000e-01,0.00000000000000e+00,5.98826089562023e-01,6.00000000000000e-01
3.04480000000000e-08,6.00000000000000e-01,0.00000000000000e+00,6.00188209144311e-01,6.00000000000000e-01
3.07040000000000e-08,6.00000000000000e-01,0.00000000000000e+00,6.00277953550923e-01,6.00000000000000e-01
3.12160000000000e-08,6.00000000000000e-01,0.00000000000000e+00,5.99794665797263e-01,6.00000000000000e-01
3.22400000000000e-08,6.00000000000000e-01,0.00000000000000e+00,6.00034002215312e-01,6.00000000000000e-01
3.34899212859818e-08,6.00000000000000e-01,0.00000000000000e+00,5.99971548698304e-01,6.00000000000000e-01
3.51000000000000e-08,5.99999999999970e-01,0.00000000000000e+00,5.99892736301083e-01,6.00000000000000e-01
3.51100000000000e-08,5.39999999999982e-01,0.00000000000000e+00,5.99577554133496e-01,6.00000000000000e-01
3.51300000000000e-08,4.19999999999965e-01,0.00000000000000e+00,5.98922030427282e-01,6.00000000000000e-01
3.51700000000000e-08,1.79999999999970e-01,0.00000000000000e+00,5.97903473542809e-01,6.00000000000000e-01
3.52000000000000e-08,0.00000000000000e+00,0.00000000000000e+00,5.98238357056941e-01,6.00000000000000e-01
3.52080000000000e-08,0.00000000000000e+00,0.00000000000000e+00,5.98774601944881e-01,6.00000000000000e-01
3.52240000000000e-08,0.00000000000000e+00,0.00000000000000e+00,5.99798928853374e-01,6.00000000000000e-01
3.52560000000000e-08,0.00000000000000e+00,0.00000000000000e+00,6.01639014416319e-01,6.00000000000000e-01
3.53200000000000e-08,0.00000000000000e+00,0.00000000000000e+00,6.03942191225441e-01,6.00000000000000e-01
3.54480000000000e-08,0.00000000000000e+00,0.00000000000000e+00,6.05640538620172e-01,6.00000000000000e-01
3.57040000000000e-08,0.00000000000000e+00,0.00000000000000e+00,6.04751389160510e-01,6.00000000000000e-01
3.62160000000000e-08,0.00000000000000e+00,0.00000000000000e+00,5.95521303336292e-01,6.00000000000000e-01
3.72400000000000e-08,0.00000000000000e+00,0.00000000000000e+00,5.88335560727445e-01,6.00000000000000e-01
3.89248690511288e-08,0.00000000000000e+00,0.00000000000000e+00,6.02257438271228e-01,6.00000000000000e-01
4.07642569946937e-08,0.00000000000000e+00,0.00000000000000e+00,5.97666760577097e-01,6.00000000000000e-01
4.44430328818236e-08,0.00000000000000e+00,0.00000000000000e+00,6.01429518144418e-01,6.00000000000000e-01
4.50000000000000e-08,0.00000000000000e+00,0.00000000000000e+00,5.99432504811707e-01,6.00000000000000e-01
4.50100000000000e-08,5.99999999999886e-02,0.00000000000000e+00,5.99062015465769e-01,5.40000000000011e-01
4.50300000000000e-08,1.80000000000006e-01,0.00000000000000e+00,5.98117322950942e-01,4.19999999999994e-01
4.50700000000000e-08,4.20000000000000e-01,0.00000000000000e+00,5.96452101482048e-01,1.80000000000000e-01
4.51000000000000e-08,6.00000000000000e-01,0.00000000000000e+00,5.97842323210044e-01,0.00000000000000e+00
4.51080000000000e-08,6.00000000000000e-01,0.00000000000000e+00,5.99223533132802e-01,0.00000000000000e+00
4.51240000000000e-08,6.00000000000000e-01,0.00000000000000e+00,6.02054389924194e-01,0.00000000000000e+00
4.51560000000000e-08,6.00000000000000e-01,0.00000000000000e+00,6.07297939605961e-01,0.00000000000000e+00
4.52200000000000e-08,6.00000000000000e-01,0.00000000000000e+00,6.15472099016985e-01,0.00000000000000e+00
4.53480000000000e-08,6.00000000000000e-01,0.00000000000000e+00,6.26034117122403e-01,0.00000000000000e+00
4.56040000000000e-08,6.00000000000000e-01,0.00000000000000e+00,6.42398063570237e-01,0.00000000000000e+00
4.61160000000000e-08,6.00000000000000e-01,0.00000000000000e+00,5.05158053816356e-01,0.00000000000000e+00
4.71400000000000e-08,6.00000000000000e-01,0.00000000000000e+00,2.49059877416619e-02,0.00000000000000e+00
4.84920995108452e-08,6.00000000000000e-01,0.00000000000000e+00,-1.42620526005675e-02,0.00000000000000e+00
5.00000000000000e-08,6.00000000000000e-01,0.00000000000000e+00,1.03840132810452e-02,0.00000000000000e+00
5.00100000000000e-08,6.00000000000000e-01,5.99999999999886e-02,9.37545461425449e-03,0.00000000000000e+00
5.00300000000000e-08,6.00000000000000e-01,1.79999999999966e-01,7.68819054467386e-03,0.00000000000000e+00
5.00700000000000e-08,6.00000000000000e-01,4.20000000000000e-01,5.45722196332409e-03,0.00000000000000e+00
5.01000000000000e-08,6.00000000000000e-01,6.00000000000000e-01,4.42710091120582e-03,0.00000000000000e+00
5.01080000000000e-08,6.00000000000000e-01,6.00000000000000e-01,4.18209377796397e-03,0.00000000000000e+00
5.01240000000000e-08,6.00000000000000e-01,6.00000000000000e-01,3.74001936827516e-03,0.00000000000000e+00
5.01560000000000e-08,6.00000000000000e-01,6.00000000000000e-01,3.02484358064294e-03,0.00000000000000e+00
5.02200000000000e-08,6.00000000000000e-01,6.00000000000000e-01,2.02069934068266e-03,0.00000000000000e+00
5.03480000000000e-08,6.00000000000000e-01,6.00000000000000e-01,1.00280619256224e-03,0.00000000000000e+00
5.06040000000000e-08,6.00000000000000e-01,6.00000000000000e-01,2.71723411400165e-04,0.00000000000000e+00
5.11160000000001e-08,6.00000000000000e-01,6.00000000000000e-01,-1.69325309507251e-05,0.00000000000000e+00
5.21400000000002e-08,6.00000000000000e-01,6.00000000000000e-01,7.16250999034662e-06,0.00000000000000e+00
5.41880000000003e-08,6.00000000000000e-01,6.00000000000000e-01,2.77293897669659e-06,0.00000000000000e+00
5.51000000000000e-08,6.00000000000000e-01,6.00000000000000e-01,3.88573250212354e-06,0.00000000000000e+00
5.51100000000000e-08,5.40000000000021e-01,6.00000000000000e-01,1.08292352028282e-03,5.99999999999787e-02
5.51300000000000e-08,4.20000000000004e-01,6.00000000000000e-01,2.79072070248232e-03,1.79999999999996e-01
5.51700000000000e-08,1.80000000000010e-01,6.00000000000000e-01,3.98724327379921e-03,4.19999999999990e-01
5.52000000000000e-08,0.00000000000000e+00,6.00000000000000e-01,2.72694305240730e-03,6.00000000000000e-01
5.52080000000000e-08,0.00000000000000e+00,6.00000000000000e-01,2.45792105848447e-03,6.00000000000000e-01
5.52240000000000e-08,0.00000000000000e+00,6.00000000000000e-01,2.01991927069867e-03,6.00000000000000e-01
5.52560000000000e-08,0.00000000000000e+00,6.00000000000000e-01,1.38185267389157e-03,6.00000000000000e-01
5.53200000000000e-08,0.00000000000000e+00,6.00000000000000e-01,7.24495134566516e-04,6.00000000000000e-01
5.54480000000000e-08,0.00000000000000e+00,6.00000000000000e-01,3.70769038436650e-04,6.00000000000000e-01
5.57040000000000e-08,0.00000000000000e+00,6.00000000000000e-01,5.41314240392748e-05,6.00000000000000e-01
5.62160000000000e-08,0.00000000000000e+00,6.00000000000000e-01,-2.05868878877516e-03,6.00000000000000e-01
5.71580073316466e-08,0.00000000000000e+00,6.00000000000000e-01,-1.54610197691141e-04,6.00000000000000e-01
5.85532889156857e-08,0.00000000000000e+00,6.00000000000000e-01,4.04752080523419e-04,6.00000000000000e-01
6.07995789975386e-08,0.00000000000000e+00,6.00000000000000e-01,-7.29970404210988e-04,6.00000000000000e-01
6.35675416173698e-08,0.00000000000000e+00,6.00000000000000e-01,9.09811071527858e-04,6.00000000000000e-01
6.50000000000000e-08,0.00000000000000e+00,6.00000000000000e-01,-8.23820328225772e-04,6.00000000000000e-01
6.50100000000000e-08,5.99999999999886e-02,6.00000000000000e-01,4.74069903704660e-05,6.00000000000000e-01
6.50300000000000e-08,1.79999999999966e-01,6.00000000000000e-01,1.68149702481526e-03,6.00000000000000e-01
6.50700000000000e-08,4.19999999999920e-01,6.00000000000000e-01,4.24624764789264e-03,6.00000000000000e-01
6.51000000000000e-08,5.99999999999966e-01,6.00000000000000e-01,4.65225745192142e-03,6.00000000000000e-01
6.51080000000000e-08,6.00000000000000e-01,6.00000000000000e-01,4.29036835049718e-03,6.00000000000000e-01
6.51240000000000e-08,6.00000000000000e-01,6.00000000000000e-01,3.56956715304871e-03,6.00000000000000e-01
6.51560000000000e-08,6.00000000000000e-01,6.00000000000000e-01,2.16250603967655e-03,6.00000000000000e-01
6.52200000000000e-08,6.00000000000000e-01,6.00000000000000e-01,-8.34407234140314e-04,6.00000000000000e-01
6.53480000000000e-08,6.00000000000000e-01,6.00000000000000e-01,-6.88729322849134e-03,6.00000000000000e-01
6.56040000000000e-08,6.00000000000000e-01,6.00000000000000e-01,-1.43618522908393e-02,6.00000000000000e-01
6.61159999999999e-08,6.00000000000000e-01,6.00000000000000e-01,2.52258119695992e-03,6.00000000000000e-01
6.71161052476308e-08,6.00000000000000e-01,6.00000000000000e-01,4.00142416834429e-01,6.00000000000000e-01
6.88333220803721e-08,6.00000000000000e-01,6.00000000000000e-01,6.22949639461596e-01,6.00000000000000e-01
7.01000000000000e-08,6.00000000000000e-01,6.00000000000000e-01,5.81039502639895e-01,6.00000000000000e-01
7.01100000000000e-08,6.00000000000000e-01,5.40000000000011e-01,5.82754808677333e-01,6.00000000000000e-01
7.01300000000000e-08,6.00000000000000e-01,4.20000000000034e-01,5.85858082662606e-01,6.00000000000000e-01
7.01700000000000e-08,6.00000000000000e-01,1.80000000000080e-01,5.90576311833320e-01,6.00000000000000e-01
7.02000000000000e-08,6.00000000000000e-01,3.44169137633799e-14,5.93145107046181e-01,6.00000000000000e-01
7.02080000000000e-08,6.00000000000000e-01,0.00000000000000e+00,5.93721641375615e-01,6.00000000000000e-01
7.02240000000000e-08,6.00000000000000e-01,0.00000000000000e+00,5.94808879067778e-01,6.00000000000000e-01
7.02560000000000e-08,6.00000000000000e-01,0.00000000000000e+00,5.96591570922390e-01,6.00000000000000e-01
7.03200000000000e-08,6.00000000000000e-01,0.00000000000000e+00,5.98542737271653e-01,6.00000000000000e-01
7.04480000000000e-08,6.00000000000000e-01,0.00000000000000e+00,5.99971892500306e-01,6.00000000000000e-01
7.07040000000000e-08,6.00000000000000e-01,0.00000000000000e+00,6.00225143960929e-01,6.00000000000000e-01
7.12159999999999e-08,6.00000000000000e-01,0.00000000000000e+00,5.99770048431467e-01,6.00000000000000e-01
7.22399999999999e-08,6.00000000000000e-01,0.00000000000000e+00,6.00027782983229e-01,6.00000000000000e-01
7.34950028478378e-08,6.00000000000000e-01,0.00000000000000e+00,5.99959462778690e-01,6.00000000000000e-01
7.51000000000000e-08,6.00000000000000e-01,0.00000000000000e+00,5.99887872815345e-01,6.00000000000000e-01
7.51100000000000e-08,5.40000000000061e-01,0.00000000000000e+00,5.99572800579771e-01,6.00000000000000e-01
7.51300000000000e-08,4.20000000000084e-01,0.00000000000000e+00,5.98917436105529e-01,6.00000000000000e-01
7.51700000000000e-08,1.80000000000129e-01,0.00000000000000e+00,5.97899506280126e-01,6.00000000000000e-01
7.52000000000000e-08,8.40438829641244e-14,0.00000000000000e+00,5.98234679202622e-01,6.00000000000000e-01
7.52080000000000e-08,0.00000000000000e+00,0.00000000000000e+00,5.98770812316926e-01,6.00000000000000e-01
7.52240000000000e-08,0.00000000000000e+00,0.00000000000000e+00,5.99795009455863e-01,6.00000000000000e-01
7.52560000000000e-08,0.00000000000000e+00,0.00000000000000e+00,6.01633960416731e-01,6.00000000000000e-01
7.53200000000000e-08,0.00000000000000e+00,0.00000000000000e+00,6.03933879752872e-01,6.00000000000000e-01
7.54480000000000e-08,0.00000000000000e+00,0.00000000000000e+00,6.05611474821620e-01,6.00000000000000e-01
7.57040000000000e-08,0.00000000000000e+00,0.00000000000000e+00,6.04606037526932e-01,6.00000000000000e-01
7.62159999999999e-08,0.00000000000000e+00,0.00000000000000e+00,5.95279666703958e-01,6.00000000000000e-01
7.72399999999999e-08,0.00000000000000e+00,0.00000000000000e+00,5.88344859828444e-01,6.00000000000000e-01
7.89244085226264e-08,0.00000000000000e+00,0.00000000000000e+00,6.02291695036651e-01,6.00000000000000e-01
8.07637862862243e-08,0.00000000000000e+00,0.00000000000000e+00,5.97638862404503e-01,6.00000000000000e-01
8.44425418134199e-08,0.00000000000000e+00,0.00000000000000e+00,6.01449286754062e-01,6.00000000000000e-01
8.50000000000000e-08,0.00000000000000e+00,0.00000000000000e+00,5.99426746517903e-01,6.00000000000000e-01
8.50100000000000e-08,5.99999999999886e-02,0.00000000000000e+00,5.99056557851428e-01,5.40000000000011e-01
8.50300000000000e-08,1.79999999999966e-01,0.00000000000000e+00,5.98112391485065e-01,4.20000000000034e-01
8.50700000000000e-08,4.19999999999920e-01,0.00000000000000e+00,5.96448050551500e-01,1.80000000000080e-01
8.51000000000000e-08,5.99999999999966e-01,0.00000000000000e+00,5.97838799796316e-01,3.44169137633799e-14
8.51080000000000e-08,6.00000000000000e-01,0.00000000000000e+00,5.99220140946942e-01,0.00000000000000e+00
8.51240000000000e-08,6.00000000000000e-01,0.00000000000000e+00,6.02050951799279e-01,0.00000000000000e+00
8.51560000000000e-08,6.00000000000000e-01,0.00000000000000e+00,6.07294978300512e-01,0.00000000000000e+00
8.52200000000000e-08,6.00000000000000e-01,0.00000000000000e+00,6.15469842140414e-01,0.00000000000000e+00
8.53480000000000e-08,6.00000000000000e-01,0.00000000000000e+00,6.26032651661456e-01,0.00000000000000e+00
8.56040000000000e-08,6.00000000000000e-01,0.00000000000000e+00,6.42396907009659e-01,0.00000000000000e+00
