Time,v(clk),v(data),v(out)
1.00000000000000e-08,5.50000000000000e-01,0.00000000000000e+00,2.85857610300699e-06
1.00100000000000e-08,5.50000000000000e-01,5.49999999999987e-02,4.10169182316067e-06
1.00300000000000e-08,5.50000000000000e-01,1.64999999999996e-01,5.74254493888871e-06
1.00700000000000e-08,5.50000000000000e-01,3.84999999999991e-01,6.10212424617673e-06
1.01000000000000e-08,5.50000000000000e-01,5.49999999999996e-01,4.77454954684459e-06
1.01080000000000e-08,5.50000000000000e-01,5.50000000000000e-01,4.16431832087755e-06
1.01240000000000e-08,5.50000000000000e-01,5.50000000000000e-01,4.04706402720723e-06
1.01560000000000e-08,5.50000000000000e-01,5.50000000000000e-01,5.69966017342077e-06
1.02200000000000e-08,5.50000000000000e-01,5.50000000000000e-01,9.66336179049343e-06
1.03480000000000e-08,5.50000000000000e-01,5.50000000000000e-01,1.19199045730371e-05
1.06040000000000e-08,5.50000000000000e-01,5.50000000000000e-01,1.04646130496752e-05
1.11160000000000e-08,5.50000000000000e-01,5.50000000000000e-01,1.14404060413912e-05
1.21400000000000e-08,5.50000000000000e-01,5.50000000000000e-01,1.04364073481482e-05
1.41880000000000e-08,5.50000000000000e-01,5.50000000000000e-01,1.02289342124875e-05
1.51000000000000e-08,5.50000000000000e-01,5.50000000000000e-01,9.61812097857728e-06
1.51100000000000e-08,4.94999999999992e-01,5.50000000000000e-01,-4.73415391200604e-05
1.51300000000000e-08,3.84999999999995e-01,5.50000000000000e-01,-1.44092624449858e-04
1.51700000000000e-08,1.65000000000000e-01,5.50000000000000e-01,-2.18597070036790e-04
1.52000000000000e-08,0.00000000000000e+00,5.50000000000000e-01,-6.81457303780553e-05
1.52080000000000e-08,0.00000000000000e+00,5.50000000000000e-01,5.63163732968872e-05
1.52240000000000e-08,0.00000000000000e+00,5.50000000000000e-01,2.42872514969093e-04
1.52560000000000e-08,0.00000000000000e+00,5.50000000000000e-01,3.79040660615448e-04
1.53200000000000e-08,0.00000000000000e+00,5.50000000000000e-01,2.73615415927811e-04
1.54480000000000e-08,0.00000000000000e+00,5.50000000000000e-01,-1.27828826761593e-04
1.57040000000000e-08,0.00000000000000e+00,5.50000000000000e-01,-1.93653636921913e-04
1.62160000000000e-08,0.00000000000000e+00,5.50000000000000e-01,-4.40369997224688e-06
1.69955701607428e-08,0.00000000000000e+00,5.50000000000000e-01,1.53064210596000e-05
1.80984568150808e-08,0.00000000000000e+00,5.50000000000000e-01,1.08448220402402e-04
2.03042301237569e-08,0.00000000000000e+00,5.50000000000000e-01,-1.21513404196902e-04
2.29378736630290e-08,0.00000000000000e+00,5.50000000000000e-01,1.50021324264659e-04
2.50000000000000e-08,0.00000000000000e+00,5.50000000000000e-01,-1.44146962198939e-04
2.50100000000000e-08,5.49999999999896e-02,5.50000000000000e-01,-2.54745281869154e-05
2.50300000000000e-08,1.65000000000005e-01,5.50000000000000e-01,1.70230138464865e-04
2.50700000000000e-08,3.85000000000000e-01,5.50000000000000e-01,3.90635590841591e-04
2.51000000000000e-08,5.50000000000000e-01,5.50000000000000e-01,3.59518572431571e-04
2.51080000000000e-08,5.50000000000000e-01,5.50000000000000e-01,2.47749531936708e-04
2.51240000000000e-08,5.50000000000000e-01,5.50000000000000e-01,-4.07871124723305e-05
2.51560000000000e-08,5.50000000000000e-01,5.50000000000000e-01,-9.23975050918513e-04
2.52200000000000e-08,5.50000000000000e-01,5.50000000000000e-01,-2.85347008796624e-03
2.53480000000000e-08,5.50000000000000e-01,5.50000000000000e-01,-4.45675957791599e-03
2.56040000000000e-08,5.50000000000000e-01,5.50000000000000e-01,9.88642360186527e-02
2.61160000000000e-08,5.50000000000000e-01,5.50000000000000e-01,5.06578679837576e-01
2.71400000000000e-08,5.50000000000000e-01,5.50000000000000e-01,5.63435084595447e-01
2.83651826723833e-08,5.50000000000000e-01,5.50000000000000e-01,5.35576693564936e-01
3.04957779021420e-08,5.50000000000000e-01,5.50000000000000e-01,5.61883252170027e-01
3.34087114305249e-08,5.50000000000000e-01,5.50000000000000e-01,5.37237640463843e-01
3.51000000000000e-08,5.49999999999973e-01,5.50000000000000e-01,5.60805936479914e-01
3.51100000000000e-08,4.94999999999983e-01,5.50000000000000e-01,5.57713410017764e-01
3.51300000000000e-08,3.84999999999968e-01,5.50000000000000e-01,5.53242528163558e-01
3.51700000000000e-08,1.64999999999973e-01,5.50000000000000e-01,5.50601722013371e-01
3.52000000000000e-08,0.00000000000000e+00,5.50000000000000e-01,5.51483316628800e-01
3.52080000000000e-08,0.00000000000000e+00,5.50000000000000e-01,5.51852888499406e-01
3.52240000000000e-08,0.00000000000000e+00,5.50000000000000e-01,5.52386487604074e-01
3.52560000000000e-08,0.00000000000000e+00,5.50000000000000e-01,5.52709940081772e-01
3.53200000000000e-08,0.00000000000000e+00,5.50000000000000e-01,5.51071413648865e-01
3.54480000000000e-08,0.00000000000000e+00,5.50000000000000e-01,5.37616195450690e-01
3.57040000000000e-08,0.00000000000000e+00,5.50000000000000e-01,5.33637398320591e-01
3.62160000000000e-08,0.00000000000000e+00,5.50000000000000e-01,5.52646422657817e-01
3.70473476740435e-08,0.00000000000000e+00,5.50000000000000e-01,5.46744992270726e-01
3.83894499694495e-08,0.00000000000000e+00,5.50000000000000e-01,5.51989454401991e-01
4.10736545602615e-08,0.00000000000000e+00,5.50000000000000e-01,5.47631882251284e-01
4.48736545602615e-08,0.00000000000000e+00,5.50000000000000e-01,5.51872963570197e-01
4.50000000000000e-08,0.00000000000000e+00,5.50000000000000e-01,5.49594097696416e-01
4.50100000000000e-08,5.49999999999896e-02,5.50000000000000e-01,5.49706541155418e-01
4.50300000000000e-08,1.65000000000005e-01,5.50000000000000e-01,5.49881503077817e-01
4.50700000000000e-08,3.85000000000000e-01,5.50000000000000e-01,5.50033135938235e-01
4.51000000000000e-08,5.50000000000000e-01,5.50000000000000e-01,5.49994406326627e-01
4.51080000000000e-08,5.50000000000000e-01,5.06000000000023e-01,5.49915020887797e-01
4.51240000000000e-08,5.50000000000000e-01,4.17999999999996e-01,5.49721679712431e-01
4.51560000000000e-08,5.50000000000000e-01,2.42000000000015e-01,5.49216103640278e-01
4.52000000000000e-08,5.50000000000000e-01,3.15303338993544e-14,5.48581206271217e-01
4.52064000000000e-08,5.50000000000000e-01,0.00000000000000e+00,5.48518523190198e-01
4.52192000000000e-08,5.50000000000000e-01,0.00000000000000e+00,5.48399882121941e-01
4.52448000000000e-08,5.50000000000000e-01,0.00000000000000e+00,5.48210323516655e-01
4.52960000000000e-08,5.50000000000000e-01,0.00000000000000e+00,5.47986591994337e-01
4.53984000000000e-08,5.50000000000000e-01,0.00000000000000e+00,5.47989344687532e-01
4.56032000000000e-08,5.50000000000000e-01,0.00000000000000e+00,5.48740285473869e-01
4.60128000000000e-08,5.50000000000000e-01,0.00000000000000e+00,5.49536288585398e-01
4.65752550362053e-08,5.50000000000000e-01,0.00000000000000e+00,5.49990270875866e-01
4.76587611967075e-08,5.50000000000000e-01,0.00000000000000e+00,5.50015156219526e-01
4.91141658541749e-08,5.50000000000000e-01,0.00000000000000e+00,5.49984443985355e-01
5.20249751691097e-08,5.50000000000000e-01,0.00000000000000e+00,5.50015278140775e-01
5.51000000000000e-08,5.50000000000000e-01,0.00000000000000e+00,5.49985140710564e-01
5.51100000000000e-08,4.95000000000020e-01,0.00000000000000e+00,5.49937383995590e-01
5.51300000000000e-08,3.85000000000004e-01,0.00000000000000e+00,5.49860585972998e-01
5.51700000000000e-08,1.65000000000009e-01,0.00000000000000e+00,5.50159296088993e-01
5.52000000000000e-08,0.00000000000000e+00,0.00000000000000e+00,5.51370605313890e-01
5.52080000000000e-08,0.00000000000000e+00,0.00000000000000e+00,5.51772326995907e-01
5.52240000000000e-08,0.00000000000000e+00,0.00000000000000e+00,5.52382565278675e-01
5.52560000000000e-08,0.00000000000000e+00,0.00000000000000e+00,5.52972551405084e-01
5.53200000000000e-08,0.00000000000000e+00,0.00000000000000e+00,5.53559957130775e-01
5.54480000000000e-08,0.00000000000000e+00,0.00000000000000e+00,5.53312506269457e-01
5.57040000000000e-08,0.00000000000000e+00,0.00000000000000e+00,5.49796932933169e-01
5.61674995651036e-08,0.00000000000000e+00,0.00000000000000e+00,5.49386342381551e-01
5.68069059123434e-08,0.00000000000000e+00,0.00000000000000e+00,5.49776570080547e-01
5.80857186068232e-08,0.00000000000000e+00,0.00000000000000e+00,5.49591593316536e-01
5.94956135467647e-08,0.00000000000000e+00,0.00000000000000e+00,5.49906937919130e-01
6.23154034266477e-08,0.00000000000000e+00,0.00000000000000e+00,5.49698963336102e-01
6.50000000000000e-08,0.00000000000000e+00,0.00000000000000e+00,5.49972754504080e-01
6.50100000000000e-08,5.49999999999896e-02,0.00000000000000e+00,5.49989175677956e-01
6.50300000000000e-08,1.64999999999969e-01,0.00000000000000e+00,5.50006917964237e-01
6.50700000000000e-08,3.84999999999927e-01,0.00000000000000e+00,5.49974902329389e-01
6.51000000000000e-08,5.49999999999969e-01,0.00000000000000e+00,5.49878362542382e-01
6.51080000000000e-08,5.50000000000000e-01,0.00000000000000e+00,5.49817101036719e-01
6.51240000000000e-08,5.50000000000000e-01,0.00000000000000e+00,5.49723427351361e-01
6.51560000000000e-08,5.50000000000000e-01,0.00000000000000e+00,5.49652500993460e-01
6.52200000000000e-08,5.50000000000000e-01,0.00000000000000e+00,5.49665865256350e-01
6.53480000000000e-08,5.50000000000000e-01,0.00000000000000e+00,5.49790392914126e-01
6.56040000000000e-08,5.50000000000000e-01,0.00000000000000e+00,5.53395165607734e-01
6.61159999999999e-08,5.50000000000000e-01,0.00000000000000e+00,2.50789146536795e-01
6.71399999999999e-08,5.50000000000000e-01,0.00000000000000e+00,-5.93542540293447e-02
6.80684242354331e-08,5.50000000000000e-01,0.00000000000000e+00,5.21890917995849e-02
6.99252727062995e-08,5.50000000000000e-01,0.00000000000000e+00,-3.35931345534964e-02
7.20446388304392e-08,5.50000000000000e-01,0.00000000000000e+00,3.39092110283712e-02
7.51000000000000e-08,5.50000000000000e-01,0.00000000000000e+00,-2.51645491438498e-02
7.51100000000000e-08,4.95000000000056e-01,0.00000000000000e+00,-2.31939821922224e-02
7.51300000000000e-08,3.85000000000077e-01,0.00000000000000e+00,-1.91018724863919e-02
7.51700000000000e-08,1.65000000000118e-01,0.00000000000000e+00,-1.20804131658217e-02
7.52000000000000e-08,7.69384556065233e-14,0.00000000000000e+00,-8.39736959918520e-03
7.52080000000000e-08,0.00000000000000e+00,0.00000000000000e+00,-7.56041657009391e-03
7.52240000000000e-08,0.00000000000000e+00,0.00000000000000e+00,-6.05471352709638e-03
7.52560000000000e-08,0.00000000000000e+00,0.00000000000000e+00,-3.89953865257507e-03
7.53200000000000e-08,0.00000000000000e+00,0.00000000000000e+00,-1.70171453323739e-03
7.54480000000000e-08,0.00000000000000e+00,0.00000000000000e+00,-8.25771842513194e-04
7.57040000000000e-08,0.00000000000000e+00,0.00000000000000e+00,-3.82276899258294e-04
7.62159999999999e-08,0.00000000000000e+00,0.00000000000000e+00,2.58869613171592e-04
7.69914299550453e-08,0.00000000000000e+00,0.00000000000000e+00,-1.80512871901952e-04
7.84081665397213e-08,0.00000000000000e+00,0.00000000000000e+00,1.68677622668899e-04
8.12416397090732e-08,0.00000000000000e+00,0.00000000000000e+00,-1.41373804564789e-04
8.50000000000000e-08,0.00000000000000e+00,0.00000000000000e+00,1.48192985924134e-04
8.50100000000000e-08,5.49999999999896e-02,0.00000000000000e+00,2.05195397105604e-04
8.50300000000000e-08,1.64999999999969e-01,0.00000000000000e+00,2.96439272255686e-04
8.50700000000000e-08,3.84999999999927e-01,0.00000000000000e+00,3.29696401732790e-04
8.51000000000000e-08,5.49999999999969e-01,0.00000000000000e+00,1.95441869404081e-04
8.51080000000000e-08,5.50000000000000e-01,0.00000000000000e+00,1.07555361589060e-04
8.51240000000000e-08,5.50000000000000e-01,0.00000000000000e+00,-3.84354558004424e-05
8.51560000000000e-08,5.50000000000000e-01,0.00000000000000e+00,-1.89022387971867e-04
8.52200000000000e-08,5.50000000000000e-01,0.00000000000000e+00,-2.27034071152626e-04
8.53480000000000e-08,5.50000000000000e-01,0.00000000000000e+00,-1.01208480756565e-04
8.56040000000000e-08,5.50000000000000e-01,0.00000000000000e+00,3.93887521010251e-05
8.61159999999999e-08,5.50000000000000e-01,0.00000000000000e+00,5.06469233790552e-05
8.71399999999999e-08,5.50000000000000e-01,0.00000000000000e+00,-6.15904710117143e-06
8.89739149477113e-08,5.50000000000000e-01,0.00000000000000e+00,2.79994231235092e-05
9.00000000000000e-08,5.50000000000000e-01,0.00000000000000e+00,2.65681458969363e-06
9.00100000000000e-08,5.50000000000000e-01,5.49999999999896e-02,4.02608690211470e-06
9.00300000000000e-08,5.50000000000000e-01,1.64999999999969e-01,5.80114417352007e-06
9.00700000000000e-08,5.50000000000000e-01,3.84999999999927e-01,6.35857011890839e-06
9.01000000000000e-08,5.50000000000000e-01,5.49999999999969e-01,5.16317835620728e-06
9.01080000000000e-08,5.50000000000000e-01,5.50000000000000e-01,4.55000328865307e-06
9.01240000000000e-08,5.50000000000000e-01,5.50000000000000e-01,4.45286839738379e-06
9.01560000000000e-08,5.50000000000000e-01,5.50000000000000e-01,6.04088403310249e-06
9.02200000000000e-08,5.50000000000000e-01,5.50000000000000e-01,9.84509915329806e-06
9.03480000000000e-08,5.50000000000000e-01,5.50000000000000e-01,1.18916725536412e-05
9.06040000000000e-08,5.50000000000000e-01,5.50000000000000e-01,1.04311478841684e-05
9.11159999999999e-08,5.50000000000000e-01,5.50000000000000e-01,1.15068620591217e-05
9.21399999999999e-08,5.50000000000000e-01,5.50000000000000e-01,1.03703216494926e-05
9.41879999999998e-08,5.50000000000000e-01,5.50000000000000e-01,1.02920371119917e-05
9.51000000000000e-08,5.50000000000000e-01,5.50000000000000e-01,9.55642818784193e-06
9.51100000000000e-08,4.95000000000056e-01,5.50000000000000e-01,-4.74226787110787e-05
9.51300000000000e-08,3.85000000000077e-01,5.50000000000000e-01,-1.44107745022951e-04
9.51700000000000e-08,1.65000000000118e-01,5.50000000000000e-01,-2.18580833317002e-04
9.52000000000000e-08,7.69384556065233e-14,5.50000000000000e-01,-6.81348388841679e-05
9.52080000000000e-08,0.00000000000000e+00,5.50000000000000e-01,5.63257797943570e-05
9.52240000000000e-08,0.00000000000000e+00,5.50000000000000e-01,2.42879211265666e-04
9.52560000000000e-08,0.00000000000000e+00,5.50000000000000e-01,3.79044816691251e-04
9.53200000000000e-08,0.00000000000000e+00,5.50000000000000e-01,2.73630663950898e-04
9.54480000000000e-08,0.00000000000000e+00,5.50000000000000e-01,-1.27814245639669e-04
9.57040000000000e-08,0.00000000000000e+00,5.50000000000000e-01,-1.93681294409682e-04
9.62159999999999e-08,0.00000000000000e+00,5.50000000000000e-01,-4.38586566288250e-06
9.69955623427936e-08,0.00000000000000e+00,5.50000000000000e-01,1.52921835506973e-05
9.80984426125720e-08,0.00000000000000e+00,5.50000000000000e-01,1.08455553610816e-04
1.00304203152129e-07,0.00000000000000e+00,5.50000000000000e-01,-1.21518242500091e-04
1.02937773259945e-07,0.00000000000000e+00,5.50000000000000e-01,1.50024771554564e-04
1.05000000000000e-07,0.00000000000000e+00,5.50000000000000e-01,-1.44148111914905e-04
1.05010000000000e-07,5.49999999999896e-02,5.50000000000000e-01,-2.54759176239877e-05
1.05030000000000e-07,1.64999999999969e-01,5.50000000000000e-01,1.70227831328341e-04
1.05070000000000e-07,3.84999999999927e-01,5.50000000000000e-01,3.90631797295565e-04
1.05100000000000e-07,5.49999999999969e-01,5.50000000000000e-01,3.59511280353400e-04
1.05108000000000e-07,5.50000000000000e-01,5.50000000000000e-01,2.47739257521369e-04
1.05124000000000e-07,5.50000000000000e-01,5.50000000000000e-01,-4.08046857967512e-05
1.05156000000000e-07,5.50000000000000e-01,5.50000000000000e-01,-9.24003921044261e-04
1.05220000000000e-07,5.50000000000000e-01,5.50000000000000e-01,-2.85349619166744e-03
1.05348000000000e-07,5.50000000000000e-01,5.50000000000000e-01,-4.45674748837382e-03
1.05604000000000e-07,5.50000000000000e-01,5.50000000000000e-01,9.88649830289842e-02
1.06116000000000e-07,5.50000000000000e-01,5.50000000000000e-01,5.06579076291744e-01
1.07140000000000e-07,5.50000000000000e-01,5.50000000000000e-01,5.63434978644485e-01
1.08365184900281e-07,5.50000000000000e-01,5.50000000000000e-01,5.35576806042988e-01
1.10495777512492e-07,5.50000000000000e-01,5.50000000000000e-01,5.61883156692302e-01
1.13408712107383e-07,5.50000000000000e-01,5.50000000000000e-01,5.37237743838217e-01
1.15100000000000e-07,5.50000000000000e-01,5.50000000000000e-01,5.60805848614553e-01
1.15110000000000e-07,4.95000000000056e-01,5.50000000000000e-01,5.57713347805464e-01
1.15130000000000e-07,3.85000000000077e-01,5.50000000000000e-01,5.53242502663743e-01
1.15170000000000e-07,1.65000000000118e-01,5.50000000000000e-01,5.50601719921372e-01
1.15200000000000e-07,7.69384556065233e-14,5.50000000000000e-01,5.51483316321731e-01
1.15208000000000e-07,0.00000000000000e+00,5.50000000000000e-01,5.51852888411686e-01
1.15224000000000e-07,0.00000000000000e+00,5.50000000000000e-01,5.52386487868648e-01
1.15256000000000e-07,0.00000000000000e+00,5.50000000000000e-01,5.52709940689229e-01
1.15320000000000e-07,0.00000000000000e+00,5.50000000000000e-01,5.51071414784875e-01
1.15448000000000e-07,0.00000000000000e+00,5.50000000000000e-01,5.37616198010008e-01
1.15704000000000e-07,0.00000000000000e+00,5.50000000000000e-01,5.33637399172918e-01
1.16216000000000e-07,0.00000000000000e+00,5.50000000000000e-01,5.52646421946831e-01
1.17047347675788e-07,0.00000000000000e+00,5.50000000000000e-01,5.46744992889562e-01
1.18389449978806e-07,0.00000000000000e+00,5.50000000000000e-01,5.51989453897237e-01
1.21073654584842e-07,0.00000000000000e+00,5.50000000000000e-01,5.47631882725843e-01
1.24873654584842e-07,0.00000000000000e+00,5.50000000000000e-01,5.51872963120598e-01
1.25000000000000e-07,0.00000000000000e+00,5.50000000000000e-01,5.49594097953967e-01
1.25010000000000e-07,5.49999999999168e-02,5.50000000000000e-01,5.49706541373487e-01
1.25030000000000e-07,1.64999999999896e-01,5.50000000000000e-01,5.49881503224326e-01
1.25070000000000e-07,3.84999999999854e-01,5.50000000000000e-01,5.50033135995667e-01
1.25100000000000e-07,5.49999999999896e-01,5.50000000000000e-01,5.49994406349211e-01
1.25108000000000e-07,5.50000000000000e-01,5.05999999999950e-01,5.49915020905876e-01
1.25124000000000e-07,5.50000000000000e-01,4.17999999999996e-01,5.49721679718415e-01
1.25156000000000e-07,5.50000000000000e-01,2.41999999999942e-01,5.49216103639061e-01
1.25200000000000e-07,5.50000000000000e-01,0.00000000000000e+00,5.48581206281109e-01
1.25206400000000e-07,5.50000000000000e-01,0.00000000000000e+00,5.48518523199926e-01
1.25219200000000e-07,5.50000000000000e-01,0.00000000000000e+00,5.48399882131013e-01
1.25244800000000e-07,5.50000000000000e-01,0.00000000000000e+00,5.48210323524946e-01
1.25296000000000e-07,5.50000000000000e-01,0.00000000000000e+00,5.47986592016030e-01
1.25398400000000e-07,5.50000000000000e-01,0.00000000000000e+00,5.47989344770520e-01
1.25603200000000e-07,5.50000000000000e-01,0.00000000000000e+00,5.48740285633409e-01
1.26012800000000e-07,5.50000000000000e-01,0.00000000000000e+00,5.49536286182840e-01
1.26575255128929e-07,5.50000000000000e-01,0.00000000000000e+00,5.49990272626065e-01
1.27658761174588e-07,5.50000000000000e-01,0.00000000000000e+00,5.50015155840996e-01
1.29114166200668e-07,5.50000000000000e-01,0.00000000000000e+00,5.49984443966080e-01
1.32024976252827e-07,5.50000000000000e-01,0.00000000000000e+00,5.50015278248950e-01
1.35100000000000e-07,5.49999999999900e-01,0.00000000000000e+00,5.49985140555016e-01
1.35110000000000e-07,4.94999999999838e-01,0.00000000000000e+00,5.49937383566339e-01
1.35130000000000e-07,3.84999999999858e-01,0.00000000000000e+00,5.49860585310668e-01
1.35170000000000e-07,1.64999999999900e-01,0.00000000000000e+00,5.50159295571414e-01
1.35200000000000e-07,0.00000000000000e+00,0.00000000000000e+00,5.51370605021085e-01
1.35208000000000e-07,0.00000000000000e+00,0.00000000000000e+00,5.51772326627562e-01
1.35224000000000e-07,0.00000000000000e+00,0.00000000000000e+00,5.52382564770655e-01
1.35256000000000e-07,0.00000000000000e+00,0.00000000000000e+00,5.52972551041378e-01
1.35320000000000e-07,0.00000000000000e+00,0.00000000000000e+00,5.53559957112101e-01
1.35448000000000e-07,0.00000000000000e+00,0.00000000000000e+00,5.53312506265779e-01
1.35704000000000e-07,0.00000000000000e+00,0.00000000000000e+00,5.49796931350180e-01
1.36167499574229e-07,0.00000000000000e+00,0.00000000000000e+00,5.49386339997040e-01
