Time,v(clk),v(data),v(out)
1.00000000000000e-08,5.00000000000000e-01,0.00000000000000e+00,-2.31311326613377e-05
1.00100000000000e-08,5.00000000000000e-01,4.99999999999988e-02,-1.94938511796222e-05
1.00300000000000e-08,5.00000000000000e-01,1.49999999999996e-01,-1.36717096049857e-05
1.00700000000000e-08,5.00000000000000e-01,3.49999999999992e-01,-6.83783437013807e-06
1.01000000000000e-08,5.00000000000000e-01,4.99999999999996e-01,-4.10526692278673e-06
1.01080000000000e-08,5.00000000000000e-01,5.00000000000000e-01,-3.61225110161179e-06
1.01240000000000e-08,5.00000000000000e-01,5.00000000000000e-01,-2.19205645359682e-06
1.01560000000000e-08,5.00000000000000e-01,5.00000000000000e-01,-1.49059288050146e-06
1.02200000000000e-08,5.00000000000000e-01,5.00000000000000e-01,3.51025790948020e-06
1.03480000000000e-08,5.00000000000000e-01,5.00000000000000e-01,7.87463356194396e-06
1.06040000000000e-08,5.00000000000000e-01,5.00000000000000e-01,5.78809977340791e-06
1.11160000000000e-08,5.00000000000000e-01,5.00000000000000e-01,5.07270875595850e-06
1.21400000000000e-08,5.00000000000000e-01,5.00000000000000e-01,5.45908768408068e-06
1.41880000000000e-08,5.00000000000000e-01,5.00000000000000e-01,4.36068642279677e-06
1.51000000000000e-08,5.00000000000000e-01,5.00000000000000e-01,4.45437418485333e-06
1.51100000000000e-08,4.49999999999993e-01,5.00000000000000e-01,-5.01235159846847e-05
1.51300000000000e-08,3.49999999999995e-01,5.00000000000000e-01,-1.43820350541543e-04
1.51700000000000e-08,1.50000000000000e-01,5.00000000000000e-01,-2.55985726911018e-04
1.52000000000000e-08,0.00000000000000e+00,5.00000000000000e-01,-2.04301792006492e-04
1.52080000000000e-08,0.00000000000000e+00,5.00000000000000e-01,-1.04518877603640e-04
1.52240000000000e-08,0.00000000000000e+00,5.00000000000000e-01,5.99960098797009e-05
1.52560000000000e-08,0.00000000000000e+00,5.00000000000000e-01,2.28421700708997e-04
1.53200000000000e-08,0.00000000000000e+00,5.00000000000000e-01,2.53537399519076e-04
1.54480000000000e-08,0.00000000000000e+00,5.00000000000000e-01,6.02496166712957e-05
1.57040000000000e-08,0.00000000000000e+00,5.00000000000000e-01,-1.52898788548440e-04
1.62160000000000e-08,0.00000000000000e+00,5.00000000000000e-01,-8.88991454571844e-06
1.72400000000000e-08,0.00000000000000e+00,5.00000000000000e-01,-7.08783876339396e-05
1.87301871708562e-08,0.00000000000000e+00,5.00000000000000e-01,1.08885044281378e-04
2.13152385158677e-08,0.00000000000000e+00,5.00000000000000e-01,-7.29386122508124e-05
2.47039481393483e-08,0.00000000000000e+00,5.00000000000000e-01,5.91032866390517e-05
2.50000000000000e-08,0.00000000000000e+00,5.00000000000000e-01,3.89259960877058e-05
2.50100000000000e-08,4.99999999999905e-02,5.00000000000000e-01,1.23981754495593e-04
2.50300000000000e-08,1.50000000000005e-01,5.00000000000000e-01,2.68007894208271e-04
2.50700000000000e-08,3.50000000000000e-01,5.00000000000000e-01,4.04211319914270e-04
2.51000000000000e-08,5.00000000000000e-01,5.00000000000000e-01,3.27047744025158e-04
2.51080000000000e-08,5.00000000000000e-01,5.00000000000000e-01,2.07240719759569e-04
2.51240000000000e-08,5.00000000000000e-01,5.00000000000000e-01,-1.18741787317959e-04
2.51560000000000e-08,5.00000000000000e-01,5.00000000000000e-01,-1.13587835257020e-03
2.52200000000000e-08,5.00000000000000e-01,5.00000000000000e-01,-3.16280638561881e-03
2.53480000000000e-08,5.00000000000000e-01,5.00000000000000e-01,-4.90832175433593e-03
2.56040000000000e-08,5.00000000000000e-01,5.00000000000000e-01,7.25691547706208e-02
2.61160000000000e-08,5.00000000000000e-01,5.00000000000000e-01,4.16779170626242e-01
2.71400000000000e-08,5.00000000000000e-01,5.00000000000000e-01,5.20220752210235e-01
2.84733424933771e-08,5.00000000000000e-01,5.00000000000000e-01,4.79035247450698e-01
3.01000000000000e-08,5.00000000000000e-01,5.00000000000000e-01,5.15365733650912e-01
3.01100000000000e-08,5.00000000000000e-01,4.50000000000026e-01,5.12820647363448e-01
3.01300000000000e-08,5.00000000000000e-01,3.50000000000012e-01,5.08488409671123e-01
3.01700000000000e-08,5.00000000000000e-01,1.50000000000017e-01,5.03603297079121e-01
3.02000000000000e-08,5.00000000000000e-01,1.21014309684142e-14,5.01914536736505e-01
3.02080000000000e-08,5.00000000000000e-01,0.00000000000000e+00,5.01641603405600e-01
3.02240000000000e-08,5.00000000000000e-01,0.00000000000000e+00,5.01204247028328e-01
3.02560000000000e-08,5.00000000000000e-01,0.00000000000000e+00,5.00639155566039e-01
3.03200000000000e-08,5.00000000000000e-01,0.00000000000000e+00,5.00129257877985e-01
3.04480000000000e-08,5.00000000000000e-01,0.00000000000000e+00,4.99914776333427e-01
3.07040000000000e-08,5.00000000000000e-01,0.00000000000000e+00,4.99885024824113e-01
3.12160000000000e-08,5.00000000000000e-01,0.00000000000000e+00,4.99900889195416e-01
3.19455945132930e-08,5.00000000000000e-01,0.00000000000000e+00,4.99894575797284e-01
3.34047835398791e-08,5.00000000000000e-01,0.00000000000000e+00,4.99906511397672e-01
3.51000000000000e-08,4.99999999999975e-01,0.00000000000000e+00,4.99919434777267e-01
3.51100000000000e-08,4.49999999999985e-01,0.00000000000000e+00,4.99858404520582e-01
3.51300000000000e-08,3.49999999999971e-01,0.00000000000000e+00,4.99753719596038e-01
3.51700000000000e-08,1.49999999999975e-01,0.00000000000000e+00,4.99791909267118e-01
3.52000000000000e-08,0.00000000000000e+00,0.00000000000000e+00,5.00434758663240e-01
3.52080000000000e-08,0.00000000000000e+00,0.00000000000000e+00,5.00716946705815e-01
3.52240000000000e-08,0.00000000000000e+00,0.00000000000000e+00,5.01178145106382e-01
3.52560000000000e-08,0.00000000000000e+00,0.00000000000000e+00,5.01714545103687e-01
3.53200000000000e-08,0.00000000000000e+00,0.00000000000000e+00,5.02006191261622e-01
3.54480000000000e-08,0.00000000000000e+00,0.00000000000000e+00,5.00053748067719e-01
3.57040000000000e-08,0.00000000000000e+00,0.00000000000000e+00,4.86271656745188e-01
3.62160000000000e-08,0.00000000000000e+00,0.00000000000000e+00,4.84367639210751e-01
3.70518542241039e-08,0.00000000000000e+00,0.00000000000000e+00,5.02218991614539e-01
3.83545743910878e-08,0.00000000000000e+00,0.00000000000000e+00,4.96581959421833e-01
3.91000000000000e-08,0.00000000000000e+00,0.00000000000000e+00,5.00865244844281e-01
3.92731077739772e-08,0.00000000000000e+00,0.00000000000000e+00,4.99910622121778e-01
3.96193233219316e-08,0.00000000000000e+00,0.00000000000000e+00,4.99252593776511e-01
4.03117544178404e-08,0.00000000000000e+00,0.00000000000000e+00,4.99536019882198e-01
4.16966166096580e-08,0.00000000000000e+00,0.00000000000000e+00,4.99472027571112e-01
4.44663409932932e-08,0.00000000000000e+00,0.00000000000000e+00,4.99649549566775e-01
4.50000000000000e-08,0.00000000000000e+00,0.00000000000000e+00,4.99586704283206e-01
4.50100000000000e-08,4.99999999999905e-02,0.00000000000000e+00,4.99648225722221e-01
4.50300000000000e-08,1.50000000000005e-01,0.00000000000000e+00,4.99744905196370e-01
4.50700000000000e-08,3.50000000000000e-01,0.00000000000000e+00,4.99802872656944e-01
4.51000000000000e-08,5.00000000000000e-01,0.00000000000000e+00,4.99721524222549e-01
4.51080000000000e-08,5.00000000000000e-01,0.00000000000000e+00,4.99655909167838e-01
4.51240000000000e-08,5.00000000000000e-01,0.00000000000000e+00,4.99541572150033e-01
4.51560000000000e-08,5.00000000000000e-01,0.00000000000000e+00,4.99395100945036e-01
4.52200000000000e-08,5.00000000000000e-01,0.00000000000000e+00,4.99257925303146e-01
4.53480000000000e-08,5.00000000000000e-01,0.00000000000000e+00,4.99404658058356e-01
4.56040000000000e-08,5.00000000000000e-01,0.00000000000000e+00,5.03392459774435e-01
4.61160000000000e-08,5.00000000000000e-01,0.00000000000000e+00,2.83563474838247e-01
4.71400000000000e-08,5.00000000000000e-01,0.00000000000000e+00,-2.58358091834904e-02
4.82266359745170e-08,5.00000000000000e-01,0.00000000000000e+00,2.43623008968905e-02
5.00000000000000e-08,5.00000000000000e-01,0.00000000000000e+00,-1.69672824285908e-02
5.00100000000000e-08,5.00000000000000e-01,4.99999999999905e-02,-1.51383501206695e-02
5.00300000000000e-08,5.00000000000000e-01,1.49999999999972e-01,-1.15493006167583e-02
5.00700000000000e-08,5.00000000000000e-01,3.50000000000000e-01,-6.27324322482265e-03
5.01000000000000e-08,5.00000000000000e-01,5.00000000000000e-01,-4.05866243412423e-03
5.01080000000000e-08,5.00000000000000e-01,5.00000000000000e-01,-3.64055569951668e-03
5.01240000000000e-08,5.00000000000000e-01,5.00000000000000e-01,-2.88418252717750e-03
5.01560000000000e-08,5.00000000000000e-01,5.00000000000000e-01,-1.80986825273223e-03
5.02200000000000e-08,5.00000000000000e-01,5.00000000000000e-01,-6.69043775665810e-04
5.03480000000000e-08,5.00000000000000e-01,5.00000000000000e-01,-2.56850155958693e-05
5.06040000000000e-08,5.00000000000000e-01,5.00000000000000e-01,8.10021644706560e-06
5.11160000000001e-08,5.00000000000000e-01,5.00000000000000e-01,-4.44279059177641e-06
5.21400000000002e-08,5.00000000000000e-01,5.00000000000000e-01,5.84854001065872e-06
5.41880000000003e-08,5.00000000000000e-01,5.00000000000000e-01,-3.41671624456323e-06
5.51000000000000e-08,5.00000000000000e-01,5.00000000000000e-01,3.58587403427851e-06
5.51100000000000e-08,4.50000000000018e-01,5.00000000000000e-01,-5.41712207561967e-05
5.51300000000000e-08,3.50000000000004e-01,5.00000000000000e-01,-1.47474576728590e-04
5.51700000000000e-08,1.50000000000008e-01,5.00000000000000e-01,-2.50638197009323e-04
5.52000000000000e-08,0.00000000000000e+00,5.00000000000000e-01,-2.03017086208193e-04
5.52080000000000e-08,0.00000000000000e+00,5.00000000000000e-01,-1.04407102471324e-04
5.52240000000000e-08,0.00000000000000e+00,5.00000000000000e-01,5.38832799734795e-05
5.52560000000000e-08,0.00000000000000e+00,5.00000000000000e-01,2.04986212536687e-04
5.53200000000000e-08,0.00000000000000e+00,5.00000000000000e-01,2.45092569758264e-04
5.54480000000000e-08,0.00000000000000e+00,5.00000000000000e-01,2.34645184653513e-05
5.57040000000000e-08,0.00000000000000e+00,5.00000000000000e-01,-4.13452437588498e-04
5.62160000000000e-08,0.00000000000000e+00,5.00000000000000e-01,5.31383089219864e-05
5.72400000000000e-08,0.00000000000000e+00,5.00000000000000e-01,-9.31864681692303e-05
5.87305139933169e-08,0.00000000000000e+00,5.00000000000000e-01,1.10359182497409e-04
6.13163079978982e-08,0.00000000000000e+00,5.00000000000000e-01,-6.32122492858983e-05
6.47059814308758e-08,0.00000000000000e+00,5.00000000000000e-01,4.36196342571936e-05
6.50000000000000e-08,0.00000000000000e+00,5.00000000000000e-01,8.68944419050409e-05
6.50100000000000e-08,4.99999999999905e-02,5.00000000000000e-01,1.53982705840522e-04
6.50300000000000e-08,1.49999999999972e-01,5.00000000000000e-01,2.75625358035152e-04
6.50700000000000e-08,3.49999999999934e-01,5.00000000000000e-01,3.99927672267861e-04
6.51000000000000e-08,4.99999999999971e-01,5.00000000000000e-01,3.20836173353788e-04
6.51080000000000e-08,5.00000000000000e-01,5.00000000000000e-01,2.01407727998093e-04
6.51240000000000e-08,5.00000000000000e-01,5.00000000000000e-01,-1.23807451218663e-04
6.51560000000000e-08,5.00000000000000e-01,5.00000000000000e-01,-1.13933113259781e-03
6.52200000000000e-08,5.00000000000000e-01,5.00000000000000e-01,-3.16430234686668e-03
6.53480000000000e-08,5.00000000000000e-01,5.00000000000000e-01,-4.90889446827471e-03
6.56040000000000e-08,5.00000000000000e-01,5.00000000000000e-01,7.25580162848874e-02
6.61159999999999e-08,5.00000000000000e-01,5.00000000000000e-01,4.16768456318155e-01
6.71399999999999e-08,5.00000000000000e-01,5.00000000000000e-01,5.20222760514237e-01
6.84733166955620e-08,5.00000000000000e-01,5.00000000000000e-01,4.79033366641148e-01
7.01000000000000e-08,5.00000000000000e-01,5.00000000000000e-01,5.15367344839624e-01
7.01100000000000e-08,5.00000000000000e-01,4.50000000000010e-01,5.12821957897829e-01
7.01300000000000e-08,5.00000000000000e-01,3.50000000000028e-01,5.08489231361332e-01
7.01700000000000e-08,5.00000000000000e-01,1.50000000000066e-01,5.03603498851036e-01
7.02000000000000e-08,5.00000000000000e-01,2.86437540353290e-14,5.01914673965607e-01
7.02080000000000e-08,5.00000000000000e-01,0.00000000000000e+00,5.01641677254499e-01
7.02240000000000e-08,5.00000000000000e-01,0.00000000000000e+00,5.01204228107473e-01
7.02560000000000e-08,5.00000000000000e-01,0.00000000000000e+00,5.00639075347562e-01
7.03200000000000e-08,5.00000000000000e-01,0.00000000000000e+00,5.00129293105764e-01
7.04480000000000e-08,5.00000000000000e-01,0.00000000000000e+00,4.99914809582580e-01
7.07040000000000e-08,5.00000000000000e-01,0.00000000000000e+00,4.99885044036445e-01
7.12159999999999e-08,5.00000000000000e-01,0.00000000000000e+00,4.99900839168330e-01
7.19455938883719e-08,5.00000000000000e-01,0.00000000000000e+00,4.99894616645092e-01
7.34047816651159e-08,5.00000000000000e-01,0.00000000000000e+00,4.99906470322614e-01
7.51000000000000e-08,5.00000000000000e-01,0.00000000000000e+00,4.99919475023400e-01
7.51100000000000e-08,4.50000000000051e-01,0.00000000000000e+00,4.99858425852735e-01
7.51300000000000e-08,3.50000000000070e-01,0.00000000000000e+00,4.99753727917869e-01
7.51700000000000e-08,1.50000000000108e-01,0.00000000000000e+00,4.99791897266042e-01
7.52000000000000e-08,6.99995617026161e-14,0.00000000000000e+00,5.00434750793114e-01
7.52080000000000e-08,0.00000000000000e+00,0.00000000000000e+00,5.00716939599111e-01
7.52240000000000e-08,0.00000000000000e+00,0.00000000000000e+00,5.01178139315044e-01
7.52560000000000e-08,0.00000000000000e+00,0.00000000000000e+00,5.01714540360287e-01
7.53200000000000e-08,0.00000000000000e+00,0.00000000000000e+00,5.02006183327245e-01
7.54480000000000e-08,0.00000000000000e+00,0.00000000000000e+00,5.00053708969943e-01
7.57040000000000e-08,0.00000000000000e+00,0.00000000000000e+00,4.86271583628371e-01
7.62159999999999e-08,0.00000000000000e+00,0.00000000000000e+00,4.84367651287944e-01
7.70518531177414e-08,0.00000000000000e+00,0.00000000000000e+00,5.02219002195633e-01
7.81000000000000e-08,0.00000000000000e+00,0.00000000000000e+00,4.96701022565670e-01
7.82302721698254e-08,0.00000000000000e+00,0.00000000000000e+00,4.98118821923235e-01
7.84908165094761e-08,0.00000000000000e+00,0.00000000000000e+00,4.99390007307226e-01
7.90119051887777e-08,0.00000000000000e+00,0.00000000000000e+00,4.99258723904601e-01
8.00540825473807e-08,0.00000000000000e+00,0.00000000000000e+00,4.99480510368678e-01
8.21384372645867e-08,0.00000000000000e+00,0.00000000000000e+00,4.99511080962916e-01
8.50000000000000e-08,0.00000000000000e+00,0.00000000000000e+00,4.99638408528810e-01
8.50100000000000e-08,4.99999999999905e-02,0.00000000000000e+00,4.99701268144535e-01
8.50300000000000e-08,1.49999999999972e-01,0.00000000000000e+00,4.99796898843988e-01
8.50700000000000e-08,3.49999999999934e-01,0.00000000000000e+00,4.99842867769278e-01
8.51000000000000e-08,4.99999999999971e-01,0.00000000000000e+00,4.99751796986160e-01
8.51080000000000e-08,5.00000000000000e-01,0.00000000000000e+00,4.99685526633535e-01
8.51240000000000e-08,5.00000000000000e-01,0.00000000000000e+00,4.99569721336597e-01
8.51560000000000e-08,5.00000000000000e-01,0.00000000000000e+00,4.99416447073169e-01
8.52200000000000e-08,5.00000000000000e-01,0.00000000000000e+00,4.99262097943667e-01
8.53480000000000e-08,5.00000000000000e-01,0.00000000000000e+00,4.99396446954325e-01
8.56040000000000e-08,5.00000000000000e-01,0.00000000000000e+00,5.03393044085794e-01
8.61159999999999e-08,5.00000000000000e-01,0.00000000000000e+00,2.83600195957245e-01
8.71399999999999e-08,5.00000000000000e-01,0.00000000000000e+00,-2.58242846658890e-02
8.82267165208309e-08,5.00000000000000e-01,0.00000000000000e+00,2.43510086171364e-02
9.00000000000000e-08,5.00000000000000e-01,0.00000000000000e+00,-1.69594458950111e-02
9.00100000000000e-08,5.00000000000000e-01,4.99999999999905e-02,-1.51316492436986e-02
9.00300000000000e-08,5.00000000000000e-01,1.49999999999972e-01,-1.15445251917627e-02
9.00700000000000e-08,5.00000000000000e-01,3.49999999999934e-01,-6.27083976563576e-03
9.01000000000000e-08,5.00000000000000e-01,4.99999999999971e-01,-4.05719793797282e-03
9.01080000000000e-08,5.00000000000000e-01,5.00000000000000e-01,-3.63925631505279e-03
9.01240000000000e-08,5.00000000000000e-01,5.00000000000000e-01,-2.88318112543090e-03
9.01560000000000e-08,5.00000000000000e-01,5.00000000000000e-01,-1.80927055196192e-03
9.02200000000000e-08,5.00000000000000e-01,5.00000000000000e-01,-6.68846073898714e-04
9.03480000000000e-08,5.00000000000000e-01,5.00000000000000e-01,-2.56824260249887e-05
9.06040000000000e-08,5.00000000000000e-01,5.00000000000000e-01,8.10010177089253e-06
9.11159999999999e-08,5.00000000000000e-01,5.00000000000000e-01,-4.44270269216694e-06
9.21399999999999e-08,5.00000000000000e-01,5.00000000000000e-01,5.84783996093134e-06
9.41879999999998e-08,5.00000000000000e-01,5.00000000000000e-01,-3.41666880184768e-06
9.51000000000000e-08,5.00000000000000e-01,5.00000000000000e-01,3.58545314338692e-06
9.51100000000000e-08,4.50000000000051e-01,5.00000000000000e-01,-5.41712890478746e-05
9.51300000000000e-08,3.50000000000070e-01,5.00000000000000e-01,-1.47474790381845e-04
9.51700000000000e-08,1.50000000000108e-01,5.00000000000000e-01,-2.50638609718877e-04
9.52000000000000e-08,6.99995617026161e-14,5.00000000000000e-01,-2.03017494497047e-04
9.52080000000000e-08,0.00000000000000e+00,5.00000000000000e-01,-1.04407540697196e-04
9.52240000000000e-08,0.00000000000000e+00,5.00000000000000e-01,5.38828172791800e-05
9.52560000000000e-08,0.00000000000000e+00,5.00000000000000e-01,2.04985642805210e-04
9.53200000000000e-08,0.00000000000000e+00,5.00000000000000e-01,2.45091242331207e-04
9.54480000000000e-08,0.00000000000000e+00,5.00000000000000e-01,2.34576624463766e-05
9.57040000000000e-08,0.00000000000000e+00,5.00000000000000e-01,-4.13526360971032e-04
9.62159999999999e-08,0.00000000000000e+00,5.00000000000000e-01,5.31511760283095e-05
9.72399999999999e-08,0.00000000000000e+00,5.00000000000000e-01,-9.31881711228166e-05
9.87305140847679e-08,0.00000000000000e+00,5.00000000000000e-01,1.10355276440022e-04
1.01316308232795e-07,0.00000000000000e+00,5.00000000000000e-01,-6.32058764166864e-05
1.04705981843323e-07,0.00000000000000e+00,5.00000000000000e-01,4.36116643433748e-05
1.05000000000000e-07,0.00000000000000e+00,5.00000000000000e-01,8.69107764051753e-05
1.05010000000000e-07,4.99999999999905e-02,5.00000000000000e-01,1.53993182483547e-04
1.05030000000000e-07,1.49999999999972e-01,5.00000000000000e-01,2.75628467394561e-04
1.05070000000000e-07,3.49999999999934e-01,5.00000000000000e-01,3.99926692256809e-04
1.05100000000000e-07,4.99999999999971e-01,5.00000000000000e-01,3.20834434901829e-04
1.05108000000000e-07,5.00000000000000e-01,5.00000000000000e-01,2.01406066402864e-04
1.05124000000000e-07,5.00000000000000e-01,5.00000000000000e-01,-1.23808958920051e-04
1.05156000000000e-07,5.00000000000000e-01,5.00000000000000e-01,-1.13933225360736e-03
1.05220000000000e-07,5.00000000000000e-01,5.00000000000000e-01,-3.16430288507759e-03
1.05348000000000e-07,5.00000000000000e-01,5.00000000000000e-01,-4.90889459769956e-03
1.05604000000000e-07,5.00000000000000e-01,5.00000000000000e-01,7.25580147779753e-02
1.06116000000000e-07,5.00000000000000e-01,5.00000000000000e-01,4.16768455057344e-01
1.07140000000000e-07,5.00000000000000e-01,5.00000000000000e-01,5.20222760754495e-01
1.08473316691377e-07,5.00000000000000e-01,5.00000000000000e-01,4.79033366361549e-01
1.10100000000000e-07,5.00000000000000e-01,5.00000000000000e-01,5.15367345025775e-01
1.10110000000000e-07,5.00000000000000e-01,4.50000000000076e-01,5.12821958046232e-01
1.10130000000000e-07,5.00000000000000e-01,3.50000000000095e-01,5.08489231443387e-01
1.10170000000000e-07,5.00000000000000e-01,1.50000000000133e-01,5.03603498885440e-01
1.10200000000000e-07,5.00000000000000e-01,9.48130463029884e-14,5.01914673979907e-01
1.10208000000000e-07,5.00000000000000e-01,0.00000000000000e+00,5.01641677265763e-01
1.10224000000000e-07,5.00000000000000e-01,0.00000000000000e+00,5.01204228113434e-01
1.10256000000000e-07,5.00000000000000e-01,0.00000000000000e+00,5.00639075347545e-01
1.10320000000000e-07,5.00000000000000e-01,0.00000000000000e+00,5.00129293104024e-01
