Time,v(clk),v(data),v(out),v(reset)
1.00000000000000e-08,5.00000000000000e-01,0.00000000000000e+00,-1.52593332610794e-05,0.00000000000000e+00
1.00100000000000e-08,5.00000000000000e-01,4.99999999999988e-02,-1.20517914716026e-05,0.00000000000000e+00
1.00300000000000e-08,5.00000000000000e-01,1.49999999999996e-01,-6.82397047675060e-06,0.00000000000000e+00
1.00700000000000e-08,5.00000000000000e-01,3.49999999999992e-01,-2.42101714698767e-06,0.00000000000000e+00
1.01000000000000e-08,5.00000000000000e-01,4.99999999999996e-01,-2.41455801534146e-06,0.00000000000000e+00
1.01080000000000e-08,5.00000000000000e-01,5.00000000000000e-01,-2.10934826523623e-06,0.00000000000000e+00
1.01240000000000e-08,5.00000000000000e-01,5.00000000000000e-01,-1.19455013418424e-06,0.00000000000000e+00
1.01560000000000e-08,5.00000000000000e-01,5.00000000000000e-01,8.82553518544160e-07,0.00000000000000e+00
1.02200000000000e-08,5.00000000000000e-01,5.00000000000000e-01,2.21520198535191e-06,0.00000000000000e+00
1.03480000000000e-08,5.00000000000000e-01,5.00000000000000e-01,3.73006766361123e-06,0.00000000000000e+00
1.06040000000000e-08,5.00000000000000e-01,5.00000000000000e-01,1.72619550208031e-06,0.00000000000000e+00
1.11160000000000e-08,5.00000000000000e-01,5.00000000000000e-01,2.73010155509359e-06,0.00000000000000e+00
1.21400000000000e-08,5.00000000000000e-01,5.00000000000000e-01,1.63077404790029e-06,0.00000000000000e+00
1.41880000000000e-08,5.00000000000000e-01,5.00000000000000e-01,2.14968460657055e-06,0.00000000000000e+00
1.51000000000000e-08,5.00000000000000e-01,5.00000000000000e-01,1.43486935708266e-06,0.00000000000000e+00
1.51100000000000e-08,4.49999999999993e-01,5.00000000000000e-01,1.67125028819000e-04,5.00000000000071e-02
1.51300000000000e-08,3.49999999999995e-01,5.00000000000000e-01,3.65910596621617e-04,1.50000000000005e-01
1.51700000000000e-08,1.50000000000000e-01,5.00000000000000e-01,2.64186033751251e-04,3.50000000000000e-01
1.52000000000000e-08,0.00000000000000e+00,5.00000000000000e-01,1.24213508814260e-04,5.00000000000000e-01
1.52080000000000e-08,0.00000000000000e+00,5.00000000000000e-01,9.13695645356274e-05,5.00000000000000e-01
1.52240000000000e-08,0.00000000000000e+00,5.00000000000000e-01,4.64227889982183e-05,5.00000000000000e-01
1.52560000000000e-08,0.00000000000000e+00,5.00000000000000e-01,2.24063310245992e-05,5.00000000000000e-01
1.53200000000000e-08,0.00000000000000e+00,5.00000000000000e-01,2.63513587505371e-05,5.00000000000000e-01
1.54480000000000e-08,0.00000000000000e+00,5.00000000000000e-01,-2.98567306486960e-05,5.00000000000000e-01
1.57040000000000e-08,0.00000000000000e+00,5.00000000000000e-01,-1.12695669340742e-04,5.00000000000000e-01
1.62100195850751e-08,0.00000000000000e+00,5.00000000000000e-01,5.92593481154625e-06,5.00000000000000e-01
1.71750374488329e-08,0.00000000000000e+00,5.00000000000000e-01,-2.00469439792916e-05,5.00000000000000e-01
1.82920440810217e-08,0.00000000000000e+00,5.00000000000000e-01,7.98800731444619e-05,5.00000000000000e-01
2.05260573453992e-08,0.00000000000000e+00,5.00000000000000e-01,-9.37926135100159e-05,5.00000000000000e-01
2.34984529334888e-08,0.00000000000000e+00,5.00000000000000e-01,1.00166041130154e-04,5.00000000000000e-01
2.50000000000000e-08,0.00000000000000e+00,5.00000000000000e-01,-1.04443372868678e-04,5.00000000000000e-01
2.50100000000000e-08,4.99999999999905e-02,5.00000000000000e-01,1.54690831859206e-06,5.00000000000000e-01
2.50300000000000e-08,1.50000000000005e-01,5.00000000000000e-01,1.76890023281029e-04,5.00000000000000e-01
2.50700000000000e-08,3.50000000000000e-01,5.00000000000000e-01,3.46404858236032e-04,5.00000000000000e-01
2.51000000000000e-08,5.00000000000000e-01,5.00000000000000e-01,2.81059928717256e-04,5.00000000000000e-01
2.51080000000000e-08,5.00000000000000e-01,5.00000000000000e-01,1.62789481733060e-04,5.00000000000000e-01
2.51240000000000e-08,5.00000000000000e-01,5.00000000000000e-01,-1.63039287454911e-04,5.00000000000000e-01
2.51560000000000e-08,5.00000000000000e-01,5.00000000000000e-01,-1.16820133500387e-03,5.00000000000000e-01
2.52200000000000e-08,5.00000000000000e-01,5.00000000000000e-01,-3.12232840225982e-03,5.00000000000000e-01
2.53480000000000e-08,5.00000000000000e-01,5.00000000000000e-01,-5.22356857564717e-03,5.00000000000000e-01
2.56040000000000e-08,5.00000000000000e-01,5.00000000000000e-01,9.90094951458626e-02,5.00000000000000e-01
2.61160000000000e-08,5.00000000000000e-01,5.00000000000000e-01,4.66772431774274e-01,5.00000000000000e-01
2.71400000000000e-08,5.00000000000000e-01,5.00000000000000e-01,5.10742309896113e-01,5.00000000000000e-01
2.84397121600063e-08,5.00000000000000e-01,5.00000000000000e-01,4.87717198627101e-01,5.00000000000000e-01
3.06481334263435e-08,5.00000000000000e-01,5.00000000000000e-01,5.09438302333222e-01,5.00000000000000e-01
3.37171441221453e-08,5.00000000000000e-01,5.00000000000000e-01,4.89325724356716e-01,5.00000000000000e-01
3.51000000000000e-08,4.99999999999975e-01,5.00000000000000e-01,5.08424868408478e-01,5.00000000000000e-01
3.51100000000000e-08,4.49999999999985e-01,5.00000000000000e-01,5.06020927976415e-01,5.00000000000000e-01
3.51300000000000e-08,3.49999999999971e-01,5.00000000000000e-01,5.02587522887923e-01,5.00000000000000e-01
3.51700000000000e-08,1.49999999999975e-01,5.00000000000000e-01,5.00432451605665e-01,5.00000000000000e-01
3.52000000000000e-08,0.00000000000000e+00,5.00000000000000e-01,5.01160757717546e-01,5.00000000000000e-01
3.52080000000000e-08,0.00000000000000e+00,5.00000000000000e-01,5.01501132384390e-01,5.00000000000000e-01
3.52240000000000e-08,0.00000000000000e+00,5.00000000000000e-01,5.02005387021227e-01,5.00000000000000e-01
3.52560000000000e-08,0.00000000000000e+00,5.00000000000000e-01,5.02440472792790e-01,5.00000000000000e-01
3.53200000000000e-08,0.00000000000000e+00,5.00000000000000e-01,5.02024008575297e-01,5.00000000000000e-01
3.54480000000000e-08,0.00000000000000e+00,5.00000000000000e-01,4.92552238972322e-01,5.00000000000000e-01
3.57040000000000e-08,0.00000000000000e+00,5.00000000000000e-01,4.84112202192140e-01,5.00000000000000e-01
3.62160000000000e-08,0.00000000000000e+00,5.00000000000000e-01,5.00060457429912e-01,5.00000000000000e-01
3.72400000000000e-08,0.00000000000000e+00,5.00000000000000e-01,4.99258822848078e-01,5.00000000000000e-01
3.86273762444332e-08,0.00000000000000e+00,5.00000000000000e-01,5.00244033512050e-01,5.00000000000000e-01
4.14021287332994e-08,0.00000000000000e+00,5.00000000000000e-01,4.99459143910985e-01,5.00000000000000e-01
4.50000000000000e-08,0.00000000000000e+00,5.00000000000000e-01,5.00324100033430e-01,5.00000000000000e-01
4.50100000000000e-08,4.99999999999905e-02,5.00000000000000e-01,5.00162798108280e-01,4.50000000000010e-01
4.50300000000000e-08,1.50000000000005e-01,5.00000000000000e-01,4.99896678861179e-01,3.49999999999995e-01
4.50700000000000e-08,3.50000000000000e-01,5.00000000000000e-01,5.00037320425187e-01,1.50000000000000e-01
4.51000000000000e-08,5.00000000000000e-01,5.00000000000000e-01,5.02414222789124e-01,0.00000000000000e+00
4.51080000000000e-08,5.00000000000000e-01,5.00000000000000e-01,5.03451990900165e-01,0.00000000000000e+00
4.51240000000000e-08,5.00000000000000e-01,5.00000000000000e-01,5.05252132050309e-01,0.00000000000000e+00
4.51560000000000e-08,5.00000000000000e-01,5.00000000000000e-01,5.07992650608971e-01,0.00000000000000e+00
4.52200000000000e-08,5.00000000000000e-01,5.00000000000000e-01,5.13505594681156e-01,0.00000000000000e+00
4.53480000000000e-08,5.00000000000000e-01,5.00000000000000e-01,5.22245783808905e-01,0.00000000000000e+00
4.56040000000000e-08,5.00000000000000e-01,5.00000000000000e-01,2.53854419447098e-01,0.00000000000000e+00
4.61160000000000e-08,5.00000000000000e-01,5.00000000000000e-01,-4.07844405526004e-02,0.00000000000000e+00
4.67977488998012e-08,5.00000000000000e-01,5.00000000000000e-01,3.26579754676829e-02,0.00000000000000e+00
4.81612466994036e-08,5.00000000000000e-01,5.00000000000000e-01,-2.40335832789800e-02,0.00000000000000e+00
4.96511829658193e-08,5.00000000000000e-01,5.00000000000000e-01,2.23581792610537e-02,0.00000000000000e+00
5.01000000000000e-08,5.00000000000000e-01,4.99999999999971e-01,-1.19298672758493e-02,0.00000000000000e+00
5.03979872532831e-08,5.00000000000000e-01,5.00000000000000e-01,-1.85827228341400e-03,0.00000000000000e+00
5.09939617598494e-08,5.00000000000000e-01,5.00000000000000e-01,1.20957092287504e-03,0.00000000000000e+00
5.21859107729820e-08,5.00000000000000e-01,5.00000000000000e-01,-9.71128024064347e-04,0.00000000000000e+00
5.45698087992471e-08,5.00000000000000e-01,5.00000000000000e-01,8.77030807800632e-04,0.00000000000000e+00
5.51000000000000e-08,5.00000000000000e-01,5.00000000000000e-01,-5.44564718188803e-04,0.00000000000000e+00
5.51100000000000e-08,4.50000000000018e-01,5.00000000000000e-01,-2.89271356594824e-04,4.99999999999822e-02
5.51300000000000e-08,3.50000000000004e-01,5.00000000000000e-01,4.95142502129758e-05,1.49999999999996e-01
5.51700000000000e-08,1.50000000000008e-01,5.00000000000000e-01,9.46660623191431e-05,3.49999999999992e-01
5.52000000000000e-08,0.00000000000000e+00,5.00000000000000e-01,1.49165698553333e-05,5.00000000000000e-01
5.52080000000000e-08,0.00000000000000e+00,5.00000000000000e-01,-7.45295936166457e-06,5.00000000000000e-01
5.52240000000000e-08,0.00000000000000e+00,5.00000000000000e-01,-3.32246638247366e-05,5.00000000000000e-01
5.52560000000000e-08,0.00000000000000e+00,5.00000000000000e-01,-3.15529543376686e-05,5.00000000000000e-01
5.53200000000000e-08,0.00000000000000e+00,5.00000000000000e-01,-1.46672179375182e-05,5.00000000000000e-01
5.54480000000000e-08,0.00000000000000e+00,5.00000000000000e-01,-4.69168866634367e-04,5.00000000000000e-01
5.57040000000000e-08,0.00000000000000e+00,5.00000000000000e-01,-4.52132463273403e-04,5.00000000000000e-01
5.61706315584458e-08,0.00000000000000e+00,5.00000000000000e-01,2.90981365563424e-04,5.00000000000000e-01
5.71038946753373e-08,0.00000000000000e+00,5.00000000000000e-01,-2.93665839688819e-04,5.00000000000000e-01
5.81864368592827e-08,0.00000000000000e+00,5.00000000000000e-01,2.65260427746664e-04,5.00000000000000e-01
6.03515212271733e-08,0.00000000000000e+00,5.00000000000000e-01,-2.35008887625134e-04,5.00000000000000e-01
6.31702319333485e-08,0.00000000000000e+00,5.00000000000000e-01,2.14954433149114e-04,5.00000000000000e-01
6.50000000000000e-08,0.00000000000000e+00,5.00000000000000e-01,-1.83045832450272e-04,5.00000000000000e-01
6.50100000000000e-08,4.99999999999905e-02,5.00000000000000e-01,-7.09028764330974e-05,5.00000000000000e-01
6.50300000000000e-08,1.49999999999972e-01,5.00000000000000e-01,1.13752853527292e-04,5.00000000000000e-01
6.50700000000000e-08,3.49999999999934e-01,5.00000000000000e-01,3.06009244882562e-04,5.00000000000000e-01
6.51000000000000e-08,4.99999999999971e-01,5.00000000000000e-01,2.56582456680900e-04,5.00000000000000e-01
6.51080000000000e-08,5.00000000000000e-01,5.00000000000000e-01,1.41304275951187e-04,5.00000000000000e-01
6.51240000000000e-08,5.00000000000000e-01,5.00000000000000e-01,-1.78814769801333e-04,5.00000000000000e-01
6.51560000000000e-08,5.00000000000000e-01,5.00000000000000e-01,-1.17503420226776e-03,5.00000000000000e-01
6.52200000000000e-08,5.00000000000000e-01,5.00000000000000e-01,-3.11996259253243e-03,5.00000000000000e-01
6.53480000000000e-08,5.00000000000000e-01,5.00000000000000e-01,-5.23319395915408e-03,5.00000000000000e-01
6.56040000000000e-08,5.00000000000000e-01,5.00000000000000e-01,9.77464268796510e-02,5.00000000000000e-01
6.61159999999999e-08,5.00000000000000e-01,5.00000000000000e-01,4.66139862206572e-01,5.00000000000000e-01
6.71399999999999e-08,5.00000000000000e-01,5.00000000000000e-01,5.10931878291752e-01,5.00000000000000e-01
6.84405358177513e-08,5.00000000000000e-01,5.00000000000000e-01,4.87493163595249e-01,5.00000000000000e-01
7.06505543278312e-08,5.00000000000000e-01,5.00000000000000e-01,5.09612653912842e-01,5.00000000000000e-01
7.37232837652808e-08,5.00000000000000e-01,5.00000000000000e-01,4.89123267571073e-01,5.00000000000000e-01
7.51000000000000e-08,5.00000000000000e-01,5.00000000000000e-01,5.08581299621076e-01,5.00000000000000e-01
7.51100000000000e-08,4.50000000000051e-01,5.00000000000000e-01,5.06130499588512e-01,5.00000000000000e-01
7.51300000000000e-08,3.50000000000070e-01,5.00000000000000e-01,5.02631937518709e-01,5.00000000000000e-01
7.51700000000000e-08,1.50000000000108e-01,5.00000000000000e-01,5.00435823131332e-01,5.00000000000000e-01
7.52000000000000e-08,6.99995617026161e-14,5.00000000000000e-01,5.01161177892154e-01,5.00000000000000e-01
7.52080000000000e-08,0.00000000000000e+00,5.00000000000000e-01,5.01501157933926e-01,5.00000000000000e-01
7.52240000000000e-08,0.00000000000000e+00,5.00000000000000e-01,5.02004828326342e-01,5.00000000000000e-01
7.52560000000000e-08,0.00000000000000e+00,5.00000000000000e-01,5.02439575190619e-01,5.00000000000000e-01
7.53200000000000e-08,0.00000000000000e+00,5.00000000000000e-01,5.02024021013822e-01,5.00000000000000e-01
7.54480000000000e-08,0.00000000000000e+00,5.00000000000000e-01,4.92553246626448e-01,5.00000000000000e-01
7.57040000000000e-08,0.00000000000000e+00,5.00000000000000e-01,4.84111941187193e-01,5.00000000000000e-01
7.62159999999999e-08,0.00000000000000e+00,5.00000000000000e-01,5.00059920453844e-01,5.00000000000000e-01
7.72399999999999e-08,0.00000000000000e+00,5.00000000000000e-01,4.99259380042646e-01,5.00000000000000e-01
7.86273661661116e-08,0.00000000000000e+00,5.00000000000000e-01,5.00243537393170e-01,5.00000000000000e-01
8.14020984983349e-08,0.00000000000000e+00,5.00000000000000e-01,4.99459622562849e-01,5.00000000000000e-01
8.50000000000000e-08,0.00000000000000e+00,5.00000000000000e-01,5.00323640494563e-01,5.00000000000000e-01
8.50100000000000e-08,4.99999999999905e-02,5.00000000000000e-01,5.00162375722780e-01,4.50000000000010e-01
8.50300000000000e-08,1.49999999999972e-01,5.00000000000000e-01,4.99896451444525e-01,3.50000000000028e-01
8.50700000000000e-08,3.49999999999934e-01,5.00000000000000e-01,5.00037308684049e-01,1.50000000000066e-01
8.51000000000000e-08,4.99999999999971e-01,5.00000000000000e-01,5.02414198513967e-01,2.86437540353290e-14
8.51080000000000e-08,5.00000000000000e-01,5.00000000000000e-01,5.03451970239655e-01,0.00000000000000e+00
8.51240000000000e-08,5.00000000000000e-01,5.00000000000000e-01,5.05252114150966e-01,0.00000000000000e+00
8.51560000000000e-08,5.00000000000000e-01,5.00000000000000e-01,5.07992629816437e-01,0.00000000000000e+00
8.52200000000000e-08,5.00000000000000e-01,5.00000000000000e-01,5.13505559172832e-01,0.00000000000000e+00
8.53480000000000e-08,5.00000000000000e-01,5.00000000000000e-01,5.22245771432264e-01,0.00000000000000e+00
8.56040000000000e-08,5.00000000000000e-01,5.00000000000000e-01,2.53853841865501e-01,0.00000000000000e+00
8.61159999999999e-08,5.00000000000000e-01,5.00000000000000e-01,-4.07847349452935e-02,0.00000000000000e+00
8.67977478467268e-08,5.00000000000000e-01,5.00000000000000e-01,3.26584118204732e-02,0.00000000000000e+00
8.81612435401805e-08,5.00000000000000e-01,5.00000000000000e-01,-2.40337556713323e-02,0.00000000000000e+00
8.96511760065940e-08,5.00000000000000e-01,5.00000000000000e-01,2.23583978530216e-02,0.00000000000000e+00
9.01000000000000e-08,5.00000000000000e-01,4.99999999999971e-01,-1.19299980978035e-02,0.00000000000000e+00
9.03979864932827e-08,5.00000000000000e-01,5.00000000000000e-01,-1.85830498278260e-03,0.00000000000000e+00
9.09939594798481e-08,5.00000000000000e-01,5.00000000000000e-01,1.20958950053434e-03,0.00000000000000e+00
9.21859054529789e-08,5.00000000000000e-01,5.00000000000000e-01,-9.71141457538128e-04,0.00000000000000e+00
9.45697973992405e-08,5.00000000000000e-01,5.00000000000000e-01,8.77042526622319e-04,0.00000000000000e+00
9.51000000000000e-08,5.00000000000000e-01,5.00000000000000e-01,-5.44576780846183e-04,0.00000000000000e+00
9.51100000000000e-08,4.50000000000051e-01,5.00000000000000e-01,-2.89282173692514e-04,4.99999999999492e-02
9.51300000000000e-08,3.50000000000070e-01,5.00000000000000e-01,4.95060104306264e-05,1.49999999999930e-01
9.51700000000000e-08,1.50000000000108e-01,5.00000000000000e-01,9.46613399357768e-05,3.49999999999892e-01
9.52000000000000e-08,6.99995617026161e-14,5.00000000000000e-01,1.49133825371600e-05,4.99999999999930e-01
9.52080000000000e-08,0.00000000000000e+00,5.00000000000000e-01,-7.45587284548682e-06,5.00000000000000e-01
9.52240000000000e-08,0.00000000000000e+00,5.00000000000000e-01,-3.32271075500767e-05,5.00000000000000e-01
9.52560000000000e-08,0.00000000000000e+00,5.00000000000000e-01,-3.15546546049220e-05,5.00000000000000e-01
9.53200000000000e-08,0.00000000000000e+00,5.00000000000000e-01,-1.46678563604161e-05,5.00000000000000e-01
9.54480000000000e-08,0.00000000000000e+00,5.00000000000000e-01,-4.69169015842322e-04,5.00000000000000e-01
9.57040000000000e-08,0.00000000000000e+00,5.00000000000000e-01,-4.52133902907277e-04,5.00000000000000e-01
9.61706185513323e-08,0.00000000000000e+00,5.00000000000000e-01,2.90977816081488e-04,5.00000000000000e-01
9.71038556539970e-08,0.00000000000000e+00,5.00000000000000e-01,-2.93665087736303e-04,5.00000000000000e-01
9.81863912812480e-08,0.00000000000000e+00,5.00000000000000e-01,2.65260635935719e-04,5.00000000000000e-01
1.00351462535750e-07,0.00000000000000e+00,5.00000000000000e-01,-2.35007637541774e-04,5.00000000000000e-01
1.03170106890937e-07,0.00000000000000e+00,5.00000000000000e-01,2.14952104379517e-04,5.00000000000000e-01
1.05000000000000e-07,0.00000000000000e+00,5.00000000000000e-01,-1.83044741185391e-04,5.00000000000000e-01
1.05010000000000e-07,4.99999999999905e-02,5.00000000000000e-01,-7.09021126181764e-05,5.00000000000000e-01
1.05030000000000e-07,1.49999999999972e-01,5.00000000000000e-01,1.13753159153705e-04,5.00000000000000e-01
1.05070000000000e-07,3.49999999999934e-01,5.00000000000000e-01,3.06009687132194e-04,5.00000000000000e-01
1.05100000000000e-07,4.99999999999971e-01,5.00000000000000e-01,2.56583980490277e-04,5.00000000000000e-01
1.05108000000000e-07,5.00000000000000e-01,5.00000000000000e-01,1.41306756035416e-04,5.00000000000000e-01
1.05124000000000e-07,5.00000000000000e-01,5.00000000000000e-01,-1.78809993748474e-04,5.00000000000000e-01
1.05156000000000e-07,5.00000000000000e-01,5.00000000000000e-01,-1.17502669681931e-03,5.00000000000000e-01
1.05220000000000e-07,5.00000000000000e-01,5.00000000000000e-01,-3.11995682718980e-03,5.00000000000000e-01
1.05348000000000e-07,5.00000000000000e-01,5.00000000000000e-01,-5.23319512358045e-03,5.00000000000000e-01
1.05604000000000e-07,5.00000000000000e-01,5.00000000000000e-01,9.77461899089559e-02,5.00000000000000e-01
1.06116000000000e-07,5.00000000000000e-01,5.00000000000000e-01,4.66139742817911e-01,5.00000000000000e-01
1.07140000000000e-07,5.00000000000000e-01,5.00000000000000e-01,5.10931914006620e-01,5.00000000000000e-01
1.08440535972411e-07,5.00000000000000e-01,5.00000000000000e-01,4.87493121451197e-01,5.00000000000000e-01
1.10650554789968e-07,5.00000000000000e-01,5.00000000000000e-01,5.09612686754745e-01,5.00000000000000e-01
1.13723284928373e-07,5.00000000000000e-01,5.00000000000000e-01,4.89123229435085e-01,5.00000000000000e-01
1.15100000000000e-07,5.00000000000000e-01,5.00000000000000e-01,5.08581329061339e-01,5.00000000000000e-01
1.15110000000000e-07,4.50000000000051e-01,5.00000000000000e-01,5.06130520215815e-01,5.00000000000000e-01
1.15130000000000e-07,3.50000000000070e-01,5.00000000000000e-01,5.02631945874767e-01,5.00000000000000e-01
1.15170000000000e-07,1.50000000000108e-01,5.00000000000000e-01,5.00435823750895e-01,5.00000000000000e-01
1.15200000000000e-07,6.99995617026161e-14,5.00000000000000e-01,5.01161177968897e-01,5.00000000000000e-01
1.15208000000000e-07,0.00000000000000e+00,5.00000000000000e-01,5.01501157936414e-01,5.00000000000000e-01
1.15224000000000e-07,0.00000000000000e+00,5.00000000000000e-01,5.02004828224242e-01,5.00000000000000e-01
1.15256000000000e-07,0.00000000000000e+00,5.00000000000000e-01,5.02439575022757e-01,5.00000000000000e-01
1.15320000000000e-07,0.00000000000000e+00,5.00000000000000e-01,5.02024021024775e-01,5.00000000000000e-01
