Time,v(clk),v(data),v(out),v(reset)
1.00000000000000e-08,5.00000000000000e-01,0.00000000000000e+00,1.37492951780144e-05,0.00000000000000e+00
1.00100000000000e-08,5.00000000000000e-01,4.99999999999988e-02,1.28116244275320e-05,0.00000000000000e+00
1.00300000000000e-08,5.00000000000000e-01,1.49999999999996e-01,1.14438819291129e-05,0.00000000000000e+00
1.00700000000000e-08,5.00000000000000e-01,3.49999999999992e-01,9.60061305092103e-06,0.00000000000000e+00
1.01000000000000e-08,5.00000000000000e-01,4.99999999999996e-01,8.72396392908453e-06,0.00000000000000e+00
1.01080000000000e-08,5.00000000000000e-01,5.00000000000000e-01,8.59356520346855e-06,0.00000000000000e+00
1.01240000000000e-08,5.00000000000000e-01,5.00000000000000e-01,8.97712709527210e-06,0.00000000000000e+00
1.01560000000000e-08,5.00000000000000e-01,5.00000000000000e-01,9.33789161649407e-06,0.00000000000000e+00
1.02200000000000e-08,5.00000000000000e-01,5.00000000000000e-01,1.12478396460183e-05,0.00000000000000e+00
1.03480000000000e-08,5.00000000000000e-01,5.00000000000000e-01,1.21372730459215e-05,0.00000000000000e+00
1.06040000000000e-08,5.00000000000000e-01,5.00000000000000e-01,1.27666032056703e-05,0.00000000000000e+00
1.11160000000000e-08,5.00000000000000e-01,5.00000000000000e-01,1.24187950973804e-05,0.00000000000000e+00
1.21400000000000e-08,5.00000000000000e-01,5.00000000000000e-01,1.21481359405566e-05,0.00000000000000e+00
1.41880000000000e-08,5.00000000000000e-01,5.00000000000000e-01,1.08095280612419e-05,0.00000000000000e+00
1.51000000000000e-08,5.00000000000000e-01,5.00000000000000e-01,1.09215549137388e-05,0.00000000000000e+00
1.51100000000000e-08,4.49999999999993e-01,5.00000000000000e-01,1.70884866206068e-04,5.00000000000071e-02
1.51300000000000e-08,3.49999999999995e-01,5.00000000000000e-01,3.79486831874644e-04,1.50000000000005e-01
1.51700000000000e-08,1.50000000000000e-01,5.00000000000000e-01,3.86502618985103e-04,3.50000000000000e-01
1.52000000000000e-08,0.00000000000000e+00,5.00000000000000e-01,2.83041671446611e-04,5.00000000000000e-01
1.52080000000000e-08,0.00000000000000e+00,5.00000000000000e-01,2.35086198772792e-04,5.00000000000000e-01
1.52240000000000e-08,0.00000000000000e+00,5.00000000000000e-01,1.60494908738047e-04,5.00000000000000e-01
1.52560000000000e-08,0.00000000000000e+00,5.00000000000000e-01,8.83057103759979e-05,5.00000000000000e-01
1.53200000000000e-08,0.00000000000000e+00,5.00000000000000e-01,4.13372724109295e-05,5.00000000000000e-01
1.54480000000000e-08,0.00000000000000e+00,5.00000000000000e-01,-5.97185981760333e-05,5.00000000000000e-01
1.57040000000000e-08,0.00000000000000e+00,5.00000000000000e-01,-1.89587701915558e-04,5.00000000000000e-01
1.62160000000000e-08,0.00000000000000e+00,5.00000000000000e-01,4.30729162445020e-05,5.00000000000000e-01
1.71063146378213e-08,0.00000000000000e+00,5.00000000000000e-01,-9.72708108898900e-05,5.00000000000000e-01
1.85402361862281e-08,0.00000000000000e+00,5.00000000000000e-01,1.38533608584902e-04,5.00000000000000e-01
2.13774513590208e-08,0.00000000000000e+00,5.00000000000000e-01,-9.81271332108325e-05,5.00000000000000e-01
2.43896549211953e-08,0.00000000000000e+00,5.00000000000000e-01,9.17656029599178e-05,5.00000000000000e-01
2.50000000000000e-08,0.00000000000000e+00,5.00000000000000e-01,-4.66184397646639e-06,5.00000000000000e-01
2.50100000000000e-08,4.99999999999905e-02,5.00000000000000e-01,8.40269162189905e-05,5.00000000000000e-01
2.50300000000000e-08,1.50000000000005e-01,5.00000000000000e-01,2.40100388783762e-04,5.00000000000000e-01
2.50700000000000e-08,3.50000000000000e-01,5.00000000000000e-01,4.35141457984484e-04,5.00000000000000e-01
2.51000000000000e-08,5.00000000000000e-01,5.00000000000000e-01,4.51970014036719e-04,5.00000000000000e-01
2.51080000000000e-08,5.00000000000000e-01,5.00000000000000e-01,3.88871038813618e-04,5.00000000000000e-01
2.51240000000000e-08,5.00000000000000e-01,5.00000000000000e-01,2.45293449422680e-04,5.00000000000000e-01
2.51560000000000e-08,5.00000000000000e-01,5.00000000000000e-01,-1.97945767922245e-04,5.00000000000000e-01
2.52200000000000e-08,5.00000000000000e-01,5.00000000000000e-01,-1.54571687285901e-03,5.00000000000000e-01
2.53480000000000e-08,5.00000000000000e-01,5.00000000000000e-01,-3.80144956077789e-03,5.00000000000000e-01
2.56040000000000e-08,5.00000000000000e-01,5.00000000000000e-01,1.05202936855062e-02,5.00000000000000e-01
2.61160000000000e-08,5.00000000000000e-01,5.00000000000000e-01,3.51025997649209e-01,5.00000000000000e-01
2.71400000000000e-08,5.00000000000000e-01,5.00000000000000e-01,5.22629532293666e-01,5.00000000000000e-01
2.83653525694903e-08,5.00000000000000e-01,5.00000000000000e-01,4.79751126144235e-01,5.00000000000000e-01
3.08160577084708e-08,5.00000000000000e-01,5.00000000000000e-01,5.18683807684585e-01,5.00000000000000e-01
3.44007807223264e-08,5.00000000000000e-01,5.00000000000000e-01,4.81147573080064e-01,5.00000000000000e-01
3.51000000000000e-08,4.99999999999975e-01,5.00000000000000e-01,5.14957238920897e-01,5.00000000000000e-01
3.51100000000000e-08,4.49999999999985e-01,5.00000000000000e-01,5.11174282181080e-01,5.00000000000000e-01
3.51300000000000e-08,3.49999999999971e-01,5.00000000000000e-01,5.05506167367808e-01,5.00000000000000e-01
3.51700000000000e-08,1.49999999999975e-01,5.00000000000000e-01,5.01165393686220e-01,5.00000000000000e-01
3.52000000000000e-08,0.00000000000000e+00,5.00000000000000e-01,5.01318629387552e-01,5.00000000000000e-01
3.52080000000000e-08,0.00000000000000e+00,5.00000000000000e-01,5.01577384945435e-01,5.00000000000000e-01
3.52240000000000e-08,0.00000000000000e+00,5.00000000000000e-01,5.01963800183176e-01,5.00000000000000e-01
3.52560000000000e-08,0.00000000000000e+00,5.00000000000000e-01,5.02317289832664e-01,5.00000000000000e-01
3.53200000000000e-08,0.00000000000000e+00,5.00000000000000e-01,5.01996998785889e-01,5.00000000000000e-01
3.54480000000000e-08,0.00000000000000e+00,5.00000000000000e-01,4.95109898925447e-01,5.00000000000000e-01
3.57040000000000e-08,0.00000000000000e+00,5.00000000000000e-01,4.83059696791963e-01,5.00000000000000e-01
3.62160000000000e-08,0.00000000000000e+00,5.00000000000000e-01,4.96057518615434e-01,5.00000000000000e-01
3.72400000000000e-08,0.00000000000000e+00,5.00000000000000e-01,5.01519062236044e-01,5.00000000000000e-01
3.86124483549320e-08,0.00000000000000e+00,5.00000000000000e-01,4.97956660339334e-01,5.00000000000000e-01
4.13573450647958e-08,0.00000000000000e+00,5.00000000000000e-01,5.01246139873534e-01,5.00000000000000e-01
4.50000000000000e-08,0.00000000000000e+00,5.00000000000000e-01,4.98438559054920e-01,5.00000000000000e-01
4.50100000000000e-08,4.99999999999905e-02,5.00000000000000e-01,4.98542507906716e-01,4.50000000000010e-01
4.50300000000000e-08,1.50000000000005e-01,5.00000000000000e-01,4.98722295045898e-01,3.49999999999995e-01
4.50700000000000e-08,3.50000000000000e-01,5.00000000000000e-01,4.99510682759780e-01,1.50000000000000e-01
4.51000000000000e-08,5.00000000000000e-01,5.00000000000000e-01,5.01959396718123e-01,0.00000000000000e+00
4.51080000000000e-08,5.00000000000000e-01,5.00000000000000e-01,5.02947462948189e-01,0.00000000000000e+00
4.51240000000000e-08,5.00000000000000e-01,5.00000000000000e-01,5.04696360975765e-01,0.00000000000000e+00
4.51560000000000e-08,5.00000000000000e-01,5.00000000000000e-01,5.07339896981206e-01,0.00000000000000e+00
4.52200000000000e-08,5.00000000000000e-01,5.00000000000000e-01,5.11908692146375e-01,0.00000000000000e+00
4.53480000000000e-08,5.00000000000000e-01,5.00000000000000e-01,5.20953503845489e-01,0.00000000000000e+00
4.56040000000000e-08,5.00000000000000e-01,5.00000000000000e-01,3.57221956901985e-01,0.00000000000000e+00
4.61160000000000e-08,5.00000000000000e-01,5.00000000000000e-01,1.38841246027351e-03,0.00000000000000e+00
4.68692099592456e-08,5.00000000000000e-01,5.00000000000000e-01,-9.30563520780383e-04,0.00000000000000e+00
4.82658334318470e-08,5.00000000000000e-01,5.00000000000000e-01,8.03882330009889e-04,0.00000000000000e+00
4.98937499903804e-08,5.00000000000000e-01,5.00000000000000e-01,-6.70839975447813e-04,0.00000000000000e+00
5.01000000000000e-08,5.00000000000000e-01,4.99999999999971e-01,3.25669514890947e-04,0.00000000000000e+00
5.04255833117067e-08,5.00000000000000e-01,5.00000000000000e-01,2.32437808204457e-05,0.00000000000000e+00
5.10767499351200e-08,5.00000000000000e-01,5.00000000000000e-01,-5.53721160569988e-06,0.00000000000000e+00
5.23790831819468e-08,5.00000000000000e-01,5.00000000000000e-01,2.00602741072045e-05,0.00000000000000e+00
5.49837496756002e-08,5.00000000000000e-01,5.00000000000000e-01,-3.44464251255750e-06,0.00000000000000e+00
5.51000000000000e-08,5.00000000000000e-01,5.00000000000000e-01,1.43378796352220e-05,0.00000000000000e+00
5.51100000000000e-08,4.50000000000018e-01,5.00000000000000e-01,1.72478333395135e-04,4.99999999999822e-02
5.51300000000000e-08,3.50000000000004e-01,5.00000000000000e-01,3.80931061699633e-04,1.49999999999996e-01
5.51700000000000e-08,1.50000000000008e-01,5.00000000000000e-01,3.84923221616096e-04,3.49999999999992e-01
5.52000000000000e-08,0.00000000000000e+00,5.00000000000000e-01,2.77687115237298e-04,5.00000000000000e-01
5.52080000000000e-08,0.00000000000000e+00,5.00000000000000e-01,2.28627745356438e-04,5.00000000000000e-01
5.52240000000000e-08,0.00000000000000e+00,5.00000000000000e-01,1.52167358412302e-04,5.00000000000000e-01
5.52560000000000e-08,0.00000000000000e+00,5.00000000000000e-01,7.39713301320319e-05,5.00000000000000e-01
5.53200000000000e-08,0.00000000000000e+00,5.00000000000000e-01,1.60426298449340e-05,5.00000000000000e-01
5.54480000000000e-08,0.00000000000000e+00,5.00000000000000e-01,-3.44576239807923e-04,5.00000000000000e-01
5.57040000000000e-08,0.00000000000000e+00,5.00000000000000e-01,-6.92893006943054e-04,5.00000000000000e-01
5.62160000000000e-08,0.00000000000000e+00,5.00000000000000e-01,2.09628996588652e-04,5.00000000000000e-01
5.70192275772851e-08,0.00000000000000e+00,5.00000000000000e-01,-1.39258246273838e-04,5.00000000000000e-01
5.84923738425972e-08,0.00000000000000e+00,5.00000000000000e-01,1.09203070139019e-04,5.00000000000000e-01
6.11989055677647e-08,0.00000000000000e+00,5.00000000000000e-01,-5.51966941510318e-05,5.00000000000000e-01
6.41297227587558e-08,0.00000000000000e+00,5.00000000000000e-01,4.29939793643776e-05,5.00000000000000e-01
6.50000000000000e-08,0.00000000000000e+00,5.00000000000000e-01,3.45354560200763e-05,5.00000000000000e-01
6.50100000000000e-08,4.99999999999905e-02,5.00000000000000e-01,1.13085891088355e-04,5.00000000000000e-01
6.50300000000000e-08,1.49999999999972e-01,5.00000000000000e-01,2.53619357523854e-04,5.00000000000000e-01
6.50700000000000e-08,3.49999999999934e-01,5.00000000000000e-01,4.30619622757651e-04,5.00000000000000e-01
6.51000000000000e-08,4.99999999999971e-01,5.00000000000000e-01,4.33078017668086e-04,5.00000000000000e-01
6.51080000000000e-08,5.00000000000000e-01,5.00000000000000e-01,3.62092282652486e-04,5.00000000000000e-01
6.51240000000000e-08,5.00000000000000e-01,5.00000000000000e-01,1.92279554058622e-04,5.00000000000000e-01
6.51560000000000e-08,5.00000000000000e-01,5.00000000000000e-01,-3.27257833027068e-04,5.00000000000000e-01
6.52200000000000e-08,5.00000000000000e-01,5.00000000000000e-01,-1.73395355530254e-03,5.00000000000000e-01
6.53480000000000e-08,5.00000000000000e-01,5.00000000000000e-01,-3.88645086623325e-03,5.00000000000000e-01
6.56040000000000e-08,5.00000000000000e-01,5.00000000000000e-01,1.23534260032283e-02,5.00000000000000e-01
6.61159999999999e-08,5.00000000000000e-01,5.00000000000000e-01,3.56141100350154e-01,5.00000000000000e-01
6.71399999999999e-08,5.00000000000000e-01,5.00000000000000e-01,5.22736145980989e-01,5.00000000000000e-01
6.83603164324893e-08,5.00000000000000e-01,5.00000000000000e-01,4.79494938658173e-01,5.00000000000000e-01
7.08009492974680e-08,5.00000000000000e-01,5.00000000000000e-01,5.18820824325319e-01,5.00000000000000e-01
7.44062016938472e-08,5.00000000000000e-01,5.00000000000000e-01,4.80933531168885e-01,5.00000000000000e-01
7.51000000000000e-08,5.00000000000000e-01,5.00000000000000e-01,5.15057190957318e-01,5.00000000000000e-01
7.51100000000000e-08,4.50000000000051e-01,5.00000000000000e-01,5.11247948399316e-01,5.00000000000000e-01
7.51300000000000e-08,3.50000000000070e-01,5.00000000000000e-01,5.05543987689373e-01,5.00000000000000e-01
7.51700000000000e-08,1.50000000000108e-01,5.00000000000000e-01,5.01177638982662e-01,5.00000000000000e-01
7.52000000000000e-08,6.99995617026161e-14,5.00000000000000e-01,5.01323752388163e-01,5.00000000000000e-01
7.52080000000000e-08,0.00000000000000e+00,5.00000000000000e-01,5.01581779543387e-01,5.00000000000000e-01
7.52240000000000e-08,0.00000000000000e+00,5.00000000000000e-01,5.01967020429806e-01,5.00000000000000e-01
7.52560000000000e-08,0.00000000000000e+00,5.00000000000000e-01,5.02319593695786e-01,5.00000000000000e-01
7.53200000000000e-08,0.00000000000000e+00,5.00000000000000e-01,5.01999947570483e-01,5.00000000000000e-01
7.54480000000000e-08,0.00000000000000e+00,5.00000000000000e-01,4.95120288433977e-01,5.00000000000000e-01
7.57040000000000e-08,0.00000000000000e+00,5.00000000000000e-01,4.83067853624012e-01,5.00000000000000e-01
7.62159999999999e-08,0.00000000000000e+00,5.00000000000000e-01,4.96054027470475e-01,5.00000000000000e-01
7.72399999999999e-08,0.00000000000000e+00,5.00000000000000e-01,5.01521775507432e-01,5.00000000000000e-01
7.86124976991492e-08,0.00000000000000e+00,5.00000000000000e-01,4.97954359332024e-01,5.00000000000000e-01
8.13574930974477e-08,0.00000000000000e+00,5.00000000000000e-01,5.01248238934999e-01,5.00000000000000e-01
8.50000000000000e-08,0.00000000000000e+00,5.00000000000000e-01,4.98436579481703e-01,5.00000000000000e-01
8.50100000000000e-08,4.99999999999905e-02,5.00000000000000e-01,4.98540829747348e-01,4.50000000000010e-01
8.50300000000000e-08,1.49999999999972e-01,5.00000000000000e-01,4.98721091723670e-01,3.50000000000028e-01
8.50700000000000e-08,3.49999999999934e-01,5.00000000000000e-01,4.99510054260255e-01,1.50000000000066e-01
8.51000000000000e-08,4.99999999999971e-01,5.00000000000000e-01,5.01958964518928e-01,2.86437540353290e-14
8.51080000000000e-08,5.00000000000000e-01,5.00000000000000e-01,5.02947060593353e-01,0.00000000000000e+00
8.51240000000000e-08,5.00000000000000e-01,5.00000000000000e-01,5.04696012738016e-01,0.00000000000000e+00
8.51560000000000e-08,5.00000000000000e-01,5.00000000000000e-01,5.07339641060194e-01,0.00000000000000e+00
8.52200000000000e-08,5.00000000000000e-01,5.00000000000000e-01,5.11908548343875e-01,0.00000000000000e+00
8.53480000000000e-08,5.00000000000000e-01,5.00000000000000e-01,5.20953527934773e-01,0.00000000000000e+00
8.56040000000000e-08,5.00000000000000e-01,5.00000000000000e-01,3.57222592240957e-01,0.00000000000000e+00
8.61159999999999e-08,5.00000000000000e-01,5.00000000000000e-01,1.38894048725299e-03,0.00000000000000e+00
8.68700720654273e-08,5.00000000000000e-01,5.00000000000000e-01,-9.31199352829939e-04,0.00000000000000e+00
8.82663240077413e-08,5.00000000000000e-01,5.00000000000000e-01,8.02650872262596e-04,0.00000000000000e+00
8.98951617850750e-08,5.00000000000000e-01,5.00000000000000e-01,-6.69927108161625e-04,0.00000000000000e+00
9.01000000000000e-08,5.00000000000000e-01,4.99999999999971e-01,3.24091322061515e-04,0.00000000000000e+00
9.04257675554667e-08,5.00000000000000e-01,5.00000000000000e-01,2.29820562630927e-05,0.00000000000000e+00
9.10773026664002e-08,5.00000000000000e-01,5.00000000000000e-01,-5.39605417241434e-06,0.00000000000000e+00
9.23803728882672e-08,5.00000000000000e-01,5.00000000000000e-01,1.99527364369585e-05,0.00000000000000e+00
9.49865133320011e-08,5.00000000000000e-01,5.00000000000000e-01,-3.34418778513267e-06,0.00000000000000e+00
9.51000000000000e-08,5.00000000000000e-01,5.00000000000000e-01,1.42569392047945e-05,0.00000000000000e+00
9.51100000000000e-08,4.50000000000051e-01,5.00000000000000e-01,1.72422188888098e-04,4.99999999999492e-02
9.51300000000000e-08,3.50000000000070e-01,5.00000000000000e-01,3.80932718336620e-04,1.49999999999930e-01
9.51700000000000e-08,1.50000000000108e-01,5.00000000000000e-01,3.84938851962231e-04,3.49999999999892e-01
9.52000000000000e-08,6.99995617026161e-14,5.00000000000000e-01,2.77697498123765e-04,4.99999999999930e-01
9.52080000000000e-08,0.00000000000000e+00,5.00000000000000e-01,2.28637237714845e-04,5.00000000000000e-01
9.52240000000000e-08,0.00000000000000e+00,5.00000000000000e-01,1.52174816054847e-04,5.00000000000000e-01
9.52560000000000e-08,0.00000000000000e+00,5.00000000000000e-01,7.39760741812825e-05,5.00000000000000e-01
9.53200000000000e-08,0.00000000000000e+00,5.00000000000000e-01,1.60445240472290e-05,5.00000000000000e-01
9.54480000000000e-08,0.00000000000000e+00,5.00000000000000e-01,-3.44583368274077e-04,5.00000000000000e-01
9.57040000000000e-08,0.00000000000000e+00,5.00000000000000e-01,-6.92949956478669e-04,5.00000000000000e-01
9.62159999999999e-08,0.00000000000000e+00,5.00000000000000e-01,2.09631533615274e-04,5.00000000000000e-01
9.70193751970651e-08,0.00000000000000e+00,5.00000000000000e-01,-1.39258617079566e-04,5.00000000000000e-01
9.84924442644925e-08,0.00000000000000e+00,5.00000000000000e-01,1.09199851653265e-04,5.00000000000000e-01
1.01199205177483e-07,0.00000000000000e+00,5.00000000000000e-01,-5.51980956383946e-05,5.00000000000000e-01
1.04130163294818e-07,0.00000000000000e+00,5.00000000000000e-01,4.29971126708335e-05,5.00000000000000e-01
1.05000000000000e-07,0.00000000000000e+00,5.00000000000000e-01,3.45555111728943e-05,5.00000000000000e-01
1.05010000000000e-07,4.99999999999905e-02,5.00000000000000e-01,1.13103001274199e-04,5.00000000000000e-01
1.05030000000000e-07,1.49999999999972e-01,5.00000000000000e-01,2.53631809857602e-04,5.00000000000000e-01
1.05070000000000e-07,3.49999999999934e-01,5.00000000000000e-01,4.30625733113983e-04,5.00000000000000e-01
1.05100000000000e-07,4.99999999999971e-01,5.00000000000000e-01,4.33079457990052e-04,5.00000000000000e-01
1.05108000000000e-07,5.00000000000000e-01,5.00000000000000e-01,3.62092032242918e-04,5.00000000000000e-01
1.05124000000000e-07,5.00000000000000e-01,5.00000000000000e-01,1.92274551048824e-04,5.00000000000000e-01
1.05156000000000e-07,5.00000000000000e-01,5.00000000000000e-01,-3.27274008972339e-04,5.00000000000000e-01
1.05220000000000e-07,5.00000000000000e-01,5.00000000000000e-01,-1.73397750312251e-03,5.00000000000000e-01
1.05348000000000e-07,5.00000000000000e-01,5.00000000000000e-01,-3.88646126648295e-03,5.00000000000000e-01
1.05604000000000e-07,5.00000000000000e-01,5.00000000000000e-01,1.23538139981562e-02,5.00000000000000e-01
1.06116000000000e-07,5.00000000000000e-01,5.00000000000000e-01,3.56142125823645e-01,5.00000000000000e-01
1.07140000000000e-07,5.00000000000000e-01,5.00000000000000e-01,5.22736161707799e-01,5.00000000000000e-01
1.08360315500928e-07,5.00000000000000e-01,5.00000000000000e-01,4.79494892191018e-01,5.00000000000000e-01
1.10800946502783e-07,5.00000000000000e-01,5.00000000000000e-01,5.18820846516837e-01,5.00000000000000e-01
1.14406201520950e-07,5.00000000000000e-01,5.00000000000000e-01,4.80933493338897e-01,5.00000000000000e-01
1.15100000000000e-07,5.00000000000000e-01,5.00000000000000e-01,5.15057211740521e-01,5.00000000000000e-01
1.15110000000000e-07,4.50000000000051e-01,5.00000000000000e-01,5.11247963769704e-01,5.00000000000000e-01
1.15130000000000e-07,3.50000000000070e-01,5.00000000000000e-01,5.05543995649366e-01,5.00000000000000e-01
1.15170000000000e-07,1.50000000000108e-01,5.00000000000000e-01,5.01177641485029e-01,5.00000000000000e-01
1.15200000000000e-07,6.99995617026161e-14,5.00000000000000e-01,5.01323753320734e-01,5.00000000000000e-01
1.15208000000000e-07,0.00000000000000e+00,5.00000000000000e-01,5.01581780330875e-01,5.00000000000000e-01
1.15224000000000e-07,0.00000000000000e+00,5.00000000000000e-01,5.01967020968312e-01,5.00000000000000e-01
1.15256000000000e-07,0.00000000000000e+00,5.00000000000000e-01,5.02319594068530e-01,5.00000000000000e-01
1.15320000000000e-07,0.00000000000000e+00,5.00000000000000e-01,5.01999948152689e-01,5.00000000000000e-01
