Time,v(clk),v(data),v(out)
1.00000000000000e-08,6.00000000000000e-01,0.00000000000000e+00,-8.86701517358989e-06
1.00100000000000e-08,6.00000000000000e-01,5.99999999999985e-02,-4.98609792872612e-06
1.00300000000000e-08,6.00000000000000e-01,1.79999999999996e-01,-8.05097397867105e-07
1.00700000000000e-08,6.00000000000000e-01,4.19999999999990e-01,7.95902582964580e-07
1.01000000000000e-08,6.00000000000000e-01,5.99999999999995e-01,-1.87803706049733e-06
1.01080000000000e-08,6.00000000000000e-01,6.00000000000000e-01,-1.79713693024969e-06
1.01240000000000e-08,6.00000000000000e-01,6.00000000000000e-01,-1.74579262157692e-06
1.01560000000000e-08,6.00000000000000e-01,6.00000000000000e-01,1.01645812648071e-06
1.02200000000000e-08,6.00000000000000e-01,6.00000000000000e-01,3.96455309176896e-06
1.03480000000000e-08,6.00000000000000e-01,6.00000000000000e-01,4.12774962368911e-06
1.06040000000000e-08,6.00000000000000e-01,6.00000000000000e-01,1.56330961888565e-06
1.11083517111046e-08,6.00000000000000e-01,6.00000000000000e-01,3.15230133208014e-06
1.21170551333137e-08,6.00000000000000e-01,6.00000000000000e-01,1.88268486575431e-06
1.41344619777320e-08,6.00000000000000e-01,6.00000000000000e-01,2.82895570205208e-06
1.51000000000000e-08,6.00000000000000e-01,6.00000000000000e-01,1.77192077317756e-06
1.51100000000000e-08,5.39999999999991e-01,6.00000000000000e-01,-5.37885875012203e-05
1.51300000000000e-08,4.19999999999994e-01,6.00000000000000e-01,-1.38580312271722e-04
1.51700000000000e-08,1.80000000000000e-01,6.00000000000000e-01,-1.29448509210948e-04
1.52000000000000e-08,0.00000000000000e+00,6.00000000000000e-01,1.35316533670229e-04
1.52080000000000e-08,0.00000000000000e+00,6.00000000000000e-01,2.70514985718513e-04
1.52240000000000e-08,0.00000000000000e+00,6.00000000000000e-01,4.35097902760223e-04
1.52560000000000e-08,0.00000000000000e+00,6.00000000000000e-01,4.31599644348898e-04
1.53200000000000e-08,0.00000000000000e+00,6.00000000000000e-01,7.81957136318998e-05
1.54480000000000e-08,0.00000000000000e+00,6.00000000000000e-01,-2.69806586546732e-04
1.57040000000000e-08,0.00000000000000e+00,6.00000000000000e-01,7.16760195155763e-05
1.61081595667596e-08,0.00000000000000e+00,6.00000000000000e-01,-1.98694095584907e-04
1.68165479335707e-08,0.00000000000000e+00,6.00000000000000e-01,2.07846555320643e-04
1.81562794627497e-08,0.00000000000000e+00,6.00000000000000e-01,-1.44815324073116e-04
1.95284376430814e-08,0.00000000000000e+00,6.00000000000000e-01,9.54785382183757e-05
2.22727540037448e-08,0.00000000000000e+00,6.00000000000000e-01,-7.18559564792773e-05
2.50000000000000e-08,0.00000000000000e+00,6.00000000000000e-01,5.55548802055527e-05
2.50100000000000e-08,5.99999999999886e-02,6.00000000000000e-01,1.74031435107531e-04
2.50300000000000e-08,1.80000000000006e-01,6.00000000000000e-01,3.64034493575395e-04
2.50700000000000e-08,4.20000000000000e-01,6.00000000000000e-01,5.54852542039588e-04
2.51000000000000e-08,6.00000000000000e-01,6.00000000000000e-01,5.25647691456577e-04
2.51080000000000e-08,6.00000000000000e-01,6.00000000000000e-01,4.36105637788897e-04
2.51240000000000e-08,6.00000000000000e-01,6.00000000000000e-01,2.10342148159778e-04
2.51560000000000e-08,6.00000000000000e-01,6.00000000000000e-01,-6.56536230791316e-04
2.52200000000000e-08,6.00000000000000e-01,6.00000000000000e-01,-2.97825637920146e-03
2.53480000000000e-08,6.00000000000000e-01,6.00000000000000e-01,-4.95958048628078e-03
2.56040000000000e-08,6.00000000000000e-01,6.00000000000000e-01,2.18423349446124e-01
2.61160000000000e-08,6.00000000000000e-01,6.00000000000000e-01,6.01615878423967e-01
2.69451687665393e-08,6.00000000000000e-01,6.00000000000000e-01,5.98306850313354e-01
2.82166945680188e-08,6.00000000000000e-01,6.00000000000000e-01,6.01972962036056e-01
2.99578848250820e-08,6.00000000000000e-01,6.00000000000000e-01,5.98136941622639e-01
3.01000000000000e-08,6.00000000000000e-01,6.00000000000000e-01,6.01568810556019e-01
3.01100000000000e-08,6.00000000000000e-01,5.40000000000031e-01,6.00838495558166e-01
3.01300000000000e-08,6.00000000000000e-01,4.20000000000014e-01,6.00071512696774e-01
3.01700000000000e-08,6.00000000000000e-01,1.80000000000020e-01,6.00011025815879e-01
3.02000000000000e-08,6.00000000000000e-01,1.44328993201270e-14,6.00038572280796e-01
3.02080000000000e-08,6.00000000000000e-01,0.00000000000000e+00,6.00027989462346e-01
3.02240000000000e-08,6.00000000000000e-01,0.00000000000000e+00,6.00013510490570e-01
3.02560000000000e-08,6.00000000000000e-01,0.00000000000000e+00,6.00004468440065e-01
3.03200000000000e-08,6.00000000000000e-01,0.00000000000000e+00,5.99999839511753e-01
3.04480000000000e-08,6.00000000000000e-01,0.00000000000000e+00,6.00010308607930e-01
3.07040000000000e-08,6.00000000000000e-01,0.00000000000000e+00,5.99989487964036e-01
3.11071068236636e-08,6.00000000000000e-01,0.00000000000000e+00,5.99994868245621e-01
3.17949843637418e-08,6.00000000000000e-01,0.00000000000000e+00,5.99989528435911e-01
3.31707394438983e-08,6.00000000000000e-01,0.00000000000000e+00,5.99995655524703e-01
3.51000000000000e-08,5.99999999999970e-01,0.00000000000000e+00,5.99990796986491e-01
3.51100000000000e-08,5.39999999999982e-01,0.00000000000000e+00,5.99943668761852e-01
3.51300000000000e-08,4.19999999999965e-01,0.00000000000000e+00,5.99889175634037e-01
3.51700000000000e-08,1.79999999999970e-01,0.00000000000000e+00,6.00452783698858e-01
3.52000000000000e-08,0.00000000000000e+00,0.00000000000000e+00,6.02181621276795e-01
3.52080000000000e-08,0.00000000000000e+00,0.00000000000000e+00,6.02623794330012e-01
3.52240000000000e-08,0.00000000000000e+00,0.00000000000000e+00,6.03096694367773e-01
3.52560000000000e-08,0.00000000000000e+00,0.00000000000000e+00,6.01432098053390e-01
3.53200000000000e-08,0.00000000000000e+00,0.00000000000000e+00,5.88345425886778e-01
3.54480000000000e-08,0.00000000000000e+00,0.00000000000000e+00,5.84012424481030e-01
3.57040000000000e-08,0.00000000000000e+00,0.00000000000000e+00,6.02163440885853e-01
3.61186287698117e-08,0.00000000000000e+00,0.00000000000000e+00,5.97451985652535e-01
3.67912833255914e-08,0.00000000000000e+00,0.00000000000000e+00,6.01658913038456e-01
3.77894624574767e-08,0.00000000000000e+00,0.00000000000000e+00,5.98151971981600e-01
3.91000000000000e-08,0.00000000000000e+00,0.00000000000000e+00,6.01487625666940e-01
3.92996358263771e-08,0.00000000000000e+00,0.00000000000000e+00,6.00076383179504e-01
3.96989074791312e-08,0.00000000000000e+00,0.00000000000000e+00,5.99789080330338e-01
4.04974507846394e-08,0.00000000000000e+00,0.00000000000000e+00,6.00044931725663e-01
4.20945373956559e-08,0.00000000000000e+00,0.00000000000000e+00,5.99836276649795e-01
4.50000000000000e-08,0.00000000000000e+00,0.00000000000000e+00,6.00064782158826e-01
4.50100000000000e-08,5.99999999999886e-02,0.00000000000000e+00,6.00080376502821e-01
4.50300000000000e-08,1.80000000000006e-01,0.00000000000000e+00,6.00076162945681e-01
4.50700000000000e-08,4.20000000000000e-01,0.00000000000000e+00,6.00001514014332e-01
4.51000000000000e-08,6.00000000000000e-01,0.00000000000000e+00,5.99919534613441e-01
4.51080000000000e-08,6.00000000000000e-01,0.00000000000000e+00,5.99877933723857e-01
4.51240000000000e-08,6.00000000000000e-01,0.00000000000000e+00,5.99832505837613e-01
4.51560000000000e-08,6.00000000000000e-01,0.00000000000000e+00,5.99846248358730e-01
4.52200000000000e-08,6.00000000000000e-01,0.00000000000000e+00,5.99876419164008e-01
4.53480000000000e-08,6.00000000000000e-01,0.00000000000000e+00,6.00014128062461e-01
4.56040000000000e-08,6.00000000000000e-01,0.00000000000000e+00,6.09482282339953e-01
4.61160000000000e-08,6.00000000000000e-01,0.00000000000000e+00,1.96749492793694e-01
4.67962111526791e-08,6.00000000000000e-01,0.00000000000000e+00,-6.64166269025163e-02
4.77238773495127e-08,6.00000000000000e-01,0.00000000000000e+00,5.57876905360791e-02
4.91822204924125e-08,6.00000000000000e-01,0.00000000000000e+00,-3.83113281588777e-02
5.00000000000000e-08,6.00000000000000e-01,0.00000000000000e+00,2.83027545527177e-02
5.00100000000000e-08,6.00000000000000e-01,5.99999999999886e-02,2.54329510330953e-02
5.00300000000000e-08,6.00000000000000e-01,1.79999999999966e-01,2.01815903590158e-02
5.00700000000000e-08,6.00000000000000e-01,4.20000000000000e-01,1.22124512782316e-02
5.01000000000000e-08,6.00000000000000e-01,6.00000000000000e-01,8.38974972532482e-03
5.01080000000000e-08,6.00000000000000e-01,6.00000000000000e-01,7.62922137015073e-03
5.01240000000000e-08,6.00000000000000e-01,6.00000000000000e-01,6.23591147480707e-03
5.01560000000000e-08,6.00000000000000e-01,6.00000000000000e-01,4.16394076190600e-03
5.02200000000000e-08,6.00000000000000e-01,6.00000000000000e-01,1.77499586911192e-03
5.03480000000000e-08,6.00000000000000e-01,6.00000000000000e-01,1.95893948260875e-04
5.06040000000000e-08,6.00000000000000e-01,6.00000000000000e-01,-4.66326917708017e-05
5.11160000000001e-08,6.00000000000000e-01,6.00000000000000e-01,2.31318069897832e-05
5.21400000000002e-08,6.00000000000000e-01,6.00000000000000e-01,-1.65044551297911e-05
5.41880000000003e-08,6.00000000000000e-01,6.00000000000000e-01,1.58569812996733e-05
5.51000000000000e-08,6.00000000000000e-01,6.00000000000000e-01,-1.36599833811535e-05
5.51100000000000e-08,5.40000000000021e-01,6.00000000000000e-01,-9.28522049536765e-05
5.51300000000000e-08,4.20000000000004e-01,6.00000000000000e-01,-1.64337251326044e-04
5.51700000000000e-08,1.80000000000010e-01,6.00000000000000e-01,-1.40248501709364e-04
5.52000000000000e-08,0.00000000000000e+00,6.00000000000000e-01,1.21841144643170e-04
5.52080000000000e-08,0.00000000000000e+00,6.00000000000000e-01,2.54473999745312e-04
5.52240000000000e-08,0.00000000000000e+00,6.00000000000000e-01,4.06161932570703e-04
5.52560000000000e-08,0.00000000000000e+00,6.00000000000000e-01,2.86055158743560e-04
5.53200000000000e-08,0.00000000000000e+00,6.00000000000000e-01,-9.14342988698809e-04
5.54480000000000e-08,0.00000000000000e+00,6.00000000000000e-01,-1.75050024505834e-03
5.57040000000000e-08,0.00000000000000e+00,6.00000000000000e-01,1.05267264998550e-04
5.61066846535404e-08,0.00000000000000e+00,6.00000000000000e-01,-1.18126385969877e-04
5.68035609481272e-08,0.00000000000000e+00,6.00000000000000e-01,1.18005336968581e-04
5.80862301913675e-08,0.00000000000000e+00,6.00000000000000e-01,-5.28866993204031e-05
5.94589562854218e-08,0.00000000000000e+00,6.00000000000000e-01,7.96784573763379e-06
6.22044084735305e-08,0.00000000000000e+00,6.00000000000000e-01,1.24102562762585e-05
6.50000000000000e-08,0.00000000000000e+00,6.00000000000000e-01,-2.50086802508539e-05
6.50100000000000e-08,5.99999999999886e-02,6.00000000000000e-01,1.06076310723804e-04
6.50300000000000e-08,1.79999999999966e-01,6.00000000000000e-01,3.21066369424743e-04
6.50700000000000e-08,4.19999999999920e-01,6.00000000000000e-01,5.45687134725144e-04
6.51000000000000e-08,5.99999999999966e-01,6.00000000000000e-01,5.23700391540628e-04
6.51080000000000e-08,6.00000000000000e-01,6.00000000000000e-01,4.33920646999902e-04
6.51240000000000e-08,6.00000000000000e-01,6.00000000000000e-01,2.03922591535462e-04
6.51560000000000e-08,6.00000000000000e-01,6.00000000000000e-01,-6.76855531113407e-04
6.52200000000000e-08,6.00000000000000e-01,6.00000000000000e-01,-3.00225812018527e-03
6.53480000000000e-08,6.00000000000000e-01,6.00000000000000e-01,-4.93700481140475e-03
6.56040000000000e-08,6.00000000000000e-01,6.00000000000000e-01,2.19578762672653e-01
6.61159999999999e-08,6.00000000000000e-01,6.00000000000000e-01,6.01830251447474e-01
6.69422873846094e-08,6.00000000000000e-01,6.00000000000000e-01,5.98199374522386e-01
6.82145132564313e-08,6.00000000000000e-01,6.00000000000000e-01,6.02085808198356e-01
6.99531787717986e-08,6.00000000000000e-01,6.00000000000000e-01,5.98034341603486e-01
7.01000000000000e-08,6.00000000000000e-01,6.00000000000000e-01,6.01655545513398e-01
7.01100000000000e-08,6.00000000000000e-01,5.40000000000011e-01,6.00883444998047e-01
7.01300000000000e-08,6.00000000000000e-01,4.20000000000034e-01,6.00073202508968e-01
7.01700000000000e-08,6.00000000000000e-01,1.80000000000080e-01,6.00008231987892e-01
7.02000000000000e-08,6.00000000000000e-01,3.44169137633799e-14,6.00037375655187e-01
7.02080000000000e-08,6.00000000000000e-01,0.00000000000000e+00,6.00026660541241e-01
7.02240000000000e-08,6.00000000000000e-01,0.00000000000000e+00,6.00012030121710e-01
7.02560000000000e-08,6.00000000000000e-01,0.00000000000000e+00,6.00003146587939e-01
7.03200000000000e-08,6.00000000000000e-01,0.00000000000000e+00,5.99999056482093e-01
7.04480000000000e-08,6.00000000000000e-01,0.00000000000000e+00,6.00009796419920e-01
7.07040000000000e-08,6.00000000000000e-01,0.00000000000000e+00,5.99989956490582e-01
7.11071061715622e-08,6.00000000000000e-01,0.00000000000000e+00,5.99994464392574e-01
7.17951116753963e-08,6.00000000000000e-01,0.00000000000000e+00,5.99989845526566e-01
7.31711226830645e-08,6.00000000000000e-01,0.00000000000000e+00,5.99995331853388e-01
7.51000000000000e-08,6.00000000000000e-01,0.00000000000000e+00,5.99991107214067e-01
7.51100000000000e-08,5.40000000000061e-01,0.00000000000000e+00,5.99944477039969e-01
7.51300000000000e-08,4.20000000000084e-01,0.00000000000000e+00,5.99890257119794e-01
7.51700000000000e-08,1.80000000000129e-01,0.00000000000000e+00,6.00453005056578e-01
7.52000000000000e-08,8.40438829641244e-14,0.00000000000000e+00,6.02181750173155e-01
7.52080000000000e-08,0.00000000000000e+00,0.00000000000000e+00,6.02624163350104e-01
7.52240000000000e-08,0.00000000000000e+00,0.00000000000000e+00,6.03097200429457e-01
7.52560000000000e-08,0.00000000000000e+00,0.00000000000000e+00,6.01431067016577e-01
7.53200000000000e-08,0.00000000000000e+00,0.00000000000000e+00,5.88341050040539e-01
7.54480000000000e-08,0.00000000000000e+00,0.00000000000000e+00,5.84009739417582e-01
7.57040000000000e-08,0.00000000000000e+00,0.00000000000000e+00,6.02164313559846e-01
7.61186286349850e-08,0.00000000000000e+00,0.00000000000000e+00,5.97451208279190e-01
7.67912830026630e-08,0.00000000000000e+00,0.00000000000000e+00,6.01659566977352e-01
7.77894621028584e-08,0.00000000000000e+00,0.00000000000000e+00,5.98151361638808e-01
7.81000000000000e-08,0.00000000000000e+00,0.00000000000000e+00,6.01123107637186e-01
7.82996358200391e-08,0.00000000000000e+00,0.00000000000000e+00,6.00013648320900e-01
7.86989074601173e-08,0.00000000000000e+00,0.00000000000000e+00,5.99793470832679e-01
7.94974507402736e-08,0.00000000000000e+00,0.00000000000000e+00,6.00005909250505e-01
8.10945373005863e-08,0.00000000000000e+00,0.00000000000000e+00,5.99849708936618e-01
8.42887104212118e-08,0.00000000000000e+00,0.00000000000000e+00,6.00040952938032e-01
8.50000000000000e-08,0.00000000000000e+00,0.00000000000000e+00,5.99885943747553e-01
8.50100000000000e-08,5.99999999999886e-02,0.00000000000000e+00,5.99956556604441e-01
8.50300000000000e-08,1.79999999999966e-01,0.00000000000000e+00,6.00032458999152e-01
8.50700000000000e-08,4.19999999999920e-01,0.00000000000000e+00,6.00000855707115e-01
8.51000000000000e-08,5.99999999999966e-01,0.00000000000000e+00,5.99919515374653e-01
8.51080000000000e-08,6.00000000000000e-01,0.00000000000000e+00,5.99878775529038e-01
8.51240000000000e-08,6.00000000000000e-01,0.00000000000000e+00,5.99833853775454e-01
8.51560000000000e-08,6.00000000000000e-01,0.00000000000000e+00,5.99846721092952e-01
8.52200000000000e-08,6.00000000000000e-01,0.00000000000000e+00,5.99873821448846e-01
8.53480000000000e-08,6.00000000000000e-01,0.00000000000000e+00,6.00012795768112e-01
8.56040000000000e-08,6.00000000000000e-01,0.00000000000000e+00,6.09491026528567e-01
8.61159999999999e-08,6.00000000000000e-01,0.00000000000000e+00,1.96731984453881e-01
8.67958967662804e-08,6.00000000000000e-01,0.00000000000000e+00,-6.63976597560451e-02
8.77236931125340e-08,6.00000000000000e-01,0.00000000000000e+00,5.57710273024679e-02
8.91816213720365e-08,6.00000000000000e-01,0.00000000000000e+00,-3.83001557362359e-02
9.00000000000000e-08,6.00000000000000e-01,0.00000000000000e+00,2.83022617999292e-02
9.00100000000000e-08,6.00000000000000e-01,5.99999999999886e-02,2.54134866172341e-02
9.00300000000000e-08,6.00000000000000e-01,1.79999999999966e-01,2.01668521010912e-02
9.00700000000000e-08,6.00000000000000e-01,4.19999999999920e-01,1.22005833326219e-02
9.01000000000000e-08,6.00000000000000e-01,5.99999999999966e-01,8.38159025249038e-03
9.01080000000000e-08,6.00000000000000e-01,6.00000000000000e-01,7.62175430459459e-03
9.01240000000000e-08,6.00000000000000e-01,6.00000000000000e-01,6.22977769089345e-03
9.01560000000000e-08,6.00000000000000e-01,6.00000000000000e-01,4.15983816431868e-03
9.02200000000000e-08,6.00000000000000e-01,6.00000000000000e-01,1.77322805988594e-03
9.03480000000000e-08,6.00000000000000e-01,6.00000000000000e-01,1.95690440356146e-04
9.06040000000000e-08,6.00000000000000e-01,6.00000000000000e-01,-4.65811185572061e-05
9.11159999999999e-08,6.00000000000000e-01,6.00000000000000e-01,2.31063424926820e-05
9.21399999999999e-08,6.00000000000000e-01,6.00000000000000e-01,-1.64852776156025e-05
9.41879999999998e-08,6.00000000000000e-01,6.00000000000000e-01,1.58381224693331e-05
9.51000000000000e-08,6.00000000000000e-01,6.00000000000000e-01,-1.36418987702371e-05
9.51100000000000e-08,5.40000000000061e-01,6.00000000000000e-01,-9.28095143606089e-05
9.51300000000000e-08,4.20000000000084e-01,6.00000000000000e-01,-1.64308873014447e-04
9.51700000000000e-08,1.80000000000129e-01,6.00000000000000e-01,-1.40232088088915e-04
9.52000000000000e-08,8.40438829641244e-14,6.00000000000000e-01,1.21850561826564e-04
9.52080000000000e-08,0.00000000000000e+00,6.00000000000000e-01,2.54481514824836e-04
9.52240000000000e-08,0.00000000000000e+00,6.00000000000000e-01,4.06162991301154e-04
9.52560000000000e-08,0.00000000000000e+00,6.00000000000000e-01,2.86019878486678e-04
9.53200000000000e-08,0.00000000000000e+00,6.00000000000000e-01,-9.14501261039674e-04
9.54480000000000e-08,0.00000000000000e+00,6.00000000000000e-01,-1.75095234863139e-03
9.57040000000000e-08,0.00000000000000e+00,6.00000000000000e-01,1.05183259310415e-04
9.61066846981159e-08,0.00000000000000e+00,6.00000000000000e-01,-1.18028154066103e-04
9.68035118961060e-08,0.00000000000000e+00,6.00000000000000e-01,1.17916255286213e-04
9.80859076400068e-08,0.00000000000000e+00,6.00000000000000e-01,-5.27763674488752e-05
9.94586569880872e-08,0.00000000000000e+00,6.00000000000000e-01,7.87012788664842e-06
1.02204155684248e-07,0.00000000000000e+00,6.00000000000000e-01,1.25018834722865e-05
1.05000000000000e-07,0.00000000000000e+00,6.00000000000000e-01,-2.50943791361338e-05
1.05010000000000e-07,5.99999999999886e-02,6.00000000000000e-01,1.06013114185038e-04
1.05030000000000e-07,1.79999999999966e-01,6.00000000000000e-01,3.21032326245765e-04
1.05070000000000e-07,4.19999999999920e-01,6.00000000000000e-01,5.45672206312894e-04
1.05100000000000e-07,5.99999999999966e-01,6.00000000000000e-01,5.23688357523353e-04
1.05108000000000e-07,6.00000000000000e-01,6.00000000000000e-01,4.33902148544690e-04
1.05124000000000e-07,6.00000000000000e-01,6.00000000000000e-01,2.03874512022126e-04
1.05156000000000e-07,6.00000000000000e-01,6.00000000000000e-01,-6.76979824279118e-04
1.05220000000000e-07,6.00000000000000e-01,6.00000000000000e-01,-3.00239643152213e-03
1.05348000000000e-07,6.00000000000000e-01,6.00000000000000e-01,-4.93689328523082e-03
1.05604000000000e-07,6.00000000000000e-01,6.00000000000000e-01,2.19584428127132e-01
1.06116000000000e-07,6.00000000000000e-01,6.00000000000000e-01,6.01831297840280e-01
1.06942273427405e-07,6.00000000000000e-01,6.00000000000000e-01,5.98198849643910e-01
1.08214502677982e-07,6.00000000000000e-01,6.00000000000000e-01,6.02086359581164e-01
1.09953156040685e-07,6.00000000000000e-01,6.00000000000000e-01,5.98033839973284e-01
1.10100000000000e-07,6.00000000000000e-01,6.00000000000000e-01,6.01655971001714e-01
1.10110000000000e-07,6.00000000000000e-01,5.40000000000091e-01,6.00883665390159e-01
1.10130000000000e-07,6.00000000000000e-01,4.20000000000114e-01,6.00073210982461e-01
1.10170000000000e-07,6.00000000000000e-01,1.80000000000159e-01,6.00008218619317e-01
1.10200000000000e-07,6.00000000000000e-01,1.13686837721616e-13,6.00037369959095e-01
