Time,v(clk),v(data),v(out)
1.00000000000000e-08,5.00000000000000e-01,0.00000000000000e+00,-5.99040178242980e-06
1.00100000000000e-08,5.00000000000000e-01,4.99999999999988e-02,4.41459644694164e-07
1.00300000000000e-08,5.00000000000000e-01,1.49999999999996e-01,6.91620090988165e-06
1.00700000000000e-08,5.00000000000000e-01,3.49999999999992e-01,7.48919005756632e-06
1.01000000000000e-08,5.00000000000000e-01,4.99999999999996e-01,4.10048134017599e-06
1.01080000000000e-08,5.00000000000000e-01,5.00000000000000e-01,3.57759892792575e-06
1.01240000000000e-08,5.00000000000000e-01,5.00000000000000e-01,3.63657161786546e-06
1.01560000000000e-08,5.00000000000000e-01,5.00000000000000e-01,5.21879854539081e-06
1.02200000000000e-08,5.00000000000000e-01,5.00000000000000e-01,5.97941293381879e-06
1.03480000000000e-08,5.00000000000000e-01,5.00000000000000e-01,3.85264481403413e-06
1.06040000000000e-08,5.00000000000000e-01,5.00000000000000e-01,2.78403359635013e-06
1.11160000000000e-08,5.00000000000000e-01,5.00000000000000e-01,3.55212667166142e-06
1.21400000000000e-08,5.00000000000000e-01,5.00000000000000e-01,2.56283801137406e-06
1.41880000000000e-08,5.00000000000000e-01,5.00000000000000e-01,3.02596722357969e-06
1.51000000000000e-08,5.00000000000000e-01,5.00000000000000e-01,2.20239947063862e-06
1.51100000000000e-08,4.49999999999993e-01,5.00000000000000e-01,-4.72926784634634e-05
1.51300000000000e-08,3.49999999999995e-01,5.00000000000000e-01,-1.23004646927848e-04
1.51700000000000e-08,1.50000000000000e-01,5.00000000000000e-01,-1.56574749654095e-04
1.52000000000000e-08,0.00000000000000e+00,5.00000000000000e-01,5.58257229787279e-06
1.52080000000000e-08,0.00000000000000e+00,5.00000000000000e-01,1.19195324103392e-04
1.52240000000000e-08,0.00000000000000e+00,5.00000000000000e-01,2.69530518762620e-04
1.52560000000000e-08,0.00000000000000e+00,5.00000000000000e-01,3.05863208036543e-04
1.53200000000000e-08,0.00000000000000e+00,5.00000000000000e-01,1.06947813796811e-04
1.54480000000000e-08,0.00000000000000e+00,5.00000000000000e-01,-1.76807988431747e-04
1.57040000000000e-08,0.00000000000000e+00,5.00000000000000e-01,-2.34460413978833e-05
1.62160000000000e-08,0.00000000000000e+00,5.00000000000000e-01,-7.85580672142631e-05
1.69677253997800e-08,0.00000000000000e+00,5.00000000000000e-01,9.11633302341681e-05
1.83377334091293e-08,0.00000000000000e+00,5.00000000000000e-01,-3.29072254470100e-05
2.01446102363952e-08,0.00000000000000e+00,5.00000000000000e-01,4.56681308460541e-06
2.36199417187641e-08,0.00000000000000e+00,5.00000000000000e-01,1.15373282228450e-05
2.50000000000000e-08,0.00000000000000e+00,5.00000000000000e-01,-3.50114431623880e-05
2.50100000000000e-08,4.99999999999905e-02,5.00000000000000e-01,7.20105613626551e-05
2.50300000000000e-08,1.50000000000005e-01,5.00000000000000e-01,2.37906212872015e-04
2.50700000000000e-08,3.50000000000000e-01,5.00000000000000e-01,3.59779987503611e-04
2.51000000000000e-08,5.00000000000000e-01,5.00000000000000e-01,2.42372474610966e-04
2.51080000000000e-08,5.00000000000000e-01,5.00000000000000e-01,8.48727293159338e-05
2.51240000000000e-08,5.00000000000000e-01,5.00000000000000e-01,-3.83002404388599e-04
2.51560000000000e-08,5.00000000000000e-01,5.00000000000000e-01,-1.74278715787878e-03
2.52200000000000e-08,5.00000000000000e-01,5.00000000000000e-01,-3.95911781786487e-03
2.53480000000000e-08,5.00000000000000e-01,5.00000000000000e-01,1.30619961869646e-03
2.56040000000000e-08,5.00000000000000e-01,5.00000000000000e-01,2.59270418489748e-01
2.61160000000000e-08,5.00000000000000e-01,5.00000000000000e-01,5.16225798368290e-01
2.68622827753887e-08,5.00000000000000e-01,5.00000000000000e-01,4.88428241250203e-01
2.81641759355100e-08,5.00000000000000e-01,5.00000000000000e-01,5.12247791439235e-01
2.99839386837899e-08,5.00000000000000e-01,5.00000000000000e-01,4.88943826329621e-01
3.28621783824280e-08,5.00000000000000e-01,5.00000000000000e-01,5.11344888410051e-01
3.51000000000000e-08,4.99999999999975e-01,5.00000000000000e-01,4.89378453619552e-01
3.51100000000000e-08,4.49999999999985e-01,5.00000000000000e-01,4.92963409604180e-01
3.51300000000000e-08,3.49999999999971e-01,5.00000000000000e-01,4.97703133739255e-01
3.51700000000000e-08,1.49999999999975e-01,5.00000000000000e-01,5.00259062076492e-01
3.52000000000000e-08,0.00000000000000e+00,5.00000000000000e-01,5.01379294904392e-01
3.52080000000000e-08,0.00000000000000e+00,5.00000000000000e-01,5.01727489934412e-01
3.52240000000000e-08,0.00000000000000e+00,5.00000000000000e-01,5.02209304617523e-01
3.52560000000000e-08,0.00000000000000e+00,5.00000000000000e-01,5.02415444289261e-01
3.53200000000000e-08,0.00000000000000e+00,5.00000000000000e-01,4.99695201277541e-01
3.54480000000000e-08,0.00000000000000e+00,5.00000000000000e-01,4.85772754525056e-01
3.57040000000000e-08,0.00000000000000e+00,5.00000000000000e-01,4.89558197643132e-01
3.62160000000000e-08,0.00000000000000e+00,5.00000000000000e-01,5.04054831042729e-01
3.70014231283185e-08,0.00000000000000e+00,5.00000000000000e-01,4.95820699638291e-01
3.84645842393077e-08,0.00000000000000e+00,5.00000000000000e-01,5.03097686125200e-01
4.13909064612860e-08,0.00000000000000e+00,5.00000000000000e-01,4.96707559471999e-01
4.50000000000000e-08,0.00000000000000e+00,5.00000000000000e-01,5.02876002464305e-01
4.50100000000000e-08,4.99999999999905e-02,5.00000000000000e-01,5.02323816728302e-01
4.50300000000000e-08,1.50000000000005e-01,5.00000000000000e-01,5.01433899274619e-01
4.50700000000000e-08,3.50000000000000e-01,5.00000000000000e-01,5.00524308782469e-01
4.51000000000000e-08,5.00000000000000e-01,5.00000000000000e-01,5.00143003548725e-01
4.51080000000000e-08,5.00000000000000e-01,4.60000000000021e-01,4.99969189218824e-01
4.51240000000000e-08,5.00000000000000e-01,3.79999999999996e-01,4.99572987772148e-01
4.51560000000000e-08,5.00000000000000e-01,2.20000000000013e-01,4.98754265358800e-01
4.52000000000000e-08,5.00000000000000e-01,2.86437540353290e-14,4.98080934934834e-01
4.52064000000000e-08,5.00000000000000e-01,0.00000000000000e+00,4.98036402394331e-01
4.52192000000000e-08,5.00000000000000e-01,0.00000000000000e+00,4.97949886690085e-01
4.52448000000000e-08,5.00000000000000e-01,0.00000000000000e+00,4.97812229315122e-01
4.52960000000000e-08,5.00000000000000e-01,0.00000000000000e+00,4.97649893166058e-01
4.53984000000000e-08,5.00000000000000e-01,0.00000000000000e+00,4.97972650636042e-01
4.56032000000000e-08,5.00000000000000e-01,0.00000000000000e+00,4.99362646838165e-01
4.60128000000000e-08,5.00000000000000e-01,0.00000000000000e+00,5.00123222754469e-01
4.67314983029094e-08,5.00000000000000e-01,0.00000000000000e+00,4.99913778188659e-01
4.75375751485618e-08,5.00000000000000e-01,0.00000000000000e+00,5.00065828549943e-01
4.91497288398665e-08,5.00000000000000e-01,0.00000000000000e+00,4.99940371462401e-01
5.23740362224760e-08,5.00000000000000e-01,0.00000000000000e+00,5.00056690983423e-01
5.51000000000000e-08,5.00000000000000e-01,0.00000000000000e+00,4.99946052688496e-01
5.51100000000000e-08,4.50000000000018e-01,0.00000000000000e+00,4.99907985809791e-01
5.51300000000000e-08,3.50000000000004e-01,0.00000000000000e+00,4.99862865878549e-01
5.51700000000000e-08,1.50000000000008e-01,0.00000000000000e+00,5.00093602247592e-01
5.52000000000000e-08,0.00000000000000e+00,0.00000000000000e+00,5.01232432900286e-01
5.52080000000000e-08,0.00000000000000e+00,0.00000000000000e+00,5.01608157809887e-01
5.52240000000000e-08,0.00000000000000e+00,0.00000000000000e+00,5.02163818941722e-01
5.52560000000000e-08,0.00000000000000e+00,0.00000000000000e+00,5.02684985055662e-01
5.53200000000000e-08,0.00000000000000e+00,0.00000000000000e+00,5.03158888183251e-01
5.54480000000000e-08,0.00000000000000e+00,0.00000000000000e+00,5.02379900099878e-01
5.57040000000000e-08,0.00000000000000e+00,0.00000000000000e+00,4.99384222258205e-01
5.61376723133658e-08,0.00000000000000e+00,0.00000000000000e+00,4.99892897734782e-01
5.67823892379413e-08,0.00000000000000e+00,0.00000000000000e+00,4.99729836706374e-01
5.77915093707169e-08,0.00000000000000e+00,0.00000000000000e+00,4.99859056042161e-01
5.97722183977212e-08,0.00000000000000e+00,0.00000000000000e+00,4.99863191019009e-01
6.33913233730040e-08,0.00000000000000e+00,0.00000000000000e+00,4.99900988546696e-01
6.50000000000000e-08,0.00000000000000e+00,0.00000000000000e+00,4.99924819796607e-01
6.50100000000000e-08,4.99999999999905e-02,0.00000000000000e+00,4.99940124475061e-01
6.50300000000000e-08,1.49999999999972e-01,0.00000000000000e+00,4.99964620634823e-01
6.50700000000000e-08,3.49999999999934e-01,0.00000000000000e+00,4.99948800482949e-01
6.51000000000000e-08,4.99999999999971e-01,0.00000000000000e+00,4.99858246506045e-01
6.51080000000000e-08,5.00000000000000e-01,0.00000000000000e+00,4.99806172116059e-01
6.51240000000000e-08,5.00000000000000e-01,0.00000000000000e+00,4.99732862062953e-01
6.51560000000000e-08,5.00000000000000e-01,0.00000000000000e+00,4.99698747525015e-01
6.52200000000000e-08,5.00000000000000e-01,0.00000000000000e+00,4.99727452274435e-01
6.53480000000000e-08,5.00000000000000e-01,0.00000000000000e+00,5.00366312560810e-01
6.56040000000000e-08,5.00000000000000e-01,0.00000000000000e+00,5.16642296432905e-01
6.61159999999999e-08,5.00000000000000e-01,0.00000000000000e+00,1.06880007204122e-01
6.67915552364815e-08,5.00000000000000e-01,0.00000000000000e+00,-5.28512944190129e-02
6.77338927720208e-08,5.00000000000000e-01,0.00000000000000e+00,5.13533445641839e-02
6.92957835730817e-08,5.00000000000000e-01,0.00000000000000e+00,-3.76929776926605e-02
7.14465673639135e-08,5.00000000000000e-01,0.00000000000000e+00,3.94238560114446e-02
7.51000000000000e-08,5.00000000000000e-01,0.00000000000000e+00,-3.25635788007687e-02
7.51100000000000e-08,4.50000000000051e-01,0.00000000000000e+00,-2.69500251720633e-02
7.51300000000000e-08,3.50000000000070e-01,0.00000000000000e+00,-1.78280022464539e-02
7.51700000000000e-08,1.50000000000108e-01,0.00000000000000e+00,-7.75522668911086e-03
7.52000000000000e-08,6.99995617026161e-14,0.00000000000000e+00,-4.13228344878500e-03
7.52080000000000e-08,0.00000000000000e+00,0.00000000000000e+00,-3.46234359946590e-03
7.52240000000000e-08,0.00000000000000e+00,0.00000000000000e+00,-2.33402018784185e-03
7.52560000000000e-08,0.00000000000000e+00,0.00000000000000e+00,-1.07004303994845e-03
7.53200000000000e-08,0.00000000000000e+00,0.00000000000000e+00,-3.75503889473612e-04
7.54480000000000e-08,0.00000000000000e+00,0.00000000000000e+00,-1.13927939727108e-03
7.57040000000000e-08,0.00000000000000e+00,0.00000000000000e+00,-1.03040451478856e-04
7.61025974414014e-08,0.00000000000000e+00,0.00000000000000e+00,2.13064668422814e-04
7.68997923242041e-08,0.00000000000000e+00,0.00000000000000e+00,-2.22812226412101e-04
7.79213442809129e-08,0.00000000000000e+00,0.00000000000000e+00,2.30804484411247e-04
7.99644481943304e-08,0.00000000000000e+00,0.00000000000000e+00,-2.25009031163112e-04
8.37644481943304e-08,0.00000000000000e+00,0.00000000000000e+00,2.26939200037724e-04
8.50000000000000e-08,0.00000000000000e+00,0.00000000000000e+00,-2.17453371079995e-04
8.50100000000000e-08,4.99999999999905e-02,0.00000000000000e+00,-5.23137017104519e-05
8.50300000000000e-08,1.49999999999972e-01,0.00000000000000e+00,1.49057518721331e-04
8.50700000000000e-08,3.49999999999934e-01,0.00000000000000e+00,1.80756926251906e-04
8.51000000000000e-08,4.99999999999971e-01,0.00000000000000e+00,3.25477584567496e-05
8.51080000000000e-08,5.00000000000000e-01,0.00000000000000e+00,-4.75184584427177e-05
8.51240000000000e-08,5.00000000000000e-01,0.00000000000000e+00,-1.63434013553933e-04
8.51560000000000e-08,5.00000000000000e-01,0.00000000000000e+00,-2.22535513969585e-04
8.52200000000000e-08,5.00000000000000e-01,0.00000000000000e+00,-1.48665146021857e-04
8.53480000000000e-08,5.00000000000000e-01,0.00000000000000e+00,-2.22693907059937e-05
8.56040000000000e-08,5.00000000000000e-01,0.00000000000000e+00,6.11825055927221e-05
8.61159999999999e-08,5.00000000000000e-01,0.00000000000000e+00,-1.39716990312996e-06
8.71399999999999e-08,5.00000000000000e-01,0.00000000000000e+00,1.89715078112961e-06
8.84843357406695e-08,5.00000000000000e-01,0.00000000000000e+00,1.08863645897788e-05
9.00000000000000e-08,5.00000000000000e-01,0.00000000000000e+00,-6.11839724866999e-06
9.00100000000000e-08,5.00000000000000e-01,4.99999999999905e-02,3.58314566274720e-07
9.00300000000000e-08,5.00000000000000e-01,1.49999999999972e-01,6.88082779569388e-06
9.00700000000000e-08,5.00000000000000e-01,3.49999999999934e-01,7.51258555806156e-06
9.01000000000000e-08,5.00000000000000e-01,4.99999999999971e-01,4.19634686910780e-06
9.01080000000000e-08,5.00000000000000e-01,5.00000000000000e-01,3.68740745296248e-06
9.01240000000000e-08,5.00000000000000e-01,5.00000000000000e-01,3.75822865970182e-06
9.01560000000000e-08,5.00000000000000e-01,5.00000000000000e-01,5.25017795492688e-06
9.02200000000000e-08,5.00000000000000e-01,5.00000000000000e-01,6.52655445109590e-06
9.03480000000000e-08,5.00000000000000e-01,5.00000000000000e-01,3.70266274380901e-06
9.06040000000000e-08,5.00000000000000e-01,5.00000000000000e-01,2.87212074994575e-06
9.11159999999999e-08,5.00000000000000e-01,5.00000000000000e-01,3.48807179930549e-06
9.21399999999999e-08,5.00000000000000e-01,5.00000000000000e-01,2.62322133419250e-06
9.41879999999998e-08,5.00000000000000e-01,5.00000000000000e-01,2.96580803533109e-06
9.51000000000000e-08,5.00000000000000e-01,5.00000000000000e-01,2.26576418177298e-06
9.51100000000000e-08,4.50000000000051e-01,5.00000000000000e-01,-4.69796591008320e-05
9.51300000000000e-08,3.50000000000070e-01,5.00000000000000e-01,-1.23006045242915e-04
9.51700000000000e-08,1.50000000000108e-01,5.00000000000000e-01,-1.56649060049953e-04
9.52000000000000e-08,6.99995617026161e-14,5.00000000000000e-01,5.43329958430094e-06
9.52080000000000e-08,0.00000000000000e+00,5.00000000000000e-01,1.19058502207350e-04
9.52240000000000e-08,0.00000000000000e+00,5.00000000000000e-01,2.69418704972726e-04
9.52560000000000e-08,0.00000000000000e+00,5.00000000000000e-01,3.05791153116221e-04
9.53200000000000e-08,0.00000000000000e+00,5.00000000000000e-01,1.06876041871422e-04
9.54480000000000e-08,0.00000000000000e+00,5.00000000000000e-01,-1.76843847404948e-04
9.57040000000000e-08,0.00000000000000e+00,5.00000000000000e-01,-2.33995316283493e-05
9.62159999999999e-08,0.00000000000000e+00,5.00000000000000e-01,-7.86003384820166e-05
9.69677641561660e-08,0.00000000000000e+00,5.00000000000000e-01,9.12073405644779e-05
9.83379309268373e-08,0.00000000000000e+00,5.00000000000000e-01,-3.29570002952696e-05
1.00144728436037e-07,0.00000000000000e+00,5.00000000000000e-01,4.61361521122711e-06
1.03620416322366e-07,0.00000000000000e+00,5.00000000000000e-01,1.14908754015176e-05
1.05000000000000e-07,0.00000000000000e+00,5.00000000000000e-01,-3.49763104809907e-05
1.05010000000000e-07,4.99999999999905e-02,5.00000000000000e-01,7.20402630814548e-05
1.05030000000000e-07,1.49999999999972e-01,5.00000000000000e-01,2.37929860156076e-04
1.05070000000000e-07,3.49999999999934e-01,5.00000000000000e-01,3.59795624108671e-04
1.05100000000000e-07,4.99999999999971e-01,5.00000000000000e-01,2.42399143583746e-04
1.05108000000000e-07,5.00000000000000e-01,5.00000000000000e-01,8.49130579224922e-05
1.05124000000000e-07,5.00000000000000e-01,5.00000000000000e-01,-3.82934210806492e-04
1.05156000000000e-07,5.00000000000000e-01,5.00000000000000e-01,-1.74269879271108e-03
1.05220000000000e-07,5.00000000000000e-01,5.00000000000000e-01,-3.95907104360708e-03
1.05348000000000e-07,5.00000000000000e-01,5.00000000000000e-01,1.30565288832870e-03
1.05604000000000e-07,5.00000000000000e-01,5.00000000000000e-01,2.59267350928776e-01
1.06116000000000e-07,5.00000000000000e-01,5.00000000000000e-01,5.16225446518574e-01
1.06862286153883e-07,5.00000000000000e-01,5.00000000000000e-01,4.88428558921501e-01
1.08164173594311e-07,5.00000000000000e-01,5.00000000000000e-01,5.12247502620306e-01
1.09983938156781e-07,5.00000000000000e-01,5.00000000000000e-01,4.88944114222283e-01
1.12862159096187e-07,5.00000000000000e-01,5.00000000000000e-01,5.11344622210485e-01
1.15100000000000e-07,5.00000000000000e-01,5.00000000000000e-01,4.89378722352170e-01
1.15110000000000e-07,4.50000000000051e-01,5.00000000000000e-01,4.92963593720009e-01
1.15130000000000e-07,3.50000000000070e-01,5.00000000000000e-01,4.97703202312035e-01
1.15170000000000e-07,1.50000000000108e-01,5.00000000000000e-01,5.00259067235314e-01
1.15200000000000e-07,6.99995617026161e-14,5.00000000000000e-01,5.01379296327822e-01
1.15208000000000e-07,0.00000000000000e+00,5.00000000000000e-01,5.01727491358698e-01
1.15224000000000e-07,0.00000000000000e+00,5.00000000000000e-01,5.02209306055597e-01
1.15256000000000e-07,0.00000000000000e+00,5.00000000000000e-01,5.02415445659173e-01
1.15320000000000e-07,0.00000000000000e+00,5.00000000000000e-01,4.99695201979116e-01
1.15448000000000e-07,0.00000000000000e+00,5.00000000000000e-01,4.85772755392435e-01
1.15704000000000e-07,0.00000000000000e+00,5.00000000000000e-01,4.89558198504589e-01
1.16216000000000e-07,0.00000000000000e+00,5.00000000000000e-01,5.04054830913493e-01
1.17001423120570e-07,0.00000000000000e+00,5.00000000000000e-01,4.95820699715622e-01
1.18464584331540e-07,0.00000000000000e+00,5.00000000000000e-01,5.03097686065010e-01
1.21390906753479e-07,0.00000000000000e+00,5.00000000000000e-01,4.96707559519952e-01
1.25000000000000e-07,0.00000000000000e+00,5.00000000000000e-01,5.02876002405236e-01
1.25010000000000e-07,4.99999999999243e-02,5.00000000000000e-01,5.02323816684574e-01
1.25030000000000e-07,1.49999999999905e-01,5.00000000000000e-01,5.01433899255054e-01
1.25070000000000e-07,3.49999999999867e-01,5.00000000000000e-01,5.00524308785409e-01
1.25100000000000e-07,4.99999999999905e-01,5.00000000000000e-01,5.00143003592063e-01
1.25108000000000e-07,5.00000000000000e-01,4.59999999999955e-01,4.99969189269984e-01
1.25124000000000e-07,5.00000000000000e-01,3.79999999999996e-01,4.99572987828428e-01
1.25156000000000e-07,5.00000000000000e-01,2.19999999999947e-01,4.98754265398459e-01
1.25200000000000e-07,5.00000000000000e-01,0.00000000000000e+00,4.98080934958494e-01
1.25206400000000e-07,5.00000000000000e-01,0.00000000000000e+00,4.98036402413982e-01
1.25219200000000e-07,5.00000000000000e-01,0.00000000000000e+00,4.97949886706356e-01
1.25244800000000e-07,5.00000000000000e-01,0.00000000000000e+00,4.97812229333583e-01
1.25296000000000e-07,5.00000000000000e-01,0.00000000000000e+00,4.97649893168731e-01
1.25398400000000e-07,5.00000000000000e-01,0.00000000000000e+00,4.97972650612401e-01
1.25603200000000e-07,5.00000000000000e-01,0.00000000000000e+00,4.99362646808286e-01
1.26012800000000e-07,5.00000000000000e-01,0.00000000000000e+00,5.00123222778973e-01
1.26731498306002e-07,5.00000000000000e-01,0.00000000000000e+00,4.99913778168291e-01
1.27537574885594e-07,5.00000000000000e-01,0.00000000000000e+00,5.00065828560392e-01
1.29149728044777e-07,5.00000000000000e-01,0.00000000000000e+00,4.99940371454543e-01
1.32374034363145e-07,5.00000000000000e-01,0.00000000000000e+00,5.00056690990063e-01
1.35100000000000e-07,4.99999999999909e-01,0.00000000000000e+00,4.99946052680100e-01
1.35110000000000e-07,4.49999999999852e-01,0.00000000000000e+00,4.99907985803220e-01
1.35130000000000e-07,3.49999999999871e-01,0.00000000000000e+00,4.99862865877231e-01
1.35170000000000e-07,1.49999999999909e-01,0.00000000000000e+00,5.00093602246864e-01
1.35200000000000e-07,0.00000000000000e+00,0.00000000000000e+00,5.01232432900265e-01
1.35208000000000e-07,0.00000000000000e+00,0.00000000000000e+00,5.01608157811288e-01
1.35224000000000e-07,0.00000000000000e+00,0.00000000000000e+00,5.02163818944026e-01
1.35256000000000e-07,0.00000000000000e+00,0.00000000000000e+00,5.02684985058484e-01
1.35320000000000e-07,0.00000000000000e+00,0.00000000000000e+00,5.03158888179451e-01
1.35448000000000e-07,0.00000000000000e+00,0.00000000000000e+00,5.02379900093713e-01
1.35704000000000e-07,0.00000000000000e+00,0.00000000000000e+00,4.99384222253353e-01
1.36137672313563e-07,0.00000000000000e+00,0.00000000000000e+00,4.99892897736490e-01
1.36782389238131e-07,0.00000000000000e+00,0.00000000000000e+00,4.99729836704771e-01
