Time,v(clk),v(data),v(out)
1.00000000000000e-08,5.00000000000000e-01,0.00000000000000e+00,-2.68457018429581e-06
1.00100000000000e-08,5.00000000000000e-01,4.99999999999988e-02,7.90647653979570e-07
1.00300000000000e-08,5.00000000000000e-01,1.49999999999996e-01,5.36172931552698e-06
1.00700000000000e-08,5.00000000000000e-01,3.49999999999992e-01,8.03888009516529e-06
1.01000000000000e-08,5.00000000000000e-01,4.99999999999996e-01,6.90074924367817e-06
1.01080000000000e-08,5.00000000000000e-01,5.00000000000000e-01,7.37693920003363e-06
1.01240000000000e-08,5.00000000000000e-01,5.00000000000000e-01,8.37018460601857e-06
1.01560000000000e-08,5.00000000000000e-01,5.00000000000000e-01,6.28776824026372e-06
1.02200000000000e-08,5.00000000000000e-01,5.00000000000000e-01,1.00161159740028e-05
1.03480000000000e-08,5.00000000000000e-01,5.00000000000000e-01,1.29862257649965e-05
1.06040000000000e-08,5.00000000000000e-01,5.00000000000000e-01,1.03363932835582e-05
1.11160000000000e-08,5.00000000000000e-01,5.00000000000000e-01,9.99807713465521e-06
1.21400000000000e-08,5.00000000000000e-01,5.00000000000000e-01,1.00068477702142e-05
1.41880000000000e-08,5.00000000000000e-01,5.00000000000000e-01,9.49263290136180e-06
1.51000000000000e-08,5.00000000000000e-01,5.00000000000000e-01,9.23557374844352e-06
1.51100000000000e-08,4.49999999999993e-01,5.00000000000000e-01,-4.17225646029695e-05
1.51300000000000e-08,3.49999999999995e-01,5.00000000000000e-01,-1.23097137647570e-04
1.51700000000000e-08,1.50000000000000e-01,5.00000000000000e-01,-1.71548168628459e-04
1.52000000000000e-08,0.00000000000000e+00,5.00000000000000e-01,-1.94693915516950e-05
1.52080000000000e-08,0.00000000000000e+00,5.00000000000000e-01,9.38663529069517e-05
1.52240000000000e-08,0.00000000000000e+00,5.00000000000000e-01,2.54416315474633e-04
1.52560000000000e-08,0.00000000000000e+00,5.00000000000000e-01,3.31501069543834e-04
1.53200000000000e-08,0.00000000000000e+00,5.00000000000000e-01,1.64528753269159e-04
1.54480000000000e-08,0.00000000000000e+00,5.00000000000000e-01,-2.01181380822042e-04
1.57040000000000e-08,0.00000000000000e+00,5.00000000000000e-01,-9.21264905984973e-05
1.62160000000000e-08,0.00000000000000e+00,5.00000000000000e-01,-2.36935205670478e-05
1.69852275571182e-08,0.00000000000000e+00,5.00000000000000e-01,4.12172275642371e-05
1.81693275167707e-08,0.00000000000000e+00,5.00000000000000e-01,5.48201155230396e-05
2.02204318505354e-08,0.00000000000000e+00,5.00000000000000e-01,-6.91012082794915e-05
2.34180814900297e-08,0.00000000000000e+00,5.00000000000000e-01,9.74662364237840e-05
2.50000000000000e-08,0.00000000000000e+00,5.00000000000000e-01,-1.01394351223567e-04
2.50100000000000e-08,4.99999999999905e-02,5.00000000000000e-01,9.14608154820723e-06
2.50300000000000e-08,1.50000000000005e-01,5.00000000000000e-01,1.85592040124444e-04
2.50700000000000e-08,3.50000000000000e-01,5.00000000000000e-01,3.54119366893842e-04
2.51000000000000e-08,5.00000000000000e-01,5.00000000000000e-01,2.77873225936517e-04
2.51080000000000e-08,5.00000000000000e-01,5.00000000000000e-01,1.45602770409578e-04
2.51240000000000e-08,5.00000000000000e-01,5.00000000000000e-01,-2.10010182342603e-04
2.51560000000000e-08,5.00000000000000e-01,5.00000000000000e-01,-1.25195055359160e-03
2.52200000000000e-08,5.00000000000000e-01,5.00000000000000e-01,-3.21554375051378e-03
2.53480000000000e-08,5.00000000000000e-01,5.00000000000000e-01,-3.08675391486955e-03
2.56040000000000e-08,5.00000000000000e-01,5.00000000000000e-01,1.63739837982658e-01
2.61160000000000e-08,5.00000000000000e-01,5.00000000000000e-01,4.95122578723761e-01
2.70975649310089e-08,5.00000000000000e-01,5.00000000000000e-01,5.01098251488564e-01
2.83457805927471e-08,5.00000000000000e-01,5.00000000000000e-01,4.98957804491005e-01
3.03838484762808e-08,5.00000000000000e-01,5.00000000000000e-01,5.00608226397339e-01
3.31769245115582e-08,5.00000000000000e-01,5.00000000000000e-01,4.99327599802199e-01
3.51000000000000e-08,4.99999999999975e-01,5.00000000000000e-01,5.00411112190582e-01
3.51100000000000e-08,4.49999999999985e-01,5.00000000000000e-01,5.00363813168099e-01
3.51300000000000e-08,3.49999999999971e-01,5.00000000000000e-01,5.00232136178541e-01
3.51700000000000e-08,1.49999999999975e-01,5.00000000000000e-01,5.00316129737380e-01
3.52000000000000e-08,0.00000000000000e+00,5.00000000000000e-01,5.01347572832331e-01
3.52080000000000e-08,0.00000000000000e+00,5.00000000000000e-01,5.01697205287122e-01
3.52240000000000e-08,0.00000000000000e+00,5.00000000000000e-01,5.02188944219093e-01
3.52560000000000e-08,0.00000000000000e+00,5.00000000000000e-01,5.02443052391155e-01
3.53200000000000e-08,0.00000000000000e+00,5.00000000000000e-01,5.00543053531978e-01
3.54480000000000e-08,0.00000000000000e+00,5.00000000000000e-01,4.88038835880793e-01
3.57040000000000e-08,0.00000000000000e+00,5.00000000000000e-01,4.87730032473765e-01
3.62160000000000e-08,0.00000000000000e+00,5.00000000000000e-01,5.03114108808564e-01
3.70261380666745e-08,0.00000000000000e+00,5.00000000000000e-01,4.96407399107446e-01
3.84506530963110e-08,0.00000000000000e+00,5.00000000000000e-01,5.02377714547686e-01
4.12996831555839e-08,0.00000000000000e+00,5.00000000000000e-01,4.97274479935432e-01
4.50000000000000e-08,0.00000000000000e+00,5.00000000000000e-01,5.02211137489698e-01
4.50100000000000e-08,4.99999999999905e-02,5.00000000000000e-01,5.01823445871576e-01
4.50300000000000e-08,1.50000000000005e-01,5.00000000000000e-01,5.01182582009762e-01
4.50700000000000e-08,3.50000000000000e-01,5.00000000000000e-01,5.00467107985446e-01
4.51000000000000e-08,5.00000000000000e-01,5.00000000000000e-01,5.00153729882329e-01
4.51080000000000e-08,5.00000000000000e-01,4.60000000000021e-01,5.00023160854922e-01
4.51240000000000e-08,5.00000000000000e-01,3.79999999999996e-01,4.99735711422821e-01
4.51560000000000e-08,5.00000000000000e-01,2.20000000000013e-01,4.99095342438685e-01
4.52000000000000e-08,5.00000000000000e-01,2.86437540353290e-14,4.98437629964116e-01
4.52064000000000e-08,5.00000000000000e-01,0.00000000000000e+00,4.98385006627790e-01
4.52192000000000e-08,5.00000000000000e-01,0.00000000000000e+00,4.98285515169687e-01
4.52448000000000e-08,5.00000000000000e-01,0.00000000000000e+00,4.98131892273020e-01
4.52960000000000e-08,5.00000000000000e-01,0.00000000000000e+00,4.97966835998090e-01
4.53984000000000e-08,5.00000000000000e-01,0.00000000000000e+00,4.98089170522881e-01
4.56032000000000e-08,5.00000000000000e-01,0.00000000000000e+00,4.98935170091466e-01
4.60128000000000e-08,5.00000000000000e-01,0.00000000000000e+00,4.99958219966727e-01
4.66427229191501e-08,5.00000000000000e-01,0.00000000000000e+00,4.99971251488974e-01
4.75518126694832e-08,5.00000000000000e-01,0.00000000000000e+00,5.00037504828925e-01
4.93699921701495e-08,5.00000000000000e-01,0.00000000000000e+00,4.99962214288012e-01
5.29011294505536e-08,5.00000000000000e-01,0.00000000000000e+00,5.00037393139637e-01
5.51000000000000e-08,5.00000000000000e-01,0.00000000000000e+00,4.99963681931538e-01
5.51100000000000e-08,4.50000000000018e-01,0.00000000000000e+00,4.99921878078077e-01
5.51300000000000e-08,3.50000000000004e-01,0.00000000000000e+00,4.99865410904521e-01
5.51700000000000e-08,1.50000000000008e-01,0.00000000000000e+00,5.00122798218450e-01
5.52000000000000e-08,0.00000000000000e+00,0.00000000000000e+00,5.01251854714445e-01
5.52080000000000e-08,0.00000000000000e+00,0.00000000000000e+00,5.01625058958641e-01
5.52240000000000e-08,0.00000000000000e+00,0.00000000000000e+00,5.02183079276079e-01
5.52560000000000e-08,0.00000000000000e+00,0.00000000000000e+00,5.02710904321324e-01
5.53200000000000e-08,0.00000000000000e+00,0.00000000000000e+00,5.03213093162927e-01
5.54480000000000e-08,0.00000000000000e+00,0.00000000000000e+00,5.02610315572120e-01
5.57040000000000e-08,0.00000000000000e+00,0.00000000000000e+00,4.99091276012917e-01
5.61520041677506e-08,0.00000000000000e+00,0.00000000000000e+00,4.99354934084691e-01
5.67833971579590e-08,0.00000000000000e+00,0.00000000000000e+00,4.99640270111730e-01
5.80223399920184e-08,0.00000000000000e+00,0.00000000000000e+00,4.99607224766939e-01
5.95962898722054e-08,0.00000000000000e+00,0.00000000000000e+00,4.99873295189563e-01
6.27441896325794e-08,0.00000000000000e+00,0.00000000000000e+00,4.99715558442392e-01
6.50000000000000e-08,0.00000000000000e+00,0.00000000000000e+00,4.99944243849168e-01
6.50100000000000e-08,4.99999999999905e-02,0.00000000000000e+00,4.99954885449527e-01
6.50300000000000e-08,1.49999999999972e-01,0.00000000000000e+00,4.99963642913307e-01
6.50700000000000e-08,3.49999999999934e-01,0.00000000000000e+00,4.99918559137582e-01
6.51000000000000e-08,4.99999999999971e-01,0.00000000000000e+00,4.99824787735872e-01
6.51080000000000e-08,5.00000000000000e-01,0.00000000000000e+00,4.99773328140299e-01
6.51240000000000e-08,5.00000000000000e-01,0.00000000000000e+00,4.99697158803792e-01
6.51560000000000e-08,5.00000000000000e-01,0.00000000000000e+00,4.99647262738273e-01
6.52200000000000e-08,5.00000000000000e-01,0.00000000000000e+00,4.99655525320691e-01
6.53480000000000e-08,5.00000000000000e-01,0.00000000000000e+00,4.99902144033419e-01
6.56040000000000e-08,5.00000000000000e-01,0.00000000000000e+00,5.06707261873734e-01
6.61159999999999e-08,5.00000000000000e-01,0.00000000000000e+00,1.57028789888243e-01
6.69863164834001e-08,5.00000000000000e-01,0.00000000000000e+00,-5.87002529393864e-02
6.78884524247877e-08,5.00000000000000e-01,0.00000000000000e+00,5.62085622785492e-02
6.96927243075629e-08,5.00000000000000e-01,0.00000000000000e+00,-3.78429582480089e-02
7.17696057510074e-08,5.00000000000000e-01,0.00000000000000e+00,3.99381621800460e-02
7.51000000000000e-08,5.00000000000000e-01,0.00000000000000e+00,-3.07379126880019e-02
7.51100000000000e-08,4.50000000000051e-01,0.00000000000000e+00,-2.69423399300583e-02
7.51300000000000e-08,3.50000000000070e-01,0.00000000000000e+00,-2.00813908843518e-02
7.51700000000000e-08,1.50000000000108e-01,0.00000000000000e+00,-1.07388374960484e-02
7.52000000000000e-08,6.99995617026161e-14,0.00000000000000e+00,-6.68749753133203e-03
7.52080000000000e-08,0.00000000000000e+00,0.00000000000000e+00,-5.84952763651344e-03
7.52240000000000e-08,0.00000000000000e+00,0.00000000000000e+00,-4.39581977501124e-03
7.52560000000000e-08,0.00000000000000e+00,0.00000000000000e+00,-2.48435212053891e-03
7.53200000000000e-08,0.00000000000000e+00,0.00000000000000e+00,-8.97593974987836e-04
7.54480000000000e-08,0.00000000000000e+00,0.00000000000000e+00,-8.42513641016368e-04
7.57040000000000e-08,0.00000000000000e+00,0.00000000000000e+00,-2.91536861533940e-04
7.62098331324171e-08,0.00000000000000e+00,0.00000000000000e+00,2.85685434271510e-04
7.69797346225908e-08,0.00000000000000e+00,0.00000000000000e+00,-2.31536838064691e-04
7.83917840097814e-08,0.00000000000000e+00,0.00000000000000e+00,2.32220495813495e-04
8.12158827841628e-08,0.00000000000000e+00,0.00000000000000e+00,-2.08468813850054e-04
8.50000000000000e-08,0.00000000000000e+00,0.00000000000000e+00,2.18323727030803e-04
8.50100000000000e-08,4.99999999999905e-02,0.00000000000000e+00,2.37252504680867e-04
8.50300000000000e-08,1.49999999999972e-01,0.00000000000000e+00,2.70766730297155e-04
8.50700000000000e-08,3.49999999999934e-01,0.00000000000000e+00,2.37353428670893e-04
8.51000000000000e-08,4.99999999999971e-01,0.00000000000000e+00,9.26789343487153e-05
8.51080000000000e-08,5.00000000000000e-01,0.00000000000000e+00,1.28873338561750e-05
8.51240000000000e-08,5.00000000000000e-01,0.00000000000000e+00,-1.13183853413884e-04
8.51560000000000e-08,5.00000000000000e-01,0.00000000000000e+00,-2.13173870018790e-04
8.52200000000000e-08,5.00000000000000e-01,0.00000000000000e+00,-1.81982996895390e-04
8.53480000000000e-08,5.00000000000000e-01,0.00000000000000e+00,-4.78253183518879e-05
8.56040000000000e-08,5.00000000000000e-01,0.00000000000000e+00,5.83430665373995e-05
8.61159999999999e-08,5.00000000000000e-01,0.00000000000000e+00,3.08906071484292e-05
8.71399999999999e-08,5.00000000000000e-01,0.00000000000000e+00,-1.61273853718866e-06
8.87650109486327e-08,5.00000000000000e-01,0.00000000000000e+00,2.69474017287044e-05
9.00000000000000e-08,5.00000000000000e-01,0.00000000000000e+00,-2.57478050924576e-06
9.00100000000000e-08,5.00000000000000e-01,4.99999999999905e-02,1.00200273364659e-06
9.00300000000000e-08,5.00000000000000e-01,1.49999999999972e-01,5.63897755841841e-06
9.00700000000000e-08,5.00000000000000e-01,3.49999999999934e-01,8.26053035519331e-06
9.01000000000000e-08,5.00000000000000e-01,4.99999999999971e-01,7.14902675914841e-06
9.01080000000000e-08,5.00000000000000e-01,5.00000000000000e-01,7.63496253958912e-06
9.01240000000000e-08,5.00000000000000e-01,5.00000000000000e-01,8.64682646244119e-06
9.01560000000000e-08,5.00000000000000e-01,5.00000000000000e-01,7.04612770532909e-06
9.02200000000000e-08,5.00000000000000e-01,5.00000000000000e-01,1.02943861943899e-05
9.03480000000000e-08,5.00000000000000e-01,5.00000000000000e-01,1.29631658110849e-05
9.06040000000000e-08,5.00000000000000e-01,5.00000000000000e-01,1.03777180114235e-05
9.11159999999999e-08,5.00000000000000e-01,5.00000000000000e-01,9.94329166022732e-06
9.21399999999999e-08,5.00000000000000e-01,5.00000000000000e-01,1.04123177365857e-05
9.41879999999998e-08,5.00000000000000e-01,5.00000000000000e-01,9.14481929951928e-06
9.51000000000000e-08,5.00000000000000e-01,5.00000000000000e-01,9.47192491439902e-06
9.51100000000000e-08,4.50000000000051e-01,5.00000000000000e-01,-4.13559064946153e-05
9.51300000000000e-08,3.50000000000070e-01,5.00000000000000e-01,-1.22805087270243e-04
9.51700000000000e-08,1.50000000000108e-01,5.00000000000000e-01,-1.71406167671660e-04
9.52000000000000e-08,6.99995617026161e-14,5.00000000000000e-01,-1.93788963112271e-05
9.52080000000000e-08,0.00000000000000e+00,5.00000000000000e-01,9.39452660239024e-05
9.52240000000000e-08,0.00000000000000e+00,5.00000000000000e-01,2.54476359516864e-04
9.52560000000000e-08,0.00000000000000e+00,5.00000000000000e-01,3.31534779828960e-04
9.53200000000000e-08,0.00000000000000e+00,5.00000000000000e-01,1.64527650997295e-04
9.54480000000000e-08,0.00000000000000e+00,5.00000000000000e-01,-2.01191551911273e-04
9.57040000000000e-08,0.00000000000000e+00,5.00000000000000e-01,-9.21143328343303e-05
9.62159999999999e-08,0.00000000000000e+00,5.00000000000000e-01,-2.37037846155808e-05
9.69852342281907e-08,0.00000000000000e+00,5.00000000000000e-01,4.12267355675983e-05
9.81693467053200e-08,0.00000000000000e+00,5.00000000000000e-01,5.48119237337181e-05
1.00220465675113e-07,0.00000000000000e+00,5.00000000000000e-01,-6.90937788359511e-05
1.03418125243183e-07,0.00000000000000e+00,5.00000000000000e-01,9.74595036506173e-05
1.05000000000000e-07,0.00000000000000e+00,5.00000000000000e-01,-1.01389213039700e-04
1.05010000000000e-07,4.99999999999905e-02,5.00000000000000e-01,9.15094552171591e-06
1.05030000000000e-07,1.49999999999972e-01,5.00000000000000e-01,1.85596493536187e-04
1.05070000000000e-07,3.49999999999934e-01,5.00000000000000e-01,3.54123062620081e-04
1.05100000000000e-07,4.99999999999971e-01,5.00000000000000e-01,2.77878132759618e-04
1.05108000000000e-07,5.00000000000000e-01,5.00000000000000e-01,1.45609133503477e-04
1.05124000000000e-07,5.00000000000000e-01,5.00000000000000e-01,-2.10000524008318e-04
1.05156000000000e-07,5.00000000000000e-01,5.00000000000000e-01,-1.25193745861307e-03
1.05220000000000e-07,5.00000000000000e-01,5.00000000000000e-01,-3.21553494911692e-03
1.05348000000000e-07,5.00000000000000e-01,5.00000000000000e-01,-3.08677915888331e-03
1.05604000000000e-07,5.00000000000000e-01,5.00000000000000e-01,1.63739428266439e-01
1.06116000000000e-07,5.00000000000000e-01,5.00000000000000e-01,4.95122459803062e-01
1.07097566510773e-07,5.00000000000000e-01,5.00000000000000e-01,5.01098306080966e-01
1.08345781556541e-07,5.00000000000000e-01,5.00000000000000e-01,4.98957742763648e-01
1.10383851406285e-07,5.00000000000000e-01,5.00000000000000e-01,5.00608276719582e-01
1.13176927936626e-07,5.00000000000000e-01,5.00000000000000e-01,4.99327544900937e-01
1.15100000000000e-07,5.00000000000000e-01,5.00000000000000e-01,5.00411159119773e-01
1.15110000000000e-07,4.50000000000051e-01,5.00000000000000e-01,5.00363845200025e-01
1.15130000000000e-07,3.50000000000070e-01,5.00000000000000e-01,5.00232147717282e-01
1.15170000000000e-07,1.50000000000108e-01,5.00000000000000e-01,5.00316130166128e-01
1.15200000000000e-07,6.99995617026161e-14,5.00000000000000e-01,5.01347572934218e-01
1.15208000000000e-07,0.00000000000000e+00,5.00000000000000e-01,5.01697205381222e-01
1.15224000000000e-07,0.00000000000000e+00,5.00000000000000e-01,5.02188944300745e-01
1.15256000000000e-07,0.00000000000000e+00,5.00000000000000e-01,5.02443052492764e-01
1.15320000000000e-07,0.00000000000000e+00,5.00000000000000e-01,5.00543053860654e-01
1.15448000000000e-07,0.00000000000000e+00,5.00000000000000e-01,4.88038836454376e-01
1.15704000000000e-07,0.00000000000000e+00,5.00000000000000e-01,4.87730032385557e-01
1.16216000000000e-07,0.00000000000000e+00,5.00000000000000e-01,5.03114108736499e-01
1.17026138065230e-07,0.00000000000000e+00,5.00000000000000e-01,4.96407399177550e-01
1.18450653089390e-07,0.00000000000000e+00,5.00000000000000e-01,5.02377714489069e-01
1.21299683137708e-07,0.00000000000000e+00,5.00000000000000e-01,4.97274479991840e-01
1.25000000000000e-07,0.00000000000000e+00,5.00000000000000e-01,5.02211137436990e-01
1.25010000000000e-07,4.99999999999243e-02,5.00000000000000e-01,5.01823445825576e-01
1.25030000000000e-07,1.49999999999905e-01,5.00000000000000e-01,5.01182581977557e-01
1.25070000000000e-07,3.49999999999867e-01,5.00000000000000e-01,5.00467107984371e-01
1.25100000000000e-07,4.99999999999905e-01,5.00000000000000e-01,5.00153729886432e-01
1.25108000000000e-07,5.00000000000000e-01,4.59999999999955e-01,5.00023160858854e-01
1.25124000000000e-07,5.00000000000000e-01,3.79999999999996e-01,4.99735711429100e-01
1.25156000000000e-07,5.00000000000000e-01,2.19999999999947e-01,4.99095342442760e-01
1.25200000000000e-07,5.00000000000000e-01,0.00000000000000e+00,4.98437629957119e-01
1.25206400000000e-07,5.00000000000000e-01,0.00000000000000e+00,4.98385006620912e-01
1.25219200000000e-07,5.00000000000000e-01,0.00000000000000e+00,4.98285515163240e-01
1.25244800000000e-07,5.00000000000000e-01,0.00000000000000e+00,4.98131892267052e-01
1.25296000000000e-07,5.00000000000000e-01,0.00000000000000e+00,4.97966835983508e-01
1.25398400000000e-07,5.00000000000000e-01,0.00000000000000e+00,4.98089170468140e-01
1.25603200000000e-07,5.00000000000000e-01,0.00000000000000e+00,4.98935170074089e-01
1.26012800000000e-07,5.00000000000000e-01,0.00000000000000e+00,4.99958220008069e-01
1.26642722832384e-07,5.00000000000000e-01,0.00000000000000e+00,4.99971251467343e-01
1.27551812644492e-07,5.00000000000000e-01,0.00000000000000e+00,5.00037504840666e-01
1.29369992268708e-07,5.00000000000000e-01,0.00000000000000e+00,4.99962214278385e-01
1.32901128778278e-07,5.00000000000000e-01,0.00000000000000e+00,5.00037393148058e-01
1.35100000000000e-07,4.99999999999909e-01,0.00000000000000e+00,4.99963681923953e-01
1.35110000000000e-07,4.49999999999852e-01,0.00000000000000e+00,4.99921878072899e-01
1.35130000000000e-07,3.49999999999871e-01,0.00000000000000e+00,4.99865410901989e-01
1.35170000000000e-07,1.49999999999909e-01,0.00000000000000e+00,5.00122798218381e-01
1.35200000000000e-07,0.00000000000000e+00,0.00000000000000e+00,5.01251854719335e-01
1.35208000000000e-07,0.00000000000000e+00,0.00000000000000e+00,5.01625058959617e-01
1.35224000000000e-07,0.00000000000000e+00,0.00000000000000e+00,5.02183079278320e-01
1.35256000000000e-07,0.00000000000000e+00,0.00000000000000e+00,5.02710904324341e-01
1.35320000000000e-07,0.00000000000000e+00,0.00000000000000e+00,5.03213093166194e-01
1.35448000000000e-07,0.00000000000000e+00,0.00000000000000e+00,5.02610315565232e-01
1.35704000000000e-07,0.00000000000000e+00,0.00000000000000e+00,4.99091276014851e-01
1.36152004168250e-07,0.00000000000000e+00,0.00000000000000e+00,4.99354934086558e-01
1.36783397158573e-07,0.00000000000000e+00,0.00000000000000e+00,4.99640270111317e-01
1.38022339993290e-07,0.00000000000000e+00,0.00000000000000e+00,4.99607224767871e-01
