Time,v(clk),v(data),v(out)
1.00000000000000e-08,5.00000000000000e-01,0.00000000000000e+00,1.46391939370664e-05
1.00100000000000e-08,5.00000000000000e-01,4.99999999999988e-02,1.35580678651062e-05
1.00300000000000e-08,5.00000000000000e-01,1.49999999999996e-01,1.21904763554989e-05
1.00700000000000e-08,5.00000000000000e-01,3.49999999999992e-01,8.76836520434521e-06
1.01000000000000e-08,5.00000000000000e-01,4.99999999999996e-01,5.90963995649590e-06
1.01080000000000e-08,5.00000000000000e-01,5.00000000000000e-01,5.51220250525480e-06
1.01240000000000e-08,5.00000000000000e-01,5.00000000000000e-01,4.18225414550860e-06
1.01560000000000e-08,5.00000000000000e-01,5.00000000000000e-01,4.32536319654175e-06
1.02200000000000e-08,5.00000000000000e-01,5.00000000000000e-01,6.14423085742999e-06
1.03480000000000e-08,5.00000000000000e-01,5.00000000000000e-01,8.49092206420959e-06
1.06040000000000e-08,5.00000000000000e-01,5.00000000000000e-01,6.56615658943191e-06
1.11160000000000e-08,5.00000000000000e-01,5.00000000000000e-01,5.95735196838934e-06
1.20845233778281e-08,5.00000000000000e-01,5.00000000000000e-01,6.36385183924899e-06
1.40215701334842e-08,5.00000000000000e-01,5.00000000000000e-01,5.73676714224307e-06
1.51000000000000e-08,5.00000000000000e-01,5.00000000000000e-01,5.90756337998620e-06
1.51100000000000e-08,4.49999999999993e-01,5.00000000000000e-01,-4.56946550507070e-05
1.51300000000000e-08,3.49999999999995e-01,5.00000000000000e-01,-1.34985826498395e-04
1.51700000000000e-08,1.50000000000000e-01,5.00000000000000e-01,-2.13466560594032e-04
1.52000000000000e-08,0.00000000000000e+00,5.00000000000000e-01,-6.13422213444487e-05
1.52080000000000e-08,0.00000000000000e+00,5.00000000000000e-01,6.41286160523724e-05
1.52240000000000e-08,0.00000000000000e+00,5.00000000000000e-01,2.49581470921016e-04
1.52560000000000e-08,0.00000000000000e+00,5.00000000000000e-01,3.84754131488758e-04
1.53200000000000e-08,0.00000000000000e+00,5.00000000000000e-01,3.22419442946212e-04
1.54480000000000e-08,0.00000000000000e+00,5.00000000000000e-01,-3.42669824418551e-05
1.57040000000000e-08,0.00000000000000e+00,5.00000000000000e-01,-1.91893543821688e-04
1.62160000000000e-08,0.00000000000000e+00,5.00000000000000e-01,8.22201806014548e-05
1.69901543046583e-08,0.00000000000000e+00,5.00000000000000e-01,-1.36632245970412e-04
1.85384629139748e-08,0.00000000000000e+00,5.00000000000000e-01,1.61375362686103e-04
2.16350801326078e-08,0.00000000000000e+00,5.00000000000000e-01,-1.31208467527506e-04
2.46214798963186e-08,0.00000000000000e+00,5.00000000000000e-01,1.18100159605870e-04
2.50000000000000e-08,0.00000000000000e+00,5.00000000000000e-01,-1.21288306951482e-05
2.50100000000000e-08,4.99999999999905e-02,5.00000000000000e-01,8.11458307076462e-05
2.50300000000000e-08,1.50000000000005e-01,5.00000000000000e-01,2.49144552084871e-04
2.50700000000000e-08,3.50000000000000e-01,5.00000000000000e-01,4.81444659998539e-04
2.51000000000000e-08,5.00000000000000e-01,5.00000000000000e-01,5.35829622324846e-04
2.51080000000000e-08,5.00000000000000e-01,5.00000000000000e-01,4.88913051475158e-04
2.51240000000000e-08,5.00000000000000e-01,5.00000000000000e-01,3.98265790935243e-04
2.51560000000000e-08,5.00000000000000e-01,5.00000000000000e-01,2.10173519302109e-04
2.52200000000000e-08,5.00000000000000e-01,5.00000000000000e-01,-5.03493345267246e-04
2.53480000000000e-08,5.00000000000000e-01,5.00000000000000e-01,-2.52220820827523e-03
2.56040000000000e-08,5.00000000000000e-01,5.00000000000000e-01,-3.79281641386629e-03
2.61160000000000e-08,5.00000000000000e-01,5.00000000000000e-01,2.28045099121808e-01
2.71400000000000e-08,5.00000000000000e-01,5.00000000000000e-01,5.07913916932375e-01
2.86864059828329e-08,5.00000000000000e-01,5.00000000000000e-01,4.95234990534056e-01
3.13381009872236e-08,5.00000000000000e-01,5.00000000000000e-01,5.05391652466746e-01
3.50427976242870e-08,5.00000000000000e-01,5.00000000000000e-01,4.95142734523761e-01
3.51000000000000e-08,4.99999999999975e-01,5.00000000000000e-01,5.01085709367796e-01
3.51100000000000e-08,4.49999999999985e-01,5.00000000000000e-01,5.00698393670128e-01
3.51300000000000e-08,3.49999999999971e-01,5.00000000000000e-01,5.00178193161619e-01
3.51700000000000e-08,1.49999999999975e-01,5.00000000000000e-01,5.00201445179571e-01
3.52000000000000e-08,0.00000000000000e+00,5.00000000000000e-01,5.01388348669293e-01
3.52080000000000e-08,0.00000000000000e+00,5.00000000000000e-01,5.01776799462081e-01
3.52240000000000e-08,0.00000000000000e+00,5.00000000000000e-01,5.02328586440735e-01
3.52560000000000e-08,0.00000000000000e+00,5.00000000000000e-01,5.02683163216772e-01
3.53200000000000e-08,0.00000000000000e+00,5.00000000000000e-01,5.01052919781428e-01
3.54480000000000e-08,0.00000000000000e+00,5.00000000000000e-01,4.89328976672499e-01
3.57040000000000e-08,0.00000000000000e+00,5.00000000000000e-01,4.89828749121828e-01
3.62160000000000e-08,0.00000000000000e+00,5.00000000000000e-01,5.02953125431924e-01
3.70183934917649e-08,0.00000000000000e+00,5.00000000000000e-01,4.96719056901683e-01
3.85317098544310e-08,0.00000000000000e+00,5.00000000000000e-01,5.02338751182968e-01
4.15583425797631e-08,0.00000000000000e+00,5.00000000000000e-01,4.97474658182796e-01
4.50000000000000e-08,0.00000000000000e+00,5.00000000000000e-01,5.02198556304287e-01
4.50100000000000e-08,4.99999999999905e-02,5.00000000000000e-01,5.01794757689322e-01
4.50300000000000e-08,1.50000000000005e-01,5.00000000000000e-01,5.01138645541690e-01
4.50700000000000e-08,3.50000000000000e-01,5.00000000000000e-01,5.00458896591105e-01
4.51000000000000e-08,5.00000000000000e-01,5.00000000000000e-01,5.00234372274499e-01
4.51080000000000e-08,5.00000000000000e-01,4.60000000000021e-01,5.00164658171644e-01
4.51240000000000e-08,5.00000000000000e-01,3.79999999999996e-01,5.00043006144475e-01
4.51560000000000e-08,5.00000000000000e-01,2.20000000000013e-01,4.99846421563593e-01
4.52000000000000e-08,5.00000000000000e-01,2.86437540353290e-14,4.99590675576670e-01
4.52064000000000e-08,5.00000000000000e-01,0.00000000000000e+00,4.99556241147068e-01
4.52192000000000e-08,5.00000000000000e-01,0.00000000000000e+00,4.99487626175854e-01
4.52448000000000e-08,5.00000000000000e-01,0.00000000000000e+00,4.99364054055543e-01
4.52960000000000e-08,5.00000000000000e-01,0.00000000000000e+00,4.99214750880044e-01
4.53984000000000e-08,5.00000000000000e-01,0.00000000000000e+00,4.99209731843095e-01
4.56032000000000e-08,5.00000000000000e-01,0.00000000000000e+00,4.99574190150676e-01
4.60128000000000e-08,5.00000000000000e-01,0.00000000000000e+00,5.00411705779576e-01
4.66610232469143e-08,5.00000000000000e-01,0.00000000000000e+00,5.02088049410453e-01
4.78406210422541e-08,5.00000000000000e-01,0.00000000000000e+00,1.29770998373591e-01
4.94793922034096e-08,5.00000000000000e-01,0.00000000000000e+00,-5.39358042845728e-02
5.16568982894911e-08,5.00000000000000e-01,0.00000000000000e+00,5.49276207975184e-02
5.51000000000000e-08,5.00000000000000e-01,0.00000000000000e+00,-3.66689430016027e-02
5.51100000000000e-08,4.50000000000018e-01,0.00000000000000e+00,-3.43144073577915e-02
5.51300000000000e-08,3.50000000000004e-01,0.00000000000000e+00,-2.96845309318633e-02
5.51700000000000e-08,1.50000000000008e-01,0.00000000000000e+00,-2.17737280111349e-02
5.52000000000000e-08,0.00000000000000e+00,0.00000000000000e+00,-1.70692060975142e-02
5.52080000000000e-08,0.00000000000000e+00,0.00000000000000e+00,-1.59389053497669e-02
5.52240000000000e-08,0.00000000000000e+00,0.00000000000000e+00,-1.38581429911423e-02
5.52560000000000e-08,0.00000000000000e+00,0.00000000000000e+00,-1.05599192690151e-02
5.53200000000000e-08,0.00000000000000e+00,0.00000000000000e+00,-6.32752675305403e-03
5.54480000000000e-08,0.00000000000000e+00,0.00000000000000e+00,-2.84405849425581e-03
5.57040000000000e-08,0.00000000000000e+00,0.00000000000000e+00,-7.29443955246937e-04
5.62160000000000e-08,0.00000000000000e+00,0.00000000000000e+00,2.64056748967269e-04
5.69882397425697e-08,0.00000000000000e+00,0.00000000000000e+00,-1.36485584432465e-04
5.85327192277090e-08,0.00000000000000e+00,0.00000000000000e+00,1.10566337983654e-04
6.16216781979877e-08,0.00000000000000e+00,0.00000000000000e+00,-9.05993498224599e-05
6.50000000000000e-08,0.00000000000000e+00,0.00000000000000e+00,8.79201391752078e-05
6.50100000000000e-08,4.99999999999905e-02,0.00000000000000e+00,1.54413955050989e-04
6.50300000000000e-08,1.49999999999972e-01,0.00000000000000e+00,2.61521648098756e-04
6.50700000000000e-08,3.49999999999934e-01,0.00000000000000e+00,3.14125933168444e-04
6.51000000000000e-08,4.99999999999971e-01,0.00000000000000e+00,2.26224288156059e-04
6.51080000000000e-08,5.00000000000000e-01,0.00000000000000e+00,1.55848561326485e-04
6.51240000000000e-08,5.00000000000000e-01,0.00000000000000e+00,3.62058142296742e-05
6.51560000000000e-08,5.00000000000000e-01,0.00000000000000e+00,-9.98451375336731e-05
6.52200000000000e-08,5.00000000000000e-01,0.00000000000000e+00,-1.62365477528979e-04
6.53480000000000e-08,5.00000000000000e-01,0.00000000000000e+00,-9.30378717092367e-05
6.56040000000000e-08,5.00000000000000e-01,0.00000000000000e+00,-1.02923063261123e-05
6.61159999999999e-08,5.00000000000000e-01,0.00000000000000e+00,1.74178993826643e-05
6.71399999999999e-08,5.00000000000000e-01,0.00000000000000e+00,1.57483793078901e-05
6.91879999999998e-08,5.00000000000000e-01,0.00000000000000e+00,-2.51575098350696e-06
7.25683882150035e-08,5.00000000000000e-01,0.00000000000000e+00,1.51047315080899e-05
7.51000000000000e-08,5.00000000000000e-01,0.00000000000000e+00,-2.80058717293599e-06
7.51100000000000e-08,4.50000000000051e-01,0.00000000000000e+00,-5.29573163217112e-05
7.51300000000000e-08,3.50000000000070e-01,0.00000000000000e+00,-1.39019152262103e-04
7.51700000000000e-08,1.50000000000108e-01,0.00000000000000e+00,-2.14784437013456e-04
7.52000000000000e-08,6.99995617026161e-14,0.00000000000000e+00,-6.15117213810523e-05
7.52080000000000e-08,0.00000000000000e+00,0.00000000000000e+00,6.41578453660085e-05
7.52240000000000e-08,0.00000000000000e+00,0.00000000000000e+00,2.50086792267276e-04
7.52560000000000e-08,0.00000000000000e+00,0.00000000000000e+00,3.86047133784803e-04
7.53200000000000e-08,0.00000000000000e+00,0.00000000000000e+00,3.23948933765132e-04
7.54480000000000e-08,0.00000000000000e+00,0.00000000000000e+00,-3.58093500440956e-05
7.57040000000000e-08,0.00000000000000e+00,0.00000000000000e+00,-1.92263372581471e-04
7.62159999999999e-08,0.00000000000000e+00,0.00000000000000e+00,8.11162795104244e-05
7.69895691284331e-08,0.00000000000000e+00,0.00000000000000e+00,-3.80127372677907e-05
7.85367073852994e-08,0.00000000000000e+00,0.00000000000000e+00,3.36725384783541e-05
8.16309838990319e-08,0.00000000000000e+00,0.00000000000000e+00,-2.12728031906968e-05
8.50000000000000e-08,0.00000000000000e+00,0.00000000000000e+00,2.49232324478817e-05
8.50100000000000e-08,4.99999999999905e-02,0.00000000000000e+00,1.08673473942840e-04
8.50300000000000e-08,1.49999999999972e-01,0.00000000000000e+00,2.35332257497764e-04
8.50700000000000e-08,3.49999999999934e-01,0.00000000000000e+00,2.95875875408323e-04
8.51000000000000e-08,4.99999999999971e-01,0.00000000000000e+00,2.11038123513890e-04
8.51080000000000e-08,5.00000000000000e-01,0.00000000000000e+00,1.41506881626403e-04
8.51240000000000e-08,5.00000000000000e-01,0.00000000000000e+00,2.34408301632086e-05
8.51560000000000e-08,5.00000000000000e-01,0.00000000000000e+00,-1.10088558208508e-04
8.52200000000000e-08,5.00000000000000e-01,0.00000000000000e+00,-1.68774310300462e-04
8.53480000000000e-08,5.00000000000000e-01,0.00000000000000e+00,-9.53547594157514e-05
8.56040000000000e-08,5.00000000000000e-01,0.00000000000000e+00,-1.03553810948051e-05
8.61159999999999e-08,5.00000000000000e-01,0.00000000000000e+00,1.74653233154104e-05
8.71399999999999e-08,5.00000000000000e-01,0.00000000000000e+00,1.57142019401521e-05
8.91879999999998e-08,5.00000000000000e-01,0.00000000000000e+00,-2.49085859041660e-06
9.00000000000000e-08,5.00000000000000e-01,0.00000000000000e+00,1.44099700246786e-05
9.00100000000000e-08,5.00000000000000e-01,4.99999999999905e-02,1.31732781878530e-05
9.00300000000000e-08,5.00000000000000e-01,1.49999999999972e-01,1.16581982978342e-05
9.00700000000000e-08,5.00000000000000e-01,3.49999999999934e-01,8.56895266825725e-06
9.01000000000000e-08,5.00000000000000e-01,4.99999999999971e-01,6.32112863335754e-06
9.01080000000000e-08,5.00000000000000e-01,5.00000000000000e-01,5.27155351747605e-06
9.01240000000000e-08,5.00000000000000e-01,5.00000000000000e-01,4.04112270690343e-06
9.01560000000000e-08,5.00000000000000e-01,5.00000000000000e-01,4.14919502356170e-06
9.02200000000000e-08,5.00000000000000e-01,5.00000000000000e-01,6.02114135887788e-06
9.03480000000000e-08,5.00000000000000e-01,5.00000000000000e-01,8.46054990060602e-06
9.06040000000000e-08,5.00000000000000e-01,5.00000000000000e-01,6.43645847977006e-06
9.11159999999999e-08,5.00000000000000e-01,5.00000000000000e-01,6.05617980240988e-06
9.21399999999999e-08,5.00000000000000e-01,5.00000000000000e-01,6.29125993289494e-06
9.41879999999998e-08,5.00000000000000e-01,5.00000000000000e-01,5.77904197946680e-06
9.51000000000000e-08,5.00000000000000e-01,5.00000000000000e-01,5.84737585868425e-06
9.51100000000000e-08,4.50000000000051e-01,5.00000000000000e-01,-4.56740782200510e-05
9.51300000000000e-08,3.50000000000070e-01,5.00000000000000e-01,-1.34812205299727e-04
9.51700000000000e-08,1.50000000000108e-01,5.00000000000000e-01,-2.13333182068801e-04
9.52000000000000e-08,6.99995617026161e-14,5.00000000000000e-01,-6.12314553055729e-05
9.52080000000000e-08,0.00000000000000e+00,5.00000000000000e-01,6.42328528418432e-05
9.52240000000000e-08,0.00000000000000e+00,5.00000000000000e-01,2.49674438945420e-04
9.52560000000000e-08,0.00000000000000e+00,5.00000000000000e-01,3.84829205401636e-04
9.53200000000000e-08,0.00000000000000e+00,5.00000000000000e-01,3.22487249763394e-04
9.54480000000000e-08,0.00000000000000e+00,5.00000000000000e-01,-3.41816668754519e-05
9.57040000000000e-08,0.00000000000000e+00,5.00000000000000e-01,-1.91868614934552e-04
9.62159999999999e-08,0.00000000000000e+00,5.00000000000000e-01,8.22118798040998e-05
9.69901451032256e-08,0.00000000000000e+00,5.00000000000000e-01,-1.36630385381553e-04
9.85384353096770e-08,0.00000000000000e+00,5.00000000000000e-01,1.61371146954998e-04
1.01635015722580e-07,0.00000000000000e+00,5.00000000000000e-01,-1.31201375591224e-04
1.04621368590775e-07,0.00000000000000e+00,5.00000000000000e-01,1.18090574844536e-04
1.05000000000000e-07,0.00000000000000e+00,5.00000000000000e-01,-1.21334084144699e-05
1.05010000000000e-07,4.99999999999905e-02,5.00000000000000e-01,8.11405083413208e-05
1.05030000000000e-07,1.49999999999972e-01,5.00000000000000e-01,2.49138680138289e-04
1.05070000000000e-07,3.49999999999934e-01,5.00000000000000e-01,4.81440443200691e-04
1.05100000000000e-07,4.99999999999971e-01,5.00000000000000e-01,5.35826998339838e-04
1.05108000000000e-07,5.00000000000000e-01,5.00000000000000e-01,4.88910963432239e-04
1.05124000000000e-07,5.00000000000000e-01,5.00000000000000e-01,3.98265691145976e-04
1.05156000000000e-07,5.00000000000000e-01,5.00000000000000e-01,2.10185596132333e-04
1.05220000000000e-07,5.00000000000000e-01,5.00000000000000e-01,-5.03442254813760e-04
1.05348000000000e-07,5.00000000000000e-01,5.00000000000000e-01,-2.52214431362206e-03
1.05604000000000e-07,5.00000000000000e-01,5.00000000000000e-01,-3.79290450665887e-03
1.06116000000000e-07,5.00000000000000e-01,5.00000000000000e-01,2.28041986149675e-01
1.07140000000000e-07,5.00000000000000e-01,5.00000000000000e-01,5.07913525676183e-01
1.08686418904370e-07,5.00000000000000e-01,5.00000000000000e-01,4.95235234119334e-01
1.11338108574057e-07,5.00000000000000e-01,5.00000000000000e-01,5.05391398058416e-01
1.15042813683319e-07,5.00000000000000e-01,5.00000000000000e-01,4.95142971023323e-01
1.15100000000000e-07,5.00000000000000e-01,5.00000000000000e-01,5.01084985684855e-01
1.15110000000000e-07,4.50000000000051e-01,5.00000000000000e-01,5.00697927819216e-01
1.15130000000000e-07,3.50000000000070e-01,5.00000000000000e-01,5.00178063238253e-01
1.15170000000000e-07,1.50000000000108e-01,5.00000000000000e-01,5.00201467093482e-01
1.15200000000000e-07,6.99995617026161e-14,5.00000000000000e-01,5.01388368610009e-01
1.15208000000000e-07,0.00000000000000e+00,5.00000000000000e-01,5.01776829343466e-01
1.15224000000000e-07,0.00000000000000e+00,5.00000000000000e-01,5.02328629892922e-01
1.15256000000000e-07,0.00000000000000e+00,5.00000000000000e-01,5.02683206708339e-01
1.15320000000000e-07,0.00000000000000e+00,5.00000000000000e-01,5.01052950354109e-01
1.15448000000000e-07,0.00000000000000e+00,5.00000000000000e-01,4.89328960256670e-01
1.15704000000000e-07,0.00000000000000e+00,5.00000000000000e-01,4.89828663498794e-01
1.16216000000000e-07,0.00000000000000e+00,5.00000000000000e-01,5.02953157069090e-01
1.17018393512669e-07,0.00000000000000e+00,5.00000000000000e-01,4.96719030277591e-01
1.18531710071397e-07,0.00000000000000e+00,5.00000000000000e-01,5.02338775355986e-01
1.21558343188854e-07,0.00000000000000e+00,5.00000000000000e-01,4.97474635156543e-01
1.25000000000000e-07,0.00000000000000e+00,5.00000000000000e-01,5.02198578440518e-01
1.25010000000000e-07,4.99999999999243e-02,5.00000000000000e-01,5.01794775082986e-01
1.25030000000000e-07,1.49999999999905e-01,5.00000000000000e-01,5.01138655929549e-01
1.25070000000000e-07,3.49999999999867e-01,5.00000000000000e-01,5.00458900019565e-01
1.25100000000000e-07,4.99999999999905e-01,5.00000000000000e-01,5.00234374028468e-01
1.25108000000000e-07,5.00000000000000e-01,4.59999999999955e-01,5.00164659864242e-01
1.25124000000000e-07,5.00000000000000e-01,3.79999999999996e-01,5.00043007635453e-01
1.25156000000000e-07,5.00000000000000e-01,2.19999999999947e-01,4.99846422355690e-01
1.25200000000000e-07,5.00000000000000e-01,0.00000000000000e+00,4.99590675710293e-01
1.25206400000000e-07,5.00000000000000e-01,0.00000000000000e+00,4.99556241401208e-01
1.25219200000000e-07,5.00000000000000e-01,0.00000000000000e+00,4.99487626567473e-01
1.25244800000000e-07,5.00000000000000e-01,0.00000000000000e+00,4.99364054307681e-01
1.25296000000000e-07,5.00000000000000e-01,0.00000000000000e+00,4.99214750635183e-01
1.25398400000000e-07,5.00000000000000e-01,0.00000000000000e+00,4.99209731475992e-01
1.25603200000000e-07,5.00000000000000e-01,0.00000000000000e+00,4.99574189955192e-01
1.26012800000000e-07,5.00000000000000e-01,0.00000000000000e+00,5.00411705679970e-01
1.26661023005660e-07,5.00000000000000e-01,0.00000000000000e+00,5.02088045017250e-01
1.27840620875963e-07,5.00000000000000e-01,0.00000000000000e+00,1.29771004064527e-01
1.29479390772042e-07,5.00000000000000e-01,0.00000000000000e+00,-5.39357859631600e-02
1.31656897241995e-07,5.00000000000000e-01,0.00000000000000e+00,5.49276011651495e-02
1.35100000000000e-07,4.99999999999909e-01,0.00000000000000e+00,-3.66689329612983e-02
1.35110000000000e-07,4.49999999999852e-01,0.00000000000000e+00,-3.43143983683692e-02
1.35130000000000e-07,3.49999999999871e-01,0.00000000000000e+00,-2.96845235929971e-02
1.35170000000000e-07,1.49999999999909e-01,0.00000000000000e+00,-2.17737228331739e-02
1.35200000000000e-07,0.00000000000000e+00,0.00000000000000e+00,-1.70692020067686e-02
1.35208000000000e-07,0.00000000000000e+00,0.00000000000000e+00,-1.59389014973169e-02
1.35224000000000e-07,0.00000000000000e+00,0.00000000000000e+00,-1.38581395888141e-02
1.35256000000000e-07,0.00000000000000e+00,0.00000000000000e+00,-1.05599166215791e-02
1.35320000000000e-07,0.00000000000000e+00,0.00000000000000e+00,-6.32752511352725e-03
1.35448000000000e-07,0.00000000000000e+00,0.00000000000000e+00,-2.84405722056903e-03
1.35704000000000e-07,0.00000000000000e+00,0.00000000000000e+00,-7.29443068442560e-04
1.36216000000000e-07,0.00000000000000e+00,0.00000000000000e+00,2.64056551530757e-04
1.36988239742056e-07,0.00000000000000e+00,0.00000000000000e+00,-1.36485556181697e-04
1.38532719226169e-07,0.00000000000000e+00,0.00000000000000e+00,1.10566325934858e-04
1.41621678194394e-07,0.00000000000000e+00,0.00000000000000e+00,-9.05993421291330e-05
