Time,v(clk),v(data),v(out)
1.43693440000000e-09,0.00000000000000e+00,0.00000000000000e+00,-7.17064513670734e-05
2.77911168000000e-09,0.00000000000000e+00,0.00000000000000e+00,5.61121873789844e-05
5.00000000000000e-09,0.00000000000000e+00,0.00000000000000e+00,-4.37010961888296e-05
5.01000000000000e-09,5.99999999999986e-02,0.00000000000000e+00,6.78349200176925e-04
5.03000000000000e-09,1.80000000000001e-01,0.00000000000000e+00,1.90407543736010e-03
5.07000000000000e-09,4.20000000000000e-01,0.00000000000000e+00,3.20351697533380e-03
5.10000000000000e-09,6.00000000000000e-01,0.00000000000000e+00,2.01943929743013e-03
5.10800000000000e-09,6.00000000000000e-01,0.00000000000000e+00,1.15047461640565e-03
5.12400000000000e-09,6.00000000000000e-01,0.00000000000000e+00,-4.22376354218074e-04
5.15600000000000e-09,6.00000000000000e-01,0.00000000000000e+00,-2.05799540303511e-03
5.22000000000000e-09,6.00000000000000e-01,0.00000000000000e+00,-2.23843579287647e-03
5.34800000000000e-09,6.00000000000000e-01,0.00000000000000e+00,-9.39902947850846e-04
5.60400000000000e-09,6.00000000000000e-01,0.00000000000000e+00,-3.39716821264505e-04
6.10551837743576e-09,6.00000000000000e-01,0.00000000000000e+00,3.39983346443765e-04
7.07547019266275e-09,6.00000000000000e-01,0.00000000000000e+00,1.68471488948337e-04
8.32260212576132e-09,6.00000000000000e-01,0.00000000000000e+00,-1.98736592932951e-04
1.00000000000000e-08,6.00000000000000e-01,0.00000000000000e+00,1.93977629822869e-04
1.00100000000000e-08,6.00000000000000e-01,5.99999999999986e-02,2.05293278926613e-04
1.00300000000000e-08,6.00000000000000e-01,1.79999999999996e-01,2.17379510646543e-04
1.00700000000000e-08,6.00000000000000e-01,4.19999999999990e-01,1.65955585616898e-04
1.01000000000000e-08,6.00000000000000e-01,5.99999999999995e-01,2.56978958233650e-05
1.01080000000000e-08,6.00000000000000e-01,6.00000000000000e-01,-2.00596854230545e-05
1.01240000000000e-08,6.00000000000000e-01,6.00000000000000e-01,-8.17066171463765e-05
1.01560000000000e-08,6.00000000000000e-01,6.00000000000000e-01,-1.19360670999741e-04
1.02200000000000e-08,6.00000000000000e-01,6.00000000000000e-01,-6.36915262510196e-05
1.03480000000000e-08,6.00000000000000e-01,6.00000000000000e-01,4.40453051836209e-05
1.06040000000000e-08,6.00000000000000e-01,6.00000000000000e-01,3.15093594661989e-05
1.10236514684933e-08,6.00000000000000e-01,6.00000000000000e-01,-1.53365791953908e-05
1.18629544054798e-08,6.00000000000000e-01,6.00000000000000e-01,1.39107133882987e-05
1.35415602794529e-08,6.00000000000000e-01,6.00000000000000e-01,-2.06658103073243e-06
1.51000000000000e-08,6.00000000000000e-01,6.00000000000000e-01,9.12038624532874e-06
1.51100000000000e-08,5.39999999999992e-01,6.00000000000000e-01,-3.61744036362646e-04
1.51300000000000e-08,4.19999999999994e-01,6.00000000000000e-01,-1.15970945120975e-03
1.51700000000000e-08,1.80000000000000e-01,6.00000000000000e-01,-2.70466748855869e-03
1.52000000000000e-08,0.00000000000000e+00,6.00000000000000e-01,-2.58770186503630e-03
1.52080000000000e-08,0.00000000000000e+00,6.00000000000000e-01,-1.83603074282744e-03
1.52240000000000e-08,0.00000000000000e+00,6.00000000000000e-01,-4.86428512138537e-04
1.52560000000000e-08,0.00000000000000e+00,6.00000000000000e-01,1.24081186011242e-03
1.53200000000000e-08,0.00000000000000e+00,6.00000000000000e-01,2.39489329398467e-03
1.54480000000000e-08,0.00000000000000e+00,6.00000000000000e-01,1.83007584380254e-03
1.57040000000000e-08,0.00000000000000e+00,6.00000000000000e-01,-1.40315021180670e-04
1.62160000000000e-08,0.00000000000000e+00,6.00000000000000e-01,-8.43362739967594e-04
1.72262437094519e-08,0.00000000000000e+00,6.00000000000000e-01,5.56290399763938e-04
1.82759857481232e-08,0.00000000000000e+00,6.00000000000000e-01,-6.96922908301617e-04
1.99663162545306e-08,0.00000000000000e+00,6.00000000000000e-01,8.75137782701901e-04
2.23825911615247e-08,0.00000000000000e+00,6.00000000000000e-01,-8.82772581550860e-04
2.50000000000000e-08,0.00000000000000e+00,6.00000000000000e-01,8.45085998169471e-04
2.50100000000000e-08,5.99999999999886e-02,6.00000000000000e-01,1.58612806063795e-03
2.50300000000000e-08,1.80000000000006e-01,6.00000000000000e-01,2.89492516303537e-03
2.50700000000000e-08,4.20000000000000e-01,6.00000000000000e-01,4.76452927207714e-03
2.51000000000000e-08,6.00000000000000e-01,6.00000000000000e-01,4.50439233489625e-03
2.51080000000000e-08,6.00000000000000e-01,6.00000000000000e-01,3.91872263231180e-03
2.51240000000000e-08,6.00000000000000e-01,6.00000000000000e-01,2.68078515434578e-03
2.51560000000000e-08,6.00000000000000e-01,6.00000000000000e-01,-1.22612937850680e-04
2.52200000000000e-08,6.00000000000000e-01,6.00000000000000e-01,-6.15185721986108e-03
2.53480000000000e-08,6.00000000000000e-01,6.00000000000000e-01,-1.42223227270943e-02
2.56040000000000e-08,6.00000000000000e-01,6.00000000000000e-01,-8.96762011505499e-03
2.61088926951070e-08,6.00000000000000e-01,6.00000000000000e-01,3.06534564839070e-01
2.71186780853208e-08,6.00000000000000e-01,6.00000000000000e-01,6.14345685923162e-01
2.80673229931035e-08,6.00000000000000e-01,6.00000000000000e-01,5.85723625716874e-01
2.99544864485901e-08,6.00000000000000e-01,6.00000000000000e-01,6.14057831450627e-01
3.01000000000000e-08,6.00000000000000e-01,6.00000000000000e-01,5.96788882838711e-01
3.01100000000000e-08,6.00000000000000e-01,5.40000000000031e-01,5.97100195549746e-01
3.01300000000000e-08,6.00000000000000e-01,4.20000000000014e-01,5.97599318175911e-01
3.01700000000000e-08,6.00000000000000e-01,1.80000000000020e-01,5.98343572546759e-01
3.02000000000000e-08,6.00000000000000e-01,1.44328993201270e-14,5.98858459484387e-01
3.02080000000000e-08,6.00000000000000e-01,0.00000000000000e+00,5.98980007421146e-01
3.02240000000000e-08,6.00000000000000e-01,0.00000000000000e+00,5.99201604889893e-01
3.02560000000000e-08,6.00000000000000e-01,0.00000000000000e+00,5.99443413418824e-01
3.03200000000000e-08,6.00000000000000e-01,0.00000000000000e+00,5.99667738617849e-01
3.04480000000000e-08,6.00000000000000e-01,0.00000000000000e+00,5.99720320216462e-01
3.07040000000000e-08,6.00000000000000e-01,0.00000000000000e+00,5.99788586324439e-01
3.12160000000000e-08,6.00000000000000e-01,0.00000000000000e+00,5.99977576579735e-01
3.19280721432732e-08,6.00000000000000e-01,0.00000000000000e+00,6.00101021280707e-01
3.33428100618137e-08,6.00000000000000e-01,0.00000000000000e+00,5.99861974820934e-01
3.47595301923749e-08,6.00000000000000e-01,0.00000000000000e+00,6.00105882621203e-01
3.51000000000000e-08,5.99999999999970e-01,0.00000000000000e+00,5.99914335228301e-01
3.51100000000000e-08,5.39999999999982e-01,0.00000000000000e+00,5.99577991664912e-01
3.51300000000000e-08,4.19999999999965e-01,0.00000000000000e+00,5.98912013664734e-01
3.51700000000000e-08,1.79999999999970e-01,0.00000000000000e+00,5.98278620445972e-01
3.52000000000000e-08,0.00000000000000e+00,0.00000000000000e+00,5.99454579564461e-01
3.52080000000000e-08,0.00000000000000e+00,0.00000000000000e+00,6.00263781144713e-01
3.52240000000000e-08,0.00000000000000e+00,0.00000000000000e+00,6.01768130375633e-01
3.52560000000000e-08,0.00000000000000e+00,0.00000000000000e+00,6.03780863663342e-01
3.53200000000000e-08,0.00000000000000e+00,0.00000000000000e+00,6.05521546955011e-01
3.54480000000000e-08,0.00000000000000e+00,0.00000000000000e+00,6.05783443915054e-01
3.57040000000000e-08,0.00000000000000e+00,0.00000000000000e+00,6.00765340592808e-01
3.62160000000000e-08,0.00000000000000e+00,0.00000000000000e+00,5.88873487393796e-01
3.72400000000000e-08,0.00000000000000e+00,0.00000000000000e+00,5.98524040958574e-01
3.81915618973696e-08,0.00000000000000e+00,0.00000000000000e+00,6.00365438332736e-01
3.91000000000000e-08,0.00000000000000e+00,0.00000000000000e+00,5.99688649821418e-01
3.92903123794739e-08,0.00000000000000e+00,0.00000000000000e+00,5.99799652439799e-01
3.96709371384217e-08,0.00000000000000e+00,0.00000000000000e+00,5.99876464004096e-01
4.04321866563174e-08,0.00000000000000e+00,0.00000000000000e+00,5.99903317722557e-01
4.19546856921086e-08,0.00000000000000e+00,0.00000000000000e+00,5.99909800192430e-01
4.49996837636911e-08,0.00000000000000e+00,0.00000000000000e+00,5.99938428613285e-01
4.50000000000000e-08,0.00000000000000e+00,0.00000000000000e+00,5.99932078341174e-01
4.50006324726178e-08,3.79483570687110e-03,0.00000000000000e+00,5.99953951333196e-01
4.50018974178534e-08,1.13845071206133e-02,0.00000000000000e+00,5.99991666659426e-01
4.50044273083247e-08,2.65638499480977e-02,0.00000000000000e+00,6.00077918369575e-01
4.50094870892672e-08,5.69225356030664e-02,0.00000000000000e+00,6.00250019001468e-01
4.50196066511522e-08,1.17639906913004e-01,0.00000000000000e+00,6.00544179576160e-01
4.50398457749221e-08,2.39074649532879e-01,0.00000000000000e+00,6.01134904390271e-01
4.50803240224621e-08,4.81944134772629e-01,0.00000000000000e+00,6.01657533320979e-01
4.51000000000000e-08,6.00000000000000e-01,0.00000000000000e+00,6.01150139704795e-01
4.51080956495080e-08,6.00000000000000e-01,0.00000000000000e+00,6.00765611450319e-01
4.51242869485240e-08,6.00000000000000e-01,0.00000000000000e+00,5.99983882830620e-01
4.51566695465559e-08,6.00000000000000e-01,0.00000000000000e+00,5.98905215064304e-01
4.52214347426199e-08,6.00000000000000e-01,0.00000000000000e+00,5.97625807495310e-01
4.53509651347477e-08,6.00000000000000e-01,0.00000000000000e+00,5.97358166235825e-01
4.56100259190035e-08,6.00000000000000e-01,0.00000000000000e+00,6.03843423528101e-01
4.60978529016792e-08,6.00000000000000e-01,0.00000000000000e+00,6.51157623964945e-01
4.70735068670305e-08,6.00000000000000e-01,0.00000000000000e+00,9.33983923452324e-02
4.80669820596212e-08,6.00000000000000e-01,0.00000000000000e+00,-4.86819969289478e-02
4.97804650352537e-08,6.00000000000000e-01,0.00000000000000e+00,4.35305646624373e-02
5.00000000000000e-08,6.00000000000000e-01,0.00000000000000e+00,-2.53475012659084e-03
5.00100000000000e-08,6.00000000000000e-01,5.99999999999886e-02,-1.93386059210859e-03
5.00300000000000e-08,6.00000000000000e-01,1.79999999999966e-01,-1.03493253215903e-03
5.00700000000000e-08,6.00000000000000e-01,4.20000000000000e-01,-2.80110496779215e-04
5.01000000000000e-08,6.00000000000000e-01,6.00000000000000e-01,-1.46617834560492e-04
5.01080000000000e-08,6.00000000000000e-01,6.00000000000000e-01,-1.43395915092381e-04
5.01240000000000e-08,6.00000000000000e-01,6.00000000000000e-01,-1.23708414873400e-04
5.01560000000000e-08,6.00000000000000e-01,6.00000000000000e-01,-6.06301768352885e-05
5.02200000000000e-08,6.00000000000000e-01,6.00000000000000e-01,4.57513141877419e-05
5.03480000000000e-08,6.00000000000000e-01,6.00000000000000e-01,1.20940492077143e-04
5.06040000000000e-08,6.00000000000000e-01,6.00000000000000e-01,4.70072848687206e-05
5.10565871544212e-08,6.00000000000000e-01,6.00000000000000e-01,-1.80123718396680e-05
5.19617614632636e-08,6.00000000000000e-01,6.00000000000000e-01,6.66958447081978e-06
5.37721100809482e-08,6.00000000000000e-01,6.00000000000000e-01,-2.13461925255287e-06
5.51000000000000e-08,6.00000000000000e-01,6.00000000000000e-01,3.98415784530828e-06
5.51100000000000e-08,5.40000000000021e-01,6.00000000000000e-01,-3.67653807434601e-04
5.51300000000000e-08,4.20000000000004e-01,6.00000000000000e-01,-1.16647259568267e-03
5.51700000000000e-08,1.80000000000010e-01,6.00000000000000e-01,-2.68937254261074e-03
5.52000000000000e-08,0.00000000000000e+00,6.00000000000000e-01,-2.58547717699346e-03
5.52080000000000e-08,0.00000000000000e+00,6.00000000000000e-01,-1.83579463544992e-03
5.52240000000000e-08,0.00000000000000e+00,6.00000000000000e-01,-4.91376827212814e-04
5.52560000000000e-08,0.00000000000000e+00,6.00000000000000e-01,1.21339550897454e-03
5.53200000000000e-08,0.00000000000000e+00,6.00000000000000e-01,2.29678534991487e-03
5.54480000000000e-08,0.00000000000000e+00,6.00000000000000e-01,1.48449289412123e-03
5.57040000000000e-08,0.00000000000000e+00,6.00000000000000e-01,-3.02776082724346e-03
5.62160000000000e-08,0.00000000000000e+00,6.00000000000000e-01,-1.09935856664117e-03
5.69170825275937e-08,0.00000000000000e+00,6.00000000000000e-01,7.52892762748810e-04
5.80528992345716e-08,0.00000000000000e+00,6.00000000000000e-01,-1.00370199814299e-03
5.92625995356639e-08,0.00000000000000e+00,6.00000000000000e-01,1.26045124540890e-03
6.16041515354138e-08,0.00000000000000e+00,6.00000000000000e-01,-1.21855866376441e-03
6.37509118596839e-08,0.00000000000000e+00,6.00000000000000e-01,1.12465314859121e-03
6.50000000000000e-08,0.00000000000000e+00,6.00000000000000e-01,-9.05973922433755e-04
6.50100000000000e-08,5.99999999999886e-02,6.00000000000000e-01,6.52329611228186e-06
6.50300000000000e-08,1.79999999999966e-01,6.00000000000000e-01,1.60859983680552e-03
6.50700000000000e-08,4.19999999999920e-01,6.00000000000000e-01,3.79282205146561e-03
6.51000000000000e-08,5.99999999999966e-01,6.00000000000000e-01,3.60971399800115e-03
6.51080000000000e-08,6.00000000000000e-01,6.00000000000000e-01,3.04940682244528e-03
6.51240000000000e-08,6.00000000000000e-01,6.00000000000000e-01,1.86550695097548e-03
6.51560000000000e-08,6.00000000000000e-01,6.00000000000000e-01,-8.27697248784981e-04
6.52200000000000e-08,6.00000000000000e-01,6.00000000000000e-01,-6.60480818829705e-03
6.53480000000000e-08,6.00000000000000e-01,6.00000000000000e-01,-1.42744105721761e-02
6.56040000000000e-08,6.00000000000000e-01,6.00000000000000e-01,-7.98939064784078e-03
6.61021547904421e-08,6.00000000000000e-01,6.00000000000000e-01,3.06343009318606e-01
6.70984643713263e-08,6.00000000000000e-01,6.00000000000000e-01,6.14095978680378e-01
6.80412831775126e-08,6.00000000000000e-01,6.00000000000000e-01,5.85849997248807e-01
6.99012540444193e-08,6.00000000000000e-01,6.00000000000000e-01,6.13941604903366e-01
7.01000000000000e-08,6.00000000000000e-01,6.00000000000000e-01,5.94742101929639e-01
7.01100000000000e-08,6.00000000000000e-01,5.40000000000011e-01,5.95373870422265e-01
7.01300000000000e-08,6.00000000000000e-01,4.20000000000034e-01,5.96454045017159e-01
7.01700000000000e-08,6.00000000000000e-01,1.80000000000080e-01,5.97843565535860e-01
7.02000000000000e-08,6.00000000000000e-01,3.44169137633799e-14,5.98612752454731e-01
7.02080000000000e-08,6.00000000000000e-01,0.00000000000000e+00,5.98783648244799e-01
7.02240000000000e-08,6.00000000000000e-01,0.00000000000000e+00,5.99075084439381e-01
7.02560000000000e-08,6.00000000000000e-01,0.00000000000000e+00,5.99444120433551e-01
7.03200000000000e-08,6.00000000000000e-01,0.00000000000000e+00,5.99707013785523e-01
7.04480000000000e-08,6.00000000000000e-01,0.00000000000000e+00,5.99780392185859e-01
7.07040000000000e-08,6.00000000000000e-01,0.00000000000000e+00,5.99812816843777e-01
7.12159999999999e-08,6.00000000000000e-01,0.00000000000000e+00,5.99971706075849e-01
7.19344151335646e-08,6.00000000000000e-01,0.00000000000000e+00,6.00104490966626e-01
7.33450082968424e-08,6.00000000000000e-01,0.00000000000000e+00,5.99860104218766e-01
7.47774510551893e-08,6.00000000000000e-01,0.00000000000000e+00,6.00108916280280e-01
7.51000000000000e-08,6.00000000000000e-01,0.00000000000000e+00,5.99915473252454e-01
7.51100000000000e-08,5.40000000000061e-01,0.00000000000000e+00,5.99579283503157e-01
7.51300000000000e-08,4.20000000000084e-01,0.00000000000000e+00,5.98913718537240e-01
7.51700000000000e-08,1.80000000000129e-01,0.00000000000000e+00,5.98280115883617e-01
7.52000000000000e-08,8.40438829641244e-14,0.00000000000000e+00,5.99455376192030e-01
7.52080000000000e-08,0.00000000000000e+00,0.00000000000000e+00,6.00264634421062e-01
7.52240000000000e-08,0.00000000000000e+00,0.00000000000000e+00,6.01768772804393e-01
7.52560000000000e-08,0.00000000000000e+00,0.00000000000000e+00,6.03781507386106e-01
7.53200000000000e-08,0.00000000000000e+00,0.00000000000000e+00,6.05524092762621e-01
7.54480000000000e-08,0.00000000000000e+00,0.00000000000000e+00,6.05802092046504e-01
7.57040000000000e-08,0.00000000000000e+00,0.00000000000000e+00,6.00830175159433e-01
7.62159999999999e-08,0.00000000000000e+00,0.00000000000000e+00,5.88892295076240e-01
7.72399999999999e-08,0.00000000000000e+00,0.00000000000000e+00,5.98496191285092e-01
7.81000000000000e-08,0.00000000000000e+00,0.00000000000000e+00,6.00325321060558e-01
7.81951568323810e-08,0.00000000000000e+00,0.00000000000000e+00,6.00157569708265e-01
7.83854704971430e-08,0.00000000000000e+00,0.00000000000000e+00,5.99977160938988e-01
7.87660978266671e-08,0.00000000000000e+00,0.00000000000000e+00,5.99907948592459e-01
7.95273524857151e-08,0.00000000000000e+00,0.00000000000000e+00,5.99860019549124e-01
8.10498618038113e-08,0.00000000000000e+00,0.00000000000000e+00,5.99930977242240e-01
8.40948804400035e-08,0.00000000000000e+00,0.00000000000000e+00,5.99906192660629e-01
8.50000000000000e-08,0.00000000000000e+00,0.00000000000000e+00,5.99955015788379e-01
8.50100000000000e-08,5.99999999999886e-02,0.00000000000000e+00,6.00329906529560e-01
8.50300000000000e-08,1.79999999999966e-01,0.00000000000000e+00,6.00941242609301e-01
8.50700000000000e-08,4.19999999999920e-01,0.00000000000000e+00,6.01685981836251e-01
8.51000000000000e-08,5.99999999999966e-01,0.00000000000000e+00,6.01201204545203e-01
8.51080000000000e-08,6.00000000000000e-01,0.00000000000000e+00,6.00796471764740e-01
8.51240000000000e-08,6.00000000000000e-01,0.00000000000000e+00,6.00028633110226e-01
8.51560000000000e-08,6.00000000000000e-01,0.00000000000000e+00,5.98936030671244e-01
8.52200000000000e-08,6.00000000000000e-01,0.00000000000000e+00,5.97659285382894e-01
8.53480000000000e-08,6.00000000000000e-01,0.00000000000000e+00,5.97330108601216e-01
8.56040000000000e-08,6.00000000000000e-01,0.00000000000000e+00,6.03548838512473e-01
8.60868632040585e-08,6.00000000000000e-01,0.00000000000000e+00,6.51104588986240e-01
8.70525896121757e-08,6.00000000000000e-01,0.00000000000000e+00,9.71585240899091e-02
8.80440886908505e-08,6.00000000000000e-01,0.00000000000000e+00,-4.97140354355837e-02
8.97517892131836e-08,6.00000000000000e-01,0.00000000000000e+00,4.45580597902468e-02
9.00000000000000e-08,6.00000000000000e-01,0.00000000000000e+00,-4.92205871243460e-03
9.00100000000000e-08,6.00000000000000e-01,5.99999999999886e-02,-4.11036743444325e-03
9.00300000000000e-08,6.00000000000000e-01,1.79999999999966e-01,-2.81228425684174e-03
9.00700000000000e-08,6.00000000000000e-01,4.19999999999920e-01,-1.42790104784465e-03
9.01000000000000e-08,6.00000000000000e-01,5.99999999999966e-01,-9.70239735085671e-04
9.01080000000000e-08,6.00000000000000e-01,6.00000000000000e-01,-9.00103431292987e-04
9.01240000000000e-08,6.00000000000000e-01,6.00000000000000e-01,-7.62192939398387e-04
9.01560000000000e-08,6.00000000000000e-01,6.00000000000000e-01,-5.16083276780765e-04
9.02200000000000e-08,6.00000000000000e-01,6.00000000000000e-01,-1.83746430904935e-04
9.03480000000000e-08,6.00000000000000e-01,6.00000000000000e-01,6.92946667394806e-05
9.06040000000000e-08,6.00000000000000e-01,6.00000000000000e-01,4.77396801685862e-05
9.10561546471306e-08,6.00000000000000e-01,6.00000000000000e-01,-1.86749719653240e-05
9.19604639413920e-08,6.00000000000000e-01,6.00000000000000e-01,1.16129577095621e-05
9.37690825299148e-08,6.00000000000000e-01,6.00000000000000e-01,-5.81313850454498e-06
9.51000000000000e-08,6.00000000000000e-01,6.00000000000000e-01,6.44666975905053e-06
9.51100000000000e-08,5.40000000000061e-01,6.00000000000000e-01,-3.65061294212696e-04
9.51300000000000e-08,4.20000000000084e-01,6.00000000000000e-01,-1.16423350140631e-03
9.51700000000000e-08,1.80000000000129e-01,6.00000000000000e-01,-2.70693456900038e-03
9.52000000000000e-08,8.40438829641244e-14,6.00000000000000e-01,-2.59709981746906e-03
9.52080000000000e-08,0.00000000000000e+00,6.00000000000000e-01,-1.84647412521419e-03
9.52240000000000e-08,0.00000000000000e+00,6.00000000000000e-01,-5.00178068143536e-04
9.52560000000000e-08,0.00000000000000e+00,6.00000000000000e-01,1.20752916988158e-03
9.53200000000000e-08,0.00000000000000e+00,6.00000000000000e-01,2.29364510086097e-03
9.54480000000000e-08,0.00000000000000e+00,6.00000000000000e-01,1.48494267650881e-03
9.57040000000000e-08,0.00000000000000e+00,6.00000000000000e-01,-3.01550835173164e-03
