Time,v(clk),v(data),v(out),v(reset)
1.67772160000000e-09,0.00000000000000e+00,0.00000000000000e+00,2.95108296844981e-05,6.00000000000000e-01
3.35544320000000e-09,0.00000000000000e+00,0.00000000000000e+00,2.80457228462889e-05,6.00000000000000e-01
5.00000000000000e-09,0.00000000000000e+00,0.00000000000000e+00,2.90788288841212e-05,6.00000000000000e-01
5.01000000000000e-09,5.99999999999986e-02,0.00000000000000e+00,8.12961848533494e-05,5.40000000000002e-01
5.03000000000000e-09,1.80000000000001e-01,0.00000000000000e+00,-5.37281689718463e-04,4.19999999999999e-01
5.07000000000000e-09,4.20000000000000e-01,0.00000000000000e+00,-3.54306713162322e-03,1.80000000000000e-01
5.10000000000000e-09,6.00000000000000e-01,0.00000000000000e+00,-6.16898684837883e-03,0.00000000000000e+00
5.10800000000000e-09,6.00000000000000e-01,0.00000000000000e+00,-5.74141901069769e-03,0.00000000000000e+00
5.12400000000000e-09,6.00000000000000e-01,0.00000000000000e+00,-4.85924505106787e-03,0.00000000000000e+00
5.15600000000000e-09,6.00000000000000e-01,0.00000000000000e+00,-3.03889243026449e-03,0.00000000000000e+00
5.22000000000000e-09,6.00000000000000e-01,0.00000000000000e+00,-1.02908377857332e-03,0.00000000000000e+00
5.34800000000000e-09,6.00000000000000e-01,0.00000000000000e+00,-1.09505025395043e-03,0.00000000000000e+00
5.60400000000000e-09,6.00000000000000e-01,0.00000000000000e+00,-1.82378931527348e-03,0.00000000000000e+00
6.11600000000000e-09,6.00000000000000e-01,0.00000000000000e+00,9.46671968973960e-04,0.00000000000000e+00
7.14000000000000e-09,6.00000000000000e-01,0.00000000000000e+00,5.85432132839101e-04,0.00000000000000e+00
8.78777276941319e-09,6.00000000000000e-01,0.00000000000000e+00,-1.68675323685868e-04,0.00000000000000e+00
1.00000000000000e-08,6.00000000000000e-01,0.00000000000000e+00,2.98511713129206e-04,0.00000000000000e+00
1.00100000000000e-08,6.00000000000000e-01,5.99999999999986e-02,3.00610134551710e-04,0.00000000000000e+00
1.00300000000000e-08,6.00000000000000e-01,1.79999999999996e-01,2.93881816264496e-04,0.00000000000000e+00
1.00700000000000e-08,6.00000000000000e-01,4.19999999999990e-01,2.30071377189278e-04,0.00000000000000e+00
1.01000000000000e-08,6.00000000000000e-01,5.99999999999995e-01,1.41874010850723e-04,0.00000000000000e+00
1.01080000000000e-08,6.00000000000000e-01,6.00000000000000e-01,1.11778233109566e-04,0.00000000000000e+00
1.01240000000000e-08,6.00000000000000e-01,6.00000000000000e-01,6.81950623668964e-05,0.00000000000000e+00
1.01560000000000e-08,6.00000000000000e-01,6.00000000000000e-01,3.86087948249930e-05,0.00000000000000e+00
1.02200000000000e-08,6.00000000000000e-01,6.00000000000000e-01,5.48942272537850e-05,0.00000000000000e+00
1.03480000000000e-08,6.00000000000000e-01,6.00000000000000e-01,9.46088450431287e-05,0.00000000000000e+00
1.06040000000000e-08,6.00000000000000e-01,6.00000000000000e-01,7.90747390752508e-05,0.00000000000000e+00
1.11160000000000e-08,6.00000000000000e-01,6.00000000000000e-01,5.82555018247694e-05,0.00000000000000e+00
1.21400000000000e-08,6.00000000000000e-01,6.00000000000000e-01,6.46823206975795e-05,0.00000000000000e+00
1.41880000000000e-08,6.00000000000000e-01,6.00000000000000e-01,4.27489270703671e-05,0.00000000000000e+00
1.51000000000000e-08,6.00000000000000e-01,6.00000000000000e-01,5.05468923182734e-05,0.00000000000000e+00
1.51100000000000e-08,5.39999999999992e-01,6.00000000000000e-01,1.01008571150274e-03,6.00000000000085e-02
1.51300000000000e-08,4.19999999999994e-01,6.00000000000000e-01,2.28160487178929e-03,1.80000000000006e-01
1.51700000000000e-08,1.80000000000000e-01,6.00000000000000e-01,2.77664868585024e-03,4.20000000000000e-01
1.52000000000000e-08,0.00000000000000e+00,6.00000000000000e-01,1.76669567639530e-03,6.00000000000000e-01
1.52080000000000e-08,0.00000000000000e+00,6.00000000000000e-01,1.58702193949890e-03,6.00000000000000e-01
1.52240000000000e-08,0.00000000000000e+00,6.00000000000000e-01,1.29989814693429e-03,6.00000000000000e-01
1.52560000000000e-08,0.00000000000000e+00,6.00000000000000e-01,1.05442053014082e-03,6.00000000000000e-01
1.53200000000000e-08,0.00000000000000e+00,6.00000000000000e-01,9.66532156086303e-04,6.00000000000000e-01
1.54480000000000e-08,0.00000000000000e+00,6.00000000000000e-01,7.70467033135130e-04,6.00000000000000e-01
1.57040000000000e-08,0.00000000000000e+00,6.00000000000000e-01,-3.50550457628031e-04,6.00000000000000e-01
1.61671906121035e-08,0.00000000000000e+00,6.00000000000000e-01,-8.31668225207152e-04,6.00000000000000e-01
1.68823207013684e-08,0.00000000000000e+00,6.00000000000000e-01,4.95940273453448e-04,6.00000000000000e-01
1.79411808384891e-08,0.00000000000000e+00,6.00000000000000e-01,-6.77655556189212e-04,6.00000000000000e-01
1.91524891826007e-08,0.00000000000000e+00,6.00000000000000e-01,9.72640543940764e-04,6.00000000000000e-01
2.13355292228011e-08,0.00000000000000e+00,6.00000000000000e-01,-8.75649187378869e-04,6.00000000000000e-01
2.35617751839962e-08,0.00000000000000e+00,6.00000000000000e-01,8.47480101733486e-04,6.00000000000000e-01
2.50000000000000e-08,0.00000000000000e+00,6.00000000000000e-01,-6.26754349443599e-04,6.00000000000000e-01
2.50100000000000e-08,5.99999999999886e-02,6.00000000000000e-01,2.05576772418309e-04,6.00000000000000e-01
2.50300000000000e-08,1.80000000000006e-01,6.00000000000000e-01,1.68279199338031e-03,6.00000000000000e-01
2.50700000000000e-08,4.20000000000000e-01,6.00000000000000e-01,3.70712544313778e-03,6.00000000000000e-01
2.51000000000000e-08,6.00000000000000e-01,6.00000000000000e-01,3.69253487308502e-03,6.00000000000000e-01
2.51080000000000e-08,6.00000000000000e-01,6.00000000000000e-01,3.06481299925936e-03,6.00000000000000e-01
2.51240000000000e-08,6.00000000000000e-01,6.00000000000000e-01,1.74159055506537e-03,6.00000000000000e-01
2.51560000000000e-08,6.00000000000000e-01,6.00000000000000e-01,-1.17471844940220e-03,6.00000000000000e-01
2.52200000000000e-08,6.00000000000000e-01,6.00000000000000e-01,-7.03821332168529e-03,6.00000000000000e-01
2.53480000000000e-08,6.00000000000000e-01,6.00000000000000e-01,-1.44424755040098e-02,6.00000000000000e-01
2.56040000000000e-08,6.00000000000000e-01,6.00000000000000e-01,1.36582010207389e-03,6.00000000000000e-01
2.61088075398101e-08,6.00000000000000e-01,6.00000000000000e-01,3.66593007112106e-01,6.00000000000000e-01
2.69456023984258e-08,6.00000000000000e-01,6.00000000000000e-01,6.16571523632523e-01,6.00000000000000e-01
2.78107909371614e-08,6.00000000000000e-01,6.00000000000000e-01,5.84165815410325e-01,6.00000000000000e-01
2.94963035964478e-08,6.00000000000000e-01,6.00000000000000e-01,6.14769428201604e-01,6.00000000000000e-01
3.01000000000000e-08,6.00000000000000e-01,6.00000000000000e-01,5.89008546106474e-01,6.00000000000000e-01
3.01100000000000e-08,6.00000000000000e-01,5.40000000000031e-01,5.90583530002420e-01,6.00000000000000e-01
3.01300000000000e-08,6.00000000000000e-01,4.20000000000014e-01,5.93263503355936e-01,6.00000000000000e-01
3.01700000000000e-08,6.00000000000000e-01,1.80000000000020e-01,5.96661952803523e-01,6.00000000000000e-01
3.02000000000000e-08,6.00000000000000e-01,1.44328993201270e-14,5.98124563885270e-01,6.00000000000000e-01
3.02080000000000e-08,6.00000000000000e-01,0.00000000000000e+00,5.98428716257733e-01,6.00000000000000e-01
3.02240000000000e-08,6.00000000000000e-01,0.00000000000000e+00,5.98940593932720e-01,6.00000000000000e-01
3.02560000000000e-08,6.00000000000000e-01,0.00000000000000e+00,5.99561525388382e-01,6.00000000000000e-01
3.03200000000000e-08,6.00000000000000e-01,0.00000000000000e+00,5.99967240938230e-01,6.00000000000000e-01
3.04480000000000e-08,6.00000000000000e-01,0.00000000000000e+00,5.99949301927818e-01,6.00000000000000e-01
3.07040000000000e-08,6.00000000000000e-01,0.00000000000000e+00,5.99784528144924e-01,6.00000000000000e-01
3.12160000000000e-08,6.00000000000000e-01,0.00000000000000e+00,5.99980806279663e-01,6.00000000000000e-01
3.18326148184457e-08,6.00000000000000e-01,0.00000000000000e+00,6.00060609371842e-01,6.00000000000000e-01
3.30658444553371e-08,6.00000000000000e-01,0.00000000000000e+00,5.99845902005296e-01,6.00000000000000e-01
3.43202612751553e-08,6.00000000000000e-01,0.00000000000000e+00,6.00079908306915e-01,6.00000000000000e-01
3.51000000000000e-08,5.99999999999970e-01,0.00000000000000e+00,5.99867400324160e-01,6.00000000000000e-01
3.51100000000000e-08,5.39999999999982e-01,0.00000000000000e+00,5.99540097940449e-01,6.00000000000000e-01
3.51300000000000e-08,4.19999999999965e-01,0.00000000000000e+00,5.98893945888223e-01,6.00000000000000e-01
3.51700000000000e-08,1.79999999999970e-01,0.00000000000000e+00,5.98493721293189e-01,6.00000000000000e-01
3.52000000000000e-08,0.00000000000000e+00,0.00000000000000e+00,5.99742771241368e-01,6.00000000000000e-01
3.52080000000000e-08,0.00000000000000e+00,0.00000000000000e+00,6.00617253502028e-01,6.00000000000000e-01
3.52240000000000e-08,0.00000000000000e+00,0.00000000000000e+00,6.02161075559935e-01,6.00000000000000e-01
3.52560000000000e-08,0.00000000000000e+00,0.00000000000000e+00,6.04197840281897e-01,6.00000000000000e-01
3.53200000000000e-08,0.00000000000000e+00,0.00000000000000e+00,6.05903075300674e-01,6.00000000000000e-01
3.54480000000000e-08,0.00000000000000e+00,0.00000000000000e+00,6.05759544167392e-01,6.00000000000000e-01
3.57040000000000e-08,0.00000000000000e+00,0.00000000000000e+00,5.99269475292172e-01,6.00000000000000e-01
3.62160000000000e-08,0.00000000000000e+00,0.00000000000000e+00,5.89849371340450e-01,6.00000000000000e-01
3.70691116963477e-08,0.00000000000000e+00,0.00000000000000e+00,5.99519973540022e-01,6.00000000000000e-01
3.79277559949801e-08,0.00000000000000e+00,0.00000000000000e+00,5.99239053091378e-01,6.00000000000000e-01
3.96450445922449e-08,0.00000000000000e+00,0.00000000000000e+00,6.00041453672823e-01,6.00000000000000e-01
4.14464004927288e-08,0.00000000000000e+00,0.00000000000000e+00,5.99546398916326e-01,6.00000000000000e-01
4.49921882077854e-08,0.00000000000000e+00,0.00000000000000e+00,6.00115711091126e-01,6.00000000000000e-01
4.50000000000000e-08,0.00000000000000e+00,0.00000000000000e+00,6.00099392425139e-01,6.00000000000000e-01
4.50100000000000e-08,5.99999999999886e-02,0.00000000000000e+00,5.99656401552326e-01,5.40000000000011e-01
4.50300000000000e-08,1.80000000000006e-01,0.00000000000000e+00,5.98632101294384e-01,4.19999999999994e-01
4.50700000000000e-08,4.20000000000000e-01,0.00000000000000e+00,5.98436198964771e-01,1.80000000000000e-01
4.51000000000000e-08,6.00000000000000e-01,0.00000000000000e+00,6.03034401853493e-01,0.00000000000000e+00
4.51080000000000e-08,6.00000000000000e-01,0.00000000000000e+00,6.05527520127166e-01,0.00000000000000e+00
4.51240000000000e-08,6.00000000000000e-01,0.00000000000000e+00,6.10169461282685e-01,0.00000000000000e+00
4.51560000000000e-08,6.00000000000000e-01,0.00000000000000e+00,6.17636402464473e-01,0.00000000000000e+00
4.52200000000000e-08,6.00000000000000e-01,0.00000000000000e+00,6.27678562133473e-01,0.00000000000000e+00
4.53480000000000e-08,6.00000000000000e-01,0.00000000000000e+00,6.41643468529139e-01,0.00000000000000e+00
4.56040000000000e-08,6.00000000000000e-01,0.00000000000000e+00,5.20716867300746e-01,0.00000000000000e+00
4.61160000000000e-08,6.00000000000000e-01,0.00000000000000e+00,4.04027198613692e-02,0.00000000000000e+00
4.67989560073888e-08,6.00000000000000e-01,0.00000000000000e+00,-1.99306154007034e-02,0.00000000000000e+00
4.76654726442466e-08,6.00000000000000e-01,0.00000000000000e+00,1.38228575051878e-02,0.00000000000000e+00
4.91024659396658e-08,6.00000000000000e-01,0.00000000000000e+00,-1.05421965921214e-02,0.00000000000000e+00
5.00000000000000e-08,6.00000000000000e-01,0.00000000000000e+00,7.68889527315795e-03,0.00000000000000e+00
5.00100000000000e-08,6.00000000000000e-01,5.99999999999886e-02,6.55844225957752e-03,0.00000000000000e+00
5.00300000000000e-08,6.00000000000000e-01,1.79999999999966e-01,4.75412502365088e-03,0.00000000000000e+00
5.00700000000000e-08,6.00000000000000e-01,4.20000000000000e-01,2.86574080033618e-03,0.00000000000000e+00
5.01000000000000e-08,6.00000000000000e-01,6.00000000000000e-01,2.07735076934770e-03,0.00000000000000e+00
5.01080000000000e-08,6.00000000000000e-01,6.00000000000000e-01,1.90851901452274e-03,0.00000000000000e+00
5.01240000000000e-08,6.00000000000000e-01,6.00000000000000e-01,1.60236014996573e-03,0.00000000000000e+00
5.01560000000000e-08,6.00000000000000e-01,6.00000000000000e-01,1.13965311273816e-03,0.00000000000000e+00
5.02200000000000e-08,6.00000000000000e-01,6.00000000000000e-01,6.37550327041506e-04,0.00000000000000e+00
5.03480000000000e-08,6.00000000000000e-01,6.00000000000000e-01,1.95470982266216e-04,0.00000000000000e+00
5.06040000000000e-08,6.00000000000000e-01,6.00000000000000e-01,3.41554460610849e-05,0.00000000000000e+00
5.11160000000001e-08,6.00000000000000e-01,6.00000000000000e-01,2.20227808410273e-05,0.00000000000000e+00
5.21400000000002e-08,6.00000000000000e-01,6.00000000000000e-01,3.33748385373013e-05,0.00000000000000e+00
5.41880000000003e-08,6.00000000000000e-01,6.00000000000000e-01,2.38208473468116e-05,0.00000000000000e+00
5.51000000000000e-08,6.00000000000000e-01,6.00000000000000e-01,3.08480686480837e-05,0.00000000000000e+00
5.51100000000000e-08,5.40000000000021e-01,6.00000000000000e-01,9.73890921606921e-04,5.99999999999787e-02
5.51300000000000e-08,4.20000000000004e-01,6.00000000000000e-01,2.26457548407585e-03,1.79999999999996e-01
5.51700000000000e-08,1.80000000000010e-01,6.00000000000000e-01,2.76878918160678e-03,4.19999999999990e-01
5.52000000000000e-08,0.00000000000000e+00,6.00000000000000e-01,1.69831406709421e-03,6.00000000000000e-01
5.52080000000000e-08,0.00000000000000e+00,6.00000000000000e-01,1.48702657500881e-03,6.00000000000000e-01
5.52240000000000e-08,0.00000000000000e+00,6.00000000000000e-01,1.14386473797866e-03,6.00000000000000e-01
5.52560000000000e-08,0.00000000000000e+00,6.00000000000000e-01,7.99396707167027e-04,6.00000000000000e-01
5.53200000000000e-08,0.00000000000000e+00,6.00000000000000e-01,5.52974722089483e-04,6.00000000000000e-01
5.54480000000000e-08,0.00000000000000e+00,6.00000000000000e-01,-2.42894806814081e-05,6.00000000000000e-01
5.57040000000000e-08,0.00000000000000e+00,6.00000000000000e-01,-2.03156049458519e-03,6.00000000000000e-01
5.61721824631819e-08,0.00000000000000e+00,6.00000000000000e-01,-6.68738368288520e-04,6.00000000000000e-01
5.68536685302569e-08,0.00000000000000e+00,6.00000000000000e-01,7.98232211722059e-04,6.00000000000000e-01
5.79281369330875e-08,0.00000000000000e+00,6.00000000000000e-01,-1.08926396905503e-03,6.00000000000000e-01
5.90969791315741e-08,0.00000000000000e+00,6.00000000000000e-01,1.24641246335833e-03,6.00000000000000e-01
6.12555774973954e-08,0.00000000000000e+00,6.00000000000000e-01,-1.09030686529923e-03,6.00000000000000e-01
6.34218208682752e-08,0.00000000000000e+00,6.00000000000000e-01,1.02394187260118e-03,6.00000000000000e-01
6.50000000000000e-08,0.00000000000000e+00,6.00000000000000e-01,-7.86850238648874e-04,6.00000000000000e-01
6.50100000000000e-08,5.99999999999886e-02,6.00000000000000e-01,1.09174288420305e-04,6.00000000000000e-01
6.50300000000000e-08,1.79999999999966e-01,6.00000000000000e-01,1.66450590891928e-03,6.00000000000000e-01
6.50700000000000e-08,4.19999999999920e-01,6.00000000000000e-01,3.71685381565859e-03,6.00000000000000e-01
6.51000000000000e-08,5.99999999999966e-01,6.00000000000000e-01,3.66617420960207e-03,6.00000000000000e-01
6.51080000000000e-08,6.00000000000000e-01,6.00000000000000e-01,3.01288443762177e-03,6.00000000000000e-01
6.51240000000000e-08,6.00000000000000e-01,6.00000000000000e-01,1.63319597732153e-03,6.00000000000000e-01
6.51560000000000e-08,6.00000000000000e-01,6.00000000000000e-01,-1.38000541093374e-03,6.00000000000000e-01
6.52200000000000e-08,6.00000000000000e-01,6.00000000000000e-01,-7.28051484608898e-03,6.00000000000000e-01
6.53480000000000e-08,6.00000000000000e-01,6.00000000000000e-01,-1.45120609553207e-02,6.00000000000000e-01
6.56040000000000e-08,6.00000000000000e-01,6.00000000000000e-01,1.88742157302829e-03,6.00000000000000e-01
6.61159999999999e-08,6.00000000000000e-01,6.00000000000000e-01,3.73697132650252e-01,6.00000000000000e-01
6.69540081828171e-08,6.00000000000000e-01,6.00000000000000e-01,6.17089727865597e-01,6.00000000000000e-01
6.78218552481262e-08,6.00000000000000e-01,6.00000000000000e-01,5.83907712573342e-01,6.00000000000000e-01
6.95102618300602e-08,6.00000000000000e-01,6.00000000000000e-01,6.14933495493924e-01,6.00000000000000e-01
7.01000000000000e-08,6.00000000000000e-01,6.00000000000000e-01,5.88988504590278e-01,6.00000000000000e-01
7.01100000000000e-08,6.00000000000000e-01,5.40000000000011e-01,5.90543887269789e-01,6.00000000000000e-01
7.01300000000000e-08,6.00000000000000e-01,4.20000000000034e-01,5.93222466886943e-01,6.00000000000000e-01
7.01700000000000e-08,6.00000000000000e-01,1.80000000000080e-01,5.96595315144545e-01,6.00000000000000e-01
7.02000000000000e-08,6.00000000000000e-01,3.44169137633799e-14,5.98083848461580e-01,6.00000000000000e-01
7.02080000000000e-08,6.00000000000000e-01,0.00000000000000e+00,5.98382318310613e-01,6.00000000000000e-01
7.02240000000000e-08,6.00000000000000e-01,0.00000000000000e+00,5.98882196401236e-01,6.00000000000000e-01
7.02560000000000e-08,6.00000000000000e-01,0.00000000000000e+00,5.99494734436418e-01,6.00000000000000e-01
7.03200000000000e-08,6.00000000000000e-01,0.00000000000000e+00,5.99949466243270e-01,6.00000000000000e-01
7.04480000000000e-08,6.00000000000000e-01,0.00000000000000e+00,5.99958196265754e-01,6.00000000000000e-01
7.07040000000000e-08,6.00000000000000e-01,0.00000000000000e+00,5.99786190807776e-01,6.00000000000000e-01
7.12159999999999e-08,6.00000000000000e-01,0.00000000000000e+00,5.99977449926881e-01,6.00000000000000e-01
7.18332482305064e-08,6.00000000000000e-01,0.00000000000000e+00,6.00057493538811e-01,6.00000000000000e-01
7.30677446915194e-08,6.00000000000000e-01,0.00000000000000e+00,5.99844158896648e-01,6.00000000000000e-01
7.43233343785992e-08,6.00000000000000e-01,0.00000000000000e+00,6.00077974673713e-01,6.00000000000000e-01
7.51000000000000e-08,6.00000000000000e-01,0.00000000000000e+00,5.99866368141287e-01,6.00000000000000e-01
7.51100000000000e-08,5.40000000000061e-01,0.00000000000000e+00,5.99538689176848e-01,6.00000000000000e-01
7.51300000000000e-08,4.20000000000084e-01,0.00000000000000e+00,5.98892029650210e-01,6.00000000000000e-01
7.51700000000000e-08,1.80000000000129e-01,0.00000000000000e+00,5.98491865325782e-01,6.00000000000000e-01
7.52000000000000e-08,8.40438829641244e-14,0.00000000000000e+00,5.99741525536615e-01,6.00000000000000e-01
7.52080000000000e-08,0.00000000000000e+00,0.00000000000000e+00,6.00615982396675e-01,6.00000000000000e-01
7.52240000000000e-08,0.00000000000000e+00,0.00000000000000e+00,6.02159814225735e-01,6.00000000000000e-01
7.52560000000000e-08,0.00000000000000e+00,0.00000000000000e+00,6.04195504353866e-01,6.00000000000000e-01
7.53200000000000e-08,0.00000000000000e+00,0.00000000000000e+00,6.05897220109454e-01,6.00000000000000e-01
7.54480000000000e-08,0.00000000000000e+00,0.00000000000000e+00,6.05728305434314e-01,6.00000000000000e-01
7.57040000000000e-08,0.00000000000000e+00,0.00000000000000e+00,5.99199777154140e-01,6.00000000000000e-01
7.62159999999999e-08,0.00000000000000e+00,0.00000000000000e+00,5.89833135887601e-01,6.00000000000000e-01
7.70691056900699e-08,0.00000000000000e+00,0.00000000000000e+00,5.99543628686422e-01,6.00000000000000e-01
7.79277409275306e-08,0.00000000000000e+00,0.00000000000000e+00,5.99222947657081e-01,6.00000000000000e-01
7.96450114024520e-08,0.00000000000000e+00,0.00000000000000e+00,6.00053036079966e-01,6.00000000000000e-01
8.14462962584584e-08,0.00000000000000e+00,0.00000000000000e+00,5.99536726816257e-01,6.00000000000000e-01
8.49919301824798e-08,0.00000000000000e+00,0.00000000000000e+00,6.00124160497885e-01,6.00000000000000e-01
8.50000000000000e-08,0.00000000000000e+00,0.00000000000000e+00,6.00106600292065e-01,6.00000000000000e-01
8.50100000000000e-08,5.99999999999886e-02,0.00000000000000e+00,5.99662309101438e-01,5.40000000000011e-01
