Time,v(clk),v(data),v(out)
1.00000000000000e-08,5.50000000000000e-01,0.00000000000000e+00,8.14454190858557e-06
1.00100000000000e-08,5.50000000000000e-01,5.49999999999987e-02,9.44148160387376e-06
1.00300000000000e-08,5.50000000000000e-01,1.64999999999996e-01,1.05956675374649e-05
1.00700000000000e-08,5.50000000000000e-01,3.84999999999991e-01,8.51771226492715e-06
1.01000000000000e-08,5.50000000000000e-01,5.49999999999996e-01,5.44216928557995e-06
1.01080000000000e-08,5.50000000000000e-01,5.50000000000000e-01,4.71208133515783e-06
1.01240000000000e-08,5.50000000000000e-01,5.50000000000000e-01,5.21141372389344e-06
1.01560000000000e-08,5.50000000000000e-01,5.50000000000000e-01,7.72364065743797e-06
1.02200000000000e-08,5.50000000000000e-01,5.50000000000000e-01,1.44716435381484e-05
1.03480000000000e-08,5.50000000000000e-01,5.50000000000000e-01,1.70397631231445e-05
1.06040000000000e-08,5.50000000000000e-01,5.50000000000000e-01,1.34929581218877e-05
1.11160000000000e-08,5.50000000000000e-01,5.50000000000000e-01,1.44560689864445e-05
1.21400000000000e-08,5.50000000000000e-01,5.50000000000000e-01,1.38439931990260e-05
1.41880000000000e-08,5.50000000000000e-01,5.50000000000000e-01,1.31809947342383e-05
1.51000000000000e-08,5.50000000000000e-01,5.50000000000000e-01,1.30514604297170e-05
1.51100000000000e-08,4.94999999999992e-01,5.50000000000000e-01,-7.56956463021166e-05
1.51300000000000e-08,3.84999999999995e-01,5.50000000000000e-01,-2.21262210122669e-04
1.51700000000000e-08,1.65000000000000e-01,5.50000000000000e-01,-2.81122464711923e-04
1.52000000000000e-08,0.00000000000000e+00,5.50000000000000e-01,2.46141397064054e-05
1.52080000000000e-08,0.00000000000000e+00,5.50000000000000e-01,2.22478739048931e-04
1.52240000000000e-08,0.00000000000000e+00,5.50000000000000e-01,4.99380150591325e-04
1.52560000000000e-08,0.00000000000000e+00,5.50000000000000e-01,6.35094172462908e-04
1.53200000000000e-08,0.00000000000000e+00,5.50000000000000e-01,3.47772704766748e-04
1.54480000000000e-08,0.00000000000000e+00,5.50000000000000e-01,-3.38449617713350e-04
1.57040000000000e-08,0.00000000000000e+00,5.50000000000000e-01,-1.34946772676402e-04
1.62160000000000e-08,0.00000000000000e+00,5.50000000000000e-01,2.11067015647021e-05
1.68993908652053e-08,0.00000000000000e+00,5.50000000000000e-01,-2.92685672669008e-05
1.80022107291803e-08,0.00000000000000e+00,5.50000000000000e-01,1.55849889709811e-04
1.99358535475319e-08,0.00000000000000e+00,5.50000000000000e-01,-1.66866189456859e-04
2.27314034206926e-08,0.00000000000000e+00,5.50000000000000e-01,2.00959818337963e-04
2.50000000000000e-08,0.00000000000000e+00,5.50000000000000e-01,-1.88628556414034e-04
2.50100000000000e-08,5.49999999999896e-02,5.50000000000000e-01,-1.04616457855117e-05
2.50300000000000e-08,1.65000000000005e-01,5.50000000000000e-01,2.91986104289925e-04
2.50700000000000e-08,3.85000000000000e-01,5.50000000000000e-01,6.55089794623732e-04
2.51000000000000e-08,5.50000000000000e-01,5.50000000000000e-01,6.73299164568368e-04
2.51080000000000e-08,5.50000000000000e-01,5.50000000000000e-01,5.31352121761773e-04
2.51240000000000e-08,5.50000000000000e-01,5.50000000000000e-01,1.86535382083339e-04
2.51560000000000e-08,5.50000000000000e-01,5.50000000000000e-01,-8.00103950319125e-04
2.52200000000000e-08,5.50000000000000e-01,5.50000000000000e-01,-2.92618753937757e-03
2.53480000000000e-08,5.50000000000000e-01,5.50000000000000e-01,-5.04839684863144e-03
2.56040000000000e-08,5.50000000000000e-01,5.50000000000000e-01,7.94814463087987e-02
2.61160000000000e-08,5.50000000000000e-01,5.50000000000000e-01,5.06113895861958e-01
2.71400000000000e-08,5.50000000000000e-01,5.50000000000000e-01,5.62626672694034e-01
2.82487943364015e-08,5.50000000000000e-01,5.50000000000000e-01,5.36511116578356e-01
3.01000000000000e-08,5.50000000000000e-01,5.50000000000000e-01,5.61483666379141e-01
3.01100000000000e-08,5.50000000000000e-01,4.95000000000029e-01,5.57493086159774e-01
3.01300000000000e-08,5.50000000000000e-01,3.85000000000013e-01,5.52310953366638e-01
3.01700000000000e-08,5.50000000000000e-01,1.65000000000018e-01,5.49993747801336e-01
3.02000000000000e-08,5.50000000000000e-01,1.33226762955019e-14,5.50060832535130e-01
3.02080000000000e-08,5.50000000000000e-01,0.00000000000000e+00,5.50064687598750e-01
3.02240000000000e-08,5.50000000000000e-01,0.00000000000000e+00,5.50062975368857e-01
3.02560000000000e-08,5.50000000000000e-01,0.00000000000000e+00,5.50041576404027e-01
3.03200000000000e-08,5.50000000000000e-01,0.00000000000000e+00,5.49980466863428e-01
3.04480000000000e-08,5.50000000000000e-01,0.00000000000000e+00,5.49957140429069e-01
3.07040000000000e-08,5.50000000000000e-01,0.00000000000000e+00,5.49995118952722e-01
3.11308026519117e-08,5.50000000000000e-01,0.00000000000000e+00,5.49947624920522e-01
3.18427792103520e-08,5.50000000000000e-01,0.00000000000000e+00,5.49980777847899e-01
3.28805652676229e-08,5.50000000000000e-01,0.00000000000000e+00,5.49960192884277e-01
3.49561373821646e-08,5.50000000000000e-01,0.00000000000000e+00,5.49983546746424e-01
3.51000000000000e-08,5.49999999999973e-01,0.00000000000000e+00,5.49972912613331e-01
3.51100000000000e-08,4.94999999999983e-01,0.00000000000000e+00,5.49884077260158e-01
3.51300000000000e-08,3.84999999999968e-01,0.00000000000000e+00,5.49781377022141e-01
3.51700000000000e-08,1.64999999999973e-01,0.00000000000000e+00,5.50293530478376e-01
3.52000000000000e-08,0.00000000000000e+00,0.00000000000000e+00,5.52069942732239e-01
3.52080000000000e-08,0.00000000000000e+00,0.00000000000000e+00,5.52623983438168e-01
3.52240000000000e-08,0.00000000000000e+00,0.00000000000000e+00,5.53378454228736e-01
3.52560000000000e-08,0.00000000000000e+00,0.00000000000000e+00,5.53640770648853e-01
3.53200000000000e-08,0.00000000000000e+00,0.00000000000000e+00,5.49369507682202e-01
3.54480000000000e-08,0.00000000000000e+00,0.00000000000000e+00,5.35490445848150e-01
3.57040000000000e-08,0.00000000000000e+00,0.00000000000000e+00,5.42391907412791e-01
3.61559829117518e-08,0.00000000000000e+00,0.00000000000000e+00,5.53019081483670e-01
3.67947970534649e-08,0.00000000000000e+00,0.00000000000000e+00,5.46569109983780e-01
3.80595264033138e-08,0.00000000000000e+00,0.00000000000000e+00,5.52347206305389e-01
3.91000000000000e-08,0.00000000000000e+00,0.00000000000000e+00,5.47556321490619e-01
3.92655834615872e-08,0.00000000000000e+00,0.00000000000000e+00,5.49371952354005e-01
3.95967503847615e-08,0.00000000000000e+00,0.00000000000000e+00,5.50093276229299e-01
4.02590842311101e-08,0.00000000000000e+00,0.00000000000000e+00,5.49627730714182e-01
4.15837519238074e-08,0.00000000000000e+00,0.00000000000000e+00,5.50051516489503e-01
4.42330873092020e-08,0.00000000000000e+00,0.00000000000000e+00,5.49711902566186e-01
4.50000000000000e-08,0.00000000000000e+00,0.00000000000000e+00,5.50036243568089e-01
4.50100000000000e-08,5.49999999999896e-02,0.00000000000000e+00,5.50102654263560e-01
4.50300000000000e-08,1.65000000000005e-01,0.00000000000000e+00,5.50164462753823e-01
4.50700000000000e-08,3.85000000000000e-01,0.00000000000000e+00,5.50083689197430e-01
4.51000000000000e-08,5.50000000000000e-01,0.00000000000000e+00,5.49933612665043e-01
4.51080000000000e-08,5.50000000000000e-01,0.00000000000000e+00,5.49845076414732e-01
4.51240000000000e-08,5.50000000000000e-01,0.00000000000000e+00,5.49719502702748e-01
4.51560000000000e-08,5.50000000000000e-01,0.00000000000000e+00,5.49653329957679e-01
4.52200000000000e-08,5.50000000000000e-01,0.00000000000000e+00,5.49688639299832e-01
4.53480000000000e-08,5.50000000000000e-01,0.00000000000000e+00,5.49844822236604e-01
4.56040000000000e-08,5.50000000000000e-01,0.00000000000000e+00,5.53244498462725e-01
4.61160000000000e-08,5.50000000000000e-01,0.00000000000000e+00,2.61170697749817e-01
4.71400000000000e-08,5.50000000000000e-01,0.00000000000000e+00,-6.07972082997075e-02
4.80790120537102e-08,5.50000000000000e-01,0.00000000000000e+00,5.12747649542790e-02
4.99570361611305e-08,5.50000000000000e-01,0.00000000000000e+00,-3.30499056456537e-02
5.00000000000000e-08,5.50000000000000e-01,0.00000000000000e+00,-2.24334783425715e-02
5.00100000000000e-08,5.50000000000000e-01,5.49999999999896e-02,-1.99519806079427e-02
5.00300000000000e-08,5.50000000000000e-01,1.64999999999969e-01,-1.57161824841884e-02
5.00700000000000e-08,5.50000000000000e-01,3.85000000000000e-01,-9.98361883840990e-03
5.01000000000000e-08,5.50000000000000e-01,5.50000000000000e-01,-7.14480322994533e-03
5.01080000000000e-08,5.50000000000000e-01,5.50000000000000e-01,-6.56696841371780e-03
5.01240000000000e-08,5.50000000000000e-01,5.50000000000000e-01,-5.49522379017571e-03
5.01560000000000e-08,5.50000000000000e-01,5.50000000000000e-01,-3.84685910718686e-03
5.02200000000000e-08,5.50000000000000e-01,5.50000000000000e-01,-1.83264094804042e-03
5.03480000000000e-08,5.50000000000000e-01,5.50000000000000e-01,-3.13057383507447e-04
5.06040000000000e-08,5.50000000000000e-01,5.50000000000000e-01,6.10328418242934e-05
5.11160000000001e-08,5.50000000000000e-01,5.50000000000000e-01,-1.73081859299977e-05
5.21400000000002e-08,5.50000000000000e-01,5.50000000000000e-01,2.71857422754294e-05
5.41880000000003e-08,5.50000000000000e-01,5.50000000000000e-01,-6.08659676736879e-06
5.51000000000000e-08,5.50000000000000e-01,5.50000000000000e-01,1.91880195229959e-05
5.51100000000000e-08,4.95000000000020e-01,5.50000000000000e-01,-7.13276687905884e-05
5.51300000000000e-08,3.85000000000004e-01,5.50000000000000e-01,-2.16245456501944e-04
5.51700000000000e-08,1.65000000000009e-01,5.50000000000000e-01,-2.67834087594565e-04
5.52000000000000e-08,0.00000000000000e+00,5.50000000000000e-01,2.56274830357367e-05
5.52080000000000e-08,0.00000000000000e+00,5.50000000000000e-01,2.21905275084394e-04
5.52240000000000e-08,0.00000000000000e+00,5.50000000000000e-01,4.88897239852557e-04
5.52560000000000e-08,0.00000000000000e+00,5.50000000000000e-01,6.02174640068676e-04
5.53200000000000e-08,0.00000000000000e+00,5.50000000000000e-01,1.62678342899729e-04
5.54480000000000e-08,0.00000000000000e+00,5.50000000000000e-01,-8.30173797503789e-04
5.57040000000000e-08,0.00000000000000e+00,5.50000000000000e-01,-2.45023146148302e-04
5.62160000000000e-08,0.00000000000000e+00,5.50000000000000e-01,1.22627996453070e-04
5.68996375470785e-08,0.00000000000000e+00,5.50000000000000e-01,-1.15205275159302e-04
5.80020222443619e-08,0.00000000000000e+00,5.50000000000000e-01,2.30432690490121e-04
5.99342548491579e-08,0.00000000000000e+00,5.50000000000000e-01,-2.36732724909452e-04
6.27353260658728e-08,0.00000000000000e+00,5.50000000000000e-01,2.65733552754224e-04
6.50000000000000e-08,0.00000000000000e+00,5.50000000000000e-01,-2.50433075843034e-04
6.50100000000000e-08,5.49999999999896e-02,5.50000000000000e-01,-6.06840598266073e-05
6.50300000000000e-08,1.64999999999969e-01,5.50000000000000e-01,2.61910969718282e-04
6.50700000000000e-08,3.84999999999927e-01,5.50000000000000e-01,6.42621221259118e-04
6.51000000000000e-08,5.49999999999969e-01,5.50000000000000e-01,6.67287333250520e-04
6.51080000000000e-08,5.50000000000000e-01,5.50000000000000e-01,5.26411080923141e-04
6.51240000000000e-08,5.50000000000000e-01,5.50000000000000e-01,1.83520128860130e-04
6.51560000000000e-08,5.50000000000000e-01,5.50000000000000e-01,-8.00612723451347e-04
6.52200000000000e-08,5.50000000000000e-01,5.50000000000000e-01,-2.92508575421989e-03
6.53480000000000e-08,5.50000000000000e-01,5.50000000000000e-01,-5.04812377838557e-03
6.56040000000000e-08,5.50000000000000e-01,5.50000000000000e-01,7.94554930273859e-02
6.61159999999999e-08,5.50000000000000e-01,5.50000000000000e-01,5.06101689333310e-01
6.71399999999999e-08,5.50000000000000e-01,5.50000000000000e-01,5.62629591925731e-01
6.82487305168310e-08,5.50000000000000e-01,5.50000000000000e-01,5.36508044391627e-01
7.01000000000000e-08,5.50000000000000e-01,5.50000000000000e-01,5.61486353880169e-01
7.01100000000000e-08,5.50000000000000e-01,4.95000000000010e-01,5.57494803991626e-01
7.01300000000000e-08,5.50000000000000e-01,3.85000000000031e-01,5.52311424995932e-01
7.01700000000000e-08,5.50000000000000e-01,1.65000000000073e-01,5.49993705417384e-01
7.02000000000000e-08,5.50000000000000e-01,3.15303338993544e-14,5.50060816063953e-01
7.02080000000000e-08,5.50000000000000e-01,0.00000000000000e+00,5.50064668539137e-01
7.02240000000000e-08,5.50000000000000e-01,0.00000000000000e+00,5.50062952371909e-01
7.02560000000000e-08,5.50000000000000e-01,0.00000000000000e+00,5.50041554613406e-01
7.03200000000000e-08,5.50000000000000e-01,0.00000000000000e+00,5.49980460017651e-01
7.04480000000000e-08,5.50000000000000e-01,0.00000000000000e+00,5.49957134152224e-01
7.07040000000000e-08,5.50000000000000e-01,0.00000000000000e+00,5.49995117070015e-01
7.11307989463511e-08,5.50000000000000e-01,0.00000000000000e+00,5.49947621883668e-01
7.18427783403409e-08,5.50000000000000e-01,0.00000000000000e+00,5.49980776977991e-01
7.28805485726995e-08,5.50000000000000e-01,0.00000000000000e+00,5.49960191453461e-01
7.49560890374168e-08,5.50000000000000e-01,0.00000000000000e+00,5.49983545760042e-01
7.51000000000000e-08,5.50000000000000e-01,0.00000000000000e+00,5.49972911620930e-01
7.51100000000000e-08,4.95000000000056e-01,0.00000000000000e+00,5.49884078331407e-01
7.51300000000000e-08,3.85000000000077e-01,0.00000000000000e+00,5.49781381117023e-01
7.51700000000000e-08,1.65000000000118e-01,0.00000000000000e+00,5.50293532282359e-01
7.52000000000000e-08,7.69384556065233e-14,0.00000000000000e+00,5.52069941856274e-01
7.52080000000000e-08,0.00000000000000e+00,0.00000000000000e+00,5.52623983061434e-01
7.52240000000000e-08,0.00000000000000e+00,0.00000000000000e+00,5.53378453013416e-01
7.52560000000000e-08,0.00000000000000e+00,0.00000000000000e+00,5.53640754470394e-01
7.53200000000000e-08,0.00000000000000e+00,0.00000000000000e+00,5.49369417230487e-01
7.54480000000000e-08,0.00000000000000e+00,0.00000000000000e+00,5.35490339610925e-01
7.57040000000000e-08,0.00000000000000e+00,0.00000000000000e+00,5.42391934310898e-01
7.61559829339517e-08,0.00000000000000e+00,0.00000000000000e+00,5.53019065483666e-01
7.67947970902666e-08,0.00000000000000e+00,0.00000000000000e+00,5.46569123629635e-01
7.80595264252389e-08,0.00000000000000e+00,0.00000000000000e+00,5.52476717661798e-01
7.81000000000000e-08,0.00000000000000e+00,0.00000000000000e+00,5.51337692142994e-01
7.81809471495222e-08,0.00000000000000e+00,0.00000000000000e+00,5.50011031999910e-01
7.83428414485666e-08,0.00000000000000e+00,0.00000000000000e+00,5.49385400566698e-01
7.86227918099551e-08,0.00000000000000e+00,0.00000000000000e+00,5.49900056953798e-01
7.91826925327320e-08,0.00000000000000e+00,0.00000000000000e+00,5.49698358241432e-01
8.03024939782859e-08,0.00000000000000e+00,0.00000000000000e+00,5.49938891257115e-01
8.25420968693936e-08,0.00000000000000e+00,0.00000000000000e+00,5.49781620544966e-01
8.50000000000000e-08,0.00000000000000e+00,0.00000000000000e+00,5.49981753452925e-01
8.50100000000000e-08,5.49999999999896e-02,0.00000000000000e+00,5.50054771294921e-01
8.50300000000000e-08,1.64999999999969e-01,0.00000000000000e+00,5.50130135433742e-01
8.50700000000000e-08,3.84999999999927e-01,0.00000000000000e+00,5.50068337615201e-01
8.51000000000000e-08,5.49999999999969e-01,0.00000000000000e+00,5.49925652059386e-01
8.51080000000000e-08,5.50000000000000e-01,0.00000000000000e+00,5.49837581986146e-01
8.51240000000000e-08,5.50000000000000e-01,0.00000000000000e+00,5.49713336044514e-01
8.51560000000000e-08,5.50000000000000e-01,0.00000000000000e+00,5.49649583759807e-01
8.52200000000000e-08,5.50000000000000e-01,0.00000000000000e+00,5.49688990707343e-01
8.53480000000000e-08,5.50000000000000e-01,0.00000000000000e+00,5.49845903595274e-01
8.56040000000000e-08,5.50000000000000e-01,0.00000000000000e+00,5.53246584651298e-01
8.61159999999999e-08,5.50000000000000e-01,0.00000000000000e+00,2.61153004230889e-01
8.71399999999999e-08,5.50000000000000e-01,0.00000000000000e+00,-6.08008842864530e-02
8.80789938251783e-08,5.50000000000000e-01,0.00000000000000e+00,5.12777005149412e-02
8.99569814755351e-08,5.50000000000000e-01,0.00000000000000e+00,-3.30518033392245e-02
9.00000000000000e-08,5.50000000000000e-01,0.00000000000000e+00,-2.24215054846355e-02
9.00100000000000e-08,5.50000000000000e-01,5.49999999999896e-02,-1.99407392901369e-02
9.00300000000000e-08,5.50000000000000e-01,1.64999999999969e-01,-1.57066487861050e-02
9.00700000000000e-08,5.50000000000000e-01,3.84999999999927e-01,-9.97744058187534e-03
9.01000000000000e-08,5.50000000000000e-01,5.49999999999969e-01,-7.14039711198151e-03
9.01080000000000e-08,5.50000000000000e-01,5.50000000000000e-01,-6.56292176716861e-03
9.01240000000000e-08,5.50000000000000e-01,5.50000000000000e-01,-5.49184250861033e-03
9.01560000000000e-08,5.50000000000000e-01,5.50000000000000e-01,-3.84449540484039e-03
9.02200000000000e-08,5.50000000000000e-01,5.50000000000000e-01,-1.83151353066197e-03
9.03480000000000e-08,5.50000000000000e-01,5.50000000000000e-01,-3.12858474348518e-04
9.06040000000000e-08,5.50000000000000e-01,5.50000000000000e-01,6.09995435490243e-05
9.11159999999999e-08,5.50000000000000e-01,5.50000000000000e-01,-1.72916243233803e-05
9.21399999999999e-08,5.50000000000000e-01,5.50000000000000e-01,2.71737225150757e-05
9.41879999999998e-08,5.50000000000000e-01,5.50000000000000e-01,-6.07757410696352e-06
9.51000000000000e-08,5.50000000000000e-01,5.50000000000000e-01,1.91812314402871e-05
9.51100000000000e-08,4.95000000000056e-01,5.50000000000000e-01,-7.13332354117108e-05
9.51300000000000e-08,3.85000000000077e-01,5.50000000000000e-01,-2.16249215518959e-04
9.51700000000000e-08,1.65000000000118e-01,5.50000000000000e-01,-2.67835757570667e-04
9.52000000000000e-08,7.69384556065233e-14,5.50000000000000e-01,2.56258002082205e-05
9.52080000000000e-08,0.00000000000000e+00,5.50000000000000e-01,2.21903438943100e-04
9.52240000000000e-08,0.00000000000000e+00,5.50000000000000e-01,4.88894782005159e-04
9.52560000000000e-08,0.00000000000000e+00,5.50000000000000e-01,6.02168022292265e-04
9.53200000000000e-08,0.00000000000000e+00,5.50000000000000e-01,1.62629322263408e-04
9.54480000000000e-08,0.00000000000000e+00,5.50000000000000e-01,-8.30421416938315e-04
9.57040000000000e-08,0.00000000000000e+00,5.50000000000000e-01,-2.45124933564933e-04
9.62159999999999e-08,0.00000000000000e+00,5.50000000000000e-01,1.22712833699416e-04
9.68996372790238e-08,0.00000000000000e+00,5.50000000000000e-01,-1.15275092469858e-04
9.80020220306518e-08,0.00000000000000e+00,5.50000000000000e-01,2.30493136379909e-04
9.99342544532463e-08,0.00000000000000e+00,5.50000000000000e-01,-2.36789363446147e-04
1.02735324984386e-07,0.00000000000000e+00,5.50000000000000e-01,2.65786804330044e-04
1.05000000000000e-07,0.00000000000000e+00,5.50000000000000e-01,-2.50483330553961e-04
1.05010000000000e-07,5.49999999999896e-02,5.50000000000000e-01,-6.07207148162411e-05
1.05030000000000e-07,1.64999999999969e-01,5.50000000000000e-01,2.61891315300286e-04
1.05070000000000e-07,3.84999999999927e-01,5.50000000000000e-01,6.42612611222441e-04
1.05100000000000e-07,5.49999999999969e-01,5.50000000000000e-01,6.67283101482077e-04
1.05108000000000e-07,5.50000000000000e-01,5.50000000000000e-01,5.26407445964036e-04
1.05124000000000e-07,5.50000000000000e-01,5.50000000000000e-01,1.83517500407564e-04
1.05156000000000e-07,5.50000000000000e-01,5.50000000000000e-01,-8.00614025537910e-04
1.05220000000000e-07,5.50000000000000e-01,5.50000000000000e-01,-2.92508593516465e-03
1.05348000000000e-07,5.50000000000000e-01,5.50000000000000e-01,-5.04812353325636e-03
1.05604000000000e-07,5.50000000000000e-01,5.50000000000000e-01,7.94554977113038e-02
1.06116000000000e-07,5.50000000000000e-01,5.50000000000000e-01,5.06101691389671e-01
1.07140000000000e-07,5.50000000000000e-01,5.50000000000000e-01,5.62629591374736e-01
1.08248730527741e-07,5.50000000000000e-01,5.50000000000000e-01,5.36508044977482e-01
1.10100000000000e-07,5.50000000000000e-01,5.50000000000000e-01,5.61486353372700e-01
1.10110000000000e-07,5.50000000000000e-01,4.95000000000083e-01,5.57494803665750e-01
1.10130000000000e-07,5.50000000000000e-01,3.85000000000104e-01,5.52311424903816e-01
1.10170000000000e-07,5.50000000000000e-01,1.65000000000146e-01,5.49993705424912e-01
