Time,v(clk),v(data),v(out)
1.00000000000000e-08,5.00000000000000e-01,0.00000000000000e+00,-1.43404840722257e-05
1.00100000000000e-08,5.00000000000000e-01,4.99999999999988e-02,-1.12878615375345e-05
1.00300000000000e-08,5.00000000000000e-01,1.49999999999996e-01,-6.91421166050532e-06
1.00700000000000e-08,5.00000000000000e-01,3.49999999999992e-01,-6.16500215312732e-06
1.01000000000000e-08,5.00000000000000e-01,4.99999999999996e-01,-9.24900783888516e-06
1.01080000000000e-08,5.00000000000000e-01,5.00000000000000e-01,-9.52762367778526e-06
1.01240000000000e-08,5.00000000000000e-01,5.00000000000000e-01,-1.01272840912561e-05
1.01560000000000e-08,5.00000000000000e-01,5.00000000000000e-01,-4.89916747567487e-06
1.02200000000000e-08,5.00000000000000e-01,5.00000000000000e-01,3.55450245722450e-06
1.03480000000000e-08,5.00000000000000e-01,5.00000000000000e-01,4.43191755360867e-06
1.06040000000000e-08,5.00000000000000e-01,5.00000000000000e-01,3.93167507592440e-07
1.11160000000000e-08,5.00000000000000e-01,5.00000000000000e-01,2.56492132557316e-06
1.21400000000000e-08,5.00000000000000e-01,5.00000000000000e-01,1.26752525733600e-06
1.41880000000000e-08,5.00000000000000e-01,5.00000000000000e-01,2.01417455758784e-06
1.51000000000000e-08,5.00000000000000e-01,5.00000000000000e-01,1.16279345327257e-06
1.51100000000000e-08,4.49999999999993e-01,5.00000000000000e-01,-8.22980185770233e-05
1.51300000000000e-08,3.49999999999995e-01,5.00000000000000e-01,-2.08153529149560e-04
1.51700000000000e-08,1.50000000000000e-01,5.00000000000000e-01,-2.85329796430533e-04
1.52000000000000e-08,0.00000000000000e+00,5.00000000000000e-01,-2.73013153532092e-05
1.52080000000000e-08,0.00000000000000e+00,5.00000000000000e-01,1.63607795866050e-04
1.52240000000000e-08,0.00000000000000e+00,5.00000000000000e-01,4.25451529953172e-04
1.52560000000000e-08,0.00000000000000e+00,5.00000000000000e-01,5.39684508210896e-04
1.53200000000000e-08,0.00000000000000e+00,5.00000000000000e-01,3.11661547032424e-04
1.54480000000000e-08,0.00000000000000e+00,5.00000000000000e-01,-1.88135260565457e-04
1.57040000000000e-08,0.00000000000000e+00,5.00000000000000e-01,-1.32541378231602e-04
1.62160000000000e-08,0.00000000000000e+00,5.00000000000000e-01,4.66955698893504e-05
1.69666027394260e-08,0.00000000000000e+00,5.00000000000000e-01,-7.23136653348871e-05
1.80650212245244e-08,0.00000000000000e+00,5.00000000000000e-01,1.46226494028143e-04
2.02318210074082e-08,0.00000000000000e+00,5.00000000000000e-01,-1.67331056966979e-04
2.30779720855188e-08,0.00000000000000e+00,5.00000000000000e-01,1.76295057594814e-04
2.50000000000000e-08,0.00000000000000e+00,5.00000000000000e-01,-1.82885246989150e-04
2.50100000000000e-08,4.99999999999905e-02,5.00000000000000e-01,-1.22402205239916e-05
2.50300000000000e-08,1.50000000000005e-01,5.00000000000000e-01,2.74671812452464e-04
2.50700000000000e-08,3.50000000000000e-01,5.00000000000000e-01,5.71204165506746e-04
2.51000000000000e-08,5.00000000000000e-01,5.00000000000000e-01,5.44325257807336e-04
2.51080000000000e-08,5.00000000000000e-01,5.00000000000000e-01,4.06835411357387e-04
2.51240000000000e-08,5.00000000000000e-01,5.00000000000000e-01,5.07526851769510e-05
2.51560000000000e-08,5.00000000000000e-01,5.00000000000000e-01,-1.02830216755830e-03
2.52200000000000e-08,5.00000000000000e-01,5.00000000000000e-01,-3.18751954224040e-03
2.53480000000000e-08,5.00000000000000e-01,5.00000000000000e-01,-5.65033904617959e-03
2.56040000000000e-08,5.00000000000000e-01,5.00000000000000e-01,7.86235559666372e-02
2.61160000000000e-08,5.00000000000000e-01,5.00000000000000e-01,4.65072808312553e-01
2.71400000000000e-08,5.00000000000000e-01,5.00000000000000e-01,5.10753683119468e-01
2.83348876130497e-08,5.00000000000000e-01,5.00000000000000e-01,4.87658540838165e-01
3.01000000000000e-08,5.00000000000000e-01,5.00000000000000e-01,5.09742442804563e-01
3.01100000000000e-08,5.00000000000000e-01,4.50000000000026e-01,5.06411895167876e-01
3.01300000000000e-08,5.00000000000000e-01,3.50000000000012e-01,5.02070098478145e-01
3.01700000000000e-08,5.00000000000000e-01,1.50000000000017e-01,5.00103010651662e-01
3.02000000000000e-08,5.00000000000000e-01,1.21014309684142e-14,5.00166761022680e-01
3.02080000000000e-08,5.00000000000000e-01,0.00000000000000e+00,5.00159127452778e-01
3.02240000000000e-08,5.00000000000000e-01,0.00000000000000e+00,5.00142469523045e-01
3.02560000000000e-08,5.00000000000000e-01,0.00000000000000e+00,5.00083831749881e-01
3.03200000000000e-08,5.00000000000000e-01,0.00000000000000e+00,5.00033838694831e-01
3.04480000000000e-08,5.00000000000000e-01,0.00000000000000e+00,5.00000926930154e-01
3.07040000000000e-08,5.00000000000000e-01,0.00000000000000e+00,5.00008920077830e-01
3.11428295242996e-08,5.00000000000000e-01,0.00000000000000e+00,4.99978047628382e-01
3.19247588881352e-08,5.00000000000000e-01,0.00000000000000e+00,4.99992979103223e-01
3.29860786522791e-08,5.00000000000000e-01,0.00000000000000e+00,4.99987503508369e-01
3.51000000000000e-08,4.99999999999975e-01,0.00000000000000e+00,4.99990240195566e-01
3.51100000000000e-08,4.49999999999985e-01,0.00000000000000e+00,4.99911716469646e-01
3.51300000000000e-08,3.49999999999971e-01,0.00000000000000e+00,4.99806680266123e-01
3.51700000000000e-08,1.49999999999975e-01,0.00000000000000e+00,5.00039734188554e-01
3.52000000000000e-08,0.00000000000000e+00,0.00000000000000e+00,5.01508138956197e-01
3.52080000000000e-08,0.00000000000000e+00,0.00000000000000e+00,5.02027661707662e-01
3.52240000000000e-08,0.00000000000000e+00,0.00000000000000e+00,5.02761792142828e-01
3.52560000000000e-08,0.00000000000000e+00,0.00000000000000e+00,5.03296482153660e-01
3.53200000000000e-08,0.00000000000000e+00,0.00000000000000e+00,5.01669571208823e-01
3.54480000000000e-08,0.00000000000000e+00,0.00000000000000e+00,4.89068521684529e-01
3.57040000000000e-08,0.00000000000000e+00,0.00000000000000e+00,4.90897524975526e-01
3.61614404261483e-08,0.00000000000000e+00,0.00000000000000e+00,5.03517740664274e-01
3.67857515542939e-08,0.00000000000000e+00,0.00000000000000e+00,4.96370499472841e-01
3.80343738105852e-08,0.00000000000000e+00,0.00000000000000e+00,5.02637734436079e-01
3.91000000000000e-08,0.00000000000000e+00,0.00000000000000e+00,4.97397674296308e-01
3.92593446279194e-08,0.00000000000000e+00,0.00000000000000e+00,4.99369173495453e-01
3.95780338837582e-08,0.00000000000000e+00,0.00000000000000e+00,5.00180736628426e-01
4.02154123954358e-08,0.00000000000000e+00,0.00000000000000e+00,4.99652904634552e-01
4.14901694187909e-08,0.00000000000000e+00,0.00000000000000e+00,5.00121942680055e-01
4.40396834655013e-08,0.00000000000000e+00,0.00000000000000e+00,4.99736066203126e-01
4.50000000000000e-08,0.00000000000000e+00,0.00000000000000e+00,5.00107617792393e-01
4.50100000000000e-08,4.99999999999905e-02,0.00000000000000e+00,5.00167083263930e-01
4.50300000000000e-08,1.50000000000005e-01,0.00000000000000e+00,5.00222872656663e-01
4.50700000000000e-08,3.50000000000000e-01,0.00000000000000e+00,5.00127631508649e-01
4.51000000000000e-08,5.00000000000000e-01,0.00000000000000e+00,4.99968581692140e-01
4.51080000000000e-08,5.00000000000000e-01,0.00000000000000e+00,4.99884467396744e-01
4.51240000000000e-08,5.00000000000000e-01,0.00000000000000e+00,4.99762241139274e-01
4.51560000000000e-08,5.00000000000000e-01,0.00000000000000e+00,4.99690417753925e-01
4.52200000000000e-08,5.00000000000000e-01,0.00000000000000e+00,4.99712676032609e-01
4.53480000000000e-08,5.00000000000000e-01,0.00000000000000e+00,4.99863033312582e-01
4.56040000000000e-08,5.00000000000000e-01,0.00000000000000e+00,5.03989903450085e-01
4.61160000000000e-08,5.00000000000000e-01,0.00000000000000e+00,1.98672422867670e-01
4.71400000000000e-08,5.00000000000000e-01,0.00000000000000e+00,-5.43670422767605e-02
4.80906790787603e-08,5.00000000000000e-01,0.00000000000000e+00,5.33678470348507e-02
4.99920372362809e-08,5.00000000000000e-01,0.00000000000000e+00,-3.41858529901471e-02
5.00000000000000e-08,5.00000000000000e-01,0.00000000000000e+00,-3.11539556111551e-02
5.00100000000000e-08,5.00000000000000e-01,4.99999999999905e-02,-2.74595983474710e-02
5.00300000000000e-08,5.00000000000000e-01,1.49999999999972e-01,-2.08072556252649e-02
5.00700000000000e-08,5.00000000000000e-01,3.50000000000000e-01,-1.16035219593922e-02
5.01000000000000e-08,5.00000000000000e-01,5.00000000000000e-01,-7.53958167319384e-03
5.01080000000000e-08,5.00000000000000e-01,5.00000000000000e-01,-6.77561310371444e-03
5.01240000000000e-08,5.00000000000000e-01,5.00000000000000e-01,-5.39796447414533e-03
5.01560000000000e-08,5.00000000000000e-01,5.00000000000000e-01,-3.40006591986305e-03
5.02200000000000e-08,5.00000000000000e-01,5.00000000000000e-01,-1.28763812393919e-03
5.03480000000000e-08,5.00000000000000e-01,5.00000000000000e-01,-6.88220705165055e-05
5.06040000000000e-08,5.00000000000000e-01,5.00000000000000e-01,1.78562499224683e-05
5.11160000000001e-08,5.00000000000000e-01,5.00000000000000e-01,-1.27144698056983e-05
5.21400000000002e-08,5.00000000000000e-01,5.00000000000000e-01,1.14924600122940e-05
5.41880000000003e-08,5.00000000000000e-01,5.00000000000000e-01,-9.64536371499038e-06
5.51000000000000e-08,5.00000000000000e-01,5.00000000000000e-01,7.25264266203222e-06
5.51100000000000e-08,4.50000000000018e-01,5.00000000000000e-01,-8.18896011539755e-05
5.51300000000000e-08,3.50000000000004e-01,5.00000000000000e-01,-2.05248846432818e-04
5.51700000000000e-08,1.50000000000008e-01,5.00000000000000e-01,-2.75324454147866e-04
5.52000000000000e-08,0.00000000000000e+00,5.00000000000000e-01,-2.63343309045219e-05
5.52080000000000e-08,0.00000000000000e+00,5.00000000000000e-01,1.63820266489659e-04
5.52240000000000e-08,0.00000000000000e+00,5.00000000000000e-01,4.17179388775515e-04
5.52560000000000e-08,0.00000000000000e+00,5.00000000000000e-01,5.32379894297115e-04
5.53200000000000e-08,0.00000000000000e+00,5.00000000000000e-01,2.33996191319918e-04
5.54480000000000e-08,0.00000000000000e+00,5.00000000000000e-01,-7.17049120552114e-04
5.57040000000000e-08,0.00000000000000e+00,5.00000000000000e-01,-2.37224581784358e-04
5.62160000000000e-08,0.00000000000000e+00,5.00000000000000e-01,1.69016557800323e-04
5.69664716863177e-08,0.00000000000000e+00,5.00000000000000e-01,-1.92507685763487e-04
5.80648755934907e-08,0.00000000000000e+00,5.00000000000000e-01,2.59451762621468e-04
6.02320259011522e-08,0.00000000000000e+00,5.00000000000000e-01,-2.78422897101013e-04
6.30767889997023e-08,0.00000000000000e+00,5.00000000000000e-01,2.83658812205522e-04
6.50000000000000e-08,0.00000000000000e+00,5.00000000000000e-01,-2.88181874498218e-04
6.50100000000000e-08,4.99999999999905e-02,5.00000000000000e-01,-8.56385229873260e-05
6.50300000000000e-08,1.49999999999972e-01,5.00000000000000e-01,2.43454076091276e-04
6.50700000000000e-08,3.49999999999934e-01,5.00000000000000e-01,5.64334494501648e-04
6.51000000000000e-08,4.99999999999971e-01,5.00000000000000e-01,5.44791537011390e-04
6.51080000000000e-08,5.00000000000000e-01,5.00000000000000e-01,4.07493117808314e-04
6.51240000000000e-08,5.00000000000000e-01,5.00000000000000e-01,5.17460040220796e-05
6.51560000000000e-08,5.00000000000000e-01,5.00000000000000e-01,-1.02702363907499e-03
6.52200000000000e-08,5.00000000000000e-01,5.00000000000000e-01,-3.18659857480150e-03
6.53480000000000e-08,5.00000000000000e-01,5.00000000000000e-01,-5.65005149414450e-03
6.56040000000000e-08,5.00000000000000e-01,5.00000000000000e-01,7.86351950365485e-02
6.61159999999999e-08,5.00000000000000e-01,5.00000000000000e-01,4.65077913976264e-01
6.71399999999999e-08,5.00000000000000e-01,5.00000000000000e-01,5.10752279519315e-01
6.83349232177059e-08,5.00000000000000e-01,5.00000000000000e-01,4.87660163878103e-01
7.01000000000000e-08,5.00000000000000e-01,5.00000000000000e-01,5.09741130783494e-01
7.01100000000000e-08,5.00000000000000e-01,4.50000000000010e-01,5.06411058375462e-01
7.01300000000000e-08,5.00000000000000e-01,3.50000000000028e-01,5.02069873451645e-01
7.01700000000000e-08,5.00000000000000e-01,1.50000000000066e-01,5.00103033552630e-01
7.02000000000000e-08,5.00000000000000e-01,2.86437540353290e-14,5.00166766448017e-01
7.02080000000000e-08,5.00000000000000e-01,0.00000000000000e+00,5.00159135252631e-01
7.02240000000000e-08,5.00000000000000e-01,0.00000000000000e+00,5.00142480323357e-01
7.02560000000000e-08,5.00000000000000e-01,0.00000000000000e+00,5.00083838088263e-01
7.03200000000000e-08,5.00000000000000e-01,0.00000000000000e+00,5.00033840650746e-01
7.04480000000000e-08,5.00000000000000e-01,0.00000000000000e+00,5.00000927891345e-01
7.07040000000000e-08,5.00000000000000e-01,0.00000000000000e+00,5.00008921948099e-01
7.11428307922639e-08,5.00000000000000e-01,0.00000000000000e+00,4.99978046495943e-01
7.19247580983060e-08,5.00000000000000e-01,0.00000000000000e+00,4.99992980420857e-01
7.29860814632920e-08,5.00000000000000e-01,0.00000000000000e+00,4.99987502619204e-01
7.51000000000000e-08,5.00000000000000e-01,0.00000000000000e+00,4.99990241330896e-01
7.51100000000000e-08,4.50000000000051e-01,0.00000000000000e+00,4.99911717274138e-01
7.51300000000000e-08,3.50000000000070e-01,0.00000000000000e+00,4.99806680640520e-01
7.51700000000000e-08,1.50000000000108e-01,0.00000000000000e+00,5.00039734365455e-01
7.52000000000000e-08,6.99995617026161e-14,0.00000000000000e+00,5.01508139198354e-01
7.52080000000000e-08,0.00000000000000e+00,0.00000000000000e+00,5.02027662021862e-01
7.52240000000000e-08,0.00000000000000e+00,0.00000000000000e+00,5.02761792734473e-01
7.52560000000000e-08,0.00000000000000e+00,0.00000000000000e+00,5.03296484566631e-01
7.53200000000000e-08,0.00000000000000e+00,0.00000000000000e+00,5.01669590775665e-01
7.54480000000000e-08,0.00000000000000e+00,0.00000000000000e+00,4.89068556106580e-01
7.57040000000000e-08,0.00000000000000e+00,0.00000000000000e+00,4.90897522380793e-01
7.61614404332765e-08,0.00000000000000e+00,0.00000000000000e+00,5.03517738058539e-01
7.67857515624691e-08,0.00000000000000e+00,0.00000000000000e+00,4.96370501627868e-01
7.80343738208543e-08,0.00000000000000e+00,0.00000000000000e+00,5.06552591644432e-01
7.81000000000000e-08,0.00000000000000e+00,0.00000000000000e+00,5.02814307309758e-01
7.82005068193197e-08,0.00000000000000e+00,0.00000000000000e+00,4.98702038736207e-01
7.84015204579592e-08,0.00000000000000e+00,0.00000000000000e+00,4.97811307047471e-01
7.87511468058170e-08,0.00000000000000e+00,0.00000000000000e+00,5.00456655981586e-01
7.94503995015327e-08,0.00000000000000e+00,0.00000000000000e+00,4.99327814350115e-01
8.08489048929640e-08,0.00000000000000e+00,0.00000000000000e+00,5.00343686773236e-01
8.36459156758266e-08,0.00000000000000e+00,0.00000000000000e+00,4.99491724604589e-01
8.50000000000000e-08,0.00000000000000e+00,0.00000000000000e+00,5.00319951880527e-01
8.50100000000000e-08,4.99999999999905e-02,0.00000000000000e+00,5.00337690158904e-01
8.50300000000000e-08,1.49999999999972e-01,0.00000000000000e+00,5.00314884732026e-01
8.50700000000000e-08,3.49999999999934e-01,0.00000000000000e+00,5.00137923670144e-01
8.51000000000000e-08,4.99999999999971e-01,0.00000000000000e+00,4.99983749355725e-01
8.51080000000000e-08,5.00000000000000e-01,0.00000000000000e+00,4.99909252741228e-01
8.51240000000000e-08,5.00000000000000e-01,0.00000000000000e+00,4.99801050244068e-01
8.51560000000000e-08,5.00000000000000e-01,0.00000000000000e+00,4.99688892379718e-01
8.52200000000000e-08,5.00000000000000e-01,0.00000000000000e+00,4.99698085278689e-01
8.53480000000000e-08,5.00000000000000e-01,0.00000000000000e+00,4.99849178182055e-01
8.56040000000000e-08,5.00000000000000e-01,0.00000000000000e+00,5.03997064838887e-01
8.61159999999999e-08,5.00000000000000e-01,0.00000000000000e+00,1.98448703150705e-01
8.71399999999999e-08,5.00000000000000e-01,0.00000000000000e+00,-5.43545241963481e-02
8.80916391447984e-08,5.00000000000000e-01,0.00000000000000e+00,5.33774598700438e-02
8.99949174343955e-08,5.00000000000000e-01,0.00000000000000e+00,-3.41958539175908e-02
9.00000000000000e-08,5.00000000000000e-01,0.00000000000000e+00,-3.22717089784889e-02
9.00100000000000e-08,5.00000000000000e-01,4.99999999999905e-02,-2.85216787465641e-02
9.00300000000000e-08,5.00000000000000e-01,1.49999999999972e-01,-2.16823410512260e-02
9.00700000000000e-08,5.00000000000000e-01,3.49999999999934e-01,-1.20868399317605e-02
9.01000000000000e-08,5.00000000000000e-01,4.99999999999971e-01,-7.85579923086659e-03
9.01080000000000e-08,5.00000000000000e-01,5.00000000000000e-01,-7.05916048142659e-03
9.01240000000000e-08,5.00000000000000e-01,5.00000000000000e-01,-5.62312617988092e-03
9.01560000000000e-08,5.00000000000000e-01,5.00000000000000e-01,-3.53946919324588e-03
9.02200000000000e-08,5.00000000000000e-01,5.00000000000000e-01,-1.34111691549799e-03
9.03480000000000e-08,5.00000000000000e-01,5.00000000000000e-01,-7.14725723929346e-05
9.06040000000000e-08,5.00000000000000e-01,5.00000000000000e-01,1.84527606833310e-05
9.11159999999999e-08,5.00000000000000e-01,5.00000000000000e-01,-1.32510726276475e-05
9.21399999999999e-08,5.00000000000000e-01,5.00000000000000e-01,1.19419559672851e-05
9.41879999999998e-08,5.00000000000000e-01,5.00000000000000e-01,-1.00218117340886e-05
9.51000000000000e-08,5.00000000000000e-01,5.00000000000000e-01,7.49278603834683e-06
9.51100000000000e-08,4.50000000000051e-01,5.00000000000000e-01,-7.60661878724395e-05
9.51300000000000e-08,3.50000000000070e-01,5.00000000000000e-01,-2.01527600052070e-04
9.51700000000000e-08,1.50000000000108e-01,5.00000000000000e-01,-2.73452247412286e-04
9.52000000000000e-08,6.99995617026161e-14,5.00000000000000e-01,-2.51367681815481e-05
9.52080000000000e-08,0.00000000000000e+00,5.00000000000000e-01,1.64898788702600e-04
9.52240000000000e-08,0.00000000000000e+00,5.00000000000000e-01,4.18040539045025e-04
9.52560000000000e-08,0.00000000000000e+00,5.00000000000000e-01,5.32921092800474e-04
9.53200000000000e-08,0.00000000000000e+00,5.00000000000000e-01,2.34046824587116e-04
9.54480000000000e-08,0.00000000000000e+00,5.00000000000000e-01,-7.18564486699914e-04
9.57040000000000e-08,0.00000000000000e+00,5.00000000000000e-01,-2.37663870050867e-04
9.62159999999999e-08,0.00000000000000e+00,5.00000000000000e-01,1.69429100141460e-04
9.69664777397136e-08,0.00000000000000e+00,5.00000000000000e-01,-1.92884834272789e-04
9.80648840628422e-08,0.00000000000000e+00,5.00000000000000e-01,2.59796421034499e-04
1.00232033076198e-07,0.00000000000000e+00,5.00000000000000e-01,-2.78757201075518e-04
1.03076832646452e-07,0.00000000000000e+00,5.00000000000000e-01,2.83979737111919e-04
1.05000000000000e-07,0.00000000000000e+00,5.00000000000000e-01,-2.88489666083266e-04
1.05010000000000e-07,4.99999999999905e-02,5.00000000000000e-01,-8.58470579493537e-05
1.05030000000000e-07,1.49999999999972e-01,5.00000000000000e-01,2.43362859853428e-04
1.05070000000000e-07,3.49999999999934e-01,5.00000000000000e-01,5.64309046440711e-04
1.05100000000000e-07,4.99999999999971e-01,5.00000000000000e-01,5.44894620856794e-04
1.05108000000000e-07,5.00000000000000e-01,5.00000000000000e-01,4.07579557700086e-04
1.05124000000000e-07,5.00000000000000e-01,5.00000000000000e-01,5.18144691472391e-05
1.05156000000000e-07,5.00000000000000e-01,5.00000000000000e-01,-1.02697167828299e-03
1.05220000000000e-07,5.00000000000000e-01,5.00000000000000e-01,-3.18657280876152e-03
1.05348000000000e-07,5.00000000000000e-01,5.00000000000000e-01,-5.65004792005196e-03
1.05604000000000e-07,5.00000000000000e-01,5.00000000000000e-01,7.86347669285897e-02
1.06116000000000e-07,5.00000000000000e-01,5.00000000000000e-01,4.65077726681622e-01
1.07140000000000e-07,5.00000000000000e-01,5.00000000000000e-01,5.10752330333838e-01
1.08334921903686e-07,5.00000000000000e-01,5.00000000000000e-01,4.87660105727502e-01
1.10100000000000e-07,5.00000000000000e-01,5.00000000000000e-01,5.09741178214865e-01
1.10110000000000e-07,5.00000000000000e-01,4.50000000000076e-01,5.06411088470242e-01
1.10130000000000e-07,5.00000000000000e-01,3.50000000000095e-01,5.02069881547110e-01
1.10170000000000e-07,5.00000000000000e-01,1.50000000000133e-01,5.00103032728256e-01
1.10200000000000e-07,5.00000000000000e-01,9.48130463029884e-14,5.00166766233429e-01
