Time,v(clk),v(data),v(out),v(reset)
1.43693440000000e-09,0.00000000000000e+00,0.00000000000000e+00,5.74593344931235e-06,6.00000000000000e-01
2.77911168000000e-09,0.00000000000000e+00,0.00000000000000e+00,-8.41747412905561e-07,6.00000000000000e-01
5.00000000000000e-09,0.00000000000000e+00,0.00000000000000e+00,6.54895724613511e-07,6.00000000000000e-01
5.01000000000000e-09,5.99999999999986e-02,0.00000000000000e+00,7.09679067099289e-04,6.00000000000000e-01
5.03000000000000e-09,1.80000000000001e-01,0.00000000000000e+00,1.89478959116719e-03,6.00000000000000e-01
5.07000000000000e-09,4.20000000000000e-01,0.00000000000000e+00,2.84081073853187e-03,6.00000000000000e-01
5.10000000000000e-09,6.00000000000000e-01,0.00000000000000e+00,6.11471335513147e-04,6.00000000000000e-01
5.10800000000000e-09,6.00000000000000e-01,0.00000000000000e+00,-3.84726040787028e-04,6.00000000000000e-01
5.12400000000000e-09,6.00000000000000e-01,0.00000000000000e+00,-1.81907481768334e-03,6.00000000000000e-01
5.15600000000000e-09,6.00000000000000e-01,0.00000000000000e+00,-2.59691002597472e-03,6.00000000000000e-01
5.22000000000000e-09,6.00000000000000e-01,0.00000000000000e+00,-1.90569401134831e-03,6.00000000000000e-01
5.34800000000000e-09,6.00000000000000e-01,0.00000000000000e+00,-9.79011338428759e-04,6.00000000000000e-01
5.60400000000000e-09,6.00000000000000e-01,0.00000000000000e+00,-4.21058620720345e-04,6.00000000000000e-01
6.11600000000000e-09,6.00000000000000e-01,0.00000000000000e+00,9.22687401846131e-04,6.00000000000000e-01
6.93878918818226e-09,6.00000000000000e-01,0.00000000000000e+00,-2.94389960496289e-04,6.00000000000000e-01
8.12927437534357e-09,6.00000000000000e-01,0.00000000000000e+00,1.75338761310911e-04,6.00000000000000e-01
1.00000000000000e-08,6.00000000000000e-01,0.00000000000000e+00,-1.09708692623412e-04,6.00000000000000e-01
1.00100000000000e-08,6.00000000000000e-01,5.99999999999986e-02,-7.11749402056566e-05,6.00000000000000e-01
1.00300000000000e-08,6.00000000000000e-01,1.79999999999996e-01,-1.59504319482279e-05,6.00000000000000e-01
1.00700000000000e-08,6.00000000000000e-01,4.19999999999990e-01,-1.04615238500916e-05,6.00000000000000e-01
1.01000000000000e-08,6.00000000000000e-01,5.99999999999995e-01,-1.28587628216173e-04,6.00000000000000e-01
1.01080000000000e-08,6.00000000000000e-01,6.00000000000000e-01,-1.60518956686576e-04,6.00000000000000e-01
1.01240000000000e-08,6.00000000000000e-01,6.00000000000000e-01,-1.91042714089429e-04,6.00000000000000e-01
1.01560000000000e-08,6.00000000000000e-01,6.00000000000000e-01,-1.72101054250612e-04,6.00000000000000e-01
1.02200000000000e-08,6.00000000000000e-01,6.00000000000000e-01,-5.93578997093447e-05,6.00000000000000e-01
1.03480000000000e-08,6.00000000000000e-01,6.00000000000000e-01,3.90682648490279e-05,6.00000000000000e-01
1.05962407507906e-08,6.00000000000000e-01,6.00000000000000e-01,1.56649071193365e-05,6.00000000000000e-01
1.10322880082709e-08,6.00000000000000e-01,6.00000000000000e-01,-3.94608892095513e-06,6.00000000000000e-01
1.19043825232317e-08,6.00000000000000e-01,6.00000000000000e-01,8.67546643760347e-06,6.00000000000000e-01
1.36485715531531e-08,6.00000000000000e-01,6.00000000000000e-01,3.32786088757045e-07,6.00000000000000e-01
1.51000000000000e-08,6.00000000000000e-01,6.00000000000000e-01,6.39303465804070e-06,6.00000000000000e-01
1.51100000000000e-08,5.39999999999992e-01,6.00000000000000e-01,-3.89490592301034e-04,6.00000000000000e-01
1.51300000000000e-08,4.19999999999994e-01,6.00000000000000e-01,-1.16917873102959e-03,6.00000000000000e-01
1.51700000000000e-08,1.80000000000000e-01,6.00000000000000e-01,-2.68796939491654e-03,6.00000000000000e-01
1.52000000000000e-08,0.00000000000000e+00,6.00000000000000e-01,-2.74469850232963e-03,6.00000000000000e-01
1.52080000000000e-08,0.00000000000000e+00,6.00000000000000e-01,-2.04617433002272e-03,6.00000000000000e-01
1.52240000000000e-08,0.00000000000000e+00,6.00000000000000e-01,-8.18598672715123e-04,6.00000000000000e-01
1.52560000000000e-08,0.00000000000000e+00,6.00000000000000e-01,7.63401297238855e-04,6.00000000000000e-01
1.53200000000000e-08,0.00000000000000e+00,6.00000000000000e-01,1.74367084884840e-03,6.00000000000000e-01
1.54480000000000e-08,0.00000000000000e+00,6.00000000000000e-01,1.36458060479860e-03,6.00000000000000e-01
1.57040000000000e-08,0.00000000000000e+00,6.00000000000000e-01,2.29630808175861e-04,6.00000000000000e-01
1.62160000000000e-08,0.00000000000000e+00,6.00000000000000e-01,-3.96896302819996e-04,6.00000000000000e-01
1.72400000000000e-08,0.00000000000000e+00,6.00000000000000e-01,-3.46733771149077e-05,6.00000000000000e-01
1.83185855614177e-08,0.00000000000000e+00,6.00000000000000e-01,-1.55650797667262e-04,6.00000000000000e-01
2.00927230515036e-08,0.00000000000000e+00,6.00000000000000e-01,3.36596793042774e-04,6.00000000000000e-01
2.24891250094199e-08,0.00000000000000e+00,6.00000000000000e-01,-3.44900162557929e-04,6.00000000000000e-01
2.50000000000000e-08,0.00000000000000e+00,6.00000000000000e-01,3.23034598576704e-04,6.00000000000000e-01
2.50100000000000e-08,5.99999999999886e-02,6.00000000000000e-01,1.09216143452080e-03,6.00000000000000e-01
2.50300000000000e-08,1.80000000000006e-01,6.00000000000000e-01,2.39799376780912e-03,6.00000000000000e-01
2.50700000000000e-08,4.20000000000000e-01,6.00000000000000e-01,3.91929741871144e-03,6.00000000000000e-01
2.51000000000000e-08,6.00000000000000e-01,6.00000000000000e-01,2.93734286703108e-03,6.00000000000000e-01
2.51080000000000e-08,6.00000000000000e-01,6.00000000000000e-01,2.05910453652143e-03,6.00000000000000e-01
2.51240000000000e-08,6.00000000000000e-01,6.00000000000000e-01,1.04975605214441e-04,6.00000000000000e-01
2.51560000000000e-08,6.00000000000000e-01,6.00000000000000e-01,-4.33076738382540e-03,6.00000000000000e-01
2.52200000000000e-08,6.00000000000000e-01,6.00000000000000e-01,-1.16299703328034e-02,6.00000000000000e-01
2.53480000000000e-08,6.00000000000000e-01,6.00000000000000e-01,-1.78666531133504e-02,6.00000000000000e-01
2.56040000000000e-08,6.00000000000000e-01,6.00000000000000e-01,1.58578189366097e-02,6.00000000000000e-01
2.61160000000000e-08,6.00000000000000e-01,6.00000000000000e-01,3.58260271661350e-01,6.00000000000000e-01
2.71400000000000e-08,6.00000000000000e-01,6.00000000000000e-01,6.17317481673912e-01,6.00000000000000e-01
2.81111260473204e-08,6.00000000000000e-01,6.00000000000000e-01,5.85726282571934e-01,6.00000000000000e-01
3.00460549596625e-08,6.00000000000000e-01,6.00000000000000e-01,6.12628955276875e-01,6.00000000000000e-01
3.01000000000000e-08,6.00000000000000e-01,6.00000000000000e-01,6.05213360497978e-01,6.00000000000000e-01
3.01100000000000e-08,6.00000000000000e-01,5.40000000000031e-01,6.04411263942172e-01,6.00000000000000e-01
3.01300000000000e-08,6.00000000000000e-01,4.20000000000014e-01,6.03022836057489e-01,6.00000000000000e-01
3.01700000000000e-08,6.00000000000000e-01,1.80000000000020e-01,6.01187786184262e-01,6.00000000000000e-01
3.02000000000000e-08,6.00000000000000e-01,1.44328993201270e-14,6.00625288958697e-01,6.00000000000000e-01
3.02080000000000e-08,6.00000000000000e-01,0.00000000000000e+00,6.00550404631782e-01,6.00000000000000e-01
3.02240000000000e-08,6.00000000000000e-01,0.00000000000000e+00,6.00408462983681e-01,6.00000000000000e-01
3.02560000000000e-08,6.00000000000000e-01,0.00000000000000e+00,6.00199236274958e-01,6.00000000000000e-01
3.03200000000000e-08,6.00000000000000e-01,0.00000000000000e+00,5.99947322472966e-01,6.00000000000000e-01
3.04480000000000e-08,6.00000000000000e-01,0.00000000000000e+00,5.99750076604905e-01,6.00000000000000e-01
3.07040000000000e-08,6.00000000000000e-01,0.00000000000000e+00,5.99739186250474e-01,6.00000000000000e-01
3.12160000000000e-08,6.00000000000000e-01,0.00000000000000e+00,5.99880671626246e-01,6.00000000000000e-01
3.22400000000000e-08,6.00000000000000e-01,0.00000000000000e+00,5.99997843688331e-01,6.00000000000000e-01
3.32706190118197e-08,6.00000000000000e-01,0.00000000000000e+00,5.99919398658607e-01,6.00000000000000e-01
3.41000000000000e-08,6.00000000000000e-01,0.00000000000000e+00,5.99914652118484e-01,6.00000000000000e-01
3.41100000000000e-08,6.00000000000000e-01,0.00000000000000e+00,5.99108321634274e-01,5.40000000000011e-01
3.41300000000000e-08,6.00000000000000e-01,0.00000000000000e+00,5.97468838526103e-01,4.19999999999994e-01
3.41700000000000e-08,6.00000000000000e-01,0.00000000000000e+00,5.95232380071912e-01,1.80000000000000e-01
3.42000000000000e-08,6.00000000000000e-01,0.00000000000000e+00,5.97295884111531e-01,0.00000000000000e+00
3.42080000000000e-08,6.00000000000000e-01,0.00000000000000e+00,5.98963375667083e-01,0.00000000000000e+00
3.42240000000000e-08,6.00000000000000e-01,0.00000000000000e+00,6.02382355362538e-01,0.00000000000000e+00
3.42560000000000e-08,6.00000000000000e-01,0.00000000000000e+00,6.08150514126068e-01,0.00000000000000e+00
3.43200000000000e-08,6.00000000000000e-01,0.00000000000000e+00,6.15596775728565e-01,0.00000000000000e+00
3.44480000000000e-08,6.00000000000000e-01,0.00000000000000e+00,6.22960119688028e-01,0.00000000000000e+00
3.47040000000000e-08,6.00000000000000e-01,0.00000000000000e+00,6.30438904658146e-01,0.00000000000000e+00
3.51000000000000e-08,5.99999999999970e-01,0.00000000000000e+00,5.84209055095685e-01,0.00000000000000e+00
3.51100000000000e-08,5.39999999999982e-01,0.00000000000000e+00,5.80539541770329e-01,0.00000000000000e+00
3.51300000000000e-08,4.19999999999965e-01,0.00000000000000e+00,5.72727474893953e-01,0.00000000000000e+00
3.51700000000000e-08,1.79999999999970e-01,0.00000000000000e+00,5.54519525588624e-01,0.00000000000000e+00
3.52000000000000e-08,0.00000000000000e+00,0.00000000000000e+00,5.37374616397527e-01,0.00000000000000e+00
3.52080000000000e-08,0.00000000000000e+00,0.00000000000000e+00,5.31739639424035e-01,0.00000000000000e+00
3.52240000000000e-08,0.00000000000000e+00,0.00000000000000e+00,5.18859704303514e-01,0.00000000000000e+00
3.52560000000000e-08,0.00000000000000e+00,0.00000000000000e+00,4.84351479297292e-01,0.00000000000000e+00
3.53200000000000e-08,0.00000000000000e+00,0.00000000000000e+00,3.84836796214659e-01,0.00000000000000e+00
3.54480000000000e-08,0.00000000000000e+00,0.00000000000000e+00,1.58669286446020e-01,0.00000000000000e+00
3.57040000000000e-08,0.00000000000000e+00,0.00000000000000e+00,-2.22434886879538e-03,0.00000000000000e+00
3.61155563471452e-08,0.00000000000000e+00,0.00000000000000e+00,4.05138241787987e-03,0.00000000000000e+00
3.68685352948916e-08,0.00000000000000e+00,0.00000000000000e+00,-3.64426455295333e-03,0.00000000000000e+00
3.76932058159218e-08,0.00000000000000e+00,0.00000000000000e+00,3.10467083823705e-03,0.00000000000000e+00
3.80000000000000e-08,0.00000000000000e+00,0.00000000000000e+00,-1.83866929462961e-03,0.00000000000000e+00
3.80100000000000e-08,0.00000000000000e+00,0.00000000000000e+00,1.70760779399509e-04,5.99999999999886e-02
3.80300000000000e-08,0.00000000000000e+00,0.00000000000000e+00,3.24773301005662e-03,1.80000000000006e-01
3.80700000000000e-08,0.00000000000000e+00,0.00000000000000e+00,5.34925624511019e-03,4.20000000000000e-01
3.81000000000000e-08,0.00000000000000e+00,0.00000000000000e+00,2.89324748889060e-03,6.00000000000000e-01
3.81080000000000e-08,0.00000000000000e+00,0.00000000000000e+00,1.63102530917782e-03,6.00000000000000e-01
3.81240000000000e-08,0.00000000000000e+00,0.00000000000000e+00,-4.95287301292932e-04,6.00000000000000e-01
3.81560000000000e-08,0.00000000000000e+00,0.00000000000000e+00,-2.85097196446990e-03,6.00000000000000e-01
3.82200000000000e-08,0.00000000000000e+00,0.00000000000000e+00,-3.35470823824102e-03,6.00000000000000e-01
3.83480000000000e-08,0.00000000000000e+00,0.00000000000000e+00,-1.42743947188757e-03,6.00000000000000e-01
3.86040000000000e-08,0.00000000000000e+00,0.00000000000000e+00,-1.70015079716583e-04,6.00000000000000e-01
3.90372342729417e-08,0.00000000000000e+00,0.00000000000000e+00,-6.21759389005730e-05,6.00000000000000e-01
3.99037028188250e-08,0.00000000000000e+00,0.00000000000000e+00,5.24943653016641e-05,6.00000000000000e-01
4.16366399105917e-08,0.00000000000000e+00,0.00000000000000e+00,-4.70490299119761e-05,6.00000000000000e-01
4.50000000000000e-08,0.00000000000000e+00,0.00000000000000e+00,4.57931150430494e-05,6.00000000000000e-01
4.50100000000000e-08,5.99999999999886e-02,0.00000000000000e+00,7.48798693231120e-04,6.00000000000000e-01
4.50300000000000e-08,1.80000000000006e-01,0.00000000000000e+00,1.91786285576881e-03,6.00000000000000e-01
4.50700000000000e-08,4.20000000000000e-01,0.00000000000000e+00,2.71419200232899e-03,6.00000000000000e-01
4.51000000000000e-08,6.00000000000000e-01,0.00000000000000e+00,4.01664650453062e-04,6.00000000000000e-01
4.51080000000000e-08,6.00000000000000e-01,0.00000000000000e+00,-5.06094344203525e-04,6.00000000000000e-01
4.51240000000000e-08,6.00000000000000e-01,0.00000000000000e+00,-1.78056719752269e-03,6.00000000000000e-01
4.51560000000000e-08,6.00000000000000e-01,0.00000000000000e+00,-2.44601387008263e-03,6.00000000000000e-01
4.52200000000000e-08,6.00000000000000e-01,0.00000000000000e+00,-1.81864995597364e-03,6.00000000000000e-01
4.53480000000000e-08,6.00000000000000e-01,0.00000000000000e+00,-1.01298962544752e-03,6.00000000000000e-01
4.56040000000000e-08,6.00000000000000e-01,0.00000000000000e+00,-4.06878269487598e-04,6.00000000000000e-01
4.61160000000000e-08,6.00000000000000e-01,0.00000000000000e+00,9.15783070226727e-04,6.00000000000000e-01
4.69309592231567e-08,6.00000000000000e-01,0.00000000000000e+00,-2.95548740580884e-04,6.00000000000000e-01
4.81398976947693e-08,6.00000000000000e-01,0.00000000000000e+00,1.81226167859977e-04,6.00000000000000e-01
5.00000000000000e-08,6.00000000000000e-01,0.00000000000000e+00,-1.15693556923821e-04,6.00000000000000e-01
5.00100000000000e-08,6.00000000000000e-01,5.99999999999886e-02,-7.56661252109131e-05,6.00000000000000e-01
5.00300000000000e-08,6.00000000000000e-01,1.79999999999966e-01,-1.79562782460507e-05,6.00000000000000e-01
5.00700000000000e-08,6.00000000000000e-01,4.20000000000000e-01,-9.39860733023545e-06,6.00000000000000e-01
5.01000000000000e-08,6.00000000000000e-01,6.00000000000000e-01,-1.16446739697643e-04,6.00000000000000e-01
5.01080000000000e-08,6.00000000000000e-01,6.00000000000000e-01,-1.46768589377053e-04,6.00000000000000e-01
5.01240000000000e-08,6.00000000000000e-01,6.00000000000000e-01,-1.77608154028161e-04,6.00000000000000e-01
5.01560000000000e-08,6.00000000000000e-01,6.00000000000000e-01,-1.65532190285700e-04,6.00000000000000e-01
5.02200000000000e-08,6.00000000000000e-01,6.00000000000000e-01,-6.30078647150950e-05,6.00000000000000e-01
5.03480000000000e-08,6.00000000000000e-01,6.00000000000000e-01,3.44308372388080e-05,6.00000000000000e-01
5.06040000000000e-08,6.00000000000000e-01,6.00000000000000e-01,1.53286263846614e-05,6.00000000000000e-01
5.10653615568774e-08,6.00000000000000e-01,6.00000000000000e-01,-3.27228932868462e-06,6.00000000000000e-01
5.19880846706322e-08,6.00000000000000e-01,6.00000000000000e-01,8.58961134364740e-06,6.00000000000000e-01
5.38335308981418e-08,6.00000000000000e-01,6.00000000000000e-01,2.60774527745949e-07,6.00000000000000e-01
5.51000000000000e-08,6.00000000000000e-01,6.00000000000000e-01,6.40164017328554e-06,6.00000000000000e-01
5.51100000000000e-08,5.40000000000021e-01,6.00000000000000e-01,-3.87848919215103e-04,6.00000000000000e-01
5.51300000000000e-08,4.20000000000004e-01,6.00000000000000e-01,-1.16815234279978e-03,6.00000000000000e-01
5.51700000000000e-08,1.80000000000010e-01,6.00000000000000e-01,-2.68796439364122e-03,6.00000000000000e-01
5.52000000000000e-08,0.00000000000000e+00,6.00000000000000e-01,-2.74477741519959e-03,6.00000000000000e-01
5.52080000000000e-08,0.00000000000000e+00,6.00000000000000e-01,-2.04629441889033e-03,6.00000000000000e-01
5.52240000000000e-08,0.00000000000000e+00,6.00000000000000e-01,-8.18787893406656e-04,6.00000000000000e-01
5.52560000000000e-08,0.00000000000000e+00,6.00000000000000e-01,7.63140488355352e-04,6.00000000000000e-01
5.53200000000000e-08,0.00000000000000e+00,6.00000000000000e-01,1.74339601462911e-03,6.00000000000000e-01
5.54480000000000e-08,0.00000000000000e+00,6.00000000000000e-01,1.36437209865164e-03,6.00000000000000e-01
5.57040000000000e-08,0.00000000000000e+00,6.00000000000000e-01,2.29436351448765e-04,6.00000000000000e-01
5.62160000000000e-08,0.00000000000000e+00,6.00000000000000e-01,-3.96906175033837e-04,6.00000000000000e-01
5.72400000000000e-08,0.00000000000000e+00,6.00000000000000e-01,-3.46132110603681e-05,6.00000000000000e-01
5.83184757409167e-08,0.00000000000000e+00,6.00000000000000e-01,-1.55728846508194e-04,6.00000000000000e-01
6.00926195996310e-08,0.00000000000000e+00,6.00000000000000e-01,3.36674906955513e-04,6.00000000000000e-01
6.24886958192636e-08,0.00000000000000e+00,6.00000000000000e-01,-3.44974292882124e-04,6.00000000000000e-01
6.50000000000000e-08,0.00000000000000e+00,6.00000000000000e-01,3.23109323694275e-04,6.00000000000000e-01
6.50100000000000e-08,5.99999999999886e-02,6.00000000000000e-01,1.09223230602265e-03,6.00000000000000e-01
6.50300000000000e-08,1.79999999999966e-01,6.00000000000000e-01,2.39804909898694e-03,6.00000000000000e-01
6.50700000000000e-08,4.19999999999920e-01,6.00000000000000e-01,3.91935508898476e-03,6.00000000000000e-01
6.51000000000000e-08,5.99999999999966e-01,6.00000000000000e-01,2.93744834668355e-03,6.00000000000000e-01
6.51080000000000e-08,6.00000000000000e-01,6.00000000000000e-01,2.05922627384079e-03,6.00000000000000e-01
6.51240000000000e-08,6.00000000000000e-01,6.00000000000000e-01,1.05121388896526e-04,6.00000000000000e-01
6.51560000000000e-08,6.00000000000000e-01,6.00000000000000e-01,-4.33064570582931e-03,6.00000000000000e-01
6.52200000000000e-08,6.00000000000000e-01,6.00000000000000e-01,-1.16299905444631e-02,6.00000000000000e-01
6.53480000000000e-08,6.00000000000000e-01,6.00000000000000e-01,-1.78667408471071e-02,6.00000000000000e-01
6.56040000000000e-08,6.00000000000000e-01,6.00000000000000e-01,1.58578384406381e-02,6.00000000000000e-01
6.61159999999999e-08,6.00000000000000e-01,6.00000000000000e-01,3.58260318841883e-01,6.00000000000000e-01
6.71399999999999e-08,6.00000000000000e-01,6.00000000000000e-01,6.17317488407543e-01,6.00000000000000e-01
6.81111262200781e-08,6.00000000000000e-01,6.00000000000000e-01,5.85726280731888e-01,6.00000000000000e-01
7.00460551895568e-08,6.00000000000000e-01,6.00000000000000e-01,6.12628957783783e-01,6.00000000000000e-01
7.01000000000000e-08,6.00000000000000e-01,6.00000000000000e-01,6.05213384751563e-01,6.00000000000000e-01
7.01100000000000e-08,6.00000000000000e-01,5.40000000000011e-01,6.04411285206922e-01,6.00000000000000e-01
7.01300000000000e-08,6.00000000000000e-01,4.20000000000034e-01,6.03022852120117e-01,6.00000000000000e-01
7.01700000000000e-08,6.00000000000000e-01,1.80000000000080e-01,6.01187794908561e-01,6.00000000000000e-01
7.02000000000000e-08,6.00000000000000e-01,3.44169137633799e-14,6.00625294609853e-01,6.00000000000000e-01
7.02080000000000e-08,6.00000000000000e-01,0.00000000000000e+00,6.00550409612605e-01,6.00000000000000e-01
7.02240000000000e-08,6.00000000000000e-01,0.00000000000000e+00,6.00408466892203e-01,6.00000000000000e-01
7.02560000000000e-08,6.00000000000000e-01,0.00000000000000e+00,6.00199238603646e-01,6.00000000000000e-01
7.03200000000000e-08,6.00000000000000e-01,0.00000000000000e+00,5.99947323177704e-01,6.00000000000000e-01
7.04480000000000e-08,6.00000000000000e-01,0.00000000000000e+00,5.99750076638112e-01,6.00000000000000e-01
7.07040000000000e-08,6.00000000000000e-01,0.00000000000000e+00,5.99739186451690e-01,6.00000000000000e-01
7.12159999999999e-08,6.00000000000000e-01,0.00000000000000e+00,5.99880670658834e-01,6.00000000000000e-01
7.21000000000000e-08,6.00000000000000e-01,0.00000000000000e+00,5.99994688253514e-01,6.00000000000000e-01
7.21100000000000e-08,6.00000000000000e-01,0.00000000000000e+00,5.99184970990072e-01,5.40000000000011e-01
7.21300000000000e-08,6.00000000000000e-01,0.00000000000000e+00,5.97537542576171e-01,4.20000000000034e-01
7.21700000000000e-08,6.00000000000000e-01,0.00000000000000e+00,5.95288114486123e-01,1.80000000000080e-01
