Time,v(clk),v(data),v(out),v(reset)
1.00000000000000e-08,5.50000000000000e-01,0.00000000000000e+00,8.67511676490122e-06,0.00000000000000e+00
1.00100000000000e-08,5.50000000000000e-01,5.49999999999987e-02,6.60083846035220e-06,0.00000000000000e+00
1.00300000000000e-08,5.50000000000000e-01,1.64999999999996e-01,5.87974629966126e-06,0.00000000000000e+00
1.00700000000000e-08,5.50000000000000e-01,3.84999999999991e-01,4.67583778813313e-06,0.00000000000000e+00
1.01000000000000e-08,5.50000000000000e-01,5.49999999999996e-01,3.86803573061006e-06,0.00000000000000e+00
1.01080000000000e-08,5.50000000000000e-01,5.50000000000000e-01,3.65377719038773e-06,0.00000000000000e+00
1.01240000000000e-08,5.50000000000000e-01,5.50000000000000e-01,3.85901130889321e-06,0.00000000000000e+00
1.01560000000000e-08,5.50000000000000e-01,5.50000000000000e-01,5.13356258279724e-06,0.00000000000000e+00
1.02200000000000e-08,5.50000000000000e-01,5.50000000000000e-01,6.04805301396977e-06,0.00000000000000e+00
1.03480000000000e-08,5.50000000000000e-01,5.50000000000000e-01,7.13568521924085e-06,0.00000000000000e+00
1.06040000000000e-08,5.50000000000000e-01,5.50000000000000e-01,6.90762328087874e-06,0.00000000000000e+00
1.11160000000000e-08,5.50000000000000e-01,5.50000000000000e-01,7.38401443118285e-06,0.00000000000000e+00
1.21400000000000e-08,5.50000000000000e-01,5.50000000000000e-01,6.58221973653603e-06,0.00000000000000e+00
1.41880000000000e-08,5.50000000000000e-01,5.50000000000000e-01,6.61844694158607e-06,0.00000000000000e+00
1.51000000000000e-08,5.50000000000000e-01,5.50000000000000e-01,5.90597260836587e-06,0.00000000000000e+00
1.51100000000000e-08,4.94999999999992e-01,5.50000000000000e-01,1.70949527144353e-04,5.50000000000078e-02
1.51300000000000e-08,3.84999999999995e-01,5.50000000000000e-01,3.52916095969637e-04,1.65000000000005e-01
1.51700000000000e-08,1.65000000000000e-01,5.50000000000000e-01,2.83305125402304e-04,3.85000000000000e-01
1.52000000000000e-08,0.00000000000000e+00,5.50000000000000e-01,2.45039010570686e-04,5.50000000000000e-01
1.52080000000000e-08,0.00000000000000e+00,5.50000000000000e-01,2.33763416339045e-04,5.50000000000000e-01
1.52240000000000e-08,0.00000000000000e+00,5.50000000000000e-01,2.17379627977320e-04,5.50000000000000e-01
1.52560000000000e-08,0.00000000000000e+00,5.50000000000000e-01,2.01930847849717e-04,5.50000000000000e-01
1.53200000000000e-08,0.00000000000000e+00,5.50000000000000e-01,1.13060034144762e-04,5.50000000000000e-01
1.54480000000000e-08,0.00000000000000e+00,5.50000000000000e-01,-1.89725184263738e-04,5.50000000000000e-01
1.57040000000000e-08,0.00000000000000e+00,5.50000000000000e-01,-8.48815937153531e-05,5.50000000000000e-01
1.61633880254996e-08,0.00000000000000e+00,5.50000000000000e-01,8.06162951283093e-06,5.50000000000000e-01
1.68762430332189e-08,0.00000000000000e+00,5.50000000000000e-01,-4.40115335269223e-05,5.50000000000000e-01
1.78974895920806e-08,0.00000000000000e+00,5.50000000000000e-01,1.29332186453016e-04,5.50000000000000e-01
1.99270481545086e-08,0.00000000000000e+00,5.50000000000000e-01,-1.37582424900463e-04,5.50000000000000e-01
2.25182050857579e-08,0.00000000000000e+00,5.50000000000000e-01,1.51583742150066e-04,5.50000000000000e-01
2.50000000000000e-08,0.00000000000000e+00,5.50000000000000e-01,-1.46123983162804e-04,5.50000000000000e-01
2.50100000000000e-08,5.49999999999896e-02,5.50000000000000e-01,-2.63330833739570e-05,5.50000000000000e-01
2.50300000000000e-08,1.65000000000005e-01,5.50000000000000e-01,1.77535751875013e-04,5.50000000000000e-01
2.50700000000000e-08,3.85000000000000e-01,5.50000000000000e-01,4.40774877428392e-04,5.50000000000000e-01
2.51000000000000e-08,5.50000000000000e-01,5.50000000000000e-01,4.72986571683154e-04,5.50000000000000e-01
2.51080000000000e-08,5.50000000000000e-01,5.50000000000000e-01,3.98109876312468e-04,5.50000000000000e-01
2.51240000000000e-08,5.50000000000000e-01,5.50000000000000e-01,2.20930331289358e-04,5.50000000000000e-01
2.51560000000000e-08,5.50000000000000e-01,5.50000000000000e-01,-3.39920384916551e-04,5.50000000000000e-01
2.52200000000000e-08,5.50000000000000e-01,5.50000000000000e-01,-1.86644823220239e-03,5.50000000000000e-01
2.53480000000000e-08,5.50000000000000e-01,5.50000000000000e-01,-4.20298033685756e-03,5.50000000000000e-01
2.56040000000000e-08,5.50000000000000e-01,5.50000000000000e-01,2.63591044261406e-02,5.50000000000000e-01
2.61160000000000e-08,5.50000000000000e-01,5.50000000000000e-01,4.76790071550384e-01,5.50000000000000e-01
2.71400000000000e-08,5.50000000000000e-01,5.50000000000000e-01,5.66814302900980e-01,5.50000000000000e-01
2.81951570781523e-08,5.50000000000000e-01,5.50000000000000e-01,5.33068768927089e-01,5.50000000000000e-01
3.03054712344569e-08,5.50000000000000e-01,5.50000000000000e-01,5.65327706306757e-01,5.50000000000000e-01
3.37514015386874e-08,5.50000000000000e-01,5.50000000000000e-01,5.33909622876564e-01,5.50000000000000e-01
3.51000000000000e-08,5.49999999999973e-01,5.50000000000000e-01,5.64332487546878e-01,5.50000000000000e-01
3.51100000000000e-08,4.94999999999983e-01,5.50000000000000e-01,5.58653403241588e-01,5.50000000000000e-01
3.51300000000000e-08,3.84999999999968e-01,5.50000000000000e-01,5.51756135309251e-01,5.50000000000000e-01
3.51700000000000e-08,1.64999999999973e-01,5.50000000000000e-01,5.50031639296282e-01,5.50000000000000e-01
3.52000000000000e-08,0.00000000000000e+00,5.50000000000000e-01,5.51745968177918e-01,5.50000000000000e-01
3.52080000000000e-08,0.00000000000000e+00,5.50000000000000e-01,5.52179455721496e-01,5.50000000000000e-01
3.52240000000000e-08,0.00000000000000e+00,5.50000000000000e-01,5.52751735282996e-01,5.50000000000000e-01
3.52560000000000e-08,0.00000000000000e+00,5.50000000000000e-01,5.52712454461404e-01,5.50000000000000e-01
3.53200000000000e-08,0.00000000000000e+00,5.50000000000000e-01,5.46525672459704e-01,5.50000000000000e-01
3.54480000000000e-08,0.00000000000000e+00,5.50000000000000e-01,5.33414211598976e-01,5.50000000000000e-01
3.57040000000000e-08,0.00000000000000e+00,5.50000000000000e-01,5.45224280743603e-01,5.50000000000000e-01
3.62160000000000e-08,0.00000000000000e+00,5.50000000000000e-01,5.52059810336643e-01,5.50000000000000e-01
3.69073654050815e-08,0.00000000000000e+00,5.50000000000000e-01,5.47595559399421e-01,5.50000000000000e-01
3.82900962152445e-08,0.00000000000000e+00,5.50000000000000e-01,5.51693222800566e-01,5.50000000000000e-01
4.10555578355705e-08,0.00000000000000e+00,5.50000000000000e-01,5.48127143776442e-01,5.50000000000000e-01
4.48555578355705e-08,0.00000000000000e+00,5.50000000000000e-01,5.51641724819972e-01,5.50000000000000e-01
4.50000000000000e-08,0.00000000000000e+00,5.50000000000000e-01,5.49297253861260e-01,5.50000000000000e-01
4.50100000000000e-08,5.49999999999896e-02,5.50000000000000e-01,5.49379065217413e-01,4.95000000000010e-01
4.50300000000000e-08,1.65000000000005e-01,5.50000000000000e-01,5.49488987642870e-01,3.84999999999995e-01
4.50700000000000e-08,3.85000000000000e-01,5.50000000000000e-01,5.50728381186660e-01,1.65000000000000e-01
4.51000000000000e-08,5.50000000000000e-01,5.50000000000000e-01,5.55107204031421e-01,0.00000000000000e+00
4.51080000000000e-08,5.50000000000000e-01,5.50000000000000e-01,5.56790945644884e-01,0.00000000000000e+00
4.51240000000000e-08,5.50000000000000e-01,5.50000000000000e-01,5.59810049472447e-01,0.00000000000000e+00
4.51560000000000e-08,5.50000000000000e-01,5.50000000000000e-01,5.65558041096290e-01,0.00000000000000e+00
4.52200000000000e-08,5.50000000000000e-01,5.50000000000000e-01,5.77803539394138e-01,0.00000000000000e+00
4.53480000000000e-08,5.50000000000000e-01,5.50000000000000e-01,5.16733237393420e-01,0.00000000000000e+00
4.56040000000000e-08,5.50000000000000e-01,5.50000000000000e-01,1.71482952711364e-01,0.00000000000000e+00
4.60387264078391e-08,5.50000000000000e-01,5.50000000000000e-01,-2.53975747109313e-02,0.00000000000000e+00
4.67449252164371e-08,5.50000000000000e-01,5.50000000000000e-01,1.65239923447230e-02,0.00000000000000e+00
4.79097986873133e-08,5.50000000000000e-01,5.50000000000000e-01,-1.18003199190364e-02,0.00000000000000e+00
4.97478122686949e-08,5.50000000000000e-01,5.50000000000000e-01,1.05285589106898e-02,0.00000000000000e+00
5.01000000000000e-08,5.50000000000000e-01,5.49999999999969e-01,-4.87103707451004e-03,0.00000000000000e+00
5.04115855662641e-08,5.50000000000000e-01,5.50000000000000e-01,-4.22255244909540e-04,0.00000000000000e+00
5.10347566987922e-08,5.50000000000000e-01,5.50000000000000e-01,2.75420417704512e-04,0.00000000000000e+00
5.22810989638484e-08,5.50000000000000e-01,5.50000000000000e-01,-2.50186857142201e-04,0.00000000000000e+00
5.47737834939610e-08,5.50000000000000e-01,5.50000000000000e-01,2.34612908715811e-04,0.00000000000000e+00
5.51000000000000e-08,5.50000000000000e-01,5.50000000000000e-01,-1.26766761650677e-04,0.00000000000000e+00
5.51100000000000e-08,4.95000000000020e-01,5.50000000000000e-01,9.21053331846000e-05,5.49999999999805e-02
5.51300000000000e-08,3.85000000000004e-01,5.50000000000000e-01,3.32146601882147e-04,1.64999999999996e-01
5.51700000000000e-08,1.65000000000009e-01,5.50000000000000e-01,2.76462187830069e-04,3.84999999999991e-01
5.52000000000000e-08,0.00000000000000e+00,5.50000000000000e-01,2.32679800075374e-04,5.50000000000000e-01
5.52080000000000e-08,0.00000000000000e+00,5.50000000000000e-01,2.19819594342106e-04,5.50000000000000e-01
5.52240000000000e-08,0.00000000000000e+00,5.50000000000000e-01,2.00259002147395e-04,5.50000000000000e-01
5.52560000000000e-08,0.00000000000000e+00,5.50000000000000e-01,1.70775246716263e-04,5.50000000000000e-01
5.53200000000000e-08,0.00000000000000e+00,5.50000000000000e-01,-1.84015727702769e-04,5.50000000000000e-01
5.54480000000000e-08,0.00000000000000e+00,5.50000000000000e-01,-1.04540404546170e-03,5.50000000000000e-01
5.57040000000000e-08,0.00000000000000e+00,5.50000000000000e-01,-3.95809411064631e-04,5.50000000000000e-01
5.61485376451234e-08,0.00000000000000e+00,5.50000000000000e-01,3.02504898525024e-04,5.50000000000000e-01
5.68676420368735e-08,0.00000000000000e+00,5.50000000000000e-01,-3.15267396330881e-04,5.50000000000000e-01
5.78738677062517e-08,0.00000000000000e+00,5.50000000000000e-01,2.96781864918676e-04,5.50000000000000e-01
5.98863190450081e-08,0.00000000000000e+00,5.50000000000000e-01,-2.59254373986528e-04,5.50000000000000e-01
6.24195008789986e-08,0.00000000000000e+00,5.50000000000000e-01,2.45618659167085e-04,5.50000000000000e-01
6.50000000000000e-08,0.00000000000000e+00,5.50000000000000e-01,-2.17451919504934e-04,5.50000000000000e-01
6.50100000000000e-08,5.49999999999896e-02,5.50000000000000e-01,-9.31217294210113e-05,5.50000000000000e-01
6.50300000000000e-08,1.64999999999969e-01,5.50000000000000e-01,1.18293831605040e-04,5.50000000000000e-01
6.50700000000000e-08,3.84999999999927e-01,5.50000000000000e-01,3.98760159610920e-04,5.50000000000000e-01
6.51000000000000e-08,5.49999999999969e-01,5.50000000000000e-01,4.44744299273638e-04,5.50000000000000e-01
6.51080000000000e-08,5.50000000000000e-01,5.50000000000000e-01,3.73111313695079e-04,5.50000000000000e-01
6.51240000000000e-08,5.50000000000000e-01,5.50000000000000e-01,2.02830727606435e-04,5.50000000000000e-01
6.51560000000000e-08,5.50000000000000e-01,5.50000000000000e-01,-3.45489220179317e-04,5.50000000000000e-01
6.52200000000000e-08,5.50000000000000e-01,5.50000000000000e-01,-1.85924999025213e-03,5.50000000000000e-01
6.53480000000000e-08,5.50000000000000e-01,5.50000000000000e-01,-4.19866833457303e-03,5.50000000000000e-01
6.56040000000000e-08,5.50000000000000e-01,5.50000000000000e-01,2.55446537988110e-02,5.50000000000000e-01
6.61159999999999e-08,5.50000000000000e-01,5.50000000000000e-01,4.76075429946557e-01,5.50000000000000e-01
6.71399999999999e-08,5.50000000000000e-01,5.50000000000000e-01,5.66885973814751e-01,5.50000000000000e-01
6.81940606144740e-08,5.50000000000000e-01,5.50000000000000e-01,5.33007023599600e-01,5.50000000000000e-01
7.03021818434222e-08,5.50000000000000e-01,5.50000000000000e-01,5.65386550168903e-01,5.50000000000000e-01
7.37517413008180e-08,5.50000000000000e-01,5.50000000000000e-01,5.33848926515262e-01,5.50000000000000e-01
7.51000000000000e-08,5.50000000000000e-01,5.50000000000000e-01,5.64386905954988e-01,5.50000000000000e-01
7.51100000000000e-08,4.95000000000056e-01,5.50000000000000e-01,5.58685979227391e-01,5.50000000000000e-01
7.51300000000000e-08,3.85000000000077e-01,5.50000000000000e-01,5.51762883480741e-01,5.50000000000000e-01
7.51700000000000e-08,1.65000000000118e-01,5.50000000000000e-01,5.50030962592941e-01,5.50000000000000e-01
7.52000000000000e-08,7.69384556065233e-14,5.50000000000000e-01,5.51746227307851e-01,5.50000000000000e-01
7.52080000000000e-08,0.00000000000000e+00,5.50000000000000e-01,5.52179918280511e-01,5.50000000000000e-01
7.52240000000000e-08,0.00000000000000e+00,5.50000000000000e-01,5.52752627253409e-01,5.50000000000000e-01
7.52560000000000e-08,0.00000000000000e+00,5.50000000000000e-01,5.52712581226994e-01,5.50000000000000e-01
7.53200000000000e-08,0.00000000000000e+00,5.50000000000000e-01,5.46522721350156e-01,5.50000000000000e-01
7.54480000000000e-08,0.00000000000000e+00,5.50000000000000e-01,5.33410693822054e-01,5.50000000000000e-01
7.57040000000000e-08,0.00000000000000e+00,5.50000000000000e-01,5.45239483145567e-01,5.50000000000000e-01
7.62159999999999e-08,0.00000000000000e+00,5.50000000000000e-01,5.52049683154304e-01,5.50000000000000e-01
7.69073643511384e-08,0.00000000000000e+00,5.50000000000000e-01,5.47604173732209e-01,5.50000000000000e-01
7.82900930534154e-08,0.00000000000000e+00,5.50000000000000e-01,5.51685271583813e-01,5.50000000000000e-01
8.10555504579694e-08,0.00000000000000e+00,5.50000000000000e-01,5.48134758151505e-01,5.50000000000000e-01
8.48555504579694e-08,0.00000000000000e+00,5.50000000000000e-01,5.51634303852138e-01,5.50000000000000e-01
8.50000000000000e-08,0.00000000000000e+00,5.50000000000000e-01,5.49300577668724e-01,5.50000000000000e-01
8.50100000000000e-08,5.49999999999896e-02,5.50000000000000e-01,5.49381230951008e-01,4.95000000000010e-01
8.50300000000000e-08,1.64999999999969e-01,5.50000000000000e-01,5.49490036362904e-01,3.85000000000031e-01
8.50700000000000e-08,3.84999999999927e-01,5.50000000000000e-01,5.50728592536970e-01,1.65000000000073e-01
8.51000000000000e-08,5.49999999999969e-01,5.50000000000000e-01,5.55107373633654e-01,3.15303338993544e-14
8.51080000000000e-08,5.50000000000000e-01,5.50000000000000e-01,5.56791106029646e-01,0.00000000000000e+00
8.51240000000000e-08,5.50000000000000e-01,5.50000000000000e-01,5.59810188420067e-01,0.00000000000000e+00
8.51560000000000e-08,5.50000000000000e-01,5.50000000000000e-01,5.65558140392011e-01,0.00000000000000e+00
8.52200000000000e-08,5.50000000000000e-01,5.50000000000000e-01,5.77804216718506e-01,0.00000000000000e+00
8.53480000000000e-08,5.50000000000000e-01,5.50000000000000e-01,5.16744412416922e-01,0.00000000000000e+00
8.56040000000000e-08,5.50000000000000e-01,5.50000000000000e-01,1.71494848230952e-01,0.00000000000000e+00
8.60386737817322e-08,5.50000000000000e-01,5.50000000000000e-01,-2.53908722398895e-02,0.00000000000000e+00
8.67448930115492e-08,5.50000000000000e-01,5.50000000000000e-01,1.65205622931822e-02,0.00000000000000e+00
8.79094323227051e-08,5.50000000000000e-01,5.50000000000000e-01,-1.17974373076683e-02,0.00000000000000e+00
8.97475294292561e-08,5.50000000000000e-01,5.50000000000000e-01,1.05264389429861e-02,0.00000000000000e+00
9.01000000000000e-08,5.50000000000000e-01,5.49999999999969e-01,-4.87375907308381e-03,0.00000000000000e+00
9.04115254383367e-08,5.50000000000000e-01,5.50000000000000e-01,-4.22781080941586e-04,0.00000000000000e+00
9.10345763150101e-08,5.50000000000000e-01,5.50000000000000e-01,2.75682260130253e-04,0.00000000000000e+00
9.22806780683569e-08,5.50000000000000e-01,5.50000000000000e-01,-2.50401338558425e-04,0.00000000000000e+00
9.47728815750505e-08,5.50000000000000e-01,5.50000000000000e-01,2.34795397100255e-04,0.00000000000000e+00
9.51000000000000e-08,5.50000000000000e-01,5.50000000000000e-01,-1.27025325078082e-04,0.00000000000000e+00
9.51100000000000e-08,4.95000000000056e-01,5.50000000000000e-01,9.19021616668930e-05,5.49999999999441e-02
9.51300000000000e-08,3.85000000000077e-01,5.50000000000000e-01,3.32020334529642e-04,1.64999999999923e-01
9.51700000000000e-08,1.65000000000118e-01,5.50000000000000e-01,2.76382016086790e-04,3.84999999999882e-01
9.52000000000000e-08,7.69384556065233e-14,5.50000000000000e-01,2.32617478832658e-04,5.49999999999923e-01
9.52080000000000e-08,0.00000000000000e+00,5.50000000000000e-01,2.19761541981271e-04,5.50000000000000e-01
9.52240000000000e-08,0.00000000000000e+00,5.50000000000000e-01,2.00208871310059e-04,5.50000000000000e-01
9.52560000000000e-08,0.00000000000000e+00,5.50000000000000e-01,1.70737857414865e-04,5.50000000000000e-01
9.53200000000000e-08,0.00000000000000e+00,5.50000000000000e-01,-1.84039494954123e-04,5.50000000000000e-01
9.54480000000000e-08,0.00000000000000e+00,5.50000000000000e-01,-1.04543225904608e-03,5.50000000000000e-01
9.57040000000000e-08,0.00000000000000e+00,5.50000000000000e-01,-3.95822198302701e-04,5.50000000000000e-01
9.61485358182425e-08,0.00000000000000e+00,5.50000000000000e-01,3.02512085237395e-04,5.50000000000000e-01
9.68676410311799e-08,0.00000000000000e+00,5.50000000000000e-01,-3.15272791210668e-04,5.50000000000000e-01
9.78738653199515e-08,0.00000000000000e+00,5.50000000000000e-01,2.96785846879127e-04,5.50000000000000e-01
9.98863138974947e-08,0.00000000000000e+00,5.50000000000000e-01,-2.59257648888489e-04,5.50000000000000e-01
1.02419488152423e-07,0.00000000000000e+00,5.50000000000000e-01,2.45621463196799e-04,5.50000000000000e-01
1.05000000000000e-07,0.00000000000000e+00,5.50000000000000e-01,-2.17454489343411e-04,5.50000000000000e-01
1.05010000000000e-07,5.49999999999896e-02,5.50000000000000e-01,-9.31235669683200e-05,5.50000000000000e-01
1.05030000000000e-07,1.64999999999969e-01,5.50000000000000e-01,1.18292822184167e-04,5.50000000000000e-01
1.05070000000000e-07,3.84999999999927e-01,5.50000000000000e-01,3.98759551669264e-04,5.50000000000000e-01
1.05100000000000e-07,5.49999999999969e-01,5.50000000000000e-01,4.44743873070925e-04,5.50000000000000e-01
1.05108000000000e-07,5.50000000000000e-01,5.50000000000000e-01,3.73110916538001e-04,5.50000000000000e-01
1.05124000000000e-07,5.50000000000000e-01,5.50000000000000e-01,2.02830370952284e-04,5.50000000000000e-01
1.05156000000000e-07,5.50000000000000e-01,5.50000000000000e-01,-3.45489555206177e-04,5.50000000000000e-01
1.05220000000000e-07,5.50000000000000e-01,5.50000000000000e-01,-1.85925025838347e-03,5.50000000000000e-01
1.05348000000000e-07,5.50000000000000e-01,5.50000000000000e-01,-4.19866843605839e-03,5.50000000000000e-01
1.05604000000000e-07,5.50000000000000e-01,5.50000000000000e-01,2.55446506483669e-02,5.50000000000000e-01
1.06116000000000e-07,5.50000000000000e-01,5.50000000000000e-01,4.76075427307864e-01,5.50000000000000e-01
1.07140000000000e-07,5.50000000000000e-01,5.50000000000000e-01,5.66885974086484e-01,5.50000000000000e-01
1.08194060610223e-07,5.50000000000000e-01,5.50000000000000e-01,5.33007023347562e-01,5.50000000000000e-01
1.10302181830670e-07,5.50000000000000e-01,5.50000000000000e-01,5.65386550393156e-01,5.50000000000000e-01
1.13751741301283e-07,5.50000000000000e-01,5.50000000000000e-01,5.33848926268765e-01,5.50000000000000e-01
1.15100000000000e-07,5.50000000000000e-01,5.50000000000000e-01,5.64386906162651e-01,5.50000000000000e-01
1.15110000000000e-07,4.95000000000056e-01,5.50000000000000e-01,5.58685979356235e-01,5.50000000000000e-01
1.15130000000000e-07,3.85000000000077e-01,5.50000000000000e-01,5.51762883508039e-01,5.50000000000000e-01
1.15170000000000e-07,1.65000000000118e-01,5.50000000000000e-01,5.50030962588057e-01,5.50000000000000e-01
1.15200000000000e-07,7.69384556065233e-14,5.50000000000000e-01,5.51746227300862e-01,5.50000000000000e-01
1.15208000000000e-07,0.00000000000000e+00,5.50000000000000e-01,5.52179918281039e-01,5.50000000000000e-01
1.15224000000000e-07,0.00000000000000e+00,5.50000000000000e-01,5.52752627257642e-01,5.50000000000000e-01
