Time,v(clk),v(data),v(out)
1.00000000000000e-08,5.50000000000000e-01,0.00000000000000e+00,3.12642127467538e-05
1.00100000000000e-08,5.50000000000000e-01,5.49999999999987e-02,3.01523473456716e-05
1.00300000000000e-08,5.50000000000000e-01,1.64999999999996e-01,2.82420898918140e-05
1.00700000000000e-08,5.50000000000000e-01,3.84999999999991e-01,2.58399821553498e-05
1.01000000000000e-08,5.50000000000000e-01,5.49999999999996e-01,2.26459569802259e-05
1.01080000000000e-08,5.50000000000000e-01,5.50000000000000e-01,2.21910417736518e-05
1.01240000000000e-08,5.50000000000000e-01,5.50000000000000e-01,2.10233649654418e-05
1.01560000000000e-08,5.50000000000000e-01,5.50000000000000e-01,2.16163318980458e-05
1.02200000000000e-08,5.50000000000000e-01,5.50000000000000e-01,2.38315345836432e-05
1.03480000000000e-08,5.50000000000000e-01,5.50000000000000e-01,2.71967593033842e-05
1.06040000000000e-08,5.50000000000000e-01,5.50000000000000e-01,2.52282056345705e-05
1.11160000000000e-08,5.50000000000000e-01,5.50000000000000e-01,2.34565527269977e-05
1.20681005116626e-08,5.50000000000000e-01,5.50000000000000e-01,2.43058906647664e-05
1.39723015349879e-08,5.50000000000000e-01,5.50000000000000e-01,2.26232130706664e-05
1.51000000000000e-08,5.50000000000000e-01,5.50000000000000e-01,2.32234460227874e-05
1.51100000000000e-08,4.94999999999992e-01,5.50000000000000e-01,-3.18962760735772e-05
1.51300000000000e-08,3.84999999999995e-01,5.50000000000000e-01,-1.28642065060525e-04
1.51700000000000e-08,1.65000000000000e-01,5.50000000000000e-01,-1.81323820385097e-04
1.52000000000000e-08,0.00000000000000e+00,5.50000000000000e-01,1.36840182971693e-05
1.52080000000000e-08,0.00000000000000e+00,5.50000000000000e-01,1.44784135468916e-04
1.52240000000000e-08,0.00000000000000e+00,5.50000000000000e-01,3.35331299229524e-04
1.52560000000000e-08,0.00000000000000e+00,5.50000000000000e-01,4.57644559953882e-04
1.53200000000000e-08,0.00000000000000e+00,5.50000000000000e-01,3.25421998649059e-04
1.54480000000000e-08,0.00000000000000e+00,5.50000000000000e-01,-1.59265481904786e-04
1.57040000000000e-08,0.00000000000000e+00,5.50000000000000e-01,-1.79841657864253e-04
1.62160000000000e-08,0.00000000000000e+00,5.50000000000000e-01,3.89379312175885e-05
1.69143909492956e-08,0.00000000000000e+00,5.50000000000000e-01,-3.99910875183360e-05
1.80994914793047e-08,0.00000000000000e+00,5.50000000000000e-01,1.59406305835715e-04
2.04696925393228e-08,0.00000000000000e+00,5.50000000000000e-01,-1.27799579493735e-04
2.30944347034885e-08,0.00000000000000e+00,5.50000000000000e-01,1.68413549566883e-04
2.50000000000000e-08,0.00000000000000e+00,5.50000000000000e-01,-1.24827291356292e-04
2.50100000000000e-08,5.49999999999896e-02,5.50000000000000e-01,-1.41436024498481e-05
2.50300000000000e-08,1.65000000000005e-01,5.50000000000000e-01,1.80948136074548e-04
2.50700000000000e-08,3.85000000000000e-01,5.50000000000000e-01,4.55183927195846e-04
2.51000000000000e-08,5.50000000000000e-01,5.50000000000000e-01,5.26056451371770e-04
2.51080000000000e-08,5.50000000000000e-01,5.50000000000000e-01,4.69690237385779e-04
2.51240000000000e-08,5.50000000000000e-01,5.50000000000000e-01,3.44962907129563e-04
2.51560000000000e-08,5.50000000000000e-01,5.50000000000000e-01,-5.87586814375374e-06
2.52200000000000e-08,5.50000000000000e-01,5.50000000000000e-01,-1.08702988406335e-03
2.53480000000000e-08,5.50000000000000e-01,5.50000000000000e-01,-3.23444329233379e-03
2.56040000000000e-08,5.50000000000000e-01,5.50000000000000e-01,2.44890029575182e-03
2.61160000000000e-08,5.50000000000000e-01,5.50000000000000e-01,3.74266993899442e-01
2.71400000000000e-08,5.50000000000000e-01,5.50000000000000e-01,5.67249072098232e-01
2.82938740795665e-08,5.50000000000000e-01,5.50000000000000e-01,5.36266103679905e-01
3.01000000000000e-08,5.50000000000000e-01,5.50000000000000e-01,5.63326562743621e-01
3.01100000000000e-08,5.50000000000000e-01,4.95000000000029e-01,5.58485914761562e-01
3.01300000000000e-08,5.50000000000000e-01,3.85000000000013e-01,5.52320774298021e-01
3.01700000000000e-08,5.50000000000000e-01,1.65000000000018e-01,5.49774876191692e-01
3.02000000000000e-08,5.50000000000000e-01,1.33226762955019e-14,5.49905072858795e-01
3.02080000000000e-08,5.50000000000000e-01,0.00000000000000e+00,5.49903789552724e-01
3.02240000000000e-08,5.50000000000000e-01,0.00000000000000e+00,5.49901144512148e-01
3.02560000000000e-08,5.50000000000000e-01,0.00000000000000e+00,5.49906930846128e-01
3.03200000000000e-08,5.50000000000000e-01,0.00000000000000e+00,5.49931828328757e-01
3.04480000000000e-08,5.50000000000000e-01,0.00000000000000e+00,5.49940083792801e-01
3.07040000000000e-08,5.50000000000000e-01,0.00000000000000e+00,5.49973616820425e-01
3.12160000000000e-08,5.50000000000000e-01,0.00000000000000e+00,5.49962775778582e-01
3.19100715526888e-08,5.50000000000000e-01,0.00000000000000e+00,5.49979220647201e-01
3.31728375702619e-08,5.50000000000000e-01,0.00000000000000e+00,5.49970371511405e-01
3.51000000000000e-08,5.49999999999973e-01,0.00000000000000e+00,5.49982730778896e-01
3.51100000000000e-08,4.94999999999983e-01,0.00000000000000e+00,5.49940069250815e-01
3.51300000000000e-08,3.84999999999968e-01,0.00000000000000e+00,5.49871572959123e-01
3.51700000000000e-08,1.64999999999973e-01,0.00000000000000e+00,5.50310908772136e-01
3.52000000000000e-08,0.00000000000000e+00,0.00000000000000e+00,5.51769228427997e-01
3.52080000000000e-08,0.00000000000000e+00,0.00000000000000e+00,5.52197539184257e-01
3.52240000000000e-08,0.00000000000000e+00,0.00000000000000e+00,5.52768214520415e-01
3.52560000000000e-08,0.00000000000000e+00,0.00000000000000e+00,5.52819764669808e-01
3.53200000000000e-08,0.00000000000000e+00,0.00000000000000e+00,5.48203491943665e-01
3.54480000000000e-08,0.00000000000000e+00,0.00000000000000e+00,5.34761778685050e-01
3.57040000000000e-08,0.00000000000000e+00,0.00000000000000e+00,5.42575628163841e-01
3.61759241385515e-08,0.00000000000000e+00,0.00000000000000e+00,5.52568951950792e-01
3.68506151072202e-08,0.00000000000000e+00,0.00000000000000e+00,5.46825080187090e-01
3.81999970445574e-08,0.00000000000000e+00,0.00000000000000e+00,5.52152395903650e-01
3.91000000000000e-08,0.00000000000000e+00,0.00000000000000e+00,5.47760367369979e-01
3.92721947942390e-08,0.00000000000000e+00,0.00000000000000e+00,5.49447962294702e-01
3.96165843827171e-08,0.00000000000000e+00,0.00000000000000e+00,5.50064864654071e-01
4.03053635596733e-08,0.00000000000000e+00,0.00000000000000e+00,5.49657731581213e-01
4.16829219135856e-08,0.00000000000000e+00,0.00000000000000e+00,5.50045941387290e-01
4.44380386214101e-08,0.00000000000000e+00,0.00000000000000e+00,5.49744097856217e-01
4.50000000000000e-08,0.00000000000000e+00,0.00000000000000e+00,5.50032902404963e-01
4.50100000000000e-08,5.49999999999896e-02,0.00000000000000e+00,5.50062257667283e-01
4.50300000000000e-08,1.65000000000005e-01,0.00000000000000e+00,5.50082292738675e-01
4.50700000000000e-08,3.85000000000000e-01,0.00000000000000e+00,5.50018608697875e-01
4.51000000000000e-08,5.50000000000000e-01,0.00000000000000e+00,5.49933710922314e-01
4.51080000000000e-08,5.50000000000000e-01,0.00000000000000e+00,5.49885512232171e-01
4.51240000000000e-08,5.50000000000000e-01,0.00000000000000e+00,5.49819668479842e-01
4.51560000000000e-08,5.50000000000000e-01,0.00000000000000e+00,5.49795140327854e-01
4.52200000000000e-08,5.50000000000000e-01,0.00000000000000e+00,5.49835955733661e-01
4.53480000000000e-08,5.50000000000000e-01,0.00000000000000e+00,5.49861323201431e-01
4.56040000000000e-08,5.50000000000000e-01,0.00000000000000e+00,5.50117796740526e-01
4.61160000000000e-08,5.50000000000000e-01,0.00000000000000e+00,5.58786862497043e-01
4.71400000000000e-08,5.50000000000000e-01,0.00000000000000e+00,1.14802008536313e-01
4.82010080638890e-08,5.50000000000000e-01,0.00000000000000e+00,-4.89228608114717e-02
5.00000000000000e-08,5.50000000000000e-01,0.00000000000000e+00,4.13237650325574e-02
5.00100000000000e-08,5.50000000000000e-01,5.49999999999896e-02,3.77236410378994e-02
5.00300000000000e-08,5.50000000000000e-01,1.64999999999969e-01,3.16338372085114e-02
5.00700000000000e-08,5.50000000000000e-01,3.85000000000000e-01,2.34852172549412e-02
5.01000000000000e-08,5.50000000000000e-01,5.50000000000000e-01,1.91384283891834e-02
5.01080000000000e-08,5.50000000000000e-01,5.50000000000000e-01,1.81479899611729e-02
5.01240000000000e-08,5.50000000000000e-01,5.50000000000000e-01,1.62696638511989e-02
5.01560000000000e-08,5.50000000000000e-01,5.50000000000000e-01,1.30594050882996e-02
5.02200000000000e-08,5.50000000000000e-01,5.50000000000000e-01,8.35340601085471e-03
5.03480000000000e-08,5.50000000000000e-01,5.50000000000000e-01,3.23294338916535e-03
5.06040000000000e-08,5.50000000000000e-01,5.50000000000000e-01,2.00537770232295e-04
5.11160000000001e-08,5.50000000000000e-01,5.50000000000000e-01,-4.01044183008098e-05
5.21142268747606e-08,5.50000000000000e-01,5.50000000000000e-01,3.25009290744870e-05
5.41106806242818e-08,5.50000000000000e-01,5.50000000000000e-01,7.00030657859244e-07
5.51000000000000e-08,5.50000000000000e-01,5.50000000000000e-01,2.20106745924837e-05
5.51100000000000e-08,4.95000000000020e-01,5.50000000000000e-01,-4.25010693309372e-05
5.51300000000000e-08,3.85000000000004e-01,5.50000000000000e-01,-1.36054752399896e-04
5.51700000000000e-08,1.65000000000009e-01,5.50000000000000e-01,-1.89399193398450e-04
5.52000000000000e-08,0.00000000000000e+00,5.50000000000000e-01,1.00125023731051e-06
5.52080000000000e-08,0.00000000000000e+00,5.50000000000000e-01,1.30055263425931e-04
5.52240000000000e-08,0.00000000000000e+00,5.50000000000000e-01,3.13896849509880e-04
5.52560000000000e-08,0.00000000000000e+00,5.50000000000000e-01,3.99973895322529e-04
5.53200000000000e-08,0.00000000000000e+00,5.50000000000000e-01,-4.94061189661027e-05
5.54480000000000e-08,0.00000000000000e+00,5.50000000000000e-01,-1.68063052026318e-03
5.57040000000000e-08,0.00000000000000e+00,5.50000000000000e-01,-1.54444608564772e-03
5.62028800783091e-08,0.00000000000000e+00,5.50000000000000e-01,3.09385474666645e-04
5.69037644646149e-08,0.00000000000000e+00,5.50000000000000e-01,-1.33482503982811e-04
5.80824016008633e-08,0.00000000000000e+00,5.50000000000000e-01,2.10618934449635e-04
6.04396758733601e-08,0.00000000000000e+00,5.50000000000000e-01,-1.66347135055921e-04
6.30309143859275e-08,0.00000000000000e+00,5.50000000000000e-01,1.97607678967940e-04
6.50000000000000e-08,0.00000000000000e+00,5.50000000000000e-01,-1.48474234669097e-04
6.50100000000000e-08,5.49999999999896e-02,5.50000000000000e-01,-2.18467224520971e-05
6.50300000000000e-08,1.64999999999969e-01,5.50000000000000e-01,1.90026046921962e-04
6.50700000000000e-08,3.84999999999927e-01,5.50000000000000e-01,4.58662722360247e-04
6.51000000000000e-08,5.49999999999969e-01,5.50000000000000e-01,5.24502833866874e-04
6.51080000000000e-08,5.50000000000000e-01,5.50000000000000e-01,4.67532566068345e-04
6.51240000000000e-08,5.50000000000000e-01,5.50000000000000e-01,3.41947873895188e-04
6.51560000000000e-08,5.50000000000000e-01,5.50000000000000e-01,-9.14395331613055e-06
6.52200000000000e-08,5.50000000000000e-01,5.50000000000000e-01,-1.08930750549300e-03
6.53480000000000e-08,5.50000000000000e-01,5.50000000000000e-01,-3.23616029181277e-03
6.56040000000000e-08,5.50000000000000e-01,5.50000000000000e-01,2.40553855230657e-03
6.61159999999999e-08,5.50000000000000e-01,5.50000000000000e-01,3.73954248741012e-01
6.71399999999999e-08,5.50000000000000e-01,5.50000000000000e-01,5.67233821118280e-01
6.82942762989258e-08,5.50000000000000e-01,5.50000000000000e-01,5.36285434583649e-01
7.01000000000000e-08,5.50000000000000e-01,5.50000000000000e-01,5.63310331738581e-01
7.01100000000000e-08,5.50000000000000e-01,4.95000000000010e-01,5.58475603885882e-01
7.01300000000000e-08,5.50000000000000e-01,3.85000000000031e-01,5.52317879878638e-01
7.01700000000000e-08,5.50000000000000e-01,1.65000000000073e-01,5.49774871843450e-01
7.02000000000000e-08,5.50000000000000e-01,3.15303338993544e-14,5.49904989080956e-01
7.02080000000000e-08,5.50000000000000e-01,0.00000000000000e+00,5.49903688130296e-01
7.02240000000000e-08,5.50000000000000e-01,0.00000000000000e+00,5.49901021198249e-01
7.02560000000000e-08,5.50000000000000e-01,0.00000000000000e+00,5.49906816013743e-01
7.03200000000000e-08,5.50000000000000e-01,0.00000000000000e+00,5.49931811246472e-01
7.04480000000000e-08,5.50000000000000e-01,0.00000000000000e+00,5.49940060000622e-01
7.07040000000000e-08,5.50000000000000e-01,0.00000000000000e+00,5.49973619461384e-01
7.12159999999999e-08,5.50000000000000e-01,0.00000000000000e+00,5.49962767535096e-01
7.19100542472624e-08,5.50000000000000e-01,0.00000000000000e+00,5.49979235125203e-01
7.31727435601637e-08,5.50000000000000e-01,0.00000000000000e+00,5.49970364908008e-01
7.51000000000000e-08,5.50000000000000e-01,0.00000000000000e+00,5.49982742595013e-01
7.51100000000000e-08,4.95000000000056e-01,0.00000000000000e+00,5.49940080066777e-01
7.51300000000000e-08,3.85000000000077e-01,0.00000000000000e+00,5.49871577999292e-01
7.51700000000000e-08,1.65000000000118e-01,0.00000000000000e+00,5.50310911849774e-01
7.52000000000000e-08,7.69384556065233e-14,0.00000000000000e+00,5.51769234357944e-01
7.52080000000000e-08,0.00000000000000e+00,0.00000000000000e+00,5.52197547518091e-01
7.52240000000000e-08,0.00000000000000e+00,0.00000000000000e+00,5.52768230734128e-01
7.52560000000000e-08,0.00000000000000e+00,0.00000000000000e+00,5.52819828491932e-01
7.53200000000000e-08,0.00000000000000e+00,0.00000000000000e+00,5.48203796848314e-01
7.54480000000000e-08,0.00000000000000e+00,0.00000000000000e+00,5.34762136774224e-01
7.57040000000000e-08,0.00000000000000e+00,0.00000000000000e+00,5.42575542761308e-01
7.61759242064781e-08,0.00000000000000e+00,0.00000000000000e+00,5.52568996762436e-01
7.68506152669114e-08,0.00000000000000e+00,0.00000000000000e+00,5.46825041158893e-01
7.81000000000000e-08,0.00000000000000e+00,0.00000000000000e+00,5.52122357708413e-01
7.82349382120867e-08,0.00000000000000e+00,0.00000000000000e+00,5.50256415897051e-01
7.85048146362600e-08,0.00000000000000e+00,0.00000000000000e+00,5.49490017388497e-01
7.90445674846066e-08,0.00000000000000e+00,0.00000000000000e+00,5.50021300125040e-01
8.01240731812999e-08,0.00000000000000e+00,0.00000000000000e+00,5.49652645021550e-01
8.22830845746865e-08,0.00000000000000e+00,0.00000000000000e+00,5.50061483702650e-01
8.50000000000000e-08,0.00000000000000e+00,0.00000000000000e+00,5.49741405026847e-01
8.50100000000000e-08,5.49999999999896e-02,0.00000000000000e+00,5.49832583501679e-01
8.50300000000000e-08,1.64999999999969e-01,0.00000000000000e+00,5.49949138578580e-01
8.50700000000000e-08,3.84999999999927e-01,0.00000000000000e+00,5.49978623170344e-01
8.51000000000000e-08,5.49999999999969e-01,0.00000000000000e+00,5.49917156105137e-01
8.51080000000000e-08,5.50000000000000e-01,0.00000000000000e+00,5.49871534997347e-01
8.51240000000000e-08,5.50000000000000e-01,0.00000000000000e+00,5.49810898497928e-01
8.51560000000000e-08,5.50000000000000e-01,0.00000000000000e+00,5.49791506862511e-01
8.52200000000000e-08,5.50000000000000e-01,0.00000000000000e+00,5.49835292977795e-01
8.53480000000000e-08,5.50000000000000e-01,0.00000000000000e+00,5.49860776059810e-01
8.56040000000000e-08,5.50000000000000e-01,0.00000000000000e+00,5.50118068173709e-01
8.61159999999999e-08,5.50000000000000e-01,0.00000000000000e+00,5.58717845591895e-01
8.71399999999999e-08,5.50000000000000e-01,0.00000000000000e+00,1.14688855940609e-01
8.82007950752909e-08,5.50000000000000e-01,0.00000000000000e+00,-4.88910018442529e-02
9.00000000000000e-08,5.50000000000000e-01,0.00000000000000e+00,4.12957318391713e-02
9.00100000000000e-08,5.50000000000000e-01,5.49999999999896e-02,3.76958533161435e-02
9.00300000000000e-08,5.50000000000000e-01,1.64999999999969e-01,3.16075375677668e-02
9.00700000000000e-08,5.50000000000000e-01,3.84999999999927e-01,2.34641657712206e-02
9.01000000000000e-08,5.50000000000000e-01,5.49999999999969e-01,1.91211463669631e-02
9.01080000000000e-08,5.50000000000000e-01,5.50000000000000e-01,1.81315841884016e-02
9.01240000000000e-08,5.50000000000000e-01,5.50000000000000e-01,1.62549233716833e-02
9.01560000000000e-08,5.50000000000000e-01,5.50000000000000e-01,1.30475212970841e-02
9.02200000000000e-08,5.50000000000000e-01,5.50000000000000e-01,8.34575113251056e-03
9.03480000000000e-08,5.50000000000000e-01,5.50000000000000e-01,3.22995549827424e-03
9.06040000000000e-08,5.50000000000000e-01,5.50000000000000e-01,2.00358247941949e-04
9.11159999999999e-08,5.50000000000000e-01,5.50000000000000e-01,-4.00495394321868e-05
9.21146927597259e-08,5.50000000000000e-01,5.50000000000000e-01,3.25035723720037e-05
9.41120782791779e-08,5.50000000000000e-01,5.50000000000000e-01,6.98266825706860e-07
9.51000000000000e-08,5.50000000000000e-01,5.50000000000000e-01,2.20067345698249e-05
9.51100000000000e-08,4.95000000000056e-01,5.50000000000000e-01,-4.24971215563300e-05
9.51300000000000e-08,3.85000000000077e-01,5.50000000000000e-01,-1.36052570943485e-04
9.51700000000000e-08,1.65000000000118e-01,5.50000000000000e-01,-1.89397649619692e-04
9.52000000000000e-08,7.69384556065233e-14,5.50000000000000e-01,1.00300583991131e-06
9.52080000000000e-08,0.00000000000000e+00,5.50000000000000e-01,1.30057250457602e-04
9.52240000000000e-08,0.00000000000000e+00,5.50000000000000e-01,3.13899696578718e-04
9.52560000000000e-08,0.00000000000000e+00,5.50000000000000e-01,3.99982619448278e-04
9.53200000000000e-08,0.00000000000000e+00,5.50000000000000e-01,-4.93638554869627e-05
9.54480000000000e-08,0.00000000000000e+00,5.50000000000000e-01,-1.68050548985640e-03
9.57040000000000e-08,0.00000000000000e+00,5.50000000000000e-01,-1.54425361619764e-03
9.62028868433823e-08,0.00000000000000e+00,5.50000000000000e-01,3.09416831796333e-04
9.69037690371896e-08,0.00000000000000e+00,5.50000000000000e-01,-1.33523557114441e-04
9.80824108289277e-08,0.00000000000000e+00,5.50000000000000e-01,2.10657412099385e-04
1.00439694412404e-07,0.00000000000000e+00,5.50000000000000e-01,-1.66384725377113e-04
1.03030948929327e-07,0.00000000000000e+00,5.50000000000000e-01,1.97643480913051e-04
1.05000000000000e-07,0.00000000000000e+00,5.50000000000000e-01,-1.48507518732313e-04
1.05010000000000e-07,5.49999999999896e-02,5.50000000000000e-01,-2.18736989796714e-05
1.05030000000000e-07,1.64999999999969e-01,5.50000000000000e-01,1.90008197853975e-04
1.05070000000000e-07,3.84999999999927e-01,5.50000000000000e-01,4.58653373307687e-04
1.05100000000000e-07,5.49999999999969e-01,5.50000000000000e-01,5.24496537321305e-04
1.05108000000000e-07,5.50000000000000e-01,5.50000000000000e-01,4.67526884544232e-04
1.05124000000000e-07,5.50000000000000e-01,5.50000000000000e-01,3.41943216144704e-04
1.05156000000000e-07,5.50000000000000e-01,5.50000000000000e-01,-9.14743688224667e-06
1.05220000000000e-07,5.50000000000000e-01,5.50000000000000e-01,-1.08930987560413e-03
1.05348000000000e-07,5.50000000000000e-01,5.50000000000000e-01,-3.23616101879170e-03
1.05604000000000e-07,5.50000000000000e-01,5.50000000000000e-01,2.40556032028748e-03
1.06116000000000e-07,5.50000000000000e-01,5.50000000000000e-01,3.73954407038857e-01
1.07140000000000e-07,5.50000000000000e-01,5.50000000000000e-01,5.67233828824335e-01
1.08294276098622e-07,5.50000000000000e-01,5.50000000000000e-01,5.36285424826887e-01
1.10100000000000e-07,5.50000000000000e-01,5.50000000000000e-01,5.63310339943181e-01
1.10110000000000e-07,5.50000000000000e-01,4.95000000000083e-01,5.58475609095552e-01
1.10130000000000e-07,5.50000000000000e-01,3.85000000000104e-01,5.52317881344793e-01
1.10170000000000e-07,5.50000000000000e-01,1.65000000000146e-01,5.49774871844548e-01
1.10200000000000e-07,5.50000000000000e-01,1.04249942012302e-13,5.49904989122878e-01
1.10208000000000e-07,5.50000000000000e-01,0.00000000000000e+00,5.49903688181181e-01
1.10224000000000e-07,5.50000000000000e-01,0.00000000000000e+00,5.49901021260421e-01
1.10256000000000e-07,5.50000000000000e-01,0.00000000000000e+00,5.49906816071953e-01
1.10320000000000e-07,5.50000000000000e-01,0.00000000000000e+00,5.49931811255159e-01
1.10448000000000e-07,5.50000000000000e-01,0.00000000000000e+00,5.49940060012091e-01
