Time,v(clk),v(data),v(out),v(reset)
1.00000000000000e-08,5.50000000000000e-01,0.00000000000000e+00,3.18919120547850e-05,0.00000000000000e+00
1.00100000000000e-08,5.50000000000000e-01,5.49999999999987e-02,3.08802306481226e-05,0.00000000000000e+00
1.00300000000000e-08,5.50000000000000e-01,1.64999999999996e-01,2.93000316924780e-05,0.00000000000000e+00
1.00700000000000e-08,5.50000000000000e-01,3.84999999999991e-01,2.75087866927690e-05,0.00000000000000e+00
1.01000000000000e-08,5.50000000000000e-01,5.49999999999996e-01,2.55974272035248e-05,0.00000000000000e+00
1.01080000000000e-08,5.50000000000000e-01,5.50000000000000e-01,2.54722275336641e-05,0.00000000000000e+00
1.01240000000000e-08,5.50000000000000e-01,5.50000000000000e-01,2.55516900511121e-05,0.00000000000000e+00
1.01560000000000e-08,5.50000000000000e-01,5.50000000000000e-01,2.67215307322571e-05,0.00000000000000e+00
1.02200000000000e-08,5.50000000000000e-01,5.50000000000000e-01,2.66704370220708e-05,0.00000000000000e+00
1.03480000000000e-08,5.50000000000000e-01,5.50000000000000e-01,2.63063372442293e-05,0.00000000000000e+00
1.06040000000000e-08,5.50000000000000e-01,5.50000000000000e-01,2.59803973315133e-05,0.00000000000000e+00
1.11160000000000e-08,5.50000000000000e-01,5.50000000000000e-01,2.54641101007994e-05,0.00000000000000e+00
1.21400000000000e-08,5.50000000000000e-01,5.50000000000000e-01,2.47258149165836e-05,0.00000000000000e+00
1.41880000000000e-08,5.50000000000000e-01,5.50000000000000e-01,2.40093260760769e-05,0.00000000000000e+00
1.51000000000000e-08,5.50000000000000e-01,5.50000000000000e-01,2.35005709638431e-05,0.00000000000000e+00
1.51100000000000e-08,4.94999999999992e-01,5.50000000000000e-01,1.86350365385571e-04,5.50000000000078e-02
1.51300000000000e-08,3.84999999999995e-01,5.50000000000000e-01,3.75391750402743e-04,1.65000000000005e-01
1.51700000000000e-08,1.65000000000000e-01,5.50000000000000e-01,3.60845801581591e-04,3.85000000000000e-01
1.52000000000000e-08,0.00000000000000e+00,5.50000000000000e-01,3.37481967910072e-04,5.50000000000000e-01
1.52080000000000e-08,0.00000000000000e+00,5.50000000000000e-01,3.15957542844185e-04,5.50000000000000e-01
1.52240000000000e-08,0.00000000000000e+00,5.50000000000000e-01,2.84356781320202e-04,5.50000000000000e-01
1.52560000000000e-08,0.00000000000000e+00,5.50000000000000e-01,2.52556599215643e-04,5.50000000000000e-01
1.53200000000000e-08,0.00000000000000e+00,5.50000000000000e-01,1.55746245977369e-04,5.50000000000000e-01
1.54480000000000e-08,0.00000000000000e+00,5.50000000000000e-01,-1.83511505127423e-04,5.50000000000000e-01
1.57040000000000e-08,0.00000000000000e+00,5.50000000000000e-01,-1.64979430572729e-04,5.50000000000000e-01
1.62144239775725e-08,0.00000000000000e+00,5.50000000000000e-01,8.43083534165130e-05,5.50000000000000e-01
1.69152362582246e-08,0.00000000000000e+00,5.50000000000000e-01,-1.08185502118496e-04,5.50000000000000e-01
1.81642246719549e-08,0.00000000000000e+00,5.50000000000000e-01,1.89609058440879e-04,5.50000000000000e-01
2.06622014994156e-08,0.00000000000000e+00,5.50000000000000e-01,-1.36715729947656e-04,5.50000000000000e-01
2.32595076491172e-08,0.00000000000000e+00,5.50000000000000e-01,1.61439971499710e-04,5.50000000000000e-01
2.50000000000000e-08,0.00000000000000e+00,5.50000000000000e-01,-1.02758351470017e-04,5.50000000000000e-01
2.50100000000000e-08,5.49999999999896e-02,5.50000000000000e-01,2.60321461210966e-06,5.50000000000000e-01
2.50300000000000e-08,1.65000000000005e-01,5.50000000000000e-01,1.88575272778824e-04,5.50000000000000e-01
2.50700000000000e-08,3.85000000000000e-01,5.50000000000000e-01,4.59322731604712e-04,5.50000000000000e-01
2.51000000000000e-08,5.50000000000000e-01,5.50000000000000e-01,5.32992104375511e-04,5.50000000000000e-01
2.51080000000000e-08,5.50000000000000e-01,5.50000000000000e-01,4.78070940240577e-04,5.50000000000000e-01
2.51240000000000e-08,5.50000000000000e-01,5.50000000000000e-01,3.58576335680136e-04,5.50000000000000e-01
2.51560000000000e-08,5.50000000000000e-01,5.50000000000000e-01,2.61648954476834e-05,5.50000000000000e-01
2.52200000000000e-08,5.50000000000000e-01,5.50000000000000e-01,-1.02857781357116e-03,5.50000000000000e-01
2.53480000000000e-08,5.50000000000000e-01,5.50000000000000e-01,-3.19198106984264e-03,5.50000000000000e-01
2.56040000000000e-08,5.50000000000000e-01,5.50000000000000e-01,1.95728541418146e-03,5.50000000000000e-01
2.61160000000000e-08,5.50000000000000e-01,5.50000000000000e-01,3.70489626947747e-01,5.50000000000000e-01
2.71400000000000e-08,5.50000000000000e-01,5.50000000000000e-01,5.67061007603869e-01,5.50000000000000e-01
2.82987494169204e-08,5.50000000000000e-01,5.50000000000000e-01,5.36501432822028e-01,5.50000000000000e-01
3.06162482507611e-08,5.50000000000000e-01,5.50000000000000e-01,5.63277062990373e-01,5.50000000000000e-01
3.40695198939926e-08,5.50000000000000e-01,5.50000000000000e-01,5.36856125464964e-01,5.50000000000000e-01
3.51000000000000e-08,5.49999999999973e-01,5.50000000000000e-01,5.61968434678706e-01,5.50000000000000e-01
3.51100000000000e-08,4.94999999999983e-01,5.50000000000000e-01,5.57565940503731e-01,5.50000000000000e-01
3.51300000000000e-08,3.84999999999968e-01,5.50000000000000e-01,5.51949375443209e-01,5.50000000000000e-01
3.51700000000000e-08,1.64999999999973e-01,5.50000000000000e-01,5.50130939647473e-01,5.50000000000000e-01
3.52000000000000e-08,0.00000000000000e+00,5.50000000000000e-01,5.51747630935678e-01,5.50000000000000e-01
3.52080000000000e-08,0.00000000000000e+00,5.50000000000000e-01,5.52176410991503e-01,5.50000000000000e-01
3.52240000000000e-08,0.00000000000000e+00,5.50000000000000e-01,5.52750985209831e-01,5.50000000000000e-01
3.52560000000000e-08,0.00000000000000e+00,5.50000000000000e-01,5.52840798214905e-01,5.50000000000000e-01
3.53200000000000e-08,0.00000000000000e+00,5.50000000000000e-01,5.48154133933355e-01,5.50000000000000e-01
3.54480000000000e-08,0.00000000000000e+00,5.50000000000000e-01,5.34588846407957e-01,5.50000000000000e-01
3.57040000000000e-08,0.00000000000000e+00,5.50000000000000e-01,5.42584409692712e-01,5.50000000000000e-01
3.62160000000000e-08,0.00000000000000e+00,5.50000000000000e-01,5.52711429005356e-01,5.50000000000000e-01
3.69154882796818e-08,0.00000000000000e+00,5.50000000000000e-01,5.46809435747391e-01,5.50000000000000e-01
3.83144648390453e-08,0.00000000000000e+00,5.50000000000000e-01,5.52189640211350e-01,5.50000000000000e-01
4.11124179577723e-08,0.00000000000000e+00,5.50000000000000e-01,5.47562650178838e-01,5.50000000000000e-01
4.49124179577723e-08,0.00000000000000e+00,5.50000000000000e-01,5.52105616504774e-01,5.50000000000000e-01
4.50000000000000e-08,0.00000000000000e+00,5.50000000000000e-01,5.49700630474273e-01,5.50000000000000e-01
4.50100000000000e-08,5.49999999999896e-02,5.50000000000000e-01,5.49678327112478e-01,4.95000000000010e-01
4.50300000000000e-08,1.65000000000005e-01,5.50000000000000e-01,5.49630691714994e-01,3.84999999999995e-01
4.50700000000000e-08,3.85000000000000e-01,5.50000000000000e-01,5.50824772496646e-01,1.65000000000000e-01
4.51000000000000e-08,5.50000000000000e-01,5.50000000000000e-01,5.55044947917265e-01,0.00000000000000e+00
4.51080000000000e-08,5.50000000000000e-01,5.50000000000000e-01,5.56639221603779e-01,0.00000000000000e+00
4.51240000000000e-08,5.50000000000000e-01,5.50000000000000e-01,5.59501703624479e-01,0.00000000000000e+00
4.51560000000000e-08,5.50000000000000e-01,5.50000000000000e-01,5.64710543062591e-01,0.00000000000000e+00
4.52200000000000e-08,5.50000000000000e-01,5.50000000000000e-01,5.75650159403995e-01,0.00000000000000e+00
4.53480000000000e-08,5.50000000000000e-01,5.50000000000000e-01,5.44225181614397e-01,0.00000000000000e+00
4.56040000000000e-08,5.50000000000000e-01,5.50000000000000e-01,2.60319498722584e-01,0.00000000000000e+00
4.60865420730117e-08,5.50000000000000e-01,5.50000000000000e-01,-7.83027664754759e-03,0.00000000000000e+00
4.67940799408219e-08,5.50000000000000e-01,5.50000000000000e-01,6.63397047565141e-03,0.00000000000000e+00
4.79668298898329e-08,5.50000000000000e-01,5.50000000000000e-01,-5.63864918937350e-03,0.00000000000000e+00
4.98368425956103e-08,5.50000000000000e-01,5.50000000000000e-01,5.60049206569279e-03,0.00000000000000e+00
5.01000000000000e-08,5.50000000000000e-01,5.49999999999969e-01,-3.74132009481510e-03,0.00000000000000e+00
5.04478611758202e-08,5.50000000000000e-01,5.50000000000000e-01,-6.49972345590048e-05,0.00000000000000e+00
5.11435835274607e-08,5.50000000000000e-01,5.50000000000000e-01,1.07572402059098e-04,0.00000000000000e+00
5.25350282307417e-08,5.50000000000000e-01,5.50000000000000e-01,-1.09817576081781e-04,0.00000000000000e+00
5.51000000000000e-08,5.50000000000000e-01,5.50000000000000e-01,1.50426353083636e-04,0.00000000000000e+00
5.51100000000000e-08,4.95000000000020e-01,5.50000000000000e-01,2.59571903446117e-04,5.49999999999805e-02
5.51300000000000e-08,3.85000000000004e-01,5.50000000000000e-01,3.81976657424545e-04,1.64999999999996e-01
5.51700000000000e-08,1.65000000000009e-01,5.50000000000000e-01,3.44278686854105e-04,3.84999999999991e-01
5.52000000000000e-08,0.00000000000000e+00,5.50000000000000e-01,3.19328832644336e-04,5.50000000000000e-01
5.52080000000000e-08,0.00000000000000e+00,5.50000000000000e-01,2.96502967956511e-04,5.50000000000000e-01
5.52240000000000e-08,0.00000000000000e+00,5.50000000000000e-01,2.61857273462555e-04,5.50000000000000e-01
5.52560000000000e-08,0.00000000000000e+00,5.50000000000000e-01,2.19689363098463e-04,5.50000000000000e-01
5.53200000000000e-08,0.00000000000000e+00,5.50000000000000e-01,-6.08064697038557e-05,5.50000000000000e-01
5.54480000000000e-08,0.00000000000000e+00,5.50000000000000e-01,-9.94903867445586e-04,5.50000000000000e-01
5.57040000000000e-08,0.00000000000000e+00,5.50000000000000e-01,-7.21591332816296e-04,5.50000000000000e-01
5.62111495891773e-08,0.00000000000000e+00,5.50000000000000e-01,3.63072746815084e-04,5.50000000000000e-01
5.69118583539613e-08,0.00000000000000e+00,5.50000000000000e-01,-2.91448033483237e-04,5.50000000000000e-01
5.81787479473572e-08,0.00000000000000e+00,5.50000000000000e-01,2.87298164940495e-04,5.50000000000000e-01
6.07125271341488e-08,0.00000000000000e+00,5.50000000000000e-01,-2.08503845062317e-04,5.50000000000000e-01
6.33051775927610e-08,0.00000000000000e+00,5.50000000000000e-01,2.15186981843150e-04,5.50000000000000e-01
6.50000000000000e-08,0.00000000000000e+00,5.50000000000000e-01,-1.35685441062005e-04,5.50000000000000e-01
6.50100000000000e-08,5.49999999999896e-02,5.50000000000000e-01,-2.11430008786734e-05,5.50000000000000e-01
6.50300000000000e-08,1.64999999999969e-01,5.50000000000000e-01,1.75502348624727e-04,5.50000000000000e-01
6.50700000000000e-08,3.84999999999927e-01,5.50000000000000e-01,4.49054316888763e-04,5.50000000000000e-01
6.51000000000000e-08,5.49999999999969e-01,5.50000000000000e-01,5.23716269261794e-04,5.50000000000000e-01
6.51080000000000e-08,5.50000000000000e-01,5.50000000000000e-01,4.68604128935353e-04,5.50000000000000e-01
6.51240000000000e-08,5.50000000000000e-01,5.50000000000000e-01,3.47729506702574e-04,5.50000000000000e-01
6.51560000000000e-08,5.50000000000000e-01,5.50000000000000e-01,8.76457486954918e-06,5.50000000000000e-01
6.52200000000000e-08,5.50000000000000e-01,5.50000000000000e-01,-1.05548248274232e-03,5.50000000000000e-01
6.53480000000000e-08,5.50000000000000e-01,5.50000000000000e-01,-3.21148720829149e-03,5.50000000000000e-01
6.56040000000000e-08,5.50000000000000e-01,5.50000000000000e-01,1.99406146869206e-03,5.50000000000000e-01
6.61159999999999e-08,5.50000000000000e-01,5.50000000000000e-01,3.70806889707054e-01,5.50000000000000e-01
6.71399999999999e-08,5.50000000000000e-01,5.50000000000000e-01,5.67077571815977e-01,5.50000000000000e-01
6.82983532299348e-08,5.50000000000000e-01,5.50000000000000e-01,5.36481216046923e-01,5.50000000000000e-01
7.06150596898045e-08,5.50000000000000e-01,5.50000000000000e-01,5.63294184130385e-01,5.50000000000000e-01
7.40691454199221e-08,5.50000000000000e-01,5.50000000000000e-01,5.36837189855406e-01,5.50000000000000e-01
7.51000000000000e-08,5.50000000000000e-01,5.50000000000000e-01,5.61984476653665e-01,5.50000000000000e-01
7.51100000000000e-08,4.95000000000056e-01,5.50000000000000e-01,5.57575931005111e-01,5.50000000000000e-01
7.51300000000000e-08,3.85000000000077e-01,5.50000000000000e-01,5.51952368247309e-01,5.50000000000000e-01
7.51700000000000e-08,1.65000000000118e-01,5.50000000000000e-01,5.50130950621349e-01,5.50000000000000e-01
7.52000000000000e-08,7.69384556065233e-14,5.50000000000000e-01,5.51747560777246e-01,5.50000000000000e-01
7.52080000000000e-08,0.00000000000000e+00,5.50000000000000e-01,5.52176371890247e-01,5.50000000000000e-01
7.52240000000000e-08,0.00000000000000e+00,5.50000000000000e-01,5.52750991030927e-01,5.50000000000000e-01
7.52560000000000e-08,0.00000000000000e+00,5.50000000000000e-01,5.52840746089509e-01,5.50000000000000e-01
7.53200000000000e-08,0.00000000000000e+00,5.50000000000000e-01,5.48153831587103e-01,5.50000000000000e-01
7.54480000000000e-08,0.00000000000000e+00,5.50000000000000e-01,5.34588594764354e-01,5.50000000000000e-01
7.57040000000000e-08,0.00000000000000e+00,5.50000000000000e-01,5.42584593904518e-01,5.50000000000000e-01
7.62159999999999e-08,0.00000000000000e+00,5.50000000000000e-01,5.52711339577347e-01,5.50000000000000e-01
7.69154883072952e-08,0.00000000000000e+00,5.50000000000000e-01,5.46809507732389e-01,5.50000000000000e-01
7.83144649218857e-08,0.00000000000000e+00,5.50000000000000e-01,5.52189577931047e-01,5.50000000000000e-01
8.11124181510666e-08,0.00000000000000e+00,5.50000000000000e-01,5.47562710303938e-01,5.50000000000000e-01
8.49124181510666e-08,0.00000000000000e+00,5.50000000000000e-01,5.52105560218885e-01,5.50000000000000e-01
8.50000000000000e-08,0.00000000000000e+00,5.50000000000000e-01,5.49700638165117e-01,5.50000000000000e-01
8.50100000000000e-08,5.49999999999896e-02,5.50000000000000e-01,5.49678333319185e-01,4.95000000000010e-01
8.50300000000000e-08,1.64999999999969e-01,5.50000000000000e-01,5.49630694568209e-01,3.85000000000031e-01
8.50700000000000e-08,3.84999999999927e-01,5.50000000000000e-01,5.50824772484325e-01,1.65000000000073e-01
8.51000000000000e-08,5.49999999999969e-01,5.50000000000000e-01,5.55044949868359e-01,3.15303338993544e-14
8.51080000000000e-08,5.50000000000000e-01,5.50000000000000e-01,5.56639224005502e-01,0.00000000000000e+00
8.51240000000000e-08,5.50000000000000e-01,5.50000000000000e-01,5.59501706607563e-01,0.00000000000000e+00
8.51560000000000e-08,5.50000000000000e-01,5.50000000000000e-01,5.64710546045854e-01,0.00000000000000e+00
8.52200000000000e-08,5.50000000000000e-01,5.50000000000000e-01,5.75650160783676e-01,0.00000000000000e+00
8.53480000000000e-08,5.50000000000000e-01,5.50000000000000e-01,5.44225145194223e-01,0.00000000000000e+00
8.56040000000000e-08,5.50000000000000e-01,5.50000000000000e-01,2.60319464989760e-01,0.00000000000000e+00
8.60865421518959e-08,5.50000000000000e-01,5.50000000000000e-01,-7.83027030154026e-03,0.00000000000000e+00
8.67940803919236e-08,5.50000000000000e-01,5.50000000000000e-01,6.63396980403859e-03,0.00000000000000e+00
8.79667745353085e-08,5.50000000000000e-01,5.50000000000000e-01,-5.63861686854415e-03,0.00000000000000e+00
8.98368087519926e-08,5.50000000000000e-01,5.50000000000000e-01,5.60046746095708e-03,0.00000000000000e+00
9.01000000000000e-08,5.50000000000000e-01,5.49999999999969e-01,-3.74146829830420e-03,0.00000000000000e+00
9.04478569865082e-08,5.50000000000000e-01,5.50000000000000e-01,-6.50113476536613e-05,0.00000000000000e+00
9.11435709595246e-08,5.50000000000000e-01,5.50000000000000e-01,1.07587698211321e-04,0.00000000000000e+00
9.25349989055573e-08,5.50000000000000e-01,5.50000000000000e-01,-1.09831552936908e-04,0.00000000000000e+00
9.51000000000000e-08,5.50000000000000e-01,5.50000000000000e-01,1.50438995712552e-04,0.00000000000000e+00
9.51100000000000e-08,4.95000000000056e-01,5.50000000000000e-01,2.59581678463905e-04,5.49999999999441e-02
9.51300000000000e-08,3.85000000000077e-01,5.50000000000000e-01,3.81982721533392e-04,1.64999999999923e-01
9.51700000000000e-08,1.65000000000118e-01,5.50000000000000e-01,3.44282413143368e-04,3.84999999999882e-01
9.52000000000000e-08,7.69384556065233e-14,5.50000000000000e-01,3.19331913784221e-04,5.49999999999923e-01
9.52080000000000e-08,0.00000000000000e+00,5.50000000000000e-01,2.96505888095176e-04,5.50000000000000e-01
9.52240000000000e-08,0.00000000000000e+00,5.50000000000000e-01,2.61859884621678e-04,5.50000000000000e-01
9.52560000000000e-08,0.00000000000000e+00,5.50000000000000e-01,2.19691440273090e-04,5.50000000000000e-01
9.53200000000000e-08,0.00000000000000e+00,5.50000000000000e-01,-6.08052070272397e-05,5.50000000000000e-01
9.54480000000000e-08,0.00000000000000e+00,5.50000000000000e-01,-9.94903433597462e-04,5.50000000000000e-01
9.57040000000000e-08,0.00000000000000e+00,5.50000000000000e-01,-7.21591208931453e-04,5.50000000000000e-01
9.62111496890491e-08,0.00000000000000e+00,5.50000000000000e-01,3.63072684974170e-04,5.50000000000000e-01
9.69118584821603e-08,0.00000000000000e+00,5.50000000000000e-01,-2.91447783024680e-04,5.50000000000000e-01
9.81787500862292e-08,0.00000000000000e+00,5.50000000000000e-01,2.87297887636477e-04,5.50000000000000e-01
1.00712533294367e-07,0.00000000000000e+00,5.50000000000000e-01,-2.08503585215735e-04,5.50000000000000e-01
1.03305183979513e-07,0.00000000000000e+00,5.50000000000000e-01,2.15186705568509e-04,5.50000000000000e-01
1.05000000000000e-07,0.00000000000000e+00,5.50000000000000e-01,-1.35685023472249e-04,5.50000000000000e-01
1.05010000000000e-07,5.49999999999896e-02,5.50000000000000e-01,-2.11425761249412e-05,5.50000000000000e-01
1.05030000000000e-07,1.64999999999969e-01,5.50000000000000e-01,1.75502739164703e-04,5.50000000000000e-01
1.05070000000000e-07,3.84999999999927e-01,5.50000000000000e-01,4.49054650573842e-04,5.50000000000000e-01
1.05100000000000e-07,5.49999999999969e-01,5.50000000000000e-01,5.23716571933376e-04,5.50000000000000e-01
1.05108000000000e-07,5.50000000000000e-01,5.50000000000000e-01,4.68604426232984e-04,5.50000000000000e-01
1.05124000000000e-07,5.50000000000000e-01,5.50000000000000e-01,3.47729807013031e-04,5.50000000000000e-01
1.05156000000000e-07,5.50000000000000e-01,5.50000000000000e-01,8.76492854352817e-06,5.50000000000000e-01
1.05220000000000e-07,5.50000000000000e-01,5.50000000000000e-01,-1.05548205617780e-03,5.50000000000000e-01
1.05348000000000e-07,5.50000000000000e-01,5.50000000000000e-01,-3.21148693827678e-03,5.50000000000000e-01
1.05604000000000e-07,5.50000000000000e-01,5.50000000000000e-01,1.99405831357208e-03,5.50000000000000e-01
1.06116000000000e-07,5.50000000000000e-01,5.50000000000000e-01,3.70806864183529e-01,5.50000000000000e-01
1.07140000000000e-07,5.50000000000000e-01,5.50000000000000e-01,5.67077570513095e-01,5.50000000000000e-01
1.08298353263898e-07,5.50000000000000e-01,5.50000000000000e-01,5.36481217670090e-01,5.50000000000000e-01
1.10615059791695e-07,5.50000000000000e-01,5.50000000000000e-01,5.63294182763091e-01,5.50000000000000e-01
1.14069145458623e-07,5.50000000000000e-01,5.50000000000000e-01,5.36837191362590e-01,5.50000000000000e-01
1.15100000000000e-07,5.50000000000000e-01,5.50000000000000e-01,5.61984475392017e-01,5.50000000000000e-01
1.15110000000000e-07,4.95000000000056e-01,5.50000000000000e-01,5.57575930215209e-01,5.50000000000000e-01
1.15130000000000e-07,3.85000000000077e-01,5.50000000000000e-01,5.51952368029181e-01,5.50000000000000e-01
1.15170000000000e-07,1.65000000000118e-01,5.50000000000000e-01,5.50130950627747e-01,5.50000000000000e-01
1.15200000000000e-07,7.69384556065233e-14,5.50000000000000e-01,5.51747560777335e-01,5.50000000000000e-01
1.15208000000000e-07,0.00000000000000e+00,5.50000000000000e-01,5.52176371886366e-01,5.50000000000000e-01
1.15224000000000e-07,0.00000000000000e+00,5.50000000000000e-01,5.52750991027274e-01,5.50000000000000e-01
1.15256000000000e-07,0.00000000000000e+00,5.50000000000000e-01,5.52840746094708e-01,5.50000000000000e-01
1.15320000000000e-07,0.00000000000000e+00,5.50000000000000e-01,5.48153831624601e-01,5.50000000000000e-01
