Time,v(clk),v(data),v(out)
1.00000000000000e-08,5.50000000000000e-01,0.00000000000000e+00,2.92368170189648e-06
1.00100000000000e-08,5.50000000000000e-01,5.49999999999987e-02,1.24690740578581e-06
1.00300000000000e-08,5.50000000000000e-01,1.64999999999996e-01,-9.28864979460320e-07
1.00700000000000e-08,5.50000000000000e-01,3.84999999999991e-01,-4.64287903835514e-06
1.01000000000000e-08,5.50000000000000e-01,5.49999999999996e-01,-7.73822538387148e-06
1.01080000000000e-08,5.50000000000000e-01,5.50000000000000e-01,-8.25093941207722e-06
1.01240000000000e-08,5.50000000000000e-01,5.50000000000000e-01,-8.23733738085364e-06
1.01560000000000e-08,5.50000000000000e-01,5.50000000000000e-01,-7.50280524578623e-06
1.02200000000000e-08,5.50000000000000e-01,5.50000000000000e-01,-1.54658722856249e-06
1.03480000000000e-08,5.50000000000000e-01,5.50000000000000e-01,3.69729391898679e-06
1.06040000000000e-08,5.50000000000000e-01,5.50000000000000e-01,1.67450762423443e-06
1.11160000000000e-08,5.50000000000000e-01,5.50000000000000e-01,1.17184156329941e-06
1.20575405022107e-08,5.50000000000000e-01,5.50000000000000e-01,2.33801179593332e-06
1.39406215066320e-08,5.50000000000000e-01,5.50000000000000e-01,1.05124565848158e-06
1.51000000000000e-08,5.50000000000000e-01,5.50000000000000e-01,2.02621658394568e-06
1.51100000000000e-08,4.94999999999992e-01,5.50000000000000e-01,-5.87020715245370e-05
1.51300000000000e-08,3.84999999999995e-01,5.50000000000000e-01,-1.63974896902563e-04
1.51700000000000e-08,1.65000000000000e-01,5.50000000000000e-01,-2.83471034099390e-04
1.52000000000000e-08,0.00000000000000e+00,5.50000000000000e-01,-1.76785035683427e-04
1.52080000000000e-08,0.00000000000000e+00,5.50000000000000e-01,-4.71578607525378e-05
1.52240000000000e-08,0.00000000000000e+00,5.50000000000000e-01,1.56660284429344e-04
1.52560000000000e-08,0.00000000000000e+00,5.50000000000000e-01,3.39011580246011e-04
1.53200000000000e-08,0.00000000000000e+00,5.50000000000000e-01,3.41357072517860e-04
1.54480000000000e-08,0.00000000000000e+00,5.50000000000000e-01,8.49562634601606e-05
1.57040000000000e-08,0.00000000000000e+00,5.50000000000000e-01,-1.77668448408663e-04
1.62160000000000e-08,0.00000000000000e+00,5.50000000000000e-01,3.30068326906408e-08
1.72400000000000e-08,0.00000000000000e+00,5.50000000000000e-01,-5.29060875012737e-05
1.85679421270032e-08,0.00000000000000e+00,5.50000000000000e-01,1.09613445607133e-04
2.12238263810094e-08,0.00000000000000e+00,5.50000000000000e-01,-1.01136536597616e-04
2.42901912028575e-08,0.00000000000000e+00,5.50000000000000e-01,9.39761279864942e-05
2.50000000000000e-08,0.00000000000000e+00,5.50000000000000e-01,-5.89365460466548e-05
2.50100000000000e-08,5.49999999999896e-02,5.50000000000000e-01,5.11886762214128e-05
2.50300000000000e-08,1.65000000000005e-01,5.50000000000000e-01,2.41888890913117e-04
2.50700000000000e-08,3.85000000000000e-01,5.50000000000000e-01,4.67521619261953e-04
2.51000000000000e-08,5.50000000000000e-01,5.50000000000000e-01,4.52782015643971e-04
2.51080000000000e-08,5.50000000000000e-01,5.50000000000000e-01,3.63503171190507e-04
2.51240000000000e-08,5.50000000000000e-01,5.50000000000000e-01,1.41576737142809e-04
2.51560000000000e-08,5.50000000000000e-01,5.50000000000000e-01,-5.84057249865308e-04
2.52200000000000e-08,5.50000000000000e-01,5.50000000000000e-01,-2.39285206904433e-03
2.53480000000000e-08,5.50000000000000e-01,5.50000000000000e-01,-4.92583344770171e-03
2.56040000000000e-08,5.50000000000000e-01,5.50000000000000e-01,2.56018831244768e-02
2.61160000000000e-08,5.50000000000000e-01,5.50000000000000e-01,4.24779962661652e-01
2.71400000000000e-08,5.50000000000000e-01,5.50000000000000e-01,5.75508814838543e-01
2.83047990562401e-08,5.50000000000000e-01,5.50000000000000e-01,5.25480278294151e-01
3.01000000000000e-08,5.50000000000000e-01,5.50000000000000e-01,5.71212385054385e-01
3.01100000000000e-08,5.50000000000000e-01,4.95000000000029e-01,5.65948349412405e-01
3.01300000000000e-08,5.50000000000000e-01,3.85000000000013e-01,5.58075576041796e-01
3.01700000000000e-08,5.50000000000000e-01,1.65000000000018e-01,5.51667241262688e-01
3.02000000000000e-08,5.50000000000000e-01,1.33226762955019e-14,5.50527652691090e-01
3.02080000000000e-08,5.50000000000000e-01,0.00000000000000e+00,5.50401138989981e-01
3.02240000000000e-08,5.50000000000000e-01,0.00000000000000e+00,5.50199883420803e-01
3.02560000000000e-08,5.50000000000000e-01,0.00000000000000e+00,5.49984879108670e-01
3.03200000000000e-08,5.50000000000000e-01,0.00000000000000e+00,5.49930580853508e-01
3.04480000000000e-08,5.50000000000000e-01,0.00000000000000e+00,5.49948310402614e-01
3.07040000000000e-08,5.50000000000000e-01,0.00000000000000e+00,5.49975202411812e-01
3.12160000000000e-08,5.50000000000000e-01,0.00000000000000e+00,5.49991514003242e-01
3.19928617429984e-08,5.50000000000000e-01,0.00000000000000e+00,5.49965922254580e-01
3.34192472234467e-08,5.50000000000000e-01,0.00000000000000e+00,5.49992887151301e-01
3.51000000000000e-08,5.49999999999973e-01,0.00000000000000e+00,5.49971784476631e-01
3.51100000000000e-08,4.94999999999983e-01,0.00000000000000e+00,5.49911882969831e-01
3.51300000000000e-08,3.84999999999968e-01,0.00000000000000e+00,5.49817266323269e-01
3.51700000000000e-08,1.64999999999973e-01,0.00000000000000e+00,5.49976815982460e-01
3.52000000000000e-08,0.00000000000000e+00,0.00000000000000e+00,5.50992365678076e-01
3.52080000000000e-08,0.00000000000000e+00,0.00000000000000e+00,5.51379012904981e-01
3.52240000000000e-08,0.00000000000000e+00,0.00000000000000e+00,5.51970984209959e-01
3.52560000000000e-08,0.00000000000000e+00,0.00000000000000e+00,5.52523524296305e-01
3.53200000000000e-08,0.00000000000000e+00,0.00000000000000e+00,5.52379166474774e-01
3.54480000000000e-08,0.00000000000000e+00,0.00000000000000e+00,5.44175347703831e-01
3.57040000000000e-08,0.00000000000000e+00,0.00000000000000e+00,5.29792408075689e-01
3.62160000000000e-08,0.00000000000000e+00,0.00000000000000e+00,5.45975882495834e-01
3.69261787342687e-08,0.00000000000000e+00,0.00000000000000e+00,5.51772339276386e-01
3.83076644270305e-08,0.00000000000000e+00,0.00000000000000e+00,5.47910982454600e-01
3.91000000000000e-08,0.00000000000000e+00,0.00000000000000e+00,5.51045703177945e-01
3.92492483274639e-08,0.00000000000000e+00,0.00000000000000e+00,5.50172188054034e-01
3.95477449823918e-08,0.00000000000000e+00,0.00000000000000e+00,5.49644001985059e-01
4.01447382922474e-08,0.00000000000000e+00,0.00000000000000e+00,5.49908744541250e-01
4.13387249119588e-08,0.00000000000000e+00,0.00000000000000e+00,5.49771632102193e-01
4.37266981513815e-08,0.00000000000000e+00,0.00000000000000e+00,5.49949978215450e-01
4.50000000000000e-08,0.00000000000000e+00,0.00000000000000e+00,5.49843756053968e-01
4.50100000000000e-08,5.49999999999896e-02,0.00000000000000e+00,5.49917125503116e-01
4.50300000000000e-08,1.65000000000005e-01,0.00000000000000e+00,5.50026225577036e-01
4.50700000000000e-08,3.85000000000000e-01,0.00000000000000e+00,5.50070604746855e-01
4.51000000000000e-08,5.50000000000000e-01,0.00000000000000e+00,5.49977846896228e-01
4.51080000000000e-08,5.50000000000000e-01,0.00000000000000e+00,5.49914082142584e-01
4.51240000000000e-08,5.50000000000000e-01,0.00000000000000e+00,5.49810058794666e-01
4.51560000000000e-08,5.50000000000000e-01,0.00000000000000e+00,5.49704276008630e-01
4.52200000000000e-08,5.50000000000000e-01,0.00000000000000e+00,5.49670066075184e-01
4.53480000000000e-08,5.50000000000000e-01,0.00000000000000e+00,5.49729229346465e-01
4.56040000000000e-08,5.50000000000000e-01,0.00000000000000e+00,5.51299979857216e-01
4.61160000000000e-08,5.50000000000000e-01,0.00000000000000e+00,4.59705028570852e-01
4.71400000000000e-08,5.50000000000000e-01,0.00000000000000e+00,2.13307337341666e-02
4.82836594468593e-08,5.50000000000000e-01,0.00000000000000e+00,-1.59130735834389e-02
5.00000000000000e-08,5.50000000000000e-01,0.00000000000000e+00,1.39309060433005e-02
5.00100000000000e-08,5.50000000000000e-01,5.49999999999896e-02,1.15411377331946e-02
5.00300000000000e-08,5.50000000000000e-01,1.64999999999969e-01,7.98986932508988e-03
5.00700000000000e-08,5.50000000000000e-01,3.85000000000000e-01,4.55276105430418e-03
5.01000000000000e-08,5.50000000000000e-01,5.50000000000000e-01,3.14292289792219e-03
5.01080000000000e-08,5.50000000000000e-01,5.50000000000000e-01,2.86630824278274e-03
5.01240000000000e-08,5.50000000000000e-01,5.50000000000000e-01,2.37338115297009e-03
5.01560000000000e-08,5.50000000000000e-01,5.50000000000000e-01,1.63525070198425e-03
5.02200000000000e-08,5.50000000000000e-01,5.50000000000000e-01,7.77972118174444e-04
5.03480000000000e-08,5.50000000000000e-01,5.50000000000000e-01,1.44190740221470e-04
5.06040000000000e-08,5.50000000000000e-01,5.50000000000000e-01,-2.22441734155816e-05
5.11160000000001e-08,5.50000000000000e-01,5.50000000000000e-01,9.24386787939935e-06
5.21400000000002e-08,5.50000000000000e-01,5.50000000000000e-01,-6.63866141458087e-06
5.41880000000003e-08,5.50000000000000e-01,5.50000000000000e-01,5.56287449759215e-06
5.51000000000000e-08,5.50000000000000e-01,5.50000000000000e-01,-2.55110663570368e-06
5.51100000000000e-08,4.95000000000020e-01,5.50000000000000e-01,-5.74283487166094e-05
5.51300000000000e-08,3.85000000000004e-01,5.50000000000000e-01,-1.49466262746270e-04
5.51700000000000e-08,1.65000000000009e-01,5.50000000000000e-01,-2.49592912048950e-04
5.52000000000000e-08,0.00000000000000e+00,5.50000000000000e-01,-1.54396650739096e-04
5.52080000000000e-08,0.00000000000000e+00,5.50000000000000e-01,-2.69493645794414e-05
5.52240000000000e-08,0.00000000000000e+00,5.50000000000000e-01,1.67775794137175e-04
5.52560000000000e-08,0.00000000000000e+00,5.50000000000000e-01,3.30213661967040e-04
5.53200000000000e-08,0.00000000000000e+00,5.50000000000000e-01,3.19249215567599e-04
5.54480000000000e-08,0.00000000000000e+00,5.50000000000000e-01,-3.15906300491491e-04
5.57040000000000e-08,0.00000000000000e+00,5.50000000000000e-01,-1.10451381276887e-03
5.62160000000000e-08,0.00000000000000e+00,5.50000000000000e-01,2.23521785369805e-04
5.71036839420892e-08,0.00000000000000e+00,5.50000000000000e-01,-1.28513900010839e-04
5.84797084353662e-08,0.00000000000000e+00,5.50000000000000e-01,1.16638108022477e-04
6.11497854162581e-08,0.00000000000000e+00,5.50000000000000e-01,-7.90039195091474e-05
6.40555406503374e-08,0.00000000000000e+00,5.50000000000000e-01,5.07236336079577e-05
6.50000000000000e-08,0.00000000000000e+00,5.50000000000000e-01,1.61730439713192e-05
6.50100000000000e-08,5.49999999999896e-02,5.50000000000000e-01,9.64089002885721e-05
6.50300000000000e-08,1.64999999999969e-01,5.50000000000000e-01,2.48686773630505e-04
6.50700000000000e-08,3.84999999999927e-01,5.50000000000000e-01,4.45278504081451e-04
6.51000000000000e-08,5.49999999999969e-01,5.50000000000000e-01,4.33860864212370e-04
6.51080000000000e-08,5.50000000000000e-01,5.50000000000000e-01,3.53358669055448e-04
6.51240000000000e-08,5.50000000000000e-01,5.50000000000000e-01,1.59918753906405e-04
6.51560000000000e-08,5.50000000000000e-01,5.50000000000000e-01,-4.96863180652680e-04
6.52200000000000e-08,5.50000000000000e-01,5.50000000000000e-01,-2.27287485945770e-03
6.53480000000000e-08,5.50000000000000e-01,5.50000000000000e-01,-4.87473405842287e-03
6.56040000000000e-08,5.50000000000000e-01,5.50000000000000e-01,2.34703710956143e-02
6.61159999999999e-08,5.50000000000000e-01,5.50000000000000e-01,4.21500886176590e-01
6.71399999999999e-08,5.50000000000000e-01,5.50000000000000e-01,5.75694804303713e-01
6.83040054388874e-08,5.50000000000000e-01,5.50000000000000e-01,5.25383760366002e-01
7.01000000000000e-08,5.50000000000000e-01,5.50000000000000e-01,5.71333136479064e-01
7.01100000000000e-08,5.50000000000000e-01,4.95000000000010e-01,5.66039872388141e-01
7.01300000000000e-08,5.50000000000000e-01,3.85000000000031e-01,5.58118328502221e-01
7.01700000000000e-08,5.50000000000000e-01,1.65000000000073e-01,5.51689101133874e-01
7.02000000000000e-08,5.50000000000000e-01,3.15303338993544e-14,5.50536973465252e-01
7.02080000000000e-08,5.50000000000000e-01,0.00000000000000e+00,5.50402003611245e-01
7.02240000000000e-08,5.50000000000000e-01,0.00000000000000e+00,5.50184763299212e-01
7.02560000000000e-08,5.50000000000000e-01,0.00000000000000e+00,5.50001399419824e-01
7.03200000000000e-08,5.50000000000000e-01,0.00000000000000e+00,5.49939024758938e-01
7.04480000000000e-08,5.50000000000000e-01,0.00000000000000e+00,5.49941238234602e-01
7.07040000000000e-08,5.50000000000000e-01,0.00000000000000e+00,5.49973809365002e-01
7.12159999999999e-08,5.50000000000000e-01,0.00000000000000e+00,5.49990828956269e-01
7.19912029143695e-08,5.50000000000000e-01,0.00000000000000e+00,5.49966458286637e-01
7.34186624416764e-08,5.50000000000000e-01,0.00000000000000e+00,5.49992109267737e-01
7.51000000000000e-08,5.50000000000000e-01,0.00000000000000e+00,5.49971816710358e-01
7.51100000000000e-08,4.95000000000056e-01,0.00000000000000e+00,5.49897659684819e-01
7.51300000000000e-08,3.85000000000077e-01,0.00000000000000e+00,5.49799589458454e-01
7.51700000000000e-08,1.65000000000118e-01,0.00000000000000e+00,5.49965630078235e-01
7.52000000000000e-08,7.69384556065233e-14,0.00000000000000e+00,5.50986886553727e-01
7.52080000000000e-08,0.00000000000000e+00,0.00000000000000e+00,5.51371665249477e-01
7.52240000000000e-08,0.00000000000000e+00,0.00000000000000e+00,5.51961431263448e-01
7.52560000000000e-08,0.00000000000000e+00,0.00000000000000e+00,5.52515919324765e-01
7.53200000000000e-08,0.00000000000000e+00,0.00000000000000e+00,5.52373878852600e-01
7.54480000000000e-08,0.00000000000000e+00,0.00000000000000e+00,5.44154865893893e-01
7.57040000000000e-08,0.00000000000000e+00,0.00000000000000e+00,5.29790790192024e-01
7.62159999999999e-08,0.00000000000000e+00,0.00000000000000e+00,5.45991407061366e-01
7.69261158416767e-08,0.00000000000000e+00,0.00000000000000e+00,5.51765034349047e-01
7.81000000000000e-08,0.00000000000000e+00,0.00000000000000e+00,5.47961346257508e-01
7.82381293526619e-08,0.00000000000000e+00,0.00000000000000e+00,5.49140584565757e-01
7.85143880579856e-08,0.00000000000000e+00,0.00000000000000e+00,5.49938333126442e-01
7.90669054686330e-08,0.00000000000000e+00,0.00000000000000e+00,5.49650215594197e-01
8.01719402899279e-08,0.00000000000000e+00,0.00000000000000e+00,5.49909421333848e-01
8.23820099325177e-08,0.00000000000000e+00,0.00000000000000e+00,5.49782872733463e-01
8.50000000000000e-08,0.00000000000000e+00,0.00000000000000e+00,5.49971412097665e-01
8.50100000000000e-08,5.49999999999896e-02,0.00000000000000e+00,5.50025773889762e-01
8.50300000000000e-08,1.64999999999969e-01,0.00000000000000e+00,5.50102955945747e-01
8.50700000000000e-08,3.84999999999927e-01,0.00000000000000e+00,5.50108901157722e-01
8.51000000000000e-08,5.49999999999969e-01,0.00000000000000e+00,5.50001450402235e-01
8.51080000000000e-08,5.50000000000000e-01,0.00000000000000e+00,5.49934334267112e-01
8.51240000000000e-08,5.50000000000000e-01,0.00000000000000e+00,5.49824891470045e-01
8.51560000000000e-08,5.50000000000000e-01,0.00000000000000e+00,5.49714014495938e-01
8.52200000000000e-08,5.50000000000000e-01,0.00000000000000e+00,5.49676882017770e-01
8.53480000000000e-08,5.50000000000000e-01,0.00000000000000e+00,5.49733308539252e-01
8.56040000000000e-08,5.50000000000000e-01,0.00000000000000e+00,5.51298687359549e-01
8.61159999999999e-08,5.50000000000000e-01,0.00000000000000e+00,4.59924137812728e-01
8.71399999999999e-08,5.50000000000000e-01,0.00000000000000e+00,2.14281549831995e-02
8.82836497130601e-08,5.50000000000000e-01,0.00000000000000e+00,-1.59789160427155e-02
9.00000000000000e-08,5.50000000000000e-01,0.00000000000000e+00,1.39859223956441e-02
9.00100000000000e-08,5.50000000000000e-01,5.49999999999896e-02,1.15906267034781e-02
9.00300000000000e-08,5.50000000000000e-01,1.64999999999969e-01,8.02948155161427e-03
9.00700000000000e-08,5.50000000000000e-01,3.84999999999927e-01,4.57824845230723e-03
9.01000000000000e-08,5.50000000000000e-01,5.49999999999969e-01,3.16133295342819e-03
9.01080000000000e-08,5.50000000000000e-01,5.50000000000000e-01,2.88325676022138e-03
9.01240000000000e-08,5.50000000000000e-01,5.50000000000000e-01,2.38763540097095e-03
9.01560000000000e-08,5.50000000000000e-01,5.50000000000000e-01,1.64529228177625e-03
9.02200000000000e-08,5.50000000000000e-01,5.50000000000000e-01,7.82867301471021e-04
9.03480000000000e-08,5.50000000000000e-01,5.50000000000000e-01,1.45084067196575e-04
9.06040000000000e-08,5.50000000000000e-01,5.50000000000000e-01,-2.23854776147982e-05
9.11159999999999e-08,5.50000000000000e-01,5.50000000000000e-01,9.30802376527574e-06
9.21399999999999e-08,5.50000000000000e-01,5.50000000000000e-01,-6.68543987406359e-06
9.41879999999998e-08,5.50000000000000e-01,5.50000000000000e-01,5.60313602384222e-06
9.51000000000000e-08,5.50000000000000e-01,5.50000000000000e-01,-2.57133692143155e-06
9.51100000000000e-08,4.95000000000056e-01,5.50000000000000e-01,-5.74054469304683e-05
9.51300000000000e-08,3.85000000000077e-01,5.50000000000000e-01,-1.49369395386352e-04
9.51700000000000e-08,1.65000000000118e-01,5.50000000000000e-01,-2.49430760151388e-04
9.52000000000000e-08,7.69384556065233e-14,5.50000000000000e-01,-1.54282928259634e-04
9.52080000000000e-08,0.00000000000000e+00,5.50000000000000e-01,-2.68442020691373e-05
9.52240000000000e-08,0.00000000000000e+00,5.50000000000000e-01,1.67863586778796e-04
9.52560000000000e-08,0.00000000000000e+00,5.50000000000000e-01,3.30271741649971e-04
9.53200000000000e-08,0.00000000000000e+00,5.50000000000000e-01,3.19245204947638e-04
9.54480000000000e-08,0.00000000000000e+00,5.50000000000000e-01,-3.16236437872569e-04
9.57040000000000e-08,0.00000000000000e+00,5.50000000000000e-01,-1.10582564038738e-03
9.62159999999999e-08,0.00000000000000e+00,5.50000000000000e-01,2.23737842569231e-04
9.71030300867522e-08,0.00000000000000e+00,5.50000000000000e-01,-1.28496763931269e-04
9.84793212479226e-08,0.00000000000000e+00,5.50000000000000e-01,1.16555951317250e-04
1.01148470052678e-07,0.00000000000000e+00,5.50000000000000e-01,-7.88571854072459e-05
1.04053642025220e-07,0.00000000000000e+00,5.50000000000000e-01,5.05394790090334e-05
1.05000000000000e-07,0.00000000000000e+00,5.50000000000000e-01,1.63007346304818e-05
1.05010000000000e-07,5.49999999999896e-02,5.50000000000000e-01,9.64728183506999e-05
1.05030000000000e-07,1.64999999999969e-01,5.50000000000000e-01,2.48666450435399e-04
1.05070000000000e-07,3.84999999999927e-01,5.50000000000000e-01,4.45198492219322e-04
1.05100000000000e-07,5.49999999999969e-01,5.50000000000000e-01,4.33665103050755e-04
1.05108000000000e-07,5.50000000000000e-01,5.50000000000000e-01,3.53046132142779e-04
1.05124000000000e-07,5.50000000000000e-01,5.50000000000000e-01,1.59201412004172e-04
1.05156000000000e-07,5.50000000000000e-01,5.50000000000000e-01,-4.98647981527170e-04
1.05220000000000e-07,5.50000000000000e-01,5.50000000000000e-01,-2.27514296605941e-03
1.05348000000000e-07,5.50000000000000e-01,5.50000000000000e-01,-4.87568073756370e-03
1.05604000000000e-07,5.50000000000000e-01,5.50000000000000e-01,2.35023798717176e-02
1.06116000000000e-07,5.50000000000000e-01,5.50000000000000e-01,4.21551032000020e-01
1.07140000000000e-07,5.50000000000000e-01,5.50000000000000e-01,5.75692114443155e-01
1.08304015255775e-07,5.50000000000000e-01,5.50000000000000e-01,5.25384879212328e-01
1.10100000000000e-07,5.50000000000000e-01,5.50000000000000e-01,5.71331322945828e-01
1.10110000000000e-07,5.50000000000000e-01,4.95000000000083e-01,5.66038495773347e-01
1.10130000000000e-07,5.50000000000000e-01,3.85000000000104e-01,5.58117678456946e-01
1.10170000000000e-07,5.50000000000000e-01,1.65000000000146e-01,5.51670064365069e-01
1.10200000000000e-07,5.50000000000000e-01,1.04249942012302e-13,5.50533596506206e-01
1.10208000000000e-07,5.50000000000000e-01,0.00000000000000e+00,5.50398750340974e-01
1.10224000000000e-07,5.50000000000000e-01,0.00000000000000e+00,5.50182536710693e-01
1.10256000000000e-07,5.50000000000000e-01,0.00000000000000e+00,5.49978189890979e-01
1.10320000000000e-07,5.50000000000000e-01,0.00000000000000e+00,5.49941320061151e-01
1.10448000000000e-07,5.50000000000000e-01,0.00000000000000e+00,5.49943404622829e-01
