Time,v(clk),v(data),v(out)
1.00000000000000e-08,5.50000000000000e-01,0.00000000000000e+00,2.25046714918686e-05
1.00100000000000e-08,5.50000000000000e-01,5.49999999999987e-02,2.15484511242522e-05
1.00300000000000e-08,5.50000000000000e-01,1.64999999999996e-01,1.96965918764364e-05
1.00700000000000e-08,5.50000000000000e-01,3.84999999999991e-01,1.71161463095246e-05
1.01000000000000e-08,5.50000000000000e-01,5.49999999999996e-01,1.28182079615763e-05
1.01080000000000e-08,5.50000000000000e-01,5.50000000000000e-01,1.18899794575716e-05
1.01240000000000e-08,5.50000000000000e-01,5.50000000000000e-01,9.67078040890051e-06
1.01560000000000e-08,5.50000000000000e-01,5.50000000000000e-01,8.24551735290752e-06
1.02200000000000e-08,5.50000000000000e-01,5.50000000000000e-01,9.53035148089365e-06
1.03480000000000e-08,5.50000000000000e-01,5.50000000000000e-01,1.48175830177941e-05
1.06040000000000e-08,5.50000000000000e-01,5.50000000000000e-01,1.53326700246953e-05
1.11160000000000e-08,5.50000000000000e-01,5.50000000000000e-01,9.77436979864715e-06
1.20683313084406e-08,5.50000000000000e-01,5.50000000000000e-01,1.24538289655047e-05
1.39729939253220e-08,5.50000000000000e-01,5.50000000000000e-01,9.89720150011003e-06
1.51000000000000e-08,5.50000000000000e-01,5.50000000000000e-01,1.09183983920957e-05
1.51100000000000e-08,4.94999999999992e-01,5.50000000000000e-01,-4.96819663856132e-05
1.51300000000000e-08,3.84999999999995e-01,5.50000000000000e-01,-1.63488649501754e-04
1.51700000000000e-08,1.65000000000000e-01,5.50000000000000e-01,-3.13358445023143e-04
1.52000000000000e-08,0.00000000000000e+00,5.50000000000000e-01,-2.51011283379385e-04
1.52080000000000e-08,0.00000000000000e+00,5.50000000000000e-01,-1.36424061415272e-04
1.52240000000000e-08,0.00000000000000e+00,5.50000000000000e-01,5.60669133523942e-05
1.52560000000000e-08,0.00000000000000e+00,5.50000000000000e-01,2.76361178647676e-04
1.53200000000000e-08,0.00000000000000e+00,5.50000000000000e-01,3.87684801079001e-04
1.54480000000000e-08,0.00000000000000e+00,5.50000000000000e-01,2.07720638716880e-04
1.57040000000000e-08,0.00000000000000e+00,5.50000000000000e-01,-1.90346818660741e-04
1.62160000000000e-08,0.00000000000000e+00,5.50000000000000e-01,-6.12938275403214e-05
1.72400000000000e-08,0.00000000000000e+00,5.50000000000000e-01,-7.50018596455074e-05
1.85853967596259e-08,0.00000000000000e+00,5.50000000000000e-01,1.00888495962898e-04
2.11608428455642e-08,0.00000000000000e+00,5.50000000000000e-01,-2.92469790802007e-06
2.45769988958019e-08,0.00000000000000e+00,5.50000000000000e-01,-2.55528563126782e-05
2.50000000000000e-08,0.00000000000000e+00,5.50000000000000e-01,1.27339180100730e-04
2.50100000000000e-08,5.49999999999896e-02,5.50000000000000e-01,2.24537075112261e-04
2.50300000000000e-08,1.65000000000005e-01,5.50000000000000e-01,3.97665201669846e-04
2.50700000000000e-08,3.85000000000000e-01,5.50000000000000e-01,6.34268302425411e-04
2.51000000000000e-08,5.50000000000000e-01,5.50000000000000e-01,6.79085939099169e-04
2.51080000000000e-08,5.50000000000000e-01,5.50000000000000e-01,6.20231242371053e-04
2.51240000000000e-08,5.50000000000000e-01,5.50000000000000e-01,5.03127461995122e-04
2.51560000000000e-08,5.50000000000000e-01,5.50000000000000e-01,2.17699190642455e-04
2.52200000000000e-08,5.50000000000000e-01,5.50000000000000e-01,-7.53183952005652e-04
2.53480000000000e-08,5.50000000000000e-01,5.50000000000000e-01,-3.03557615733672e-03
2.56040000000000e-08,5.50000000000000e-01,5.50000000000000e-01,-3.48006309685957e-03
2.61160000000000e-08,5.50000000000000e-01,5.50000000000000e-01,1.98920850995078e-01
2.71400000000000e-08,5.50000000000000e-01,5.50000000000000e-01,5.50915485571239e-01
2.88621433258085e-08,5.50000000000000e-01,5.50000000000000e-01,5.48312569853122e-01
3.13379548866476e-08,5.50000000000000e-01,5.50000000000000e-01,5.52006347220446e-01
3.49958223861403e-08,5.50000000000000e-01,5.50000000000000e-01,5.48050478248842e-01
3.51000000000000e-08,5.49999999999973e-01,5.50000000000000e-01,5.50660972852325e-01
3.51100000000000e-08,4.94999999999983e-01,5.50000000000000e-01,5.50484720175255e-01
3.51300000000000e-08,3.84999999999968e-01,5.50000000000000e-01,5.50199996797495e-01
3.51700000000000e-08,1.64999999999973e-01,5.50000000000000e-01,5.50197138911025e-01
3.52000000000000e-08,0.00000000000000e+00,5.50000000000000e-01,5.51094032528180e-01
3.52080000000000e-08,0.00000000000000e+00,5.50000000000000e-01,5.51443968404065e-01
3.52240000000000e-08,0.00000000000000e+00,5.50000000000000e-01,5.51996075059904e-01
3.52560000000000e-08,0.00000000000000e+00,5.50000000000000e-01,5.52562260955965e-01
3.53200000000000e-08,0.00000000000000e+00,5.50000000000000e-01,5.52641760180109e-01
3.54480000000000e-08,0.00000000000000e+00,5.50000000000000e-01,5.48049792327620e-01
3.57040000000000e-08,0.00000000000000e+00,5.50000000000000e-01,5.31491476117130e-01
3.62160000000000e-08,0.00000000000000e+00,5.50000000000000e-01,5.39544006379984e-01
3.72400000000000e-08,0.00000000000000e+00,5.50000000000000e-01,5.54395955215125e-01
3.86154490051039e-08,0.00000000000000e+00,5.50000000000000e-01,5.45437891714332e-01
4.13663470153115e-08,0.00000000000000e+00,5.50000000000000e-01,5.53225851644186e-01
4.50000000000000e-08,0.00000000000000e+00,5.50000000000000e-01,5.46558888981044e-01
4.50100000000000e-08,5.49999999999896e-02,5.50000000000000e-01,5.46982583269495e-01
4.50300000000000e-08,1.65000000000005e-01,5.50000000000000e-01,5.47728669879629e-01
4.50700000000000e-08,3.85000000000000e-01,5.50000000000000e-01,5.48750550506580e-01
4.51000000000000e-08,5.50000000000000e-01,5.50000000000000e-01,5.49174695481599e-01
4.51080000000000e-08,5.50000000000000e-01,5.06000000000023e-01,5.49202644484069e-01
4.51240000000000e-08,5.50000000000000e-01,4.17999999999996e-01,5.49243438591043e-01
4.51560000000000e-08,5.50000000000000e-01,2.42000000000015e-01,5.49217056398090e-01
4.52000000000000e-08,5.50000000000000e-01,3.15303338993544e-14,5.48994674394716e-01
4.52064000000000e-08,5.50000000000000e-01,0.00000000000000e+00,5.48950848523079e-01
4.52192000000000e-08,5.50000000000000e-01,0.00000000000000e+00,5.48861419142326e-01
4.52448000000000e-08,5.50000000000000e-01,0.00000000000000e+00,5.48688174551294e-01
4.52960000000000e-08,5.50000000000000e-01,0.00000000000000e+00,5.48408763814397e-01
4.53984000000000e-08,5.50000000000000e-01,0.00000000000000e+00,5.48131772943158e-01
4.56032000000000e-08,5.50000000000000e-01,0.00000000000000e+00,5.48311389358569e-01
4.60128000000000e-08,5.50000000000000e-01,0.00000000000000e+00,5.49348520883565e-01
4.67507420595584e-08,5.50000000000000e-01,0.00000000000000e+00,5.49388747284040e-01
4.80026306794169e-08,5.50000000000000e-01,0.00000000000000e+00,5.49987193770010e-01
4.95678590433172e-08,5.50000000000000e-01,0.00000000000000e+00,5.50035914982357e-01
5.26983157711180e-08,5.50000000000000e-01,0.00000000000000e+00,5.49959824253328e-01
5.51000000000000e-08,5.50000000000000e-01,0.00000000000000e+00,5.50043146633598e-01
5.51100000000000e-08,4.95000000000020e-01,0.00000000000000e+00,5.49965803642395e-01
5.51300000000000e-08,3.85000000000004e-01,0.00000000000000e+00,5.49847870410207e-01
5.51700000000000e-08,1.65000000000009e-01,0.00000000000000e+00,5.49992979792096e-01
5.52000000000000e-08,0.00000000000000e+00,0.00000000000000e+00,5.50953290307900e-01
5.52080000000000e-08,0.00000000000000e+00,0.00000000000000e+00,5.51323486145525e-01
5.52240000000000e-08,0.00000000000000e+00,0.00000000000000e+00,5.51920096770840e-01
5.52560000000000e-08,0.00000000000000e+00,0.00000000000000e+00,5.52593267852242e-01
5.53200000000000e-08,0.00000000000000e+00,0.00000000000000e+00,5.53182481813741e-01
5.54480000000000e-08,0.00000000000000e+00,0.00000000000000e+00,5.53772679340688e-01
5.57040000000000e-08,0.00000000000000e+00,0.00000000000000e+00,5.52362076212473e-01
5.62160000000000e-08,0.00000000000000e+00,0.00000000000000e+00,5.49081407136914e-01
5.70379283491249e-08,0.00000000000000e+00,0.00000000000000e+00,5.49920531341271e-01
5.83404956323760e-08,0.00000000000000e+00,0.00000000000000e+00,5.49572820201596e-01
6.03190278259949e-08,0.00000000000000e+00,0.00000000000000e+00,5.49864924369982e-01
6.40918274133390e-08,0.00000000000000e+00,0.00000000000000e+00,5.49755193760409e-01
6.50000000000000e-08,0.00000000000000e+00,0.00000000000000e+00,5.49827324941475e-01
6.50100000000000e-08,5.49999999999896e-02,0.00000000000000e+00,5.49905842714490e-01
6.50300000000000e-08,1.64999999999969e-01,0.00000000000000e+00,5.50026728807973e-01
6.50700000000000e-08,3.84999999999927e-01,0.00000000000000e+00,5.50101463572021e-01
6.51000000000000e-08,5.49999999999969e-01,0.00000000000000e+00,5.50034004901304e-01
6.51080000000000e-08,5.50000000000000e-01,0.00000000000000e+00,5.49970715897892e-01
6.51240000000000e-08,5.50000000000000e-01,0.00000000000000e+00,5.49865393308757e-01
6.51560000000000e-08,5.50000000000000e-01,0.00000000000000e+00,5.49743126404487e-01
6.52200000000000e-08,5.50000000000000e-01,0.00000000000000e+00,5.49660108625323e-01
6.53480000000000e-08,5.50000000000000e-01,0.00000000000000e+00,5.49665676104221e-01
6.56040000000000e-08,5.50000000000000e-01,0.00000000000000e+00,5.49931405430323e-01
6.61159999999999e-08,5.50000000000000e-01,0.00000000000000e+00,5.57891055554474e-01
6.71399999999999e-08,5.50000000000000e-01,0.00000000000000e+00,1.68036225030399e-01
6.86656012534507e-08,5.50000000000000e-01,0.00000000000000e+00,-6.45206246679715e-02
7.04461235020913e-08,5.50000000000000e-01,0.00000000000000e+00,5.89924614170254e-02
7.37184073918132e-08,5.50000000000000e-01,0.00000000000000e+00,-4.03121731226652e-02
7.51000000000000e-08,5.50000000000000e-01,0.00000000000000e+00,3.04569366036197e-02
7.51100000000000e-08,4.95000000000056e-01,0.00000000000000e+00,2.87193109497806e-02
7.51300000000000e-08,3.85000000000077e-01,0.00000000000000e+00,2.53060553066181e-02
7.51700000000000e-08,1.65000000000118e-01,0.00000000000000e+00,1.92841818490268e-02
7.52000000000000e-08,7.69384556065233e-14,0.00000000000000e+00,1.57447706326067e-02
7.52080000000000e-08,0.00000000000000e+00,0.00000000000000e+00,1.50296139345063e-02
7.52240000000000e-08,0.00000000000000e+00,0.00000000000000e+00,1.36397943304428e-02
7.52560000000000e-08,0.00000000000000e+00,0.00000000000000e+00,1.11605697186361e-02
7.53200000000000e-08,0.00000000000000e+00,0.00000000000000e+00,7.28726167193863e-03
7.54480000000000e-08,0.00000000000000e+00,0.00000000000000e+00,2.60186257705090e-03
7.57040000000000e-08,0.00000000000000e+00,0.00000000000000e+00,-1.10327483089140e-03
7.62159999999999e-08,0.00000000000000e+00,0.00000000000000e+00,-3.39929035060475e-04
7.70988470235161e-08,0.00000000000000e+00,0.00000000000000e+00,3.57451323874765e-04
7.85000889242324e-08,0.00000000000000e+00,0.00000000000000e+00,-2.95755490722853e-04
8.08175924015004e-08,0.00000000000000e+00,0.00000000000000e+00,2.88280100905875e-04
8.46175924015004e-08,0.00000000000000e+00,0.00000000000000e+00,-2.59118359907458e-04
8.50000000000000e-08,0.00000000000000e+00,0.00000000000000e+00,1.48516956649178e-04
8.50100000000000e-08,5.49999999999896e-02,0.00000000000000e+00,2.15844221785416e-04
8.50300000000000e-08,1.64999999999969e-01,0.00000000000000e+00,3.35459893981857e-04
8.50700000000000e-08,3.84999999999927e-01,0.00000000000000e+00,4.51301298922728e-04
8.51000000000000e-08,5.49999999999969e-01,0.00000000000000e+00,3.93222022258152e-04
8.51080000000000e-08,5.50000000000000e-01,0.00000000000000e+00,3.16095803514778e-04
8.51240000000000e-08,5.50000000000000e-01,0.00000000000000e+00,1.76477687632542e-04
8.51560000000000e-08,5.50000000000000e-01,0.00000000000000e+00,-1.94361162169088e-05
8.52200000000000e-08,5.50000000000000e-01,0.00000000000000e+00,-1.99300310529435e-04
8.53480000000000e-08,5.50000000000000e-01,0.00000000000000e+00,-2.13949169234152e-04
8.56040000000000e-08,5.50000000000000e-01,0.00000000000000e+00,-5.96380662342237e-05
8.61159999999999e-08,5.50000000000000e-01,0.00000000000000e+00,5.94210011364074e-05
8.71399999999999e-08,5.50000000000000e-01,0.00000000000000e+00,2.55545242468149e-05
8.91879999999998e-08,5.50000000000000e-01,0.00000000000000e+00,4.74039014869768e-07
9.00000000000000e-08,5.50000000000000e-01,0.00000000000000e+00,2.24322159030604e-05
9.00100000000000e-08,5.50000000000000e-01,5.49999999999896e-02,2.14323655358256e-05
9.00300000000000e-08,5.50000000000000e-01,1.64999999999969e-01,1.95535273555120e-05
9.00700000000000e-08,5.50000000000000e-01,3.84999999999927e-01,1.69367045373542e-05
9.01000000000000e-08,5.50000000000000e-01,5.49999999999969e-01,1.26967439194325e-05
9.01080000000000e-08,5.50000000000000e-01,5.50000000000000e-01,1.17646420408415e-05
9.01240000000000e-08,5.50000000000000e-01,5.50000000000000e-01,9.58304024237938e-06
9.01560000000000e-08,5.50000000000000e-01,5.50000000000000e-01,8.22433770460151e-06
9.02200000000000e-08,5.50000000000000e-01,5.50000000000000e-01,9.54007870603707e-06
9.03480000000000e-08,5.50000000000000e-01,5.50000000000000e-01,1.46809149894900e-05
9.06040000000000e-08,5.50000000000000e-01,5.50000000000000e-01,1.51695557888964e-05
9.11159999999999e-08,5.50000000000000e-01,5.50000000000000e-01,9.86645433118799e-06
9.21134367578107e-08,5.50000000000000e-01,5.50000000000000e-01,1.24472549383609e-05
9.41083102734322e-08,5.50000000000000e-01,5.50000000000000e-01,9.82129752895126e-06
9.51000000000000e-08,5.50000000000000e-01,5.50000000000000e-01,1.09240816777399e-05
9.51100000000000e-08,4.95000000000056e-01,5.50000000000000e-01,-4.95894244943035e-05
9.51300000000000e-08,3.85000000000077e-01,5.50000000000000e-01,-1.63444508903356e-04
9.51700000000000e-08,1.65000000000118e-01,5.50000000000000e-01,-3.13359496118104e-04
9.52000000000000e-08,7.69384556065233e-14,5.50000000000000e-01,-2.51042456380600e-04
9.52080000000000e-08,0.00000000000000e+00,5.50000000000000e-01,-1.36460626704971e-04
9.52240000000000e-08,0.00000000000000e+00,5.50000000000000e-01,5.60224235017850e-05
9.52560000000000e-08,0.00000000000000e+00,5.50000000000000e-01,2.76311180512502e-04
9.53200000000000e-08,0.00000000000000e+00,5.50000000000000e-01,3.87638334339913e-04
9.54480000000000e-08,0.00000000000000e+00,5.50000000000000e-01,2.07667461896460e-04
9.57040000000000e-08,0.00000000000000e+00,5.50000000000000e-01,-1.90391282881997e-04
9.62159999999999e-08,0.00000000000000e+00,5.50000000000000e-01,-6.12765381169632e-05
9.72399999999999e-08,0.00000000000000e+00,5.50000000000000e-01,-7.50140575350219e-05
9.85854248077591e-08,0.00000000000000e+00,5.50000000000000e-01,1.00899156186267e-04
1.01160923714012e-07,0.00000000000000e+00,5.50000000000000e-01,-2.93530391151566e-06
1.04577050259768e-07,0.00000000000000e+00,5.50000000000000e-01,-2.55437513729064e-05
1.05000000000000e-07,0.00000000000000e+00,5.50000000000000e-01,1.27338350137222e-04
1.05010000000000e-07,5.49999999999896e-02,5.50000000000000e-01,2.24536446052102e-04
1.05030000000000e-07,1.64999999999969e-01,5.50000000000000e-01,3.97664790026231e-04
1.05070000000000e-07,3.84999999999927e-01,5.50000000000000e-01,6.34267129578515e-04
1.05100000000000e-07,5.49999999999969e-01,5.50000000000000e-01,6.79084864610512e-04
1.05108000000000e-07,5.50000000000000e-01,5.50000000000000e-01,6.20230707259244e-04
1.05124000000000e-07,5.50000000000000e-01,5.50000000000000e-01,5.03128802446857e-04
1.05156000000000e-07,5.50000000000000e-01,5.50000000000000e-01,2.17710582904269e-04
1.05220000000000e-07,5.50000000000000e-01,5.50000000000000e-01,-7.53150250154197e-04
1.05348000000000e-07,5.50000000000000e-01,5.50000000000000e-01,-3.03554167153749e-03
1.05604000000000e-07,5.50000000000000e-01,5.50000000000000e-01,-3.48011791443710e-03
1.06116000000000e-07,5.50000000000000e-01,5.50000000000000e-01,1.98919782946980e-01
1.07140000000000e-07,5.50000000000000e-01,5.50000000000000e-01,5.50915208848045e-01
1.08862148985557e-07,5.50000000000000e-01,5.50000000000000e-01,5.48312712853115e-01
1.11337959162755e-07,5.50000000000000e-01,5.50000000000000e-01,5.52006197714424e-01
1.14995832708770e-07,5.50000000000000e-01,5.50000000000000e-01,5.48050607933106e-01
1.15100000000000e-07,5.50000000000000e-01,5.50000000000000e-01,5.50660858559388e-01
1.15110000000000e-07,4.95000000000056e-01,5.50000000000000e-01,5.50484630135617e-01
1.15130000000000e-07,3.85000000000077e-01,5.50000000000000e-01,5.50199952872464e-01
1.15170000000000e-07,1.65000000000118e-01,5.50000000000000e-01,5.50197134191359e-01
1.15200000000000e-07,7.69384556065233e-14,5.50000000000000e-01,5.51094034216029e-01
1.15208000000000e-07,0.00000000000000e+00,5.50000000000000e-01,5.51443971314502e-01
1.15224000000000e-07,0.00000000000000e+00,5.50000000000000e-01,5.51996080022976e-01
1.15256000000000e-07,0.00000000000000e+00,5.50000000000000e-01,5.52562267651366e-01
1.15320000000000e-07,0.00000000000000e+00,5.50000000000000e-01,5.52641767055290e-01
1.15448000000000e-07,0.00000000000000e+00,5.50000000000000e-01,5.48049799959345e-01
1.15704000000000e-07,0.00000000000000e+00,5.50000000000000e-01,5.31491478481587e-01
1.16216000000000e-07,0.00000000000000e+00,5.50000000000000e-01,5.39544008504673e-01
1.17240000000000e-07,0.00000000000000e+00,5.50000000000000e-01,5.54395953788406e-01
1.18615449019892e-07,0.00000000000000e+00,5.50000000000000e-01,5.45437892820912e-01
1.21366347059677e-07,0.00000000000000e+00,5.50000000000000e-01,5.53225850611069e-01
1.25000000000000e-07,0.00000000000000e+00,5.50000000000000e-01,5.46558889902429e-01
1.25010000000000e-07,5.49999999999168e-02,5.50000000000000e-01,5.46982584009434e-01
1.25030000000000e-07,1.64999999999896e-01,5.50000000000000e-01,5.47728670371125e-01
1.25070000000000e-07,3.84999999999854e-01,5.50000000000000e-01,5.48750550803919e-01
1.25100000000000e-07,5.49999999999896e-01,5.50000000000000e-01,5.49174695717329e-01
1.25108000000000e-07,5.50000000000000e-01,5.05999999999950e-01,5.49202644717088e-01
1.25124000000000e-07,5.50000000000000e-01,4.17999999999996e-01,5.49243438816906e-01
1.25156000000000e-07,5.50000000000000e-01,2.41999999999942e-01,5.49217056582362e-01
1.25200000000000e-07,5.50000000000000e-01,0.00000000000000e+00,5.48994674504555e-01
1.25206400000000e-07,5.50000000000000e-01,0.00000000000000e+00,5.48950848630365e-01
1.25219200000000e-07,5.50000000000000e-01,0.00000000000000e+00,5.48861419242158e-01
1.25244800000000e-07,5.50000000000000e-01,0.00000000000000e+00,5.48688174624175e-01
1.25296000000000e-07,5.50000000000000e-01,0.00000000000000e+00,5.48408763830723e-01
1.25398400000000e-07,5.50000000000000e-01,0.00000000000000e+00,5.48131772883159e-01
1.25603200000000e-07,5.50000000000000e-01,0.00000000000000e+00,5.48311389185511e-01
1.26012800000000e-07,5.50000000000000e-01,0.00000000000000e+00,5.49348520563968e-01
1.26750742163394e-07,5.50000000000000e-01,0.00000000000000e+00,5.49388747394556e-01
1.28002630717134e-07,5.50000000000000e-01,0.00000000000000e+00,5.49987193958914e-01
1.29567859101522e-07,5.50000000000000e-01,0.00000000000000e+00,5.50035914891681e-01
1.32698315870297e-07,5.50000000000000e-01,0.00000000000000e+00,5.49959824318151e-01
1.35100000000000e-07,5.49999999999900e-01,0.00000000000000e+00,5.50043146589694e-01
1.35110000000000e-07,4.94999999999838e-01,0.00000000000000e+00,5.49965803577899e-01
1.35130000000000e-07,3.84999999999858e-01,0.00000000000000e+00,5.49847870323694e-01
1.35170000000000e-07,1.64999999999900e-01,0.00000000000000e+00,5.49992979717598e-01
1.35200000000000e-07,0.00000000000000e+00,0.00000000000000e+00,5.50953290262757e-01
1.35208000000000e-07,0.00000000000000e+00,0.00000000000000e+00,5.51323486101616e-01
1.35224000000000e-07,0.00000000000000e+00,0.00000000000000e+00,5.51920096725895e-01
1.35256000000000e-07,0.00000000000000e+00,0.00000000000000e+00,5.52593267823660e-01
1.35320000000000e-07,0.00000000000000e+00,0.00000000000000e+00,5.53182481816329e-01
1.35448000000000e-07,0.00000000000000e+00,0.00000000000000e+00,5.53772679375685e-01
1.35704000000000e-07,0.00000000000000e+00,0.00000000000000e+00,5.52362076187912e-01
1.36216000000000e-07,0.00000000000000e+00,0.00000000000000e+00,5.49081407137959e-01
1.37037928345778e-07,0.00000000000000e+00,0.00000000000000e+00,5.49920531338213e-01
