Time,v(clk),v(data),v(out)
1.00000000000000e-08,6.00000000000000e-01,0.00000000000000e+00,3.21795822995023e-05
1.00100000000000e-08,6.00000000000000e-01,5.99999999999985e-02,2.33325682547636e-05
1.00300000000000e-08,6.00000000000000e-01,1.79999999999996e-01,8.94126511462312e-06
1.00700000000000e-08,6.00000000000000e-01,4.19999999999990e-01,-8.21916251031451e-08
1.01000000000000e-08,6.00000000000000e-01,5.99999999999995e-01,2.17186232803757e-07
1.01080000000000e-08,6.00000000000000e-01,6.00000000000000e-01,-9.51599949006177e-07
1.01240000000000e-08,6.00000000000000e-01,6.00000000000000e-01,2.41235763849545e-06
1.01560000000000e-08,6.00000000000000e-01,6.00000000000000e-01,7.82698083412470e-06
1.02200000000000e-08,6.00000000000000e-01,6.00000000000000e-01,5.00698330924143e-06
1.03480000000000e-08,6.00000000000000e-01,6.00000000000000e-01,-3.23761764196850e-07
1.06040000000000e-08,6.00000000000000e-01,6.00000000000000e-01,3.65591437770374e-06
1.11160000000000e-08,6.00000000000000e-01,6.00000000000000e-01,8.29897466001622e-07
1.21400000000000e-08,6.00000000000000e-01,6.00000000000000e-01,3.09360271756598e-06
1.41880000000000e-08,6.00000000000000e-01,6.00000000000000e-01,7.20951294137274e-07
1.51000000000000e-08,6.00000000000000e-01,6.00000000000000e-01,2.72175574571494e-06
1.51100000000000e-08,5.39999999999991e-01,6.00000000000000e-01,-1.27206695653456e-04
1.51300000000000e-08,4.19999999999994e-01,6.00000000000000e-01,-2.55416449785800e-04
1.51700000000000e-08,1.80000000000000e-01,6.00000000000000e-01,1.91898179745104e-05
1.52000000000000e-08,0.00000000000000e+00,6.00000000000000e-01,8.24277762249859e-04
1.52080000000000e-08,0.00000000000000e+00,6.00000000000000e-01,1.08145290410580e-03
1.52240000000000e-08,0.00000000000000e+00,6.00000000000000e-01,1.11853225121705e-03
1.52560000000000e-08,0.00000000000000e+00,6.00000000000000e-01,-7.38166407613094e-05
1.53200000000000e-08,0.00000000000000e+00,6.00000000000000e-01,-7.80824027385760e-04
1.54480000000000e-08,0.00000000000000e+00,6.00000000000000e-01,3.09862133783000e-04
1.56482414411404e-08,0.00000000000000e+00,6.00000000000000e-01,-3.17941253618136e-04
1.59668769144998e-08,0.00000000000000e+00,6.00000000000000e-01,1.90042966246272e-04
1.64131978139529e-08,0.00000000000000e+00,6.00000000000000e-01,-2.01618870778499e-05
1.70859905176268e-08,0.00000000000000e+00,6.00000000000000e-01,-4.70928453416078e-05
1.82883575583111e-08,0.00000000000000e+00,6.00000000000000e-01,7.66237148764285e-05
2.05750463630141e-08,0.00000000000000e+00,6.00000000000000e-01,-8.67687197392583e-05
2.43750463630142e-08,0.00000000000000e+00,6.00000000000000e-01,9.49912248173926e-05
2.50000000000000e-08,0.00000000000000e+00,6.00000000000000e-01,-1.22314316605478e-04
2.50100000000000e-08,5.99999999999886e-02,6.00000000000000e-01,1.75205632727507e-04
2.50300000000000e-08,1.80000000000006e-01,6.00000000000000e-01,5.84535970808819e-04
2.50700000000000e-08,4.20000000000000e-01,6.00000000000000e-01,9.35187291467937e-04
2.51000000000000e-08,6.00000000000000e-01,6.00000000000000e-01,7.91659231533653e-05
2.51080000000000e-08,6.00000000000000e-01,6.00000000000000e-01,-7.29109932728081e-04
2.51240000000000e-08,6.00000000000000e-01,6.00000000000000e-01,-2.37462205757959e-03
2.51560000000000e-08,6.00000000000000e-01,6.00000000000000e-01,-5.04021648348341e-03
2.52200000000000e-08,6.00000000000000e-01,6.00000000000000e-01,-6.99727499248166e-03
2.53480000000000e-08,6.00000000000000e-01,6.00000000000000e-01,1.39636339055688e-01
2.56040000000000e-08,6.00000000000000e-01,6.00000000000000e-01,5.81994717336305e-01
2.61160000000000e-08,6.00000000000000e-01,6.00000000000000e-01,6.05100774262230e-01
2.66385926997729e-08,6.00000000000000e-01,6.00000000000000e-01,5.94698577849627e-01
2.75335542656193e-08,6.00000000000000e-01,6.00000000000000e-01,6.04489052349845e-01
2.88325784259772e-08,6.00000000000000e-01,6.00000000000000e-01,5.95301182712459e-01
3.01000000000000e-08,6.00000000000000e-01,6.00000000000000e-01,6.04327257190930e-01
3.01100000000000e-08,6.00000000000000e-01,5.40000000000031e-01,6.01809231081519e-01
3.01300000000000e-08,6.00000000000000e-01,4.20000000000014e-01,5.99792244857593e-01
3.01700000000000e-08,6.00000000000000e-01,1.80000000000020e-01,6.00221132116883e-01
3.02000000000000e-08,6.00000000000000e-01,1.44328993201270e-14,6.00021957034914e-01
3.02080000000000e-08,6.00000000000000e-01,0.00000000000000e+00,6.00035011027189e-01
3.02240000000000e-08,6.00000000000000e-01,0.00000000000000e+00,6.00014530793162e-01
3.02560000000000e-08,6.00000000000000e-01,0.00000000000000e+00,5.99972464741724e-01
3.03200000000000e-08,6.00000000000000e-01,0.00000000000000e+00,6.00009557374914e-01
3.04480000000000e-08,6.00000000000000e-01,0.00000000000000e+00,6.00011378796169e-01
3.06463455950506e-08,6.00000000000000e-01,0.00000000000000e+00,5.99976709123839e-01
3.09469827325445e-08,6.00000000000000e-01,0.00000000000000e+00,6.00012435301877e-01
3.15482570075321e-08,6.00000000000000e-01,0.00000000000000e+00,5.99977245139859e-01
3.27508055575075e-08,6.00000000000000e-01,0.00000000000000e+00,6.00013003946538e-01
3.51000000000000e-08,5.99999999999970e-01,0.00000000000000e+00,5.99978310930714e-01
3.51100000000000e-08,5.39999999999982e-01,0.00000000000000e+00,5.99885689585281e-01
3.51300000000000e-08,4.19999999999965e-01,0.00000000000000e+00,5.99828962187733e-01
3.51700000000000e-08,1.79999999999970e-01,0.00000000000000e+00,6.01001939889287e-01
3.52000000000000e-08,0.00000000000000e+00,0.00000000000000e+00,6.04618384725569e-01
3.52080000000000e-08,0.00000000000000e+00,0.00000000000000e+00,6.05333619540100e-01
3.52240000000000e-08,0.00000000000000e+00,0.00000000000000e+00,6.04254827422184e-01
3.52560000000000e-08,0.00000000000000e+00,0.00000000000000e+00,5.93610809109592e-01
3.53200000000000e-08,0.00000000000000e+00,0.00000000000000e+00,5.89830515682642e-01
3.54480000000000e-08,0.00000000000000e+00,0.00000000000000e+00,6.01872907713653e-01
3.56444139296338e-08,0.00000000000000e+00,0.00000000000000e+00,5.97883189492515e-01
3.59358127700689e-08,0.00000000000000e+00,0.00000000000000e+00,6.01343675607586e-01
3.64295164823377e-08,0.00000000000000e+00,0.00000000000000e+00,5.98524032066125e-01
3.73516773048006e-08,0.00000000000000e+00,0.00000000000000e+00,6.01233210171480e-01
3.91000000000000e-08,0.00000000000000e+00,0.00000000000000e+00,5.98705778535037e-01
3.92844321644926e-08,0.00000000000000e+00,0.00000000000000e+00,5.99883528129056e-01
3.96532964934777e-08,0.00000000000000e+00,0.00000000000000e+00,6.00039693296893e-01
4.03910251514481e-08,0.00000000000000e+00,0.00000000000000e+00,5.99904830027558e-01
4.18664824673887e-08,0.00000000000000e+00,0.00000000000000e+00,6.00040839643141e-01
4.48173970992700e-08,0.00000000000000e+00,0.00000000000000e+00,5.99917354252739e-01
4.50000000000000e-08,0.00000000000000e+00,0.00000000000000e+00,6.00030175933287e-01
4.50100000000000e-08,5.99999999999886e-02,0.00000000000000e+00,6.00119158448881e-01
4.50300000000000e-08,1.80000000000006e-01,0.00000000000000e+00,6.00128736390313e-01
4.50700000000000e-08,4.20000000000000e-01,0.00000000000000e+00,5.99976061825962e-01
4.51000000000000e-08,6.00000000000000e-01,0.00000000000000e+00,5.99824263359786e-01
4.51080000000000e-08,6.00000000000000e-01,0.00000000000000e+00,5.99729153351120e-01
4.51240000000000e-08,6.00000000000000e-01,0.00000000000000e+00,5.99656359449397e-01
4.51560000000000e-08,6.00000000000000e-01,0.00000000000000e+00,5.99759948067356e-01
4.52200000000000e-08,6.00000000000000e-01,0.00000000000000e+00,6.00026192000791e-01
4.53480000000000e-08,6.00000000000000e-01,0.00000000000000e+00,6.11115954290789e-01
4.56040000000000e-08,6.00000000000000e-01,0.00000000000000e+00,2.22548936773235e-01
4.59739383550169e-08,6.00000000000000e-01,0.00000000000000e+00,-6.47700226002891e-02
4.64325184913031e-08,6.00000000000000e-01,0.00000000000000e+00,5.14685804347264e-02
4.71982151066212e-08,6.00000000000000e-01,0.00000000000000e+00,-3.53903788670280e-02
4.81342833704661e-08,6.00000000000000e-01,0.00000000000000e+00,3.23405124878345e-02
5.00000000000000e-08,6.00000000000000e-01,0.00000000000000e+00,-2.68265049729820e-02
5.00100000000000e-08,6.00000000000000e-01,5.99999999999886e-02,-2.20322818102235e-02
5.00300000000000e-08,6.00000000000000e-01,1.79999999999966e-01,-1.36516113559700e-02
5.00700000000000e-08,6.00000000000000e-01,4.20000000000000e-01,-4.56694153125198e-03
5.01000000000000e-08,6.00000000000000e-01,6.00000000000000e-01,-2.20072926496238e-03
5.01080000000000e-08,6.00000000000000e-01,6.00000000000000e-01,-1.82247468681460e-03
5.01240000000000e-08,6.00000000000000e-01,6.00000000000000e-01,-1.20517588864209e-03
5.01560000000000e-08,6.00000000000000e-01,6.00000000000000e-01,-5.27902001491803e-04
5.02200000000000e-08,6.00000000000000e-01,6.00000000000000e-01,-6.15340998268710e-05
5.03480000000000e-08,6.00000000000000e-01,6.00000000000000e-01,9.89095614065821e-06
5.06040000000000e-08,6.00000000000000e-01,6.00000000000000e-01,-3.47503173735164e-06
5.11160000000001e-08,6.00000000000000e-01,6.00000000000000e-01,3.62814094255655e-06
5.21400000000002e-08,6.00000000000000e-01,6.00000000000000e-01,-2.04757057830317e-06
5.41880000000003e-08,6.00000000000000e-01,6.00000000000000e-01,1.62130715239666e-06
5.51000000000000e-08,6.00000000000000e-01,6.00000000000000e-01,-2.56497692101634e-07
5.51100000000000e-08,5.40000000000021e-01,6.00000000000000e-01,-1.28947879447103e-04
5.51300000000000e-08,4.20000000000004e-01,6.00000000000000e-01,-2.50542351967392e-04
5.51700000000000e-08,1.80000000000010e-01,6.00000000000000e-01,3.25229778801034e-05
5.52000000000000e-08,0.00000000000000e+00,6.00000000000000e-01,8.08099376236729e-04
5.52080000000000e-08,0.00000000000000e+00,6.00000000000000e-01,1.03276043707284e-03
5.52240000000000e-08,0.00000000000000e+00,6.00000000000000e-01,8.93179654570531e-04
5.52560000000000e-08,0.00000000000000e+00,6.00000000000000e-01,-1.06027395945524e-03
5.53200000000000e-08,0.00000000000000e+00,6.00000000000000e-01,-1.68389220448407e-03
5.54480000000000e-08,0.00000000000000e+00,6.00000000000000e-01,4.84872576774695e-04
5.56475159252308e-08,0.00000000000000e+00,6.00000000000000e-01,-3.92266710747331e-04
5.59689218365342e-08,0.00000000000000e+00,6.00000000000000e-01,2.39027301692882e-04
5.64130749205398e-08,0.00000000000000e+00,6.00000000000000e-01,-5.50064626259374e-05
5.70882412381442e-08,0.00000000000000e+00,6.00000000000000e-01,-1.58435637017864e-05
5.82884196311302e-08,0.00000000000000e+00,6.00000000000000e-01,4.72623937850828e-05
6.05630808155819e-08,0.00000000000000e+00,6.00000000000000e-01,-5.82007962055178e-05
6.43630808155819e-08,0.00000000000000e+00,6.00000000000000e-01,6.69935717953068e-05
6.50000000000000e-08,0.00000000000000e+00,6.00000000000000e-01,-9.59942384945213e-05
6.50100000000000e-08,5.99999999999886e-02,6.00000000000000e-01,1.81323265461886e-04
6.50300000000000e-08,1.79999999999966e-01,6.00000000000000e-01,5.82234141713295e-04
6.50700000000000e-08,4.19999999999920e-01,6.00000000000000e-01,9.41093826345260e-04
6.51000000000000e-08,5.99999999999966e-01,6.00000000000000e-01,9.29725068316567e-05
6.51080000000000e-08,6.00000000000000e-01,6.00000000000000e-01,-7.10227005424446e-04
6.51240000000000e-08,6.00000000000000e-01,6.00000000000000e-01,-2.35316053516701e-03
6.51560000000000e-08,6.00000000000000e-01,6.00000000000000e-01,-5.02723203105720e-03
6.52200000000000e-08,6.00000000000000e-01,6.00000000000000e-01,-7.00354942804346e-03
6.53480000000000e-08,6.00000000000000e-01,6.00000000000000e-01,1.39093043420492e-01
6.56040000000000e-08,6.00000000000000e-01,6.00000000000000e-01,5.81857941743142e-01
6.61159999999999e-08,6.00000000000000e-01,6.00000000000000e-01,6.05143491765812e-01
6.66383673153780e-08,6.00000000000000e-01,6.00000000000000e-01,5.94650970134872e-01
6.75335873370353e-08,6.00000000000000e-01,6.00000000000000e-01,6.04531548670249e-01
6.88326571135259e-08,6.00000000000000e-01,6.00000000000000e-01,5.95256285430000e-01
7.01000000000000e-08,6.00000000000000e-01,6.00000000000000e-01,6.04369222254852e-01
7.01100000000000e-08,6.00000000000000e-01,5.40000000000011e-01,6.01824806262249e-01
7.01300000000000e-08,6.00000000000000e-01,4.20000000000034e-01,5.99788293573706e-01
7.01700000000000e-08,6.00000000000000e-01,1.80000000000080e-01,6.00222826401552e-01
7.02000000000000e-08,6.00000000000000e-01,3.44169137633799e-14,6.00021019348731e-01
7.02080000000000e-08,6.00000000000000e-01,0.00000000000000e+00,6.00034519056453e-01
7.02240000000000e-08,6.00000000000000e-01,0.00000000000000e+00,6.00014435054920e-01
7.02560000000000e-08,6.00000000000000e-01,0.00000000000000e+00,5.99972334874208e-01
7.03200000000000e-08,6.00000000000000e-01,0.00000000000000e+00,6.00009563233938e-01
7.04480000000000e-08,6.00000000000000e-01,0.00000000000000e+00,6.00011342559744e-01
7.06463411687057e-08,6.00000000000000e-01,0.00000000000000e+00,5.99976726084717e-01
7.09469364767384e-08,6.00000000000000e-01,0.00000000000000e+00,6.00012405790672e-01
7.15481270928037e-08,6.00000000000000e-01,0.00000000000000e+00,5.99977260649904e-01
7.27505083249343e-08,6.00000000000000e-01,0.00000000000000e+00,6.00012977353485e-01
7.51000000000000e-08,6.00000000000000e-01,0.00000000000000e+00,5.99978328487010e-01
7.51100000000000e-08,5.40000000000061e-01,0.00000000000000e+00,5.99885693194905e-01
7.51300000000000e-08,4.20000000000084e-01,0.00000000000000e+00,5.99828956687217e-01
7.51700000000000e-08,1.80000000000129e-01,0.00000000000000e+00,6.01001934313865e-01
7.52000000000000e-08,8.40438829641244e-14,0.00000000000000e+00,6.04618246755872e-01
7.52080000000000e-08,0.00000000000000e+00,0.00000000000000e+00,6.05333259839469e-01
7.52240000000000e-08,0.00000000000000e+00,0.00000000000000e+00,6.04253627864993e-01
7.52560000000000e-08,0.00000000000000e+00,0.00000000000000e+00,5.93609102188446e-01
7.53200000000000e-08,0.00000000000000e+00,0.00000000000000e+00,5.89830550273940e-01
7.54480000000000e-08,0.00000000000000e+00,0.00000000000000e+00,6.01873026944241e-01
7.56444139056882e-08,0.00000000000000e+00,0.00000000000000e+00,5.97883078811896e-01
7.59358126047509e-08,0.00000000000000e+00,0.00000000000000e+00,6.01343758913561e-01
7.64295163005337e-08,0.00000000000000e+00,0.00000000000000e+00,5.98523953624067e-01
7.73516767663053e-08,0.00000000000000e+00,0.00000000000000e+00,6.01233283136775e-01
7.81000000000000e-08,0.00000000000000e+00,0.00000000000000e+00,5.98741512139794e-01
7.82844320931543e-08,0.00000000000000e+00,0.00000000000000e+00,5.99876819477268e-01
7.86532962794630e-08,0.00000000000000e+00,0.00000000000000e+00,6.00029038791078e-01
7.93910246520802e-08,0.00000000000000e+00,0.00000000000000e+00,5.99902195477212e-01
8.08664813973147e-08,0.00000000000000e+00,0.00000000000000e+00,6.00034659514867e-01
8.38173948877837e-08,0.00000000000000e+00,0.00000000000000e+00,5.99919286274153e-01
8.50000000000000e-08,0.00000000000000e+00,0.00000000000000e+00,6.00038855587554e-01
8.50100000000000e-08,5.99999999999886e-02,0.00000000000000e+00,6.00126089806249e-01
8.50300000000000e-08,1.79999999999966e-01,0.00000000000000e+00,6.00132317099156e-01
8.50700000000000e-08,4.19999999999920e-01,0.00000000000000e+00,5.99976058173241e-01
8.51000000000000e-08,5.99999999999966e-01,0.00000000000000e+00,5.99810369784214e-01
8.51080000000000e-08,6.00000000000000e-01,0.00000000000000e+00,5.99729354617134e-01
8.51240000000000e-08,6.00000000000000e-01,0.00000000000000e+00,5.99657214513458e-01
8.51560000000000e-08,6.00000000000000e-01,0.00000000000000e+00,5.99764516568273e-01
8.52200000000000e-08,6.00000000000000e-01,0.00000000000000e+00,6.00016310931789e-01
8.53480000000000e-08,6.00000000000000e-01,0.00000000000000e+00,6.11135616184748e-01
8.56040000000000e-08,6.00000000000000e-01,0.00000000000000e+00,2.22500195277518e-01
8.59736562345239e-08,6.00000000000000e-01,0.00000000000000e+00,-6.47277475345673e-02
8.64323066166347e-08,6.00000000000000e-01,0.00000000000000e+00,5.14369964473277e-02
8.71973878495524e-08,6.00000000000000e-01,0.00000000000000e+00,-3.53645738231789e-02
8.81334468708236e-08,6.00000000000000e-01,0.00000000000000e+00,3.23146943393710e-02
8.99989388490180e-08,6.00000000000000e-01,0.00000000000000e+00,-2.68063084136255e-02
9.00000000000000e-08,6.00000000000000e-01,0.00000000000000e+00,-2.63075951943472e-02
9.00021223019640e-08,6.00000000000000e-01,1.27338117840673e-02,-2.52176191114184e-02
9.00063669058920e-08,6.00000000000000e-01,3.82014353522019e-02,-2.30116134127328e-02
9.00148561137481e-08,6.00000000000000e-01,8.91366824884712e-02,-1.88060646511075e-02
9.00318345294602e-08,6.00000000000000e-01,1.91007176761010e-01,-1.23288023944410e-02
9.00657913608843e-08,6.00000000000000e-01,3.94748165306087e-01,-5.10512907646095e-03
9.01000000000000e-08,6.00000000000000e-01,5.99999999999966e-01,-2.10369771060780e-03
9.01067913662848e-08,6.00000000000000e-01,6.00000000000000e-01,-1.80661855545521e-03
9.01203740988545e-08,6.00000000000000e-01,6.00000000000000e-01,-1.28275782907315e-03
9.01475395639938e-08,6.00000000000000e-01,6.00000000000000e-01,-6.39676412487855e-04
9.02018704942725e-08,6.00000000000000e-01,6.00000000000000e-01,-1.34475681306964e-04
9.03105323548299e-08,6.00000000000000e-01,6.00000000000000e-01,2.24031362687505e-05
9.05278560759447e-08,6.00000000000000e-01,6.00000000000000e-01,-9.88982922880272e-06
9.09625035181742e-08,6.00000000000000e-01,6.00000000000000e-01,6.82217119688314e-06
9.18317984026331e-08,6.00000000000000e-01,6.00000000000000e-01,-5.97915994495803e-06
9.35703881715511e-08,6.00000000000000e-01,6.00000000000000e-01,6.07188035981095e-06
9.51000000000000e-08,6.00000000000000e-01,6.00000000000000e-01,-4.76231393043303e-06
9.51100000000000e-08,5.40000000000061e-01,6.00000000000000e-01,-1.32912847086608e-04
9.51300000000000e-08,4.20000000000084e-01,6.00000000000000e-01,-2.55751583135164e-04
9.51700000000000e-08,1.80000000000129e-01,6.00000000000000e-01,2.53639342261969e-05
9.52000000000000e-08,8.40438829641244e-14,6.00000000000000e-01,8.04342543419226e-04
9.52080000000000e-08,0.00000000000000e+00,6.00000000000000e-01,1.02961566399916e-03
9.52240000000000e-08,0.00000000000000e+00,6.00000000000000e-01,8.91047606737416e-04
9.52560000000000e-08,0.00000000000000e+00,6.00000000000000e-01,-1.06143778523024e-03
9.53200000000000e-08,0.00000000000000e+00,6.00000000000000e-01,-1.68441736687358e-03
9.54480000000000e-08,0.00000000000000e+00,6.00000000000000e-01,4.84891590461771e-04
9.56475157177592e-08,0.00000000000000e+00,6.00000000000000e-01,-3.92237504689232e-04
9.59689216388730e-08,0.00000000000000e+00,6.00000000000000e-01,2.38992404958966e-04
9.64130741646844e-08,0.00000000000000e+00,6.00000000000000e-01,-5.49715309526404e-05
9.70882406140585e-08,0.00000000000000e+00,6.00000000000000e-01,-1.58769108885778e-05
9.82884176954277e-08,0.00000000000000e+00,6.00000000000000e-01,4.72947136508414e-05
1.00563074375820e-07,0.00000000000000e+00,6.00000000000000e-01,-5.82324594204731e-05
1.04363074375820e-07,0.00000000000000e+00,6.00000000000000e-01,6.70249400983947e-05
1.05000000000000e-07,0.00000000000000e+00,6.00000000000000e-01,-9.60229589644715e-05
1.05010000000000e-07,5.99999999999886e-02,6.00000000000000e-01,1.81304620049103e-04
1.05030000000000e-07,1.79999999999966e-01,6.00000000000000e-01,5.82229816818228e-04
1.05070000000000e-07,4.19999999999920e-01,6.00000000000000e-01,9.41095791385585e-04
1.05100000000000e-07,5.99999999999966e-01,6.00000000000000e-01,9.29741204836049e-05
1.05108000000000e-07,6.00000000000000e-01,6.00000000000000e-01,-7.10225245885418e-04
1.05124000000000e-07,6.00000000000000e-01,6.00000000000000e-01,-2.35315884640526e-03
1.05156000000000e-07,6.00000000000000e-01,6.00000000000000e-01,-5.02723107347156e-03
1.05220000000000e-07,6.00000000000000e-01,6.00000000000000e-01,-7.00354967892454e-03
1.05348000000000e-07,6.00000000000000e-01,6.00000000000000e-01,1.39093015917787e-01
1.05604000000000e-07,6.00000000000000e-01,6.00000000000000e-01,5.81857934810010e-01
1.06116000000000e-07,6.00000000000000e-01,6.00000000000000e-01,6.05143493929941e-01
