Time,v(clk),v(data),v(out)
1.00000000000000e-08,6.00000000000000e-01,0.00000000000000e+00,2.03496205555178e-05
1.00100000000000e-08,6.00000000000000e-01,5.99999999999985e-02,2.90131293294305e-05
1.00300000000000e-08,6.00000000000000e-01,1.79999999999996e-01,3.16382037586632e-05
1.00700000000000e-08,6.00000000000000e-01,4.19999999999990e-01,2.15823489590899e-05
1.01000000000000e-08,6.00000000000000e-01,5.99999999999995e-01,1.97532751676083e-05
1.01080000000000e-08,6.00000000000000e-01,6.00000000000000e-01,1.70333674411188e-05
1.01240000000000e-08,6.00000000000000e-01,6.00000000000000e-01,1.80142102199909e-05
1.01560000000000e-08,6.00000000000000e-01,6.00000000000000e-01,2.55372895027889e-05
1.02200000000000e-08,6.00000000000000e-01,6.00000000000000e-01,2.89573953467931e-05
1.03480000000000e-08,6.00000000000000e-01,6.00000000000000e-01,2.08268979460247e-05
1.06040000000000e-08,6.00000000000000e-01,6.00000000000000e-01,2.25897027073887e-05
1.11160000000000e-08,6.00000000000000e-01,6.00000000000000e-01,2.13274026099608e-05
1.21400000000000e-08,6.00000000000000e-01,6.00000000000000e-01,2.21214070185733e-05
1.41880000000000e-08,6.00000000000000e-01,6.00000000000000e-01,2.04435923817975e-05
1.51000000000000e-08,6.00000000000000e-01,6.00000000000000e-01,2.14714466046876e-05
1.51100000000000e-08,5.39999999999991e-01,6.00000000000000e-01,-1.23418644454670e-04
1.51300000000000e-08,4.19999999999994e-01,6.00000000000000e-01,-3.03516199060369e-04
1.51700000000000e-08,1.80000000000000e-01,6.00000000000000e-01,-2.31944916242455e-05
1.52000000000000e-08,0.00000000000000e+00,6.00000000000000e-01,8.35795016349866e-04
1.52080000000000e-08,0.00000000000000e+00,6.00000000000000e-01,1.13430554643566e-03
1.52240000000000e-08,0.00000000000000e+00,6.00000000000000e-01,1.33941045394802e-03
1.52560000000000e-08,0.00000000000000e+00,6.00000000000000e-01,4.21628994017903e-04
1.53200000000000e-08,0.00000000000000e+00,6.00000000000000e-01,-9.23790563503377e-04
1.54480000000000e-08,0.00000000000000e+00,6.00000000000000e-01,-3.33122296788252e-05
1.56649940299027e-08,0.00000000000000e+00,6.00000000000000e-01,7.38293036555496e-05
1.59612361667012e-08,0.00000000000000e+00,6.00000000000000e-01,-1.89331750251286e-04
1.64078564528248e-08,0.00000000000000e+00,6.00000000000000e-01,3.51145977279373e-04
1.72183268087618e-08,0.00000000000000e+00,6.00000000000000e-01,-3.22215684478339e-04
1.80861250849423e-08,0.00000000000000e+00,6.00000000000000e-01,3.52003868618299e-04
1.98217216373033e-08,0.00000000000000e+00,6.00000000000000e-01,-3.05657796248644e-04
2.26326256083643e-08,0.00000000000000e+00,6.00000000000000e-01,3.37306496082136e-04
2.50000000000000e-08,0.00000000000000e+00,6.00000000000000e-01,-2.91101091789729e-04
2.50100000000000e-08,5.99999999999886e-02,6.00000000000000e-01,1.43442760298790e-05
2.50300000000000e-08,1.80000000000006e-01,6.00000000000000e-01,5.00490617693666e-04
2.50700000000000e-08,4.20000000000000e-01,6.00000000000000e-01,1.03603394903466e-03
2.51000000000000e-08,6.00000000000000e-01,6.00000000000000e-01,6.17123607122738e-04
2.51080000000000e-08,6.00000000000000e-01,6.00000000000000e-01,4.07431529240859e-05
2.51240000000000e-08,6.00000000000000e-01,6.00000000000000e-01,-1.16526738901039e-03
2.51560000000000e-08,6.00000000000000e-01,6.00000000000000e-01,-3.41081850622767e-03
2.52200000000000e-08,6.00000000000000e-01,6.00000000000000e-01,-6.02466658810934e-03
2.53480000000000e-08,6.00000000000000e-01,6.00000000000000e-01,1.78630958585523e-02
2.56040000000000e-08,6.00000000000000e-01,6.00000000000000e-01,4.96009807468765e-01
2.60645822803520e-08,6.00000000000000e-01,6.00000000000000e-01,6.16343739261487e-01
2.65325100734056e-08,6.00000000000000e-01,6.00000000000000e-01,5.85336930677376e-01
2.74683656595128e-08,6.00000000000000e-01,6.00000000000000e-01,6.14010908304444e-01
2.87958156705784e-08,6.00000000000000e-01,6.00000000000000e-01,5.85966491827560e-01
3.01000000000000e-08,6.00000000000000e-01,6.00000000000000e-01,6.13287035103174e-01
3.01100000000000e-08,6.00000000000000e-01,5.40000000000031e-01,6.05770114313713e-01
3.01300000000000e-08,6.00000000000000e-01,4.20000000000014e-01,5.99281379243822e-01
3.01700000000000e-08,6.00000000000000e-01,1.80000000000020e-01,6.00253782845348e-01
3.02000000000000e-08,6.00000000000000e-01,1.44328993201270e-14,5.99917819253246e-01
3.02080000000000e-08,6.00000000000000e-01,0.00000000000000e+00,5.99948337035854e-01
3.02240000000000e-08,6.00000000000000e-01,0.00000000000000e+00,5.99956869554439e-01
3.02560000000000e-08,6.00000000000000e-01,0.00000000000000e+00,5.99913047730786e-01
3.03200000000000e-08,6.00000000000000e-01,0.00000000000000e+00,5.99964416625997e-01
3.04480000000000e-08,6.00000000000000e-01,0.00000000000000e+00,6.00010519271157e-01
3.06637650139462e-08,6.00000000000000e-01,0.00000000000000e+00,5.99962902505413e-01
3.09561565611859e-08,6.00000000000000e-01,0.00000000000000e+00,6.00001128155621e-01
3.15409396556651e-08,6.00000000000000e-01,0.00000000000000e+00,5.99969173727857e-01
3.27105058446236e-08,6.00000000000000e-01,0.00000000000000e+00,6.00003007549800e-01
3.50496382225406e-08,6.00000000000000e-01,0.00000000000000e+00,5.99973587274177e-01
3.51000000000000e-08,5.99999999999970e-01,0.00000000000000e+00,5.99998332550357e-01
3.51100000000000e-08,5.39999999999982e-01,0.00000000000000e+00,5.99882324600040e-01
3.51300000000000e-08,4.19999999999965e-01,0.00000000000000e+00,5.99794357868782e-01
3.51700000000000e-08,1.79999999999970e-01,0.00000000000000e+00,6.01166451915664e-01
3.52000000000000e-08,0.00000000000000e+00,0.00000000000000e+00,6.04732687724383e-01
3.52080000000000e-08,0.00000000000000e+00,0.00000000000000e+00,6.05515931387338e-01
3.52240000000000e-08,0.00000000000000e+00,0.00000000000000e+00,6.05479174109340e-01
3.52560000000000e-08,0.00000000000000e+00,0.00000000000000e+00,5.97626666906350e-01
3.53200000000000e-08,0.00000000000000e+00,0.00000000000000e+00,5.88414728578188e-01
3.54480000000000e-08,0.00000000000000e+00,0.00000000000000e+00,5.99011681926260e-01
3.56841286811008e-08,0.00000000000000e+00,0.00000000000000e+00,5.99607037282148e-01
3.59663180483092e-08,0.00000000000000e+00,0.00000000000000e+00,5.99674553477657e-01
3.65306967827259e-08,0.00000000000000e+00,0.00000000000000e+00,5.99864245729698e-01
3.73210568189372e-08,0.00000000000000e+00,0.00000000000000e+00,5.99867781320388e-01
3.89017768913599e-08,0.00000000000000e+00,0.00000000000000e+00,5.99945589672625e-01
3.91000000000000e-08,0.00000000000000e+00,0.00000000000000e+00,5.99929675430730e-01
3.94161440144845e-08,0.00000000000000e+00,0.00000000000000e+00,5.99929987602640e-01
4.00484320434536e-08,0.00000000000000e+00,0.00000000000000e+00,5.99938490577834e-01
4.13130081013917e-08,0.00000000000000e+00,0.00000000000000e+00,5.99941123741413e-01
4.38421602172680e-08,0.00000000000000e+00,0.00000000000000e+00,5.99950308311263e-01
4.50000000000000e-08,0.00000000000000e+00,0.00000000000000e+00,5.99948618445845e-01
4.50100000000000e-08,5.99999999999886e-02,0.00000000000000e+00,6.00070918299640e-01
4.50300000000000e-08,1.80000000000006e-01,0.00000000000000e+00,6.00130863398295e-01
4.50700000000000e-08,4.20000000000000e-01,0.00000000000000e+00,5.99984650633747e-01
4.51000000000000e-08,6.00000000000000e-01,0.00000000000000e+00,5.99865658498449e-01
4.51080000000000e-08,6.00000000000000e-01,0.00000000000000e+00,5.99757670533940e-01
4.51240000000000e-08,6.00000000000000e-01,0.00000000000000e+00,5.99671449157390e-01
4.51560000000000e-08,6.00000000000000e-01,0.00000000000000e+00,5.99706344437956e-01
4.52200000000000e-08,6.00000000000000e-01,0.00000000000000e+00,5.99835805755799e-01
4.53480000000000e-08,6.00000000000000e-01,0.00000000000000e+00,6.01534106151453e-01
4.56040000000000e-08,6.00000000000000e-01,0.00000000000000e+00,4.29595876908756e-01
4.61160000000000e-08,6.00000000000000e-01,0.00000000000000e+00,-2.26554733344555e-02
4.65891414617769e-08,6.00000000000000e-01,0.00000000000000e+00,1.28582185323009e-02
4.75354243853308e-08,6.00000000000000e-01,0.00000000000000e+00,-7.42974023582173e-03
4.86536026105645e-08,6.00000000000000e-01,0.00000000000000e+00,5.89876095695280e-03
5.00000000000000e-08,6.00000000000000e-01,0.00000000000000e+00,-3.34887524097156e-03
5.00100000000000e-08,6.00000000000000e-01,5.99999999999886e-02,-4.99334514524621e-03
5.00300000000000e-08,6.00000000000000e-01,1.79999999999966e-01,-5.38509896484980e-03
5.00700000000000e-08,6.00000000000000e-01,4.20000000000000e-01,-2.49894574042976e-03
5.01000000000000e-08,6.00000000000000e-01,6.00000000000000e-01,-1.64985263049539e-03
5.01080000000000e-08,6.00000000000000e-01,6.00000000000000e-01,-1.44221396037739e-03
5.01240000000000e-08,6.00000000000000e-01,6.00000000000000e-01,-1.09129504798849e-03
5.01560000000000e-08,6.00000000000000e-01,6.00000000000000e-01,-5.95307579503435e-04
5.02200000000000e-08,6.00000000000000e-01,6.00000000000000e-01,-1.75348856023258e-04
5.03480000000000e-08,6.00000000000000e-01,6.00000000000000e-01,1.66449755389306e-05
5.06040000000000e-08,6.00000000000000e-01,6.00000000000000e-01,1.72845822592263e-05
5.11160000000001e-08,6.00000000000000e-01,6.00000000000000e-01,2.07820300285426e-05
5.21400000000002e-08,6.00000000000000e-01,6.00000000000000e-01,1.43891436505620e-05
5.41880000000003e-08,6.00000000000000e-01,6.00000000000000e-01,1.94231933196209e-05
5.51000000000000e-08,6.00000000000000e-01,6.00000000000000e-01,1.57590319226630e-05
5.51100000000000e-08,5.40000000000021e-01,6.00000000000000e-01,-1.27892886483058e-04
5.51300000000000e-08,4.20000000000004e-01,6.00000000000000e-01,-3.03809213057032e-04
5.51700000000000e-08,1.80000000000010e-01,6.00000000000000e-01,-1.49033190402631e-05
5.52000000000000e-08,0.00000000000000e+00,6.00000000000000e-01,8.20471018598584e-04
5.52080000000000e-08,0.00000000000000e+00,6.00000000000000e-01,1.10482812162507e-03
5.52240000000000e-08,0.00000000000000e+00,6.00000000000000e-01,1.22997107968009e-03
5.52560000000000e-08,0.00000000000000e+00,6.00000000000000e-01,-1.45686824140387e-04
5.53200000000000e-08,0.00000000000000e+00,6.00000000000000e-01,-1.79922055966868e-03
5.54480000000000e-08,0.00000000000000e+00,6.00000000000000e-01,-2.17683605394266e-04
5.56641729222568e-08,0.00000000000000e+00,6.00000000000000e-01,1.60700173455978e-04
5.59619397606192e-08,0.00000000000000e+00,6.00000000000000e-01,-2.47579773656734e-04
5.64070743206640e-08,0.00000000000000e+00,6.00000000000000e-01,3.86886881435580e-04
5.72191334851000e-08,0.00000000000000e+00,6.00000000000000e-01,-3.49213850204892e-04
5.80856129034515e-08,0.00000000000000e+00,6.00000000000000e-01,3.72136811801068e-04
5.98185717401545e-08,0.00000000000000e+00,6.00000000000000e-01,-3.22900796882782e-04
6.26281859325944e-08,0.00000000000000e+00,6.00000000000000e-01,3.52844764618926e-04
6.50000000000000e-08,0.00000000000000e+00,6.00000000000000e-01,-3.04824475732753e-04
6.50100000000000e-08,5.99999999999886e-02,6.00000000000000e-01,-3.70176364225538e-06
6.50300000000000e-08,1.79999999999966e-01,6.00000000000000e-01,4.85457231813521e-04
6.50700000000000e-08,4.19999999999920e-01,6.00000000000000e-01,1.03336542800522e-03
6.51000000000000e-08,5.99999999999966e-01,6.00000000000000e-01,6.14866354278681e-04
6.51080000000000e-08,6.00000000000000e-01,6.00000000000000e-01,3.91387366745766e-05
6.51240000000000e-08,6.00000000000000e-01,6.00000000000000e-01,-1.16613613934063e-03
6.51560000000000e-08,6.00000000000000e-01,6.00000000000000e-01,-3.41124712332443e-03
6.52200000000000e-08,6.00000000000000e-01,6.00000000000000e-01,-6.02475132621001e-03
6.53480000000000e-08,6.00000000000000e-01,6.00000000000000e-01,1.78612846426216e-02
6.56040000000000e-08,6.00000000000000e-01,6.00000000000000e-01,4.96007120492381e-01
6.60645816509150e-08,6.00000000000000e-01,6.00000000000000e-01,6.16343813174884e-01
6.65325089640194e-08,6.00000000000000e-01,6.00000000000000e-01,5.85336917472389e-01
6.74683635902281e-08,6.00000000000000e-01,6.00000000000000e-01,6.14010933671614e-01
6.87958049672611e-08,6.00000000000000e-01,6.00000000000000e-01,5.85966474472893e-01
7.01000000000000e-08,6.00000000000000e-01,6.00000000000000e-01,6.13287058060946e-01
7.01100000000000e-08,6.00000000000000e-01,5.40000000000011e-01,6.05770124708742e-01
7.01300000000000e-08,6.00000000000000e-01,4.20000000000034e-01,5.99281379745939e-01
7.01700000000000e-08,6.00000000000000e-01,1.80000000000080e-01,6.00253782450721e-01
7.02000000000000e-08,6.00000000000000e-01,3.44169137633799e-14,5.99917818925563e-01
7.02080000000000e-08,6.00000000000000e-01,0.00000000000000e+00,5.99948337260476e-01
7.02240000000000e-08,6.00000000000000e-01,0.00000000000000e+00,5.99956870191091e-01
7.02560000000000e-08,6.00000000000000e-01,0.00000000000000e+00,5.99913047884329e-01
7.03200000000000e-08,6.00000000000000e-01,0.00000000000000e+00,5.99964416508318e-01
7.04480000000000e-08,6.00000000000000e-01,0.00000000000000e+00,6.00010519385460e-01
7.06637649952292e-08,6.00000000000000e-01,0.00000000000000e+00,5.99962902233780e-01
7.09561564303582e-08,6.00000000000000e-01,0.00000000000000e+00,6.00001128394049e-01
7.15409393006164e-08,6.00000000000000e-01,0.00000000000000e+00,5.99969173597826e-01
7.27105050411328e-08,6.00000000000000e-01,0.00000000000000e+00,6.00003007901952e-01
7.50496365221655e-08,6.00000000000000e-01,0.00000000000000e+00,5.99973586991605e-01
7.51000000000000e-08,6.00000000000000e-01,0.00000000000000e+00,5.99998332819035e-01
7.51100000000000e-08,5.40000000000061e-01,0.00000000000000e+00,5.99882324617487e-01
7.51300000000000e-08,4.20000000000084e-01,0.00000000000000e+00,5.99794357713869e-01
7.51700000000000e-08,1.80000000000129e-01,0.00000000000000e+00,6.01166451870264e-01
7.52000000000000e-08,8.40438829641244e-14,0.00000000000000e+00,6.04732688006847e-01
7.52080000000000e-08,0.00000000000000e+00,0.00000000000000e+00,6.05515932266638e-01
7.52240000000000e-08,0.00000000000000e+00,0.00000000000000e+00,6.05479177372111e-01
7.52560000000000e-08,0.00000000000000e+00,0.00000000000000e+00,5.97626673993142e-01
7.53200000000000e-08,0.00000000000000e+00,0.00000000000000e+00,5.88414731261468e-01
7.54480000000000e-08,0.00000000000000e+00,0.00000000000000e+00,5.99011680172982e-01
7.56841286811097e-08,0.00000000000000e+00,0.00000000000000e+00,5.99607038669921e-01
7.59663180496819e-08,0.00000000000000e+00,0.00000000000000e+00,5.99674552374153e-01
7.65306967868261e-08,0.00000000000000e+00,0.00000000000000e+00,5.99864246724271e-01
7.73210568234678e-08,0.00000000000000e+00,0.00000000000000e+00,5.99867780401787e-01
7.81000000000000e-08,0.00000000000000e+00,0.00000000000000e+00,5.99928515325595e-01
7.82580720073283e-08,0.00000000000000e+00,0.00000000000000e+00,5.99921934952126e-01
7.85742160219850e-08,0.00000000000000e+00,0.00000000000000e+00,5.99916755263245e-01
7.92065040512983e-08,0.00000000000000e+00,0.00000000000000e+00,5.99932626684043e-01
8.04710801099249e-08,0.00000000000000e+00,0.00000000000000e+00,5.99935203592614e-01
8.30002322271781e-08,0.00000000000000e+00,0.00000000000000e+00,5.99950452310806e-01
8.50000000000000e-08,0.00000000000000e+00,0.00000000000000e+00,5.99947107935997e-01
8.50100000000000e-08,5.99999999999886e-02,0.00000000000000e+00,6.00067760628489e-01
8.50300000000000e-08,1.79999999999966e-01,0.00000000000000e+00,6.00127126892635e-01
8.50700000000000e-08,4.19999999999920e-01,0.00000000000000e+00,5.99983644556529e-01
8.51000000000000e-08,5.99999999999966e-01,0.00000000000000e+00,5.99866155541092e-01
8.51080000000000e-08,6.00000000000000e-01,0.00000000000000e+00,5.99758144306392e-01
8.51240000000000e-08,6.00000000000000e-01,0.00000000000000e+00,5.99671853577982e-01
8.51560000000000e-08,6.00000000000000e-01,0.00000000000000e+00,5.99706578203132e-01
8.52200000000000e-08,6.00000000000000e-01,0.00000000000000e+00,5.99835929679684e-01
8.53480000000000e-08,6.00000000000000e-01,0.00000000000000e+00,6.01534341192956e-01
8.56040000000000e-08,6.00000000000000e-01,0.00000000000000e+00,4.29576599222684e-01
8.61159999999999e-08,6.00000000000000e-01,0.00000000000000e+00,-2.26622519784156e-02
8.65891450465281e-08,6.00000000000000e-01,0.00000000000000e+00,1.28605450369311e-02
8.75354351395845e-08,6.00000000000000e-01,0.00000000000000e+00,-7.43156430141942e-03
8.86536136085192e-08,6.00000000000000e-01,0.00000000000000e+00,5.90028693239856e-03
9.00000000000000e-08,6.00000000000000e-01,0.00000000000000e+00,-3.35020516428925e-03
9.00100000000000e-08,6.00000000000000e-01,5.99999999999886e-02,-4.99433087939616e-03
9.00300000000000e-08,6.00000000000000e-01,1.79999999999966e-01,-5.38568657403116e-03
9.00700000000000e-08,6.00000000000000e-01,4.19999999999920e-01,-2.49927911901400e-03
9.01000000000000e-08,6.00000000000000e-01,5.99999999999966e-01,-1.65003979141308e-03
9.01080000000000e-08,6.00000000000000e-01,6.00000000000000e-01,-1.44238285999616e-03
9.01240000000000e-08,6.00000000000000e-01,6.00000000000000e-01,-1.09142753493871e-03
9.01560000000000e-08,6.00000000000000e-01,6.00000000000000e-01,-5.95382799087760e-04
9.02200000000000e-08,6.00000000000000e-01,6.00000000000000e-01,-1.75373411227600e-04
9.03480000000000e-08,6.00000000000000e-01,6.00000000000000e-01,1.66457038508067e-05
9.06040000000000e-08,6.00000000000000e-01,6.00000000000000e-01,1.72846907079000e-05
9.11159999999999e-08,6.00000000000000e-01,6.00000000000000e-01,2.07830900905356e-05
9.21399999999999e-08,6.00000000000000e-01,6.00000000000000e-01,1.43888506320029e-05
9.41879999999998e-08,6.00000000000000e-01,6.00000000000000e-01,1.94240281120063e-05
9.51000000000000e-08,6.00000000000000e-01,6.00000000000000e-01,1.57588702983449e-05
9.51100000000000e-08,5.40000000000061e-01,6.00000000000000e-01,-1.27892712171770e-04
9.51300000000000e-08,4.20000000000084e-01,6.00000000000000e-01,-3.03809025840929e-04
9.51700000000000e-08,1.80000000000129e-01,6.00000000000000e-01,-1.49029490791874e-05
9.52000000000000e-08,8.40438829641244e-14,6.00000000000000e-01,8.20473104026470e-04
9.52080000000000e-08,0.00000000000000e+00,6.00000000000000e-01,1.10483221236833e-03
9.52240000000000e-08,0.00000000000000e+00,6.00000000000000e-01,1.22998260639817e-03
9.52560000000000e-08,0.00000000000000e+00,6.00000000000000e-01,-1.45636704167701e-04
9.53200000000000e-08,0.00000000000000e+00,6.00000000000000e-01,-1.79911470643795e-03
9.54480000000000e-08,0.00000000000000e+00,6.00000000000000e-01,-2.17637074655871e-04
9.56641729656248e-08,0.00000000000000e+00,6.00000000000000e-01,1.60675505037067e-04
9.59619397918756e-08,0.00000000000000e+00,6.00000000000000e-01,-2.47563788745214e-04
9.64070744041838e-08,0.00000000000000e+00,6.00000000000000e-01,3.86874858390250e-04
9.72191335175274e-08,0.00000000000000e+00,6.00000000000000e-01,-3.49203366662488e-04
9.80856130643329e-08,0.00000000000000e+00,6.00000000000000e-01,3.72127689794688e-04
9.98185721579440e-08,0.00000000000000e+00,6.00000000000000e-01,-3.22892198110701e-04
1.02628186314226e-07,0.00000000000000e+00,6.00000000000000e-01,3.52836542934350e-04
1.05000000000000e-07,0.00000000000000e+00,6.00000000000000e-01,-3.04816582902348e-04
1.05010000000000e-07,5.99999999999886e-02,6.00000000000000e-01,-3.69651462009402e-06
1.05030000000000e-07,1.79999999999966e-01,6.00000000000000e-01,4.85459519461801e-04
1.05070000000000e-07,4.19999999999920e-01,6.00000000000000e-01,1.03336622593891e-03
1.05100000000000e-07,5.99999999999966e-01,6.00000000000000e-01,6.14866570695247e-04
1.05108000000000e-07,6.00000000000000e-01,6.00000000000000e-01,3.91389412183057e-05
1.05124000000000e-07,6.00000000000000e-01,6.00000000000000e-01,-1.16613598479014e-03
1.05156000000000e-07,6.00000000000000e-01,6.00000000000000e-01,-3.41124706529884e-03
1.05220000000000e-07,6.00000000000000e-01,6.00000000000000e-01,-6.02475131452589e-03
1.05348000000000e-07,6.00000000000000e-01,6.00000000000000e-01,1.78612848129153e-02
1.05604000000000e-07,6.00000000000000e-01,6.00000000000000e-01,4.96007120765222e-01
1.06064581650656e-07,6.00000000000000e-01,6.00000000000000e-01,6.16343813206230e-01
1.06532508963524e-07,6.00000000000000e-01,6.00000000000000e-01,5.85336917435607e-01
1.07468363589260e-07,6.00000000000000e-01,6.00000000000000e-01,6.14010933701260e-01
