Time,v(clk),v(data),v(out)
1.00000000000000e-08,6.00000000000000e-01,0.00000000000000e+00,-8.44548983915810e-06
1.00100000000000e-08,6.00000000000000e-01,5.99999999999985e-02,5.76563188299517e-06
1.00300000000000e-08,6.00000000000000e-01,1.79999999999996e-01,1.41394959077418e-05
1.00700000000000e-08,6.00000000000000e-01,4.19999999999990e-01,7.84009858520451e-07
1.01000000000000e-08,6.00000000000000e-01,5.99999999999995e-01,-3.24524336994814e-06
1.01080000000000e-08,6.00000000000000e-01,6.00000000000000e-01,-5.15351331459302e-06
1.01240000000000e-08,6.00000000000000e-01,6.00000000000000e-01,-2.08261754580663e-06
1.01560000000000e-08,6.00000000000000e-01,6.00000000000000e-01,7.89021167817150e-06
1.02200000000000e-08,6.00000000000000e-01,6.00000000000000e-01,9.30647085113645e-06
1.03480000000000e-08,6.00000000000000e-01,6.00000000000000e-01,1.41783667445550e-06
1.06040000000000e-08,6.00000000000000e-01,6.00000000000000e-01,2.21561750223670e-06
1.11160000000000e-08,6.00000000000000e-01,6.00000000000000e-01,2.26355651252591e-06
1.21400000000000e-08,6.00000000000000e-01,6.00000000000000e-01,2.02713908917414e-06
1.41880000000000e-08,6.00000000000000e-01,6.00000000000000e-01,2.02965034229539e-06
1.51000000000000e-08,6.00000000000000e-01,6.00000000000000e-01,1.82540903437625e-06
1.51100000000000e-08,5.39999999999991e-01,6.00000000000000e-01,-1.54414789098278e-04
1.51300000000000e-08,4.19999999999994e-01,6.00000000000000e-01,-3.43453934409169e-04
1.51700000000000e-08,1.80000000000000e-01,6.00000000000000e-01,-1.50418852189499e-04
1.52000000000000e-08,0.00000000000000e+00,6.00000000000000e-01,7.15404724984159e-04
1.52080000000000e-08,0.00000000000000e+00,6.00000000000000e-01,1.06554120136214e-03
1.52240000000000e-08,0.00000000000000e+00,6.00000000000000e-01,1.39969127790653e-03
1.52560000000000e-08,0.00000000000000e+00,6.00000000000000e-01,8.32065641715091e-04
1.53200000000000e-08,0.00000000000000e+00,6.00000000000000e-01,-7.14927573689905e-04
1.54480000000000e-08,0.00000000000000e+00,6.00000000000000e-01,-2.47492219218423e-04
1.57040000000000e-08,0.00000000000000e+00,6.00000000000000e-01,2.22635137988106e-04
1.59947679445088e-08,0.00000000000000e+00,6.00000000000000e-01,-3.62111683142236e-04
1.65253992682535e-08,0.00000000000000e+00,6.00000000000000e-01,4.18892880679565e-04
1.75096885633537e-08,0.00000000000000e+00,6.00000000000000e-01,-4.22607135124861e-04
1.84454222151068e-08,0.00000000000000e+00,6.00000000000000e-01,3.96328786798534e-04
2.03168895186130e-08,0.00000000000000e+00,6.00000000000000e-01,-3.80808301197375e-04
2.38036655544753e-08,0.00000000000000e+00,6.00000000000000e-01,3.72367438939071e-04
2.50000000000000e-08,0.00000000000000e+00,6.00000000000000e-01,-3.45573930175267e-04
2.50100000000000e-08,5.99999999999886e-02,6.00000000000000e-01,-9.90066476320994e-06
2.50300000000000e-08,1.80000000000006e-01,6.00000000000000e-01,5.28789491594225e-04
2.50700000000000e-08,4.20000000000000e-01,6.00000000000000e-01,1.12703484804674e-03
2.51000000000000e-08,6.00000000000000e-01,6.00000000000000e-01,7.08564335991660e-04
2.51080000000000e-08,6.00000000000000e-01,6.00000000000000e-01,1.38846157360956e-04
2.51240000000000e-08,6.00000000000000e-01,6.00000000000000e-01,-1.08971054421009e-03
2.51560000000000e-08,6.00000000000000e-01,6.00000000000000e-01,-3.39622704447508e-03
2.52200000000000e-08,6.00000000000000e-01,6.00000000000000e-01,-6.31572695660994e-03
2.53480000000000e-08,6.00000000000000e-01,6.00000000000000e-01,1.21708214994011e-03
2.56040000000000e-08,6.00000000000000e-01,6.00000000000000e-01,4.29606132627770e-01
2.61160000000000e-08,6.00000000000000e-01,6.00000000000000e-01,6.16840916358445e-01
2.66069859967806e-08,6.00000000000000e-01,6.00000000000000e-01,5.85689806156464e-01
2.75889579903419e-08,6.00000000000000e-01,6.00000000000000e-01,6.14006247415520e-01
2.89504904052621e-08,6.00000000000000e-01,6.00000000000000e-01,5.86194344770933e-01
3.01000000000000e-08,6.00000000000000e-01,6.00000000000000e-01,6.13170033977901e-01
3.01100000000000e-08,6.00000000000000e-01,5.40000000000031e-01,6.05987007094231e-01
3.01300000000000e-08,6.00000000000000e-01,4.20000000000014e-01,5.99493246065240e-01
3.01700000000000e-08,6.00000000000000e-01,1.80000000000020e-01,6.00131569344448e-01
3.02000000000000e-08,6.00000000000000e-01,1.44328993201270e-14,5.99959645401612e-01
3.02080000000000e-08,6.00000000000000e-01,0.00000000000000e+00,5.99976698999066e-01
3.02240000000000e-08,6.00000000000000e-01,0.00000000000000e+00,5.99974210647081e-01
3.02560000000000e-08,6.00000000000000e-01,0.00000000000000e+00,5.99924583743027e-01
3.03200000000000e-08,6.00000000000000e-01,0.00000000000000e+00,5.99935007352774e-01
3.04480000000000e-08,6.00000000000000e-01,0.00000000000000e+00,6.00030118306563e-01
3.06726577531846e-08,6.00000000000000e-01,0.00000000000000e+00,5.99966135585692e-01
3.09701306168953e-08,6.00000000000000e-01,0.00000000000000e+00,6.00009197549112e-01
3.15561607580765e-08,6.00000000000000e-01,0.00000000000000e+00,5.99976959644504e-01
3.27282210404389e-08,6.00000000000000e-01,0.00000000000000e+00,6.00006550639181e-01
3.50723416051637e-08,6.00000000000000e-01,0.00000000000000e+00,5.99980671214703e-01
3.51000000000000e-08,5.99999999999970e-01,0.00000000000000e+00,5.99985736644739e-01
3.51100000000000e-08,5.39999999999982e-01,0.00000000000000e+00,5.99856683544870e-01
3.51300000000000e-08,4.19999999999965e-01,0.00000000000000e+00,5.99760874350439e-01
3.51700000000000e-08,1.79999999999970e-01,0.00000000000000e+00,6.00845826927758e-01
3.52000000000000e-08,0.00000000000000e+00,0.00000000000000e+00,6.04268671638913e-01
3.52080000000000e-08,0.00000000000000e+00,0.00000000000000e+00,6.05168112418930e-01
3.52240000000000e-08,0.00000000000000e+00,0.00000000000000e+00,6.05767467053406e-01
3.52560000000000e-08,0.00000000000000e+00,0.00000000000000e+00,5.99929628570019e-01
3.53200000000000e-08,0.00000000000000e+00,0.00000000000000e+00,5.87613081334957e-01
3.54480000000000e-08,0.00000000000000e+00,0.00000000000000e+00,5.96295714263321e-01
3.56941800723556e-08,0.00000000000000e+00,0.00000000000000e+00,6.01586227969546e-01
3.60005435494779e-08,0.00000000000000e+00,0.00000000000000e+00,5.98211097303106e-01
3.66132705037224e-08,0.00000000000000e+00,0.00000000000000e+00,6.01224810464428e-01
3.74277360676827e-08,0.00000000000000e+00,0.00000000000000e+00,5.98682000122290e-01
3.90566671956031e-08,0.00000000000000e+00,0.00000000000000e+00,6.01268838037085e-01
3.91000000000000e-08,0.00000000000000e+00,0.00000000000000e+00,6.00914231826690e-01
3.91463724213482e-08,0.00000000000000e+00,0.00000000000000e+00,5.99709879050983e-01
3.92391172640445e-08,0.00000000000000e+00,0.00000000000000e+00,5.99450692744317e-01
3.94203263860542e-08,0.00000000000000e+00,0.00000000000000e+00,6.00058006951410e-01
3.97827446300736e-08,0.00000000000000e+00,0.00000000000000e+00,5.99833342261886e-01
4.05075811181125e-08,0.00000000000000e+00,0.00000000000000e+00,6.00083324843702e-01
4.19572540941903e-08,0.00000000000000e+00,0.00000000000000e+00,5.99851652308018e-01
4.48566000463458e-08,0.00000000000000e+00,0.00000000000000e+00,6.00093202926867e-01
4.50000000000000e-08,0.00000000000000e+00,0.00000000000000e+00,5.99893185292137e-01
4.50100000000000e-08,5.99999999999886e-02,0.00000000000000e+00,6.00071458681678e-01
4.50300000000000e-08,1.80000000000006e-01,0.00000000000000e+00,6.00203589353221e-01
4.50700000000000e-08,4.20000000000000e-01,0.00000000000000e+00,6.00039539924100e-01
4.51000000000000e-08,6.00000000000000e-01,0.00000000000000e+00,5.99874135871623e-01
4.51080000000000e-08,6.00000000000000e-01,0.00000000000000e+00,5.99757845172062e-01
4.51240000000000e-08,6.00000000000000e-01,0.00000000000000e+00,5.99656620044078e-01
4.51560000000000e-08,6.00000000000000e-01,0.00000000000000e+00,5.99677949009615e-01
4.52200000000000e-08,6.00000000000000e-01,0.00000000000000e+00,5.99814004750499e-01
4.53480000000000e-08,6.00000000000000e-01,0.00000000000000e+00,6.00750427618539e-01
4.56040000000000e-08,6.00000000000000e-01,0.00000000000000e+00,5.25725180589187e-01
4.61160000000000e-08,6.00000000000000e-01,0.00000000000000e+00,3.08489860627030e-02
4.66038846949732e-08,6.00000000000000e-01,0.00000000000000e+00,-1.90644740260976e-02
4.75796540849195e-08,6.00000000000000e-01,0.00000000000000e+00,1.65318953745213e-02
4.88800074976675e-08,6.00000000000000e-01,0.00000000000000e+00,-1.38315450583478e-02
5.00000000000000e-08,6.00000000000000e-01,0.00000000000000e+00,1.24623981493853e-02
5.00100000000000e-08,6.00000000000000e-01,5.99999999999886e-02,8.59720722928017e-03
5.00300000000000e-08,6.00000000000000e-01,1.79999999999966e-01,4.30865007532086e-03
5.00700000000000e-08,6.00000000000000e-01,4.20000000000000e-01,2.39284214440572e-03
5.01000000000000e-08,6.00000000000000e-01,6.00000000000000e-01,1.35532615975023e-03
5.01080000000000e-08,6.00000000000000e-01,6.00000000000000e-01,1.21772044986113e-03
5.01240000000000e-08,6.00000000000000e-01,6.00000000000000e-01,9.51727104112843e-04
5.01560000000000e-08,6.00000000000000e-01,6.00000000000000e-01,5.46682103592391e-04
5.02200000000000e-08,6.00000000000000e-01,6.00000000000000e-01,1.81291311611029e-04
5.03480000000000e-08,6.00000000000000e-01,6.00000000000000e-01,4.85692519668068e-06
5.06040000000000e-08,6.00000000000000e-01,6.00000000000000e-01,-1.94709696387657e-06
5.11160000000001e-08,6.00000000000000e-01,6.00000000000000e-01,-4.14649510016331e-05
5.21400000000002e-08,6.00000000000000e-01,6.00000000000000e-01,3.28663155473377e-05
5.41880000000003e-08,6.00000000000000e-01,6.00000000000000e-01,-2.96205935536699e-05
5.51000000000000e-08,6.00000000000000e-01,6.00000000000000e-01,2.27854330982161e-05
5.51100000000000e-08,5.40000000000021e-01,6.00000000000000e-01,-1.37590299324669e-04
5.51300000000000e-08,4.20000000000004e-01,6.00000000000000e-01,-3.32957229028749e-04
5.51700000000000e-08,1.80000000000010e-01,6.00000000000000e-01,-1.46246808925304e-04
5.52000000000000e-08,0.00000000000000e+00,6.00000000000000e-01,7.10146531990322e-04
5.52080000000000e-08,0.00000000000000e+00,6.00000000000000e-01,1.04810493342788e-03
5.52240000000000e-08,0.00000000000000e+00,6.00000000000000e-01,1.31636352746914e-03
5.52560000000000e-08,0.00000000000000e+00,6.00000000000000e-01,2.63376172736668e-04
5.53200000000000e-08,0.00000000000000e+00,6.00000000000000e-01,-2.28631061408981e-03
5.54480000000000e-08,0.00000000000000e+00,6.00000000000000e-01,-8.86331336267115e-04
5.56775940599256e-08,0.00000000000000e+00,6.00000000000000e-01,5.62061747633062e-04
5.59756195821072e-08,0.00000000000000e+00,6.00000000000000e-01,-5.93134493923113e-04
5.64893486981119e-08,0.00000000000000e+00,6.00000000000000e-01,5.75663846134011e-04
5.73796234334094e-08,0.00000000000000e+00,6.00000000000000e-01,-5.21301367477224e-04
5.82950032501486e-08,0.00000000000000e+00,6.00000000000000e-01,4.67750371950772e-04
6.01257628836269e-08,0.00000000000000e+00,6.00000000000000e-01,-4.41126050561109e-04
6.37872821505836e-08,0.00000000000000e+00,6.00000000000000e-01,4.29189836795858e-04
6.50000000000000e-08,0.00000000000000e+00,6.00000000000000e-01,-3.91190494801442e-04
6.50100000000000e-08,5.99999999999886e-02,6.00000000000000e-01,-2.58778516600139e-05
6.50300000000000e-08,1.79999999999966e-01,6.00000000000000e-01,5.28671746138867e-04
6.50700000000000e-08,4.19999999999920e-01,6.00000000000000e-01,1.12202140289787e-03
6.51000000000000e-08,5.99999999999966e-01,6.00000000000000e-01,7.17636328017121e-04
6.51080000000000e-08,6.00000000000000e-01,6.00000000000000e-01,1.50225493858305e-04
6.51240000000000e-08,6.00000000000000e-01,6.00000000000000e-01,-1.07522083453905e-03
6.51560000000000e-08,6.00000000000000e-01,6.00000000000000e-01,-3.38243919003402e-03
6.52200000000000e-08,6.00000000000000e-01,6.00000000000000e-01,-6.30889942967214e-03
6.53480000000000e-08,6.00000000000000e-01,6.00000000000000e-01,1.04565297249766e-03
6.56040000000000e-08,6.00000000000000e-01,6.00000000000000e-01,4.28628659817325e-01
6.61159999999999e-08,6.00000000000000e-01,6.00000000000000e-01,6.16806512775265e-01
6.66073571266843e-08,6.00000000000000e-01,6.00000000000000e-01,5.85735244483537e-01
6.75900713800529e-08,6.00000000000000e-01,6.00000000000000e-01,6.13969511034021e-01
6.89507993892148e-08,6.00000000000000e-01,6.00000000000000e-01,5.86235321033422e-01
7.01000000000000e-08,6.00000000000000e-01,6.00000000000000e-01,6.13134692396096e-01
7.01100000000000e-08,6.00000000000000e-01,5.40000000000011e-01,6.05970695881448e-01
7.01300000000000e-08,6.00000000000000e-01,4.20000000000034e-01,5.99493830337932e-01
7.01700000000000e-08,6.00000000000000e-01,1.80000000000080e-01,6.00130919308015e-01
7.02000000000000e-08,6.00000000000000e-01,3.44169137633799e-14,5.99959486305853e-01
7.02080000000000e-08,6.00000000000000e-01,0.00000000000000e+00,5.99976423621273e-01
7.02240000000000e-08,6.00000000000000e-01,0.00000000000000e+00,5.99973821344210e-01
7.02560000000000e-08,6.00000000000000e-01,0.00000000000000e+00,5.99924330972703e-01
7.03200000000000e-08,6.00000000000000e-01,0.00000000000000e+00,5.99934939445131e-01
7.04480000000000e-08,6.00000000000000e-01,0.00000000000000e+00,6.00030060641065e-01
7.06725858687602e-08,6.00000000000000e-01,0.00000000000000e+00,5.99966344737057e-01
7.09700830687397e-08,6.00000000000000e-01,0.00000000000000e+00,6.00009027954821e-01
7.15557552957446e-08,6.00000000000000e-01,0.00000000000000e+00,5.99977141521911e-01
7.27270997497545e-08,6.00000000000000e-01,0.00000000000000e+00,6.00006372842474e-01
7.50697886577741e-08,6.00000000000000e-01,0.00000000000000e+00,5.99980854252556e-01
7.51000000000000e-08,6.00000000000000e-01,0.00000000000000e+00,5.99986588737881e-01
7.51100000000000e-08,5.40000000000061e-01,0.00000000000000e+00,5.99857230294890e-01
7.51300000000000e-08,4.20000000000084e-01,0.00000000000000e+00,5.99760995241269e-01
7.51700000000000e-08,1.80000000000129e-01,0.00000000000000e+00,6.00845810887687e-01
7.52000000000000e-08,8.40438829641244e-14,0.00000000000000e+00,6.04268726275705e-01
7.52080000000000e-08,0.00000000000000e+00,0.00000000000000e+00,6.05168201632700e-01
7.52240000000000e-08,0.00000000000000e+00,0.00000000000000e+00,6.05767784187877e-01
7.52560000000000e-08,0.00000000000000e+00,0.00000000000000e+00,5.99930588066115e-01
7.53200000000000e-08,0.00000000000000e+00,0.00000000000000e+00,5.87613692095161e-01
7.54480000000000e-08,0.00000000000000e+00,0.00000000000000e+00,5.96295327229000e-01
7.56941803415142e-08,0.00000000000000e+00,0.00000000000000e+00,6.01586520493943e-01
7.60005436624989e-08,0.00000000000000e+00,0.00000000000000e+00,5.98210860278977e-01
7.66132703044682e-08,0.00000000000000e+00,0.00000000000000e+00,6.01225023547402e-01
7.74277358450408e-08,0.00000000000000e+00,0.00000000000000e+00,5.98681801737285e-01
7.81000000000000e-08,0.00000000000000e+00,0.00000000000000e+00,6.01033696105745e-01
7.82628931081145e-08,0.00000000000000e+00,0.00000000000000e+00,6.00050177504258e-01
7.85886793243436e-08,0.00000000000000e+00,0.00000000000000e+00,5.99855959260758e-01
7.92402517568016e-08,0.00000000000000e+00,0.00000000000000e+00,6.00030085147662e-01
8.05433966217177e-08,0.00000000000000e+00,0.00000000000000e+00,5.99889571739029e-01
8.31496863515499e-08,0.00000000000000e+00,0.00000000000000e+00,6.00044422370217e-01
8.50000000000000e-08,0.00000000000000e+00,0.00000000000000e+00,5.99909099362776e-01
8.50100000000000e-08,5.99999999999886e-02,0.00000000000000e+00,6.00066231899357e-01
8.50300000000000e-08,1.79999999999966e-01,0.00000000000000e+00,6.00180508893754e-01
8.50700000000000e-08,4.19999999999920e-01,0.00000000000000e+00,6.00065165611411e-01
8.51000000000000e-08,5.99999999999966e-01,0.00000000000000e+00,5.99870808081670e-01
8.51080000000000e-08,6.00000000000000e-01,0.00000000000000e+00,5.99752334996083e-01
8.51240000000000e-08,6.00000000000000e-01,0.00000000000000e+00,5.99647548093369e-01
8.51560000000000e-08,6.00000000000000e-01,0.00000000000000e+00,5.99679033355280e-01
8.52200000000000e-08,6.00000000000000e-01,0.00000000000000e+00,5.99819638870340e-01
8.53480000000000e-08,6.00000000000000e-01,0.00000000000000e+00,6.00746295076970e-01
8.56040000000000e-08,6.00000000000000e-01,0.00000000000000e+00,5.25627367120879e-01
8.61159999999999e-08,6.00000000000000e-01,0.00000000000000e+00,3.07721824160095e-02
8.66039106746801e-08,6.00000000000000e-01,0.00000000000000e+00,-1.90249743697172e-02
8.75797320240405e-08,6.00000000000000e-01,0.00000000000000e+00,1.65000036015789e-02
8.88800514974102e-08,6.00000000000000e-01,0.00000000000000e+00,-1.38062435251855e-02
9.00000000000000e-08,6.00000000000000e-01,0.00000000000000e+00,1.24415116419452e-02
9.00100000000000e-08,6.00000000000000e-01,5.99999999999886e-02,8.57916608362135e-03
9.00300000000000e-08,6.00000000000000e-01,1.79999999999966e-01,4.29558605601432e-03
9.00700000000000e-08,6.00000000000000e-01,4.19999999999920e-01,2.38618171167782e-03
9.01000000000000e-08,6.00000000000000e-01,5.99999999999966e-01,1.35122746124823e-03
9.01080000000000e-08,6.00000000000000e-01,6.00000000000000e-01,1.21409332334071e-03
9.01240000000000e-08,6.00000000000000e-01,6.00000000000000e-01,9.48938993077478e-04
9.01560000000000e-08,6.00000000000000e-01,6.00000000000000e-01,5.45066223387972e-04
9.02200000000000e-08,6.00000000000000e-01,6.00000000000000e-01,1.80775011883003e-04
9.03480000000000e-08,6.00000000000000e-01,6.00000000000000e-01,4.85894042463741e-06
9.06040000000000e-08,6.00000000000000e-01,6.00000000000000e-01,-1.94631156062025e-06
9.11159999999999e-08,6.00000000000000e-01,6.00000000000000e-01,-4.13362598489959e-05
9.21399999999999e-08,6.00000000000000e-01,6.00000000000000e-01,3.27645822575905e-05
9.41879999999998e-08,6.00000000000000e-01,6.00000000000000e-01,-2.95294059497230e-05
9.51000000000000e-08,6.00000000000000e-01,6.00000000000000e-01,2.27161229387190e-05
9.51100000000000e-08,5.40000000000061e-01,6.00000000000000e-01,-1.37646253859910e-04
9.51300000000000e-08,4.20000000000084e-01,6.00000000000000e-01,-3.32996199761695e-04
9.51700000000000e-08,1.80000000000129e-01,6.00000000000000e-01,-1.46266622531241e-04
9.52000000000000e-08,8.40438829641244e-14,6.00000000000000e-01,7.10136471415657e-04
9.52080000000000e-08,0.00000000000000e+00,6.00000000000000e-01,1.04809876504967e-03
9.52240000000000e-08,0.00000000000000e+00,6.00000000000000e-01,1.31637147336561e-03
9.52560000000000e-08,0.00000000000000e+00,6.00000000000000e-01,2.63429770074319e-04
9.53200000000000e-08,0.00000000000000e+00,6.00000000000000e-01,-2.28610874664927e-03
9.54480000000000e-08,0.00000000000000e+00,6.00000000000000e-01,-8.86207324980605e-04
9.56776077497890e-08,0.00000000000000e+00,6.00000000000000e-01,5.62018234447494e-04
9.59756291183301e-08,0.00000000000000e+00,6.00000000000000e-01,-5.93101994085500e-04
9.64893630898373e-08,0.00000000000000e+00,6.00000000000000e-01,5.75653792292873e-04
9.73796494110389e-08,0.00000000000000e+00,6.00000000000000e-01,-5.21308946968165e-04
9.82950393650006e-08,0.00000000000000e+00,6.00000000000000e-01,4.67767504584771e-04
1.00125819272924e-07,0.00000000000000e+00,6.00000000000000e-01,-4.41147047652534e-04
1.03787379088771e-07,0.00000000000000e+00,6.00000000000000e-01,4.29211615022399e-04
1.05000000000000e-07,0.00000000000000e+00,6.00000000000000e-01,-3.91212316325988e-04
1.05010000000000e-07,5.99999999999886e-02,6.00000000000000e-01,-2.58987219933782e-05
1.05030000000000e-07,1.79999999999966e-01,6.00000000000000e-01,5.28660403849732e-04
1.05070000000000e-07,4.19999999999920e-01,6.00000000000000e-01,1.12201927003044e-03
1.05100000000000e-07,5.99999999999966e-01,6.00000000000000e-01,7.17617377606047e-04
1.05108000000000e-07,6.00000000000000e-01,6.00000000000000e-01,1.50200697589045e-04
1.05124000000000e-07,6.00000000000000e-01,6.00000000000000e-01,-1.07525230496690e-03
1.05156000000000e-07,6.00000000000000e-01,6.00000000000000e-01,-3.38246711686639e-03
1.05220000000000e-07,6.00000000000000e-01,6.00000000000000e-01,-6.30891204755483e-03
1.05348000000000e-07,6.00000000000000e-01,6.00000000000000e-01,1.04586153281888e-03
1.05604000000000e-07,6.00000000000000e-01,6.00000000000000e-01,4.28629863339501e-01
