Time,v(clk),v(data),v(out)
1.00000000000000e-08,6.00000000000000e-01,0.00000000000000e+00,7.22851453426390e-06
1.00100000000000e-08,6.00000000000000e-01,5.99999999999985e-02,1.49234704025364e-05
1.00300000000000e-08,6.00000000000000e-01,1.79999999999996e-01,1.97738830919753e-05
1.00700000000000e-08,6.00000000000000e-01,4.19999999999990e-01,1.46710737260192e-05
1.01000000000000e-08,6.00000000000000e-01,5.99999999999995e-01,9.48389918485615e-06
1.01080000000000e-08,6.00000000000000e-01,6.00000000000000e-01,6.71025831869287e-06
1.01240000000000e-08,6.00000000000000e-01,6.00000000000000e-01,8.06232334361889e-06
1.01560000000000e-08,6.00000000000000e-01,6.00000000000000e-01,1.90793803564043e-05
1.02200000000000e-08,6.00000000000000e-01,6.00000000000000e-01,2.53716250401131e-05
1.03480000000000e-08,6.00000000000000e-01,6.00000000000000e-01,2.47570816789416e-05
1.06040000000000e-08,6.00000000000000e-01,6.00000000000000e-01,2.08052248869481e-05
1.11139330867140e-08,6.00000000000000e-01,6.00000000000000e-01,2.34759139792901e-05
1.21337992601421e-08,6.00000000000000e-01,6.00000000000000e-01,2.10271541936057e-05
1.41735316069981e-08,6.00000000000000e-01,6.00000000000000e-01,2.22579641323585e-05
1.51000000000000e-08,6.00000000000000e-01,6.00000000000000e-01,2.03157668907279e-05
1.51100000000000e-08,5.39999999999991e-01,6.00000000000000e-01,-1.47699997102194e-04
1.51300000000000e-08,4.19999999999994e-01,6.00000000000000e-01,-3.87981679699737e-04
1.51700000000000e-08,1.80000000000000e-01,6.00000000000000e-01,-2.36248593011690e-04
1.52000000000000e-08,0.00000000000000e+00,6.00000000000000e-01,6.29587508463883e-04
1.52080000000000e-08,0.00000000000000e+00,6.00000000000000e-01,1.00971693540376e-03
1.52240000000000e-08,0.00000000000000e+00,6.00000000000000e-01,1.45321269319799e-03
1.52560000000000e-08,0.00000000000000e+00,6.00000000000000e-01,1.24822910902095e-03
1.53200000000000e-08,0.00000000000000e+00,6.00000000000000e-01,-2.90079980763261e-04
1.54480000000000e-08,0.00000000000000e+00,6.00000000000000e-01,-7.08331668199974e-04
1.57040000000000e-08,0.00000000000000e+00,6.00000000000000e-01,3.35496125901426e-04
1.60280558406069e-08,0.00000000000000e+00,6.00000000000000e-01,-3.46449691642804e-04
1.66761675218207e-08,0.00000000000000e+00,6.00000000000000e-01,2.62306131170151e-04
1.74518634094856e-08,0.00000000000000e+00,6.00000000000000e-01,-3.00397495594067e-05
1.86647057054204e-08,0.00000000000000e+00,6.00000000000000e-01,-1.32926319183421e-06
2.08900756614433e-08,0.00000000000000e+00,6.00000000000000e-01,6.52540251180455e-05
2.46900756614433e-08,0.00000000000000e+00,6.00000000000000e-01,-3.93726442684435e-05
2.50000000000000e-08,0.00000000000000e+00,6.00000000000000e-01,1.31717350455259e-04
2.50100000000000e-08,5.99999999999886e-02,6.00000000000000e-01,4.08810349225838e-04
2.50300000000000e-08,1.80000000000006e-01,6.00000000000000e-01,8.44022987759582e-04
2.50700000000000e-08,4.20000000000000e-01,6.00000000000000e-01,1.43004388069036e-03
2.51000000000000e-08,6.00000000000000e-01,6.00000000000000e-01,1.56634268385868e-03
2.51080000000000e-08,6.00000000000000e-01,6.00000000000000e-01,1.31974942789877e-03
2.51240000000000e-08,6.00000000000000e-01,6.00000000000000e-01,7.49147464243927e-04
2.51560000000000e-08,6.00000000000000e-01,6.00000000000000e-01,-7.67747720852544e-04
2.52200000000000e-08,6.00000000000000e-01,6.00000000000000e-01,-3.77291059191850e-03
2.53480000000000e-08,6.00000000000000e-01,6.00000000000000e-01,-6.35335915473154e-03
2.56040000000000e-08,6.00000000000000e-01,6.00000000000000e-01,1.22713100745025e-01
2.61160000000000e-08,6.00000000000000e-01,6.00000000000000e-01,5.79402826794675e-01
2.71400000000000e-08,6.00000000000000e-01,6.00000000000000e-01,6.05851701701822e-01
2.81623652695179e-08,6.00000000000000e-01,6.00000000000000e-01,5.93801744236472e-01
2.99390987443708e-08,6.00000000000000e-01,6.00000000000000e-01,6.05424080897475e-01
3.01000000000000e-08,6.00000000000000e-01,6.00000000000000e-01,5.95992233301534e-01
3.01100000000000e-08,6.00000000000000e-01,5.40000000000031e-01,5.97775018103316e-01
3.01300000000000e-08,6.00000000000000e-01,4.20000000000014e-01,5.99727758498905e-01
3.01700000000000e-08,6.00000000000000e-01,1.80000000000020e-01,6.00070546947036e-01
3.02000000000000e-08,6.00000000000000e-01,1.44328993201270e-14,6.00057695505988e-01
3.02080000000000e-08,6.00000000000000e-01,0.00000000000000e+00,6.00055106587708e-01
3.02240000000000e-08,6.00000000000000e-01,0.00000000000000e+00,6.00033479060987e-01
3.02560000000000e-08,6.00000000000000e-01,0.00000000000000e+00,5.99987610172557e-01
3.03200000000000e-08,6.00000000000000e-01,0.00000000000000e+00,5.99939778006804e-01
3.04480000000000e-08,6.00000000000000e-01,0.00000000000000e+00,6.00026326297506e-01
3.06989799722268e-08,6.00000000000000e-01,0.00000000000000e+00,5.99969150242700e-01
3.10249776757381e-08,6.00000000000000e-01,0.00000000000000e+00,5.99990447700644e-01
3.16391380793993e-08,6.00000000000000e-01,0.00000000000000e+00,5.99975685686042e-01
3.28674588867216e-08,6.00000000000000e-01,0.00000000000000e+00,5.99990655407340e-01
3.51000000000000e-08,5.99999999999970e-01,0.00000000000000e+00,5.99981540630594e-01
3.51100000000000e-08,5.39999999999982e-01,0.00000000000000e+00,5.99848312246652e-01
3.51300000000000e-08,4.19999999999965e-01,0.00000000000000e+00,5.99725986426607e-01
3.51700000000000e-08,1.79999999999970e-01,0.00000000000000e+00,6.00947453108683e-01
3.52000000000000e-08,0.00000000000000e+00,0.00000000000000e+00,6.04333284580759e-01
3.52080000000000e-08,0.00000000000000e+00,0.00000000000000e+00,6.05225121764195e-01
3.52240000000000e-08,0.00000000000000e+00,0.00000000000000e+00,6.06196971194882e-01
3.52560000000000e-08,0.00000000000000e+00,0.00000000000000e+00,6.03515877015134e-01
3.53200000000000e-08,0.00000000000000e+00,0.00000000000000e+00,5.90833979781145e-01
3.54480000000000e-08,0.00000000000000e+00,0.00000000000000e+00,5.91703747754344e-01
3.56879344536303e-08,0.00000000000000e+00,0.00000000000000e+00,6.02475231735265e-01
3.60303488635196e-08,0.00000000000000e+00,0.00000000000000e+00,5.97153467166431e-01
3.66897193437184e-08,0.00000000000000e+00,0.00000000000000e+00,6.01880127058605e-01
3.75760817316407e-08,0.00000000000000e+00,0.00000000000000e+00,5.97966716040478e-01
3.91000000000000e-08,0.00000000000000e+00,0.00000000000000e+00,6.01685191126704e-01
3.92772724775845e-08,0.00000000000000e+00,0.00000000000000e+00,6.00106243187645e-01
3.96318174327534e-08,0.00000000000000e+00,0.00000000000000e+00,5.99769833402318e-01
4.03409073430913e-08,0.00000000000000e+00,0.00000000000000e+00,6.00054985038604e-01
4.17590871637671e-08,0.00000000000000e+00,0.00000000000000e+00,5.99815370804060e-01
4.45954468051187e-08,0.00000000000000e+00,0.00000000000000e+00,6.00063973896738e-01
4.50000000000000e-08,0.00000000000000e+00,0.00000000000000e+00,5.99854521474020e-01
4.50100000000000e-08,5.99999999999886e-02,0.00000000000000e+00,6.00029944186625e-01
4.50300000000000e-08,1.80000000000006e-01,0.00000000000000e+00,6.00191264583741e-01
4.50700000000000e-08,4.20000000000000e-01,0.00000000000000e+00,6.00109066415253e-01
4.51000000000000e-08,6.00000000000000e-01,0.00000000000000e+00,5.99929597305070e-01
4.51080000000000e-08,6.00000000000000e-01,0.00000000000000e+00,5.99804012663786e-01
4.51240000000000e-08,6.00000000000000e-01,0.00000000000000e+00,5.99670317587273e-01
4.51560000000000e-08,6.00000000000000e-01,0.00000000000000e+00,5.99642720192437e-01
4.52200000000000e-08,6.00000000000000e-01,0.00000000000000e+00,5.99753566885169e-01
4.53480000000000e-08,6.00000000000000e-01,0.00000000000000e+00,5.99966251567725e-01
4.56040000000000e-08,6.00000000000000e-01,0.00000000000000e+00,6.07889366097878e-01
4.61160000000000e-08,6.00000000000000e-01,0.00000000000000e+00,2.38127064181788e-01
4.68720402949578e-08,6.00000000000000e-01,0.00000000000000e+00,-6.64904585045228e-02
4.77894651002648e-08,6.00000000000000e-01,0.00000000000000e+00,5.11750657157828e-02
4.93157168485656e-08,6.00000000000000e-01,0.00000000000000e+00,-3.41904760706902e-02
5.00000000000000e-08,6.00000000000000e-01,0.00000000000000e+00,2.06580870491722e-02
5.00100000000000e-08,6.00000000000000e-01,5.99999999999886e-02,1.92470563079302e-02
5.00300000000000e-08,6.00000000000000e-01,1.79999999999966e-01,1.62007859469467e-02
5.00700000000000e-08,6.00000000000000e-01,4.20000000000000e-01,1.06776585104785e-02
5.01000000000000e-08,6.00000000000000e-01,6.00000000000000e-01,7.78172004162411e-03
5.01080000000000e-08,6.00000000000000e-01,6.00000000000000e-01,7.17718063723874e-03
5.01240000000000e-08,6.00000000000000e-01,6.00000000000000e-01,5.99147456816358e-03
5.01560000000000e-08,6.00000000000000e-01,6.00000000000000e-01,4.29090392830020e-03
5.02200000000000e-08,6.00000000000000e-01,6.00000000000000e-01,2.13049478176837e-03
5.03480000000000e-08,6.00000000000000e-01,6.00000000000000e-01,4.30965319508134e-04
5.06040000000000e-08,6.00000000000000e-01,6.00000000000000e-01,-4.82168989605763e-05
5.11160000000001e-08,6.00000000000000e-01,6.00000000000000e-01,4.51024742789199e-05
5.21400000000002e-08,6.00000000000000e-01,6.00000000000000e-01,-4.03950919634216e-06
5.41880000000003e-08,6.00000000000000e-01,6.00000000000000e-01,3.48322721280443e-05
5.51000000000000e-08,6.00000000000000e-01,6.00000000000000e-01,3.93541572812905e-06
5.51100000000000e-08,5.40000000000021e-01,6.00000000000000e-01,-1.63440779875360e-04
5.51300000000000e-08,4.20000000000004e-01,6.00000000000000e-01,-3.97467712555166e-04
5.51700000000000e-08,1.80000000000010e-01,6.00000000000000e-01,-2.31399374600441e-04
5.52000000000000e-08,0.00000000000000e+00,6.00000000000000e-01,6.18900796272623e-04
5.52080000000000e-08,0.00000000000000e+00,6.00000000000000e-01,9.94069891989580e-04
5.52240000000000e-08,0.00000000000000e+00,6.00000000000000e-01,1.41303868478021e-03
5.52560000000000e-08,0.00000000000000e+00,6.00000000000000e-01,9.93917061785962e-04
5.53200000000000e-08,0.00000000000000e+00,6.00000000000000e-01,-1.23074239589445e-03
5.54480000000000e-08,0.00000000000000e+00,6.00000000000000e-01,-1.55579022807299e-03
5.57040000000000e-08,0.00000000000000e+00,6.00000000000000e-01,4.75900874170647e-04
5.60269063831513e-08,0.00000000000000e+00,6.00000000000000e-01,-4.03632153807114e-04
5.66727191494538e-08,0.00000000000000e+00,6.00000000000000e-01,3.06139878003590e-04
5.74458437609597e-08,0.00000000000000e+00,6.00000000000000e-01,-6.70049775133227e-05
5.86563948947039e-08,0.00000000000000e+00,6.00000000000000e-01,3.37034177373095e-05
6.08738598774555e-08,0.00000000000000e+00,6.00000000000000e-01,3.16544512642507e-05
6.46738598774555e-08,0.00000000000000e+00,6.00000000000000e-01,-5.96182881373170e-06
6.50000000000000e-08,0.00000000000000e+00,6.00000000000000e-01,1.01202285082647e-04
6.50100000000000e-08,5.99999999999886e-02,6.00000000000000e-01,3.96767029924500e-04
6.50300000000000e-08,1.79999999999966e-01,6.00000000000000e-01,8.46765212663234e-04
6.50700000000000e-08,4.19999999999920e-01,6.00000000000000e-01,1.42887419872220e-03
6.51000000000000e-08,5.99999999999966e-01,6.00000000000000e-01,1.56569675748996e-03
6.51080000000000e-08,6.00000000000000e-01,6.00000000000000e-01,1.31845347477173e-03
6.51240000000000e-08,6.00000000000000e-01,6.00000000000000e-01,7.46457239888490e-04
6.51560000000000e-08,6.00000000000000e-01,6.00000000000000e-01,-7.71898547309677e-04
6.52200000000000e-08,6.00000000000000e-01,6.00000000000000e-01,-3.77655065769197e-03
6.53480000000000e-08,6.00000000000000e-01,6.00000000000000e-01,-6.35298069868592e-03
6.56040000000000e-08,6.00000000000000e-01,6.00000000000000e-01,1.22786657498057e-01
6.61159999999999e-08,6.00000000000000e-01,6.00000000000000e-01,5.79420642306076e-01
6.71399999999999e-08,6.00000000000000e-01,6.00000000000000e-01,6.05846506489690e-01
6.81625383106714e-08,6.00000000000000e-01,6.00000000000000e-01,5.93807386357838e-01
6.99391488045796e-08,6.00000000000000e-01,6.00000000000000e-01,6.05418957013635e-01
7.01000000000000e-08,6.00000000000000e-01,6.00000000000000e-01,5.95996709184203e-01
7.01100000000000e-08,6.00000000000000e-01,5.40000000000011e-01,5.97777473454222e-01
7.01300000000000e-08,6.00000000000000e-01,4.20000000000034e-01,5.99728050598086e-01
7.01700000000000e-08,6.00000000000000e-01,1.80000000000080e-01,6.00070503162221e-01
7.02000000000000e-08,6.00000000000000e-01,3.44169137633799e-14,6.00057739230167e-01
7.02080000000000e-08,6.00000000000000e-01,0.00000000000000e+00,6.00055146224341e-01
7.02240000000000e-08,6.00000000000000e-01,0.00000000000000e+00,6.00033517688649e-01
7.02560000000000e-08,6.00000000000000e-01,0.00000000000000e+00,5.99987634051264e-01
7.03200000000000e-08,6.00000000000000e-01,0.00000000000000e+00,5.99939799995464e-01
7.04480000000000e-08,6.00000000000000e-01,0.00000000000000e+00,6.00026323423046e-01
7.06989838314854e-08,6.00000000000000e-01,0.00000000000000e+00,5.99969159308768e-01
7.10249799935292e-08,6.00000000000000e-01,0.00000000000000e+00,5.99990446765337e-01
7.16391572402351e-08,6.00000000000000e-01,0.00000000000000e+00,5.99975691738639e-01
7.28675117336469e-08,6.00000000000000e-01,0.00000000000000e+00,5.99990653991975e-01
7.51000000000000e-08,6.00000000000000e-01,0.00000000000000e+00,5.99981545136331e-01
7.51100000000000e-08,5.40000000000061e-01,0.00000000000000e+00,5.99848340676972e-01
7.51300000000000e-08,4.20000000000084e-01,0.00000000000000e+00,5.99726028450265e-01
7.51700000000000e-08,1.80000000000129e-01,0.00000000000000e+00,6.00947463795307e-01
7.52000000000000e-08,8.40438829641244e-14,0.00000000000000e+00,6.04333299675566e-01
7.52080000000000e-08,0.00000000000000e+00,0.00000000000000e+00,6.05225153830144e-01
7.52240000000000e-08,0.00000000000000e+00,0.00000000000000e+00,6.06197014209881e-01
7.52560000000000e-08,0.00000000000000e+00,0.00000000000000e+00,6.03516053793310e-01
7.53200000000000e-08,0.00000000000000e+00,0.00000000000000e+00,5.90834175536365e-01
7.54480000000000e-08,0.00000000000000e+00,0.00000000000000e+00,5.91703691959984e-01
7.56879344932563e-08,0.00000000000000e+00,0.00000000000000e+00,6.02475244102341e-01
7.60303489096467e-08,0.00000000000000e+00,0.00000000000000e+00,5.97153456137693e-01
7.66897194717870e-08,0.00000000000000e+00,0.00000000000000e+00,6.01880136631583e-01
7.75760819079410e-08,0.00000000000000e+00,0.00000000000000e+00,5.97966707207975e-01
7.81000000000000e-08,0.00000000000000e+00,0.00000000000000e+00,6.01468289750510e-01
7.82772724872308e-08,0.00000000000000e+00,0.00000000000000e+00,6.00061923235640e-01
7.86318174616925e-08,0.00000000000000e+00,0.00000000000000e+00,5.99766480206384e-01
7.93409074106157e-08,0.00000000000000e+00,0.00000000000000e+00,6.00026506421065e-01
8.07590873084623e-08,0.00000000000000e+00,0.00000000000000e+00,5.99821873420703e-01
8.35954471041553e-08,0.00000000000000e+00,0.00000000000000e+00,6.00047443359325e-01
8.50000000000000e-08,0.00000000000000e+00,0.00000000000000e+00,5.99850974968752e-01
8.50100000000000e-08,5.99999999999886e-02,0.00000000000000e+00,6.00019996654880e-01
8.50300000000000e-08,1.79999999999966e-01,0.00000000000000e+00,6.00206854953270e-01
8.50700000000000e-08,4.19999999999920e-01,0.00000000000000e+00,6.00105993562101e-01
8.51000000000000e-08,5.99999999999966e-01,0.00000000000000e+00,5.99933204681290e-01
8.51080000000000e-08,6.00000000000000e-01,0.00000000000000e+00,5.99811205178153e-01
8.51240000000000e-08,6.00000000000000e-01,0.00000000000000e+00,5.99644718798764e-01
8.51560000000000e-08,6.00000000000000e-01,0.00000000000000e+00,5.99641665918581e-01
8.52200000000000e-08,6.00000000000000e-01,0.00000000000000e+00,5.99776393395702e-01
8.53480000000000e-08,6.00000000000000e-01,0.00000000000000e+00,5.99947749033206e-01
8.56040000000000e-08,6.00000000000000e-01,0.00000000000000e+00,6.07917999954290e-01
8.61159999999999e-08,6.00000000000000e-01,0.00000000000000e+00,2.38024559542719e-01
8.68720344459688e-08,6.00000000000000e-01,0.00000000000000e+00,-6.64859601637770e-02
8.77893920372689e-08,6.00000000000000e-01,0.00000000000000e+00,5.11694453225797e-02
8.93150592337188e-08,6.00000000000000e-01,0.00000000000000e+00,-3.41836552925193e-02
9.00000000000000e-08,6.00000000000000e-01,0.00000000000000e+00,2.06665080242935e-02
9.00100000000000e-08,6.00000000000000e-01,5.99999999999886e-02,1.92543702365566e-02
9.00300000000000e-08,6.00000000000000e-01,1.79999999999966e-01,1.62064983161428e-02
9.00700000000000e-08,6.00000000000000e-01,4.19999999999920e-01,1.06815027258828e-02
9.01000000000000e-08,6.00000000000000e-01,5.99999999999966e-01,7.78453756955497e-03
9.01080000000000e-08,6.00000000000000e-01,6.00000000000000e-01,7.17978283029490e-03
9.01240000000000e-08,6.00000000000000e-01,6.00000000000000e-01,5.99365261619013e-03
9.01560000000000e-08,6.00000000000000e-01,6.00000000000000e-01,4.29246109273891e-03
9.02200000000000e-08,6.00000000000000e-01,6.00000000000000e-01,2.13126322731164e-03
9.03480000000000e-08,6.00000000000000e-01,6.00000000000000e-01,4.31109474596597e-04
9.06040000000000e-08,6.00000000000000e-01,6.00000000000000e-01,-4.82448405385513e-05
9.11159999999999e-08,6.00000000000000e-01,6.00000000000000e-01,4.51053604494413e-05
9.21399999999999e-08,6.00000000000000e-01,6.00000000000000e-01,-4.05141591443281e-06
9.41879999999998e-08,6.00000000000000e-01,6.00000000000000e-01,3.48323853933703e-05
9.51000000000000e-08,6.00000000000000e-01,6.00000000000000e-01,3.92638091102279e-06
9.51100000000000e-08,5.40000000000061e-01,6.00000000000000e-01,-1.63448881523101e-04
9.51300000000000e-08,4.20000000000084e-01,6.00000000000000e-01,-3.97475243640685e-04
9.51700000000000e-08,1.80000000000129e-01,6.00000000000000e-01,-2.31408192329682e-04
9.52000000000000e-08,8.40438829641244e-14,6.00000000000000e-01,6.18883094958833e-04
9.52080000000000e-08,0.00000000000000e+00,6.00000000000000e-01,9.94041960485761e-04
9.52240000000000e-08,0.00000000000000e+00,6.00000000000000e-01,1.41296443671221e-03
9.52560000000000e-08,0.00000000000000e+00,6.00000000000000e-01,9.93598028293630e-04
9.53200000000000e-08,0.00000000000000e+00,6.00000000000000e-01,-1.23229882057498e-03
9.54480000000000e-08,0.00000000000000e+00,6.00000000000000e-01,-1.55755122039208e-03
9.57040000000000e-08,0.00000000000000e+00,6.00000000000000e-01,4.76001959206378e-04
9.60269032036284e-08,0.00000000000000e+00,6.00000000000000e-01,-4.03621151669316e-04
9.66727096108853e-08,0.00000000000000e+00,6.00000000000000e-01,3.06130993522967e-04
9.74458274790867e-08,0.00000000000000e+00,6.00000000000000e-01,-6.70026060165599e-05
9.86563720575598e-08,0.00000000000000e+00,6.00000000000000e-01,3.37072989962817e-05
1.00873816133376e-07,0.00000000000000e+00,6.00000000000000e-01,3.16473528526040e-05
1.04673816133376e-07,0.00000000000000e+00,6.00000000000000e-01,-5.95254604687529e-06
1.05000000000000e-07,0.00000000000000e+00,6.00000000000000e-01,1.01171742048538e-04
1.05010000000000e-07,5.99999999999886e-02,6.00000000000000e-01,3.96768618683138e-04
1.05030000000000e-07,1.79999999999966e-01,6.00000000000000e-01,8.46787493011994e-04
1.05070000000000e-07,4.19999999999920e-01,6.00000000000000e-01,1.42887855429935e-03
1.05100000000000e-07,5.99999999999966e-01,6.00000000000000e-01,1.56569852837835e-03
1.05108000000000e-07,6.00000000000000e-01,6.00000000000000e-01,1.31845298610442e-03
1.05124000000000e-07,6.00000000000000e-01,6.00000000000000e-01,7.46451993846861e-04
1.05156000000000e-07,6.00000000000000e-01,6.00000000000000e-01,-7.71909825885986e-04
1.05220000000000e-07,6.00000000000000e-01,6.00000000000000e-01,-3.77656075453643e-03
1.05348000000000e-07,6.00000000000000e-01,6.00000000000000e-01,-6.35297941147428e-03
1.05604000000000e-07,6.00000000000000e-01,6.00000000000000e-01,1.22786881476659e-01
1.06116000000000e-07,6.00000000000000e-01,6.00000000000000e-01,5.79420696492079e-01
1.07140000000000e-07,6.00000000000000e-01,6.00000000000000e-01,6.05846490673514e-01
1.08162538837347e-07,6.00000000000000e-01,6.00000000000000e-01,5.93807403532065e-01
1.09939148956753e-07,6.00000000000000e-01,6.00000000000000e-01,6.05418941415899e-01
1.10100000000000e-07,6.00000000000000e-01,6.00000000000000e-01,5.95996722810478e-01
