Time,v(clk),v(data),v(out)
1.00000000000000e-08,5.00000000000000e-01,0.00000000000000e+00,1.46569019770625e-05
1.00100000000000e-08,5.00000000000000e-01,4.99999999999988e-02,1.40837318155992e-05
1.00300000000000e-08,5.00000000000000e-01,1.49999999999996e-01,1.36235725751374e-05
1.00700000000000e-08,5.00000000000000e-01,3.49999999999992e-01,1.01432524022074e-05
1.01000000000000e-08,5.00000000000000e-01,4.99999999999996e-01,6.66235444073821e-06
1.01080000000000e-08,5.00000000000000e-01,5.00000000000000e-01,5.77216321950846e-06
1.01240000000000e-08,5.00000000000000e-01,5.00000000000000e-01,3.64203061350293e-06
1.01560000000000e-08,5.00000000000000e-01,5.00000000000000e-01,2.12160269685152e-06
1.02200000000000e-08,5.00000000000000e-01,5.00000000000000e-01,2.85841626878475e-06
1.03480000000000e-08,5.00000000000000e-01,5.00000000000000e-01,6.90696349395920e-06
1.06040000000000e-08,5.00000000000000e-01,5.00000000000000e-01,5.87902997734729e-06
1.11160000000000e-08,5.00000000000000e-01,5.00000000000000e-01,2.61054650513466e-06
1.20844344279766e-08,5.00000000000000e-01,5.00000000000000e-01,4.22380254849926e-06
1.40213032839299e-08,5.00000000000000e-01,5.00000000000000e-01,3.15075688385544e-06
1.51000000000000e-08,5.00000000000000e-01,5.00000000000000e-01,3.40429383668614e-06
1.51100000000000e-08,4.49999999999993e-01,5.00000000000000e-01,-5.34155239121648e-05
1.51300000000000e-08,3.49999999999995e-01,5.00000000000000e-01,-1.57507066553313e-04
1.51700000000000e-08,1.50000000000000e-01,5.00000000000000e-01,-3.10495807974424e-04
1.52000000000000e-08,0.00000000000000e+00,5.00000000000000e-01,-2.81259001470573e-04
1.52080000000000e-08,0.00000000000000e+00,5.00000000000000e-01,-1.78078550498596e-04
1.52240000000000e-08,0.00000000000000e+00,5.00000000000000e-01,3.98295393333470e-08
1.52560000000000e-08,0.00000000000000e+00,5.00000000000000e-01,2.10873863310167e-04
1.53200000000000e-08,0.00000000000000e+00,5.00000000000000e-01,3.31541014230982e-04
1.54480000000000e-08,0.00000000000000e+00,5.00000000000000e-01,2.16927470570685e-04
1.57040000000000e-08,0.00000000000000e+00,5.00000000000000e-01,-8.78378006479962e-05
1.62160000000000e-08,0.00000000000000e+00,5.00000000000000e-01,-1.00021136070536e-04
1.72400000000000e-08,0.00000000000000e+00,5.00000000000000e-01,-2.08858994484237e-05
1.87986426991925e-08,0.00000000000000e+00,5.00000000000000e-01,2.18246273725794e-05
2.10774894858740e-08,0.00000000000000e+00,5.00000000000000e-01,5.47460674851152e-05
2.48774894858740e-08,0.00000000000000e+00,5.00000000000000e-01,-7.93866945618098e-05
2.50000000000000e-08,0.00000000000000e+00,5.00000000000000e-01,3.62575144644585e-05
2.50100000000000e-08,4.99999999999905e-02,5.00000000000000e-01,1.38145980784557e-04
2.50300000000000e-08,1.50000000000005e-01,5.00000000000000e-01,3.20255234301681e-04
2.50700000000000e-08,3.50000000000000e-01,5.00000000000000e-01,5.43964090244445e-04
2.51000000000000e-08,5.00000000000000e-01,5.00000000000000e-01,5.78645185432415e-04
2.51080000000000e-08,5.00000000000000e-01,5.00000000000000e-01,5.26026246005742e-04
2.51240000000000e-08,5.00000000000000e-01,5.00000000000000e-01,4.20905984531851e-04
2.51560000000000e-08,5.00000000000000e-01,5.00000000000000e-01,1.74217958918706e-04
2.52200000000000e-08,5.00000000000000e-01,5.00000000000000e-01,-6.84057422690613e-04
2.53480000000000e-08,5.00000000000000e-01,5.00000000000000e-01,-2.75164505252386e-03
2.56040000000000e-08,5.00000000000000e-01,5.00000000000000e-01,-4.80510231215670e-03
2.61160000000000e-08,5.00000000000000e-01,5.00000000000000e-01,1.26954584947252e-01
2.71400000000000e-08,5.00000000000000e-01,5.00000000000000e-01,4.83070388661551e-01
2.91880000000000e-08,5.00000000000000e-01,5.00000000000000e-01,5.06105469837374e-01
3.01000000000000e-08,5.00000000000000e-01,5.00000000000000e-01,4.94674665322089e-01
3.01100000000000e-08,5.00000000000000e-01,4.50000000000026e-01,4.95510755678810e-01
3.01300000000000e-08,5.00000000000000e-01,3.50000000000012e-01,4.96911785350966e-01
3.01700000000000e-08,5.00000000000000e-01,1.50000000000017e-01,4.98540019636628e-01
3.02000000000000e-08,5.00000000000000e-01,1.21014309684142e-14,4.99148748827917e-01
3.02080000000000e-08,5.00000000000000e-01,0.00000000000000e+00,4.99246161361263e-01
3.02240000000000e-08,5.00000000000000e-01,0.00000000000000e+00,4.99432152225764e-01
3.02560000000000e-08,5.00000000000000e-01,0.00000000000000e+00,4.99626128578043e-01
3.03200000000000e-08,5.00000000000000e-01,0.00000000000000e+00,4.99793993574840e-01
3.04480000000000e-08,5.00000000000000e-01,0.00000000000000e+00,4.99892372536583e-01
3.07040000000000e-08,5.00000000000000e-01,0.00000000000000e+00,4.99911734388189e-01
3.12160000000000e-08,5.00000000000000e-01,0.00000000000000e+00,4.99991330045639e-01
3.21496961885942e-08,5.00000000000000e-01,0.00000000000000e+00,4.99954414354675e-01
3.37536035777849e-08,5.00000000000000e-01,0.00000000000000e+00,4.99981011982122e-01
3.51000000000000e-08,4.99999999999975e-01,0.00000000000000e+00,4.99966749265429e-01
3.51100000000000e-08,4.49999999999985e-01,0.00000000000000e+00,4.99908529617102e-01
3.51300000000000e-08,3.49999999999971e-01,0.00000000000000e+00,4.99809346108374e-01
3.51700000000000e-08,1.49999999999975e-01,0.00000000000000e+00,4.99857800597328e-01
3.52000000000000e-08,0.00000000000000e+00,0.00000000000000e+00,5.00578420190541e-01
3.52080000000000e-08,0.00000000000000e+00,0.00000000000000e+00,5.00895114529996e-01
3.52240000000000e-08,0.00000000000000e+00,0.00000000000000e+00,5.01408219649886e-01
3.52560000000000e-08,0.00000000000000e+00,0.00000000000000e+00,5.01981390970456e-01
3.53200000000000e-08,0.00000000000000e+00,0.00000000000000e+00,5.02360615363401e-01
3.54480000000000e-08,0.00000000000000e+00,0.00000000000000e+00,5.00898506509999e-01
3.57040000000000e-08,0.00000000000000e+00,0.00000000000000e+00,4.87454065882301e-01
3.62160000000000e-08,0.00000000000000e+00,0.00000000000000e+00,4.86850753794811e-01
3.71828838569967e-08,0.00000000000000e+00,0.00000000000000e+00,5.03500965289689e-01
3.84347098599735e-08,0.00000000000000e+00,0.00000000000000e+00,4.96204468402886e-01
3.91000000000000e-08,0.00000000000000e+00,0.00000000000000e+00,5.01460917140341e-01
3.93503652005954e-08,0.00000000000000e+00,0.00000000000000e+00,5.00101392659395e-01
3.98510956017861e-08,0.00000000000000e+00,0.00000000000000e+00,4.99417809876339e-01
4.08525564041675e-08,0.00000000000000e+00,0.00000000000000e+00,4.99870653445110e-01
4.28554780089304e-08,0.00000000000000e+00,0.00000000000000e+00,4.99650194653672e-01
4.50000000000000e-08,0.00000000000000e+00,0.00000000000000e+00,4.99934597277992e-01
4.50100000000000e-08,4.99999999999905e-02,0.00000000000000e+00,4.99990024045484e-01
4.50300000000000e-08,1.50000000000005e-01,0.00000000000000e+00,5.00074478922391e-01
4.50700000000000e-08,3.50000000000000e-01,0.00000000000000e+00,5.00108055573429e-01
4.51000000000000e-08,5.00000000000000e-01,0.00000000000000e+00,5.00031964384983e-01
4.51080000000000e-08,5.00000000000000e-01,0.00000000000000e+00,4.99972459163342e-01
4.51240000000000e-08,5.00000000000000e-01,0.00000000000000e+00,4.99871466924174e-01
4.51560000000000e-08,5.00000000000000e-01,0.00000000000000e+00,4.99746249231990e-01
4.52200000000000e-08,5.00000000000000e-01,0.00000000000000e+00,4.99648238134064e-01
4.53480000000000e-08,5.00000000000000e-01,0.00000000000000e+00,4.99640140612413e-01
4.56040000000000e-08,5.00000000000000e-01,0.00000000000000e+00,4.99807850239793e-01
4.61160000000000e-08,5.00000000000000e-01,0.00000000000000e+00,5.05107418193147e-01
4.71400000000000e-08,5.00000000000000e-01,0.00000000000000e+00,1.62747038837431e-01
4.89458864130021e-08,5.00000000000000e-01,0.00000000000000e+00,-5.59219088522359e-02
5.00000000000000e-08,5.00000000000000e-01,0.00000000000000e+00,4.40819919876319e-02
5.00100000000000e-08,5.00000000000000e-01,4.99999999999905e-02,4.16292750440657e-02
5.00300000000000e-08,5.00000000000000e-01,1.49999999999972e-01,3.68278288766930e-02
5.00700000000000e-08,5.00000000000000e-01,3.50000000000000e-01,2.82038168040794e-02
5.01000000000000e-08,5.00000000000000e-01,5.00000000000000e-01,2.28682033427160e-02
5.01080000000000e-08,5.00000000000000e-01,5.00000000000000e-01,2.16431495019737e-02
5.01240000000000e-08,5.00000000000000e-01,5.00000000000000e-01,1.93085601911789e-02
5.01560000000000e-08,5.00000000000000e-01,5.00000000000000e-01,1.53360286261922e-02
5.02200000000000e-08,5.00000000000000e-01,5.00000000000000e-01,9.54745763383582e-03
5.03480000000000e-08,5.00000000000000e-01,5.00000000000000e-01,3.41963021687041e-03
5.06040000000000e-08,5.00000000000000e-01,5.00000000000000e-01,8.00339917265587e-05
5.11160000000001e-08,5.00000000000000e-01,5.00000000000000e-01,-2.64308821695952e-05
5.21400000000002e-08,5.00000000000000e-01,5.00000000000000e-01,4.67405814147219e-06
5.41880000000003e-08,5.00000000000000e-01,5.00000000000000e-01,-2.89511644838147e-06
5.51000000000000e-08,5.00000000000000e-01,5.00000000000000e-01,3.46078258730599e-06
5.51100000000000e-08,4.50000000000018e-01,5.00000000000000e-01,-5.36434901488927e-05
5.51300000000000e-08,3.50000000000004e-01,5.00000000000000e-01,-1.55630191681591e-04
5.51700000000000e-08,1.50000000000008e-01,5.00000000000000e-01,-3.00523137740670e-04
5.52000000000000e-08,0.00000000000000e+00,5.00000000000000e-01,-2.75958140045281e-04
5.52080000000000e-08,0.00000000000000e+00,5.00000000000000e-01,-1.74037413602848e-04
5.52240000000000e-08,0.00000000000000e+00,5.00000000000000e-01,-3.39194990248842e-06
5.52560000000000e-08,0.00000000000000e+00,5.00000000000000e-01,1.88660693220266e-04
5.53200000000000e-08,0.00000000000000e+00,5.00000000000000e-01,3.18015130417258e-04
5.54480000000000e-08,0.00000000000000e+00,5.00000000000000e-01,1.52227792182824e-04
5.57040000000000e-08,0.00000000000000e+00,5.00000000000000e-01,-7.47672710591674e-04
5.62160000000000e-08,0.00000000000000e+00,5.00000000000000e-01,-3.10453427340891e-04
5.72400000000000e-08,0.00000000000000e+00,5.00000000000000e-01,1.70173792798545e-04
5.87970253774572e-08,0.00000000000000e+00,5.00000000000000e-01,-1.51578240674158e-04
6.10757046698943e-08,0.00000000000000e+00,5.00000000000000e-01,2.12368511780419e-04
6.48757046698942e-08,0.00000000000000e+00,5.00000000000000e-01,-2.31157353914489e-04
6.50000000000000e-08,0.00000000000000e+00,5.00000000000000e-01,5.12632943115744e-05
6.50100000000000e-08,4.99999999999905e-02,5.00000000000000e-01,1.44555364883003e-04
6.50300000000000e-08,1.49999999999972e-01,5.00000000000000e-01,3.18465615331699e-04
6.50700000000000e-08,3.49999999999934e-01,5.00000000000000e-01,5.43733326362837e-04
6.51000000000000e-08,4.99999999999971e-01,5.00000000000000e-01,5.79827051376131e-04
6.51080000000000e-08,5.00000000000000e-01,5.00000000000000e-01,5.27346971335545e-04
6.51240000000000e-08,5.00000000000000e-01,5.00000000000000e-01,4.22448786535773e-04
6.51560000000000e-08,5.00000000000000e-01,5.00000000000000e-01,1.76102767435300e-04
6.52200000000000e-08,5.00000000000000e-01,5.00000000000000e-01,-6.81965859955162e-04
6.53480000000000e-08,5.00000000000000e-01,5.00000000000000e-01,-2.75021767292953e-03
6.56040000000000e-08,5.00000000000000e-01,5.00000000000000e-01,-4.80562938398624e-03
6.61159999999999e-08,5.00000000000000e-01,5.00000000000000e-01,1.26913421781281e-01
6.71399999999999e-08,5.00000000000000e-01,5.00000000000000e-01,4.83055123719128e-01
6.91879999999998e-08,5.00000000000000e-01,5.00000000000000e-01,5.06112302498431e-01
7.01000000000000e-08,5.00000000000000e-01,5.00000000000000e-01,4.94669052150555e-01
7.01100000000000e-08,5.00000000000000e-01,4.50000000000010e-01,4.95506114679748e-01
7.01300000000000e-08,5.00000000000000e-01,3.50000000000028e-01,4.96908754224774e-01
7.01700000000000e-08,5.00000000000000e-01,1.50000000000066e-01,4.98538779831474e-01
7.02000000000000e-08,5.00000000000000e-01,2.86437540353290e-14,4.99148114881940e-01
7.02080000000000e-08,5.00000000000000e-01,0.00000000000000e+00,4.99245624188954e-01
7.02240000000000e-08,5.00000000000000e-01,0.00000000000000e+00,4.99431803139578e-01
7.02560000000000e-08,5.00000000000000e-01,0.00000000000000e+00,4.99625968420620e-01
7.03200000000000e-08,5.00000000000000e-01,0.00000000000000e+00,4.99793978835979e-01
7.04480000000000e-08,5.00000000000000e-01,0.00000000000000e+00,4.99892388954777e-01
7.07040000000000e-08,5.00000000000000e-01,0.00000000000000e+00,4.99911729199932e-01
7.12159999999999e-08,5.00000000000000e-01,0.00000000000000e+00,4.99991334741447e-01
7.21496746173592e-08,5.00000000000000e-01,0.00000000000000e+00,4.99954411662998e-01
7.37535946173208e-08,5.00000000000000e-01,0.00000000000000e+00,4.99981015211389e-01
7.51000000000000e-08,5.00000000000000e-01,0.00000000000000e+00,4.99966747074509e-01
7.51100000000000e-08,4.50000000000051e-01,0.00000000000000e+00,4.99908527900161e-01
7.51300000000000e-08,3.50000000000070e-01,0.00000000000000e+00,4.99809345252228e-01
7.51700000000000e-08,1.50000000000108e-01,0.00000000000000e+00,4.99857800663432e-01
7.52000000000000e-08,6.99995617026161e-14,0.00000000000000e+00,5.00578420364267e-01
7.52080000000000e-08,0.00000000000000e+00,0.00000000000000e+00,5.00895114726093e-01
7.52240000000000e-08,0.00000000000000e+00,0.00000000000000e+00,5.01408219918971e-01
7.52560000000000e-08,0.00000000000000e+00,0.00000000000000e+00,5.01981391626855e-01
7.53200000000000e-08,0.00000000000000e+00,0.00000000000000e+00,5.02360618214435e-01
7.54480000000000e-08,0.00000000000000e+00,0.00000000000000e+00,5.00898527773927e-01
7.57040000000000e-08,0.00000000000000e+00,0.00000000000000e+00,4.87454115784434e-01
7.62159999999999e-08,0.00000000000000e+00,0.00000000000000e+00,4.86850757267485e-01
7.71828841410938e-08,0.00000000000000e+00,0.00000000000000e+00,5.03500955801678e-01
7.81000000000000e-08,0.00000000000000e+00,0.00000000000000e+00,4.96467947671263e-01
7.82251826035137e-08,0.00000000000000e+00,0.00000000000000e+00,4.98208643066098e-01
7.84755478105410e-08,0.00000000000000e+00,0.00000000000000e+00,4.99712399744748e-01
7.89762782245957e-08,0.00000000000000e+00,0.00000000000000e+00,4.99485042400747e-01
7.99777390527051e-08,0.00000000000000e+00,0.00000000000000e+00,4.99715082264260e-01
8.19806607089238e-08,0.00000000000000e+00,0.00000000000000e+00,4.99711579800145e-01
8.50000000000000e-08,0.00000000000000e+00,0.00000000000000e+00,4.99863795855035e-01
8.50100000000000e-08,4.99999999999905e-02,0.00000000000000e+00,4.99924836692555e-01
8.50300000000000e-08,1.49999999999972e-01,0.00000000000000e+00,5.00018712538207e-01
8.50700000000000e-08,3.49999999999934e-01,0.00000000000000e+00,5.00072124698447e-01
8.51000000000000e-08,4.99999999999971e-01,0.00000000000000e+00,5.00006759069965e-01
8.51080000000000e-08,5.00000000000000e-01,0.00000000000000e+00,4.99949787990443e-01
8.51240000000000e-08,5.00000000000000e-01,0.00000000000000e+00,4.99852474208938e-01
8.51560000000000e-08,5.00000000000000e-01,0.00000000000000e+00,4.99733038350195e-01
8.52200000000000e-08,5.00000000000000e-01,0.00000000000000e+00,4.99642478496175e-01
8.53480000000000e-08,5.00000000000000e-01,0.00000000000000e+00,4.99641170150285e-01
8.56040000000000e-08,5.00000000000000e-01,0.00000000000000e+00,4.99809851285464e-01
8.61159999999999e-08,5.00000000000000e-01,0.00000000000000e+00,5.05107660075833e-01
8.71399999999999e-08,5.00000000000000e-01,0.00000000000000e+00,1.62758339502263e-01
8.89456988827026e-08,5.00000000000000e-01,0.00000000000000e+00,-5.59213457724251e-02
9.00000000000000e-08,5.00000000000000e-01,0.00000000000000e+00,4.40854813704681e-02
9.00100000000000e-08,5.00000000000000e-01,4.99999999999905e-02,4.16327609950300e-02
9.00300000000000e-08,5.00000000000000e-01,1.49999999999972e-01,3.68311726632935e-02
9.00700000000000e-08,5.00000000000000e-01,3.49999999999934e-01,2.82064540038619e-02
9.01000000000000e-08,5.00000000000000e-01,4.99999999999971e-01,2.28703249686432e-02
9.01080000000000e-08,5.00000000000000e-01,5.00000000000000e-01,2.16451557104841e-02
9.01240000000000e-08,5.00000000000000e-01,5.00000000000000e-01,1.93103468471146e-02
9.01560000000000e-08,5.00000000000000e-01,5.00000000000000e-01,1.53374467839704e-02
9.02200000000000e-08,5.00000000000000e-01,5.00000000000000e-01,9.54834228566797e-03
9.03480000000000e-08,5.00000000000000e-01,5.00000000000000e-01,3.41994809784961e-03
9.06040000000000e-08,5.00000000000000e-01,5.00000000000000e-01,8.00410932473537e-05
9.11159999999999e-08,5.00000000000000e-01,5.00000000000000e-01,-2.64324319909186e-05
9.21399999999999e-08,5.00000000000000e-01,5.00000000000000e-01,4.67325045403269e-06
9.41879999999998e-08,5.00000000000000e-01,5.00000000000000e-01,-2.89450711945995e-06
9.51000000000000e-08,5.00000000000000e-01,5.00000000000000e-01,3.46077631713931e-06
9.51100000000000e-08,4.50000000000051e-01,5.00000000000000e-01,-5.36477800186855e-05
9.51300000000000e-08,3.50000000000070e-01,5.00000000000000e-01,-1.55632193126184e-04
9.51700000000000e-08,1.50000000000108e-01,5.00000000000000e-01,-3.00523408984614e-04
9.52000000000000e-08,6.99995617026161e-14,5.00000000000000e-01,-2.75958078721709e-04
9.52080000000000e-08,0.00000000000000e+00,5.00000000000000e-01,-1.74037316393275e-04
9.52240000000000e-08,0.00000000000000e+00,5.00000000000000e-01,-3.39178837931858e-06
9.52560000000000e-08,0.00000000000000e+00,5.00000000000000e-01,1.88660929851009e-04
9.53200000000000e-08,0.00000000000000e+00,5.00000000000000e-01,3.18015521528256e-04
9.54480000000000e-08,0.00000000000000e+00,5.00000000000000e-01,1.52230711860019e-04
9.57040000000000e-08,0.00000000000000e+00,5.00000000000000e-01,-7.47651061748445e-04
9.62159999999999e-08,0.00000000000000e+00,5.00000000000000e-01,-3.10443675714402e-04
9.72399999999999e-08,0.00000000000000e+00,5.00000000000000e-01,1.70167142746832e-04
9.87970246711890e-08,0.00000000000000e+00,5.00000000000000e-01,-1.51573069287469e-04
1.01075703024076e-07,0.00000000000000e+00,5.00000000000000e-01,2.12364138284929e-04
1.04875703024076e-07,0.00000000000000e+00,5.00000000000000e-01,-2.31153272120235e-04
1.05000000000000e-07,0.00000000000000e+00,5.00000000000000e-01,5.12652454519452e-05
1.05010000000000e-07,4.99999999999905e-02,5.00000000000000e-01,1.44557289055644e-04
1.05030000000000e-07,1.49999999999972e-01,5.00000000000000e-01,3.18467414642698e-04
1.05070000000000e-07,3.49999999999934e-01,5.00000000000000e-01,5.43734686800641e-04
1.05100000000000e-07,4.99999999999971e-01,5.00000000000000e-01,5.79828125122368e-04
1.05108000000000e-07,5.00000000000000e-01,5.00000000000000e-01,5.27347970556459e-04
1.05124000000000e-07,5.00000000000000e-01,5.00000000000000e-01,4.22449596326563e-04
1.05156000000000e-07,5.00000000000000e-01,5.00000000000000e-01,1.76102993880663e-04
1.05220000000000e-07,5.00000000000000e-01,5.00000000000000e-01,-6.81966860081124e-04
1.05348000000000e-07,5.00000000000000e-01,5.00000000000000e-01,-2.75021901442356e-03
1.05604000000000e-07,5.00000000000000e-01,5.00000000000000e-01,-4.80562910219232e-03
1.06116000000000e-07,5.00000000000000e-01,5.00000000000000e-01,1.26913446903158e-01
1.07140000000000e-07,5.00000000000000e-01,5.00000000000000e-01,4.83055133050219e-01
1.09188000000000e-07,5.00000000000000e-01,5.00000000000000e-01,5.06112298317366e-01
1.10100000000000e-07,5.00000000000000e-01,5.00000000000000e-01,4.94669055601940e-01
1.10110000000000e-07,5.00000000000000e-01,4.50000000000076e-01,4.95506117527986e-01
1.10130000000000e-07,5.00000000000000e-01,3.50000000000095e-01,4.96908756086484e-01
1.10170000000000e-07,5.00000000000000e-01,1.50000000000133e-01,4.98538780596955e-01
1.10200000000000e-07,5.00000000000000e-01,9.48130463029884e-14,4.99148115271857e-01
1.10208000000000e-07,5.00000000000000e-01,0.00000000000000e+00,4.99245624519590e-01
1.10224000000000e-07,5.00000000000000e-01,0.00000000000000e+00,4.99431803353658e-01
1.10256000000000e-07,5.00000000000000e-01,0.00000000000000e+00,4.99625968517912e-01
1.10320000000000e-07,5.00000000000000e-01,0.00000000000000e+00,4.99793978843957e-01
1.10448000000000e-07,5.00000000000000e-01,0.00000000000000e+00,4.99892388943378e-01
1.10704000000000e-07,5.00000000000000e-01,0.00000000000000e+00,4.99911729202498e-01
