Time,v(clk),v(data),v(out),v(reset)
1.00000000000000e-08,5.00000000000000e-01,0.00000000000000e+00,6.14184928423796e-04,0.00000000000000e+00
1.00100000000000e-08,5.00000000000000e-01,4.99999999999988e-02,6.01153695779941e-04,0.00000000000000e+00
1.00300000000000e-08,5.00000000000000e-01,1.49999999999996e-01,5.46709284683630e-04,0.00000000000000e+00
1.00700000000000e-08,5.00000000000000e-01,3.49999999999992e-01,3.97713617629053e-04,0.00000000000000e+00
1.01000000000000e-08,5.00000000000000e-01,4.99999999999996e-01,3.08741942553821e-04,0.00000000000000e+00
1.01080000000000e-08,5.00000000000000e-01,5.00000000000000e-01,2.89593761633962e-04,0.00000000000000e+00
1.01240000000000e-08,5.00000000000000e-01,5.00000000000000e-01,2.54556202041990e-04,0.00000000000000e+00
1.01560000000000e-08,5.00000000000000e-01,5.00000000000000e-01,1.99076511287415e-04,0.00000000000000e+00
1.02200000000000e-08,5.00000000000000e-01,5.00000000000000e-01,1.24054493717621e-04,0.00000000000000e+00
1.03480000000000e-08,5.00000000000000e-01,5.00000000000000e-01,4.77033400074489e-05,0.00000000000000e+00
1.06040000000000e-08,5.00000000000000e-01,5.00000000000000e-01,5.86504357045353e-06,0.00000000000000e+00
1.11160000000000e-08,5.00000000000000e-01,5.00000000000000e-01,3.96246999825531e-06,0.00000000000000e+00
1.21400000000000e-08,5.00000000000000e-01,5.00000000000000e-01,4.55342554320400e-06,0.00000000000000e+00
1.41880000000000e-08,5.00000000000000e-01,5.00000000000000e-01,3.69900209655320e-06,0.00000000000000e+00
1.51000000000000e-08,5.00000000000000e-01,5.00000000000000e-01,3.98169832237574e-06,0.00000000000000e+00
1.51100000000000e-08,4.49999999999993e-01,5.00000000000000e-01,1.85403483866572e-04,5.00000000000071e-02
1.51300000000000e-08,3.49999999999995e-01,5.00000000000000e-01,4.50484894109218e-04,1.50000000000005e-01
1.51700000000000e-08,1.50000000000000e-01,5.00000000000000e-01,5.18122726236657e-04,3.50000000000000e-01
1.52000000000000e-08,0.00000000000000e+00,5.00000000000000e-01,3.86786237834787e-04,5.00000000000000e-01
1.52080000000000e-08,0.00000000000000e+00,5.00000000000000e-01,3.26521853519710e-04,5.00000000000000e-01
1.52240000000000e-08,0.00000000000000e+00,5.00000000000000e-01,2.25986798785362e-04,5.00000000000000e-01
1.52560000000000e-08,0.00000000000000e+00,5.00000000000000e-01,1.11015565092153e-04,5.00000000000000e-01
1.53200000000000e-08,0.00000000000000e+00,5.00000000000000e-01,3.32298470458528e-05,5.00000000000000e-01
1.54480000000000e-08,0.00000000000000e+00,5.00000000000000e-01,1.92302698056729e-05,5.00000000000000e-01
1.57040000000000e-08,0.00000000000000e+00,5.00000000000000e-01,-6.66824564609196e-05,5.00000000000000e-01
1.62160000000000e-08,0.00000000000000e+00,5.00000000000000e-01,-9.47819242850170e-05,5.00000000000000e-01
1.70992948924699e-08,0.00000000000000e+00,5.00000000000000e-01,-1.06640081294455e-05,5.00000000000000e-01
1.87349042544355e-08,0.00000000000000e+00,5.00000000000000e-01,-3.14625320999018e-06,5.00000000000000e-01
2.07453388902015e-08,0.00000000000000e+00,5.00000000000000e-01,7.62599445547603e-05,5.00000000000000e-01
2.45453388902015e-08,0.00000000000000e+00,5.00000000000000e-01,-9.46704647685091e-05,5.00000000000000e-01
2.50000000000000e-08,0.00000000000000e+00,5.00000000000000e-01,1.01566330433595e-04,5.00000000000000e-01
2.50100000000000e-08,4.99999999999905e-02,5.00000000000000e-01,2.01661292703832e-04,5.00000000000000e-01
2.50300000000000e-08,1.50000000000005e-01,5.00000000000000e-01,3.75543942397610e-04,5.00000000000000e-01
2.50700000000000e-08,3.50000000000000e-01,5.00000000000000e-01,5.97266969915196e-04,5.00000000000000e-01
2.51000000000000e-08,5.00000000000000e-01,5.00000000000000e-01,6.27687541466693e-04,5.00000000000000e-01
2.51080000000000e-08,5.00000000000000e-01,5.00000000000000e-01,5.72347551195965e-04,5.00000000000000e-01
2.51240000000000e-08,5.00000000000000e-01,5.00000000000000e-01,4.59030658280998e-04,5.00000000000000e-01
2.51560000000000e-08,5.00000000000000e-01,5.00000000000000e-01,1.78813732746225e-04,5.00000000000000e-01
2.52200000000000e-08,5.00000000000000e-01,5.00000000000000e-01,-7.54982491546367e-04,5.00000000000000e-01
2.53480000000000e-08,5.00000000000000e-01,5.00000000000000e-01,-2.83882393020535e-03,5.00000000000000e-01
2.56040000000000e-08,5.00000000000000e-01,5.00000000000000e-01,-4.80419126051720e-03,5.00000000000000e-01
2.61160000000000e-08,5.00000000000000e-01,5.00000000000000e-01,1.27557541611983e-01,5.00000000000000e-01
2.71400000000000e-08,5.00000000000000e-01,5.00000000000000e-01,4.83294986495351e-01,5.00000000000000e-01
2.91880000000000e-08,5.00000000000000e-01,5.00000000000000e-01,5.06006194235555e-01,5.00000000000000e-01
3.16961201788818e-08,5.00000000000000e-01,5.00000000000000e-01,4.93329041766496e-01,5.00000000000000e-01
3.51000000000000e-08,4.99999999999975e-01,5.00000000000000e-01,5.05035166440916e-01,5.00000000000000e-01
3.51100000000000e-08,4.49999999999985e-01,5.00000000000000e-01,5.04161813428765e-01,5.00000000000000e-01
3.51300000000000e-08,3.49999999999971e-01,5.00000000000000e-01,5.02602262418699e-01,5.00000000000000e-01
3.51700000000000e-08,1.49999999999975e-01,5.00000000000000e-01,5.01082026054609e-01,5.00000000000000e-01
3.52000000000000e-08,0.00000000000000e+00,5.00000000000000e-01,5.01307842136348e-01,5.00000000000000e-01
3.52080000000000e-08,0.00000000000000e+00,5.00000000000000e-01,5.01547305497097e-01,5.00000000000000e-01
3.52240000000000e-08,0.00000000000000e+00,5.00000000000000e-01,5.01929433165739e-01,5.00000000000000e-01
3.52560000000000e-08,0.00000000000000e+00,5.00000000000000e-01,5.02344497522160e-01,5.00000000000000e-01
3.53200000000000e-08,0.00000000000000e+00,5.00000000000000e-01,5.02590897700298e-01,5.00000000000000e-01
3.54480000000000e-08,0.00000000000000e+00,5.00000000000000e-01,5.00994030385623e-01,5.00000000000000e-01
3.57040000000000e-08,0.00000000000000e+00,5.00000000000000e-01,4.87396177227071e-01,5.00000000000000e-01
3.62160000000000e-08,0.00000000000000e+00,5.00000000000000e-01,4.86817618312285e-01,5.00000000000000e-01
3.72400000000000e-08,0.00000000000000e+00,5.00000000000000e-01,5.03725479960471e-01,5.00000000000000e-01
3.88864703242067e-08,0.00000000000000e+00,5.00000000000000e-01,4.96040813746784e-01,5.00000000000000e-01
4.17317781089068e-08,0.00000000000000e+00,5.00000000000000e-01,5.02820689048226e-01,5.00000000000000e-01
4.50000000000000e-08,0.00000000000000e+00,5.00000000000000e-01,4.97063700324882e-01,5.00000000000000e-01
4.50100000000000e-08,4.99999999999905e-02,5.00000000000000e-01,4.97264388850996e-01,4.50000000000010e-01
4.50300000000000e-08,1.50000000000005e-01,5.00000000000000e-01,4.97620223310983e-01,3.49999999999995e-01
4.50700000000000e-08,3.50000000000000e-01,5.00000000000000e-01,4.98450799749640e-01,1.50000000000000e-01
4.51000000000000e-08,5.00000000000000e-01,5.00000000000000e-01,5.00382325870872e-01,0.00000000000000e+00
4.51080000000000e-08,5.00000000000000e-01,5.00000000000000e-01,5.01230735564660e-01,0.00000000000000e+00
4.51240000000000e-08,5.00000000000000e-01,5.00000000000000e-01,5.02748048384260e-01,0.00000000000000e+00
4.51560000000000e-08,5.00000000000000e-01,5.00000000000000e-01,5.05043480843606e-01,0.00000000000000e+00
4.52200000000000e-08,5.00000000000000e-01,5.00000000000000e-01,5.08447356449363e-01,0.00000000000000e+00
4.53480000000000e-08,5.00000000000000e-01,5.00000000000000e-01,5.15488957098950e-01,0.00000000000000e+00
4.56040000000000e-08,5.00000000000000e-01,5.00000000000000e-01,4.97803761068644e-01,0.00000000000000e+00
4.61160000000000e-08,5.00000000000000e-01,5.00000000000000e-01,1.54033375511470e-01,0.00000000000000e+00
4.70241333212160e-08,5.00000000000000e-01,5.00000000000000e-01,-4.54238533978848e-02,0.00000000000000e+00
4.82793944601362e-08,5.00000000000000e-01,5.00000000000000e-01,3.70740099076248e-02,0.00000000000000e+00
5.01000000000000e-08,5.00000000000000e-01,4.99999999999971e-01,-2.50472725591614e-02,0.00000000000000e+00
5.03510522277840e-08,5.00000000000000e-01,5.00000000000000e-01,-7.25243379138810e-03,0.00000000000000e+00
5.08531566833521e-08,5.00000000000000e-01,5.00000000000000e-01,2.51571999449072e-03,0.00000000000000e+00
5.18573655944883e-08,5.00000000000000e-01,5.00000000000000e-01,-1.54670953257139e-03,0.00000000000000e+00
5.38657834167607e-08,5.00000000000000e-01,5.00000000000000e-01,1.24220539876201e-03,0.00000000000000e+00
5.51000000000000e-08,5.00000000000000e-01,5.00000000000000e-01,-8.68148602385155e-04,0.00000000000000e+00
5.51100000000000e-08,4.50000000000018e-01,5.00000000000000e-01,-5.62566421722165e-04,4.99999999999822e-02
5.51300000000000e-08,3.50000000000004e-01,5.00000000000000e-01,-1.09197602879273e-04,1.49999999999996e-01
5.51700000000000e-08,1.50000000000008e-01,5.00000000000000e-01,1.51593512692810e-04,3.49999999999992e-01
5.52000000000000e-08,0.00000000000000e+00,5.00000000000000e-01,8.84475713437416e-05,5.00000000000000e-01
5.52080000000000e-08,0.00000000000000e+00,5.00000000000000e-01,4.34756609909853e-05,5.00000000000000e-01
5.52240000000000e-08,0.00000000000000e+00,5.00000000000000e-01,-2.73246260845406e-05,5.00000000000000e-01
5.52560000000000e-08,0.00000000000000e+00,5.00000000000000e-01,-9.31573892844761e-05,5.00000000000000e-01
5.53200000000000e-08,0.00000000000000e+00,5.00000000000000e-01,-9.58014280728128e-05,5.00000000000000e-01
5.54480000000000e-08,0.00000000000000e+00,5.00000000000000e-01,-8.65904511512805e-05,5.00000000000000e-01
5.57040000000000e-08,0.00000000000000e+00,5.00000000000000e-01,-6.86738099309803e-04,5.00000000000000e-01
5.62160000000000e-08,0.00000000000000e+00,5.00000000000000e-01,-2.79234111552732e-04,5.00000000000000e-01
5.70401253488555e-08,0.00000000000000e+00,5.00000000000000e-01,2.76209705589031e-04,5.00000000000000e-01
5.86883760465666e-08,0.00000000000000e+00,5.00000000000000e-01,-3.10981225441901e-04,5.00000000000000e-01
6.06054828706334e-08,0.00000000000000e+00,5.00000000000000e-01,3.05011579435256e-04,5.00000000000000e-01
6.44054828706334e-08,0.00000000000000e+00,5.00000000000000e-01,-2.82201370151032e-04,5.00000000000000e-01
6.50000000000000e-08,0.00000000000000e+00,5.00000000000000e-01,1.56713877072114e-04,5.00000000000000e-01
6.50100000000000e-08,4.99999999999905e-02,5.00000000000000e-01,2.40484041910689e-04,5.00000000000000e-01
6.50300000000000e-08,1.49999999999972e-01,5.00000000000000e-01,3.96885512730337e-04,5.00000000000000e-01
6.50700000000000e-08,3.49999999999934e-01,5.00000000000000e-01,6.07140769889131e-04,5.00000000000000e-01
6.51000000000000e-08,4.99999999999971e-01,5.00000000000000e-01,6.31374562245560e-04,5.00000000000000e-01
6.51080000000000e-08,5.00000000000000e-01,5.00000000000000e-01,5.73865932827211e-04,5.00000000000000e-01
6.51240000000000e-08,5.00000000000000e-01,5.00000000000000e-01,4.53919560330078e-04,5.00000000000000e-01
6.51560000000000e-08,5.00000000000000e-01,5.00000000000000e-01,1.48102783606503e-04,5.00000000000000e-01
6.52200000000000e-08,5.00000000000000e-01,5.00000000000000e-01,-8.32656632303586e-04,5.00000000000000e-01
6.53480000000000e-08,5.00000000000000e-01,5.00000000000000e-01,-2.91236109146094e-03,5.00000000000000e-01
6.56040000000000e-08,5.00000000000000e-01,5.00000000000000e-01,-4.76171818600214e-03,5.00000000000000e-01
6.61159999999999e-08,5.00000000000000e-01,5.00000000000000e-01,1.30150212406780e-01,5.00000000000000e-01
6.71399999999999e-08,5.00000000000000e-01,5.00000000000000e-01,4.84247310512199e-01,5.00000000000000e-01
6.91879999999998e-08,5.00000000000000e-01,5.00000000000000e-01,5.05608508882134e-01,5.00000000000000e-01
7.16957367293053e-08,5.00000000000000e-01,5.00000000000000e-01,4.93756601853051e-01,5.00000000000000e-01
7.51000000000000e-08,5.00000000000000e-01,5.00000000000000e-01,5.04702649147834e-01,5.00000000000000e-01
7.51100000000000e-08,4.50000000000051e-01,5.00000000000000e-01,5.03888709075409e-01,5.00000000000000e-01
7.51300000000000e-08,3.50000000000070e-01,5.00000000000000e-01,5.02438889256352e-01,5.00000000000000e-01
7.51700000000000e-08,1.50000000000108e-01,5.00000000000000e-01,5.01027906498380e-01,5.00000000000000e-01
7.52000000000000e-08,6.99995617026161e-14,5.00000000000000e-01,5.01283888040886e-01,5.00000000000000e-01
7.52080000000000e-08,0.00000000000000e+00,5.00000000000000e-01,5.01527263716907e-01,5.00000000000000e-01
7.52240000000000e-08,0.00000000000000e+00,5.00000000000000e-01,5.01915920247529e-01,5.00000000000000e-01
7.52560000000000e-08,0.00000000000000e+00,5.00000000000000e-01,5.02338542393446e-01,5.00000000000000e-01
7.53200000000000e-08,0.00000000000000e+00,5.00000000000000e-01,5.02590298671230e-01,5.00000000000000e-01
7.54480000000000e-08,0.00000000000000e+00,5.00000000000000e-01,5.00992544985062e-01,5.00000000000000e-01
7.57040000000000e-08,0.00000000000000e+00,5.00000000000000e-01,4.87392280491431e-01,5.00000000000000e-01
7.62159999999999e-08,0.00000000000000e+00,5.00000000000000e-01,4.86818540749575e-01,5.00000000000000e-01
7.72399999999999e-08,0.00000000000000e+00,5.00000000000000e-01,5.03726151485539e-01,5.00000000000000e-01
7.88864993434690e-08,0.00000000000000e+00,5.00000000000000e-01,4.96040140707724e-01,5.00000000000000e-01
8.17318471419228e-08,0.00000000000000e+00,5.00000000000000e-01,5.02821245769106e-01,5.00000000000000e-01
8.50000000000000e-08,0.00000000000000e+00,5.00000000000000e-01,4.97063184280002e-01,5.00000000000000e-01
8.50100000000000e-08,4.99999999999905e-02,5.00000000000000e-01,4.97263907108159e-01,4.50000000000010e-01
8.50300000000000e-08,1.49999999999972e-01,5.00000000000000e-01,4.97619851779168e-01,3.50000000000028e-01
8.50700000000000e-08,3.49999999999934e-01,5.00000000000000e-01,4.98450572328302e-01,1.50000000000066e-01
8.51000000000000e-08,4.99999999999971e-01,5.00000000000000e-01,5.00382147148777e-01,2.86437540353290e-14
8.51080000000000e-08,5.00000000000000e-01,5.00000000000000e-01,5.01230565497668e-01,0.00000000000000e+00
8.51240000000000e-08,5.00000000000000e-01,5.00000000000000e-01,5.02747892496691e-01,0.00000000000000e+00
8.51560000000000e-08,5.00000000000000e-01,5.00000000000000e-01,5.05043351498211e-01,0.00000000000000e+00
8.52200000000000e-08,5.00000000000000e-01,5.00000000000000e-01,5.08447268930544e-01,0.00000000000000e+00
8.53480000000000e-08,5.00000000000000e-01,5.00000000000000e-01,5.15488912478664e-01,0.00000000000000e+00
8.56040000000000e-08,5.00000000000000e-01,5.00000000000000e-01,4.97804012378343e-01,0.00000000000000e+00
8.61159999999999e-08,5.00000000000000e-01,5.00000000000000e-01,1.54033701141570e-01,0.00000000000000e+00
8.70241336754590e-08,5.00000000000000e-01,5.00000000000000e-01,-4.54239325300271e-02,0.00000000000000e+00
8.82793937580891e-08,5.00000000000000e-01,5.00000000000000e-01,3.70740170569553e-02,0.00000000000000e+00
9.01000000000000e-08,5.00000000000000e-01,4.99999999999971e-01,-2.50473577250081e-02,0.00000000000000e+00
9.03510520165260e-08,5.00000000000000e-01,5.00000000000000e-01,-7.25245668318576e-03,0.00000000000000e+00
9.08531560495781e-08,5.00000000000000e-01,5.00000000000000e-01,2.51572663411600e-03,0.00000000000000e+00
9.18573641156822e-08,5.00000000000000e-01,5.00000000000000e-01,-1.54671417119035e-03,0.00000000000000e+00
9.38657802478905e-08,5.00000000000000e-01,5.00000000000000e-01,1.24220910758983e-03,0.00000000000000e+00
9.51000000000000e-08,5.00000000000000e-01,5.00000000000000e-01,-8.68152806812257e-04,0.00000000000000e+00
9.51100000000000e-08,4.50000000000051e-01,5.00000000000000e-01,-5.62569202265460e-04,4.99999999999492e-02
9.51300000000000e-08,3.50000000000070e-01,5.00000000000000e-01,-1.09199603813254e-04,1.49999999999930e-01
9.51700000000000e-08,1.50000000000108e-01,5.00000000000000e-01,1.51592273981579e-04,3.49999999999892e-01
9.52000000000000e-08,6.99995617026161e-14,5.00000000000000e-01,8.84465140829072e-05,4.99999999999930e-01
9.52080000000000e-08,0.00000000000000e+00,5.00000000000000e-01,4.34746364211674e-05,5.00000000000000e-01
9.52240000000000e-08,0.00000000000000e+00,5.00000000000000e-01,-2.73255766440259e-05,5.00000000000000e-01
9.52560000000000e-08,0.00000000000000e+00,5.00000000000000e-01,-9.31579830535170e-05,5.00000000000000e-01
9.53200000000000e-08,0.00000000000000e+00,5.00000000000000e-01,-9.58015252127548e-05,5.00000000000000e-01
9.54480000000000e-08,0.00000000000000e+00,5.00000000000000e-01,-8.65908630012166e-05,5.00000000000000e-01
9.57040000000000e-08,0.00000000000000e+00,5.00000000000000e-01,-6.86740848780967e-04,5.00000000000000e-01
9.62159999999999e-08,0.00000000000000e+00,5.00000000000000e-01,-2.79234792159700e-04,5.00000000000000e-01
9.70401664121381e-08,0.00000000000000e+00,5.00000000000000e-01,2.76208522444135e-04,5.00000000000000e-01
9.86884992364145e-08,0.00000000000000e+00,5.00000000000000e-01,-3.10973051582092e-04,5.00000000000000e-01
1.00605653368240e-07,0.00000000000000e+00,5.00000000000000e-01,3.05004223362127e-04,5.00000000000000e-01
1.04405653368240e-07,0.00000000000000e+00,5.00000000000000e-01,-2.82197987977734e-04,5.00000000000000e-01
1.05000000000000e-07,0.00000000000000e+00,5.00000000000000e-01,1.56683914445342e-04,5.00000000000000e-01
1.05010000000000e-07,4.99999999999905e-02,5.00000000000000e-01,2.40455724092779e-04,5.00000000000000e-01
1.05030000000000e-07,1.49999999999972e-01,5.00000000000000e-01,3.96860720596047e-04,5.00000000000000e-01
1.05070000000000e-07,3.49999999999934e-01,5.00000000000000e-01,6.07120205682356e-04,5.00000000000000e-01
1.05100000000000e-07,4.99999999999971e-01,5.00000000000000e-01,6.31354523285395e-04,5.00000000000000e-01
1.05108000000000e-07,5.00000000000000e-01,5.00000000000000e-01,5.73844860372895e-04,5.00000000000000e-01
1.05124000000000e-07,5.00000000000000e-01,5.00000000000000e-01,4.53893311986912e-04,5.00000000000000e-01
1.05156000000000e-07,5.00000000000000e-01,5.00000000000000e-01,1.48050667514679e-04,5.00000000000000e-01
1.05220000000000e-07,5.00000000000000e-01,5.00000000000000e-01,-8.32753446764777e-04,5.00000000000000e-01
1.05348000000000e-07,5.00000000000000e-01,5.00000000000000e-01,-2.91244084672036e-03,5.00000000000000e-01
1.05604000000000e-07,5.00000000000000e-01,5.00000000000000e-01,-4.76166668240355e-03,5.00000000000000e-01
1.06116000000000e-07,5.00000000000000e-01,5.00000000000000e-01,1.30153048126648e-01,5.00000000000000e-01
1.07140000000000e-07,5.00000000000000e-01,5.00000000000000e-01,4.84248345875954e-01,5.00000000000000e-01
1.09188000000000e-07,5.00000000000000e-01,5.00000000000000e-01,5.05608089871211e-01,5.00000000000000e-01
1.11695736410956e-07,5.00000000000000e-01,5.00000000000000e-01,4.93757070402910e-01,5.00000000000000e-01
1.15100000000000e-07,5.00000000000000e-01,5.00000000000000e-01,5.04702284409521e-01,5.00000000000000e-01
1.15110000000000e-07,4.50000000000051e-01,5.00000000000000e-01,5.03888409963696e-01,5.00000000000000e-01
1.15130000000000e-07,3.50000000000070e-01,5.00000000000000e-01,5.02438710310661e-01,5.00000000000000e-01
1.15170000000000e-07,1.50000000000108e-01,5.00000000000000e-01,5.01027847195094e-01,5.00000000000000e-01
1.15200000000000e-07,6.99995617026161e-14,5.00000000000000e-01,5.01283861792858e-01,5.00000000000000e-01
1.15208000000000e-07,0.00000000000000e+00,5.00000000000000e-01,5.01527241755336e-01,5.00000000000000e-01
1.15224000000000e-07,0.00000000000000e+00,5.00000000000000e-01,5.01915905436951e-01,5.00000000000000e-01
1.15256000000000e-07,0.00000000000000e+00,5.00000000000000e-01,5.02338535856426e-01,5.00000000000000e-01
1.15320000000000e-07,0.00000000000000e+00,5.00000000000000e-01,5.02590298009604e-01,5.00000000000000e-01
1.15448000000000e-07,0.00000000000000e+00,5.00000000000000e-01,5.00992543439101e-01,5.00000000000000e-01
1.15704000000000e-07,0.00000000000000e+00,5.00000000000000e-01,4.87392276499382e-01,5.00000000000000e-01
1.16216000000000e-07,0.00000000000000e+00,5.00000000000000e-01,4.86818541700648e-01,5.00000000000000e-01
1.17240000000000e-07,0.00000000000000e+00,5.00000000000000e-01,5.03726152136072e-01,5.00000000000000e-01
1.18886499378752e-07,0.00000000000000e+00,5.00000000000000e-01,4.96040140074700e-01,5.00000000000000e-01
