Time,v(clk),v(data),v(out)
1.00000000000000e-08,5.00000000000000e-01,0.00000000000000e+00,8.82942832934348e-07
1.00100000000000e-08,5.00000000000000e-01,4.99999999999988e-02,9.29696422192344e-06
1.00300000000000e-08,5.00000000000000e-01,1.49999999999996e-01,1.46221346395553e-05
1.00700000000000e-08,5.00000000000000e-01,3.49999999999992e-01,7.60479041352763e-06
1.01000000000000e-08,5.00000000000000e-01,4.99999999999996e-01,2.41130355185804e-06
1.01080000000000e-08,5.00000000000000e-01,5.00000000000000e-01,1.50029667782270e-06
1.01240000000000e-08,5.00000000000000e-01,5.00000000000000e-01,1.84244819454588e-06
1.01560000000000e-08,5.00000000000000e-01,5.00000000000000e-01,5.48611318135217e-06
1.02200000000000e-08,5.00000000000000e-01,5.00000000000000e-01,6.94936305938726e-06
1.03480000000000e-08,5.00000000000000e-01,5.00000000000000e-01,1.00764905314188e-06
1.06040000000000e-08,5.00000000000000e-01,5.00000000000000e-01,1.38237550617246e-06
1.11160000000000e-08,5.00000000000000e-01,5.00000000000000e-01,1.88966044234809e-06
1.21400000000000e-08,5.00000000000000e-01,5.00000000000000e-01,1.43174298283637e-06
1.41880000000000e-08,5.00000000000000e-01,5.00000000000000e-01,1.52524081040162e-06
1.51000000000000e-08,5.00000000000000e-01,5.00000000000000e-01,1.30211636880252e-06
1.51100000000000e-08,4.49999999999993e-01,5.00000000000000e-01,-7.18822042763759e-05
1.51300000000000e-08,3.49999999999995e-01,5.00000000000000e-01,-1.71472423268822e-04
1.51700000000000e-08,1.50000000000000e-01,5.00000000000000e-01,-1.73153418509008e-04
1.52000000000000e-08,0.00000000000000e+00,5.00000000000000e-01,1.25324114647253e-04
1.52080000000000e-08,0.00000000000000e+00,5.00000000000000e-01,2.95123667734418e-04
1.52240000000000e-08,0.00000000000000e+00,5.00000000000000e-01,4.86872957927383e-04
1.52560000000000e-08,0.00000000000000e+00,5.00000000000000e-01,4.35510226563351e-04
1.53200000000000e-08,0.00000000000000e+00,5.00000000000000e-01,1.72920841366025e-05
1.54480000000000e-08,0.00000000000000e+00,5.00000000000000e-01,-2.82782685819428e-04
1.57040000000000e-08,0.00000000000000e+00,5.00000000000000e-01,1.09596432063427e-04
1.62160000000000e-08,0.00000000000000e+00,5.00000000000000e-01,-1.50047946271131e-04
1.68873078734373e-08,0.00000000000000e+00,5.00000000000000e-01,1.70746010624195e-04
1.82299236203118e-08,0.00000000000000e+00,5.00000000000000e-01,-1.47908244136964e-04
1.97665662934196e-08,0.00000000000000e+00,5.00000000000000e-01,1.31725561145335e-04
2.28398516396354e-08,0.00000000000000e+00,5.00000000000000e-01,-1.22231045161112e-04
2.50000000000000e-08,0.00000000000000e+00,5.00000000000000e-01,1.12251757734282e-04
2.50100000000000e-08,4.99999999999905e-02,5.00000000000000e-01,2.45929566528774e-04
2.50300000000000e-08,1.50000000000005e-01,5.00000000000000e-01,4.47573704076581e-04
2.50700000000000e-08,3.50000000000000e-01,5.00000000000000e-01,5.73218277625805e-04
2.51000000000000e-08,5.00000000000000e-01,5.00000000000000e-01,2.62201010812396e-04
2.51080000000000e-08,5.00000000000000e-01,5.00000000000000e-01,-6.69701626050748e-05
2.51240000000000e-08,5.00000000000000e-01,5.00000000000000e-01,-8.77063225125929e-04
2.51560000000000e-08,5.00000000000000e-01,5.00000000000000e-01,-2.61047413657536e-03
2.52200000000000e-08,5.00000000000000e-01,5.00000000000000e-01,-4.86062450706717e-03
2.53480000000000e-08,5.00000000000000e-01,5.00000000000000e-01,5.38321553473162e-03
2.56040000000000e-08,5.00000000000000e-01,5.00000000000000e-01,3.39233214686242e-01
2.61160000000000e-08,5.00000000000000e-01,5.00000000000000e-01,5.19069426057598e-01
2.67331637561651e-08,5.00000000000000e-01,5.00000000000000e-01,4.83580339380890e-01
2.79674912684951e-08,5.00000000000000e-01,5.00000000000000e-01,5.15890812076155e-01
2.96935285851774e-08,5.00000000000000e-01,5.00000000000000e-01,4.84409145516007e-01
3.01000000000000e-08,5.00000000000000e-01,5.00000000000000e-01,5.13280328885881e-01
3.01100000000000e-08,5.00000000000000e-01,4.50000000000026e-01,5.07563218894753e-01
3.01300000000000e-08,5.00000000000000e-01,3.50000000000012e-01,5.01061556313499e-01
3.01700000000000e-08,5.00000000000000e-01,1.50000000000017e-01,4.99727800065845e-01
3.02000000000000e-08,5.00000000000000e-01,1.21014309684142e-14,5.00005491341258e-01
3.02080000000000e-08,5.00000000000000e-01,0.00000000000000e+00,4.99984006021529e-01
3.02240000000000e-08,5.00000000000000e-01,0.00000000000000e+00,4.99952548008619e-01
3.02560000000000e-08,5.00000000000000e-01,0.00000000000000e+00,4.99959604278323e-01
3.03200000000000e-08,5.00000000000000e-01,0.00000000000000e+00,4.99955503835330e-01
3.04480000000000e-08,5.00000000000000e-01,0.00000000000000e+00,4.99981780735729e-01
3.07040000000000e-08,5.00000000000000e-01,0.00000000000000e+00,4.99996636902749e-01
3.11354783625440e-08,5.00000000000000e-01,0.00000000000000e+00,4.99969822273421e-01
3.18230478090343e-08,5.00000000000000e-01,0.00000000000000e+00,4.99998381010296e-01
3.31981867020148e-08,5.00000000000000e-01,0.00000000000000e+00,4.99973908358808e-01
3.51000000000000e-08,4.99999999999975e-01,0.00000000000000e+00,5.00000221079468e-01
3.51100000000000e-08,4.49999999999985e-01,0.00000000000000e+00,4.99918296287649e-01
3.51300000000000e-08,3.49999999999971e-01,0.00000000000000e+00,4.99826915165822e-01
3.51700000000000e-08,1.49999999999975e-01,0.00000000000000e+00,5.00129647223247e-01
3.52000000000000e-08,0.00000000000000e+00,0.00000000000000e+00,5.01804851274189e-01
3.52080000000000e-08,0.00000000000000e+00,0.00000000000000e+00,5.02322596905863e-01
3.52240000000000e-08,0.00000000000000e+00,0.00000000000000e+00,5.02999194572774e-01
3.52560000000000e-08,0.00000000000000e+00,0.00000000000000e+00,5.02999862214600e-01
3.53200000000000e-08,0.00000000000000e+00,0.00000000000000e+00,4.96231042923256e-01
3.54480000000000e-08,0.00000000000000e+00,0.00000000000000e+00,4.86569281806180e-01
3.57040000000000e-08,0.00000000000000e+00,0.00000000000000e+00,4.98367251842821e-01
3.60943195590053e-08,0.00000000000000e+00,0.00000000000000e+00,5.00461324427628e-01
3.68032321479209e-08,0.00000000000000e+00,0.00000000000000e+00,4.99159786639960e-01
3.76427597487511e-08,0.00000000000000e+00,0.00000000000000e+00,5.00408155664325e-01
3.91000000000000e-08,0.00000000000000e+00,0.00000000000000e+00,4.99409310543887e-01
3.92679055201660e-08,0.00000000000000e+00,0.00000000000000e+00,4.99829112864881e-01
3.96037165604981e-08,0.00000000000000e+00,0.00000000000000e+00,4.99971914995028e-01
4.02753386411623e-08,0.00000000000000e+00,0.00000000000000e+00,4.99879465595321e-01
4.16185828024906e-08,0.00000000000000e+00,0.00000000000000e+00,4.99979653439846e-01
4.43050711251473e-08,0.00000000000000e+00,0.00000000000000e+00,4.99911415927720e-01
4.50000000000000e-08,0.00000000000000e+00,0.00000000000000e+00,4.99987490047933e-01
4.50100000000000e-08,4.99999999999905e-02,0.00000000000000e+00,5.00061053302994e-01
4.50300000000000e-08,1.50000000000005e-01,0.00000000000000e+00,5.00127165285612e-01
4.50700000000000e-08,3.50000000000000e-01,0.00000000000000e+00,5.00033985148391e-01
4.51000000000000e-08,5.00000000000000e-01,0.00000000000000e+00,4.99886290251870e-01
4.51080000000000e-08,5.00000000000000e-01,0.00000000000000e+00,4.99814708051345e-01
4.51240000000000e-08,5.00000000000000e-01,0.00000000000000e+00,4.99726642814175e-01
4.51560000000000e-08,5.00000000000000e-01,0.00000000000000e+00,4.99692996136543e-01
4.52200000000000e-08,5.00000000000000e-01,0.00000000000000e+00,4.99792278854270e-01
4.53480000000000e-08,5.00000000000000e-01,0.00000000000000e+00,5.00751977943972e-01
4.56040000000000e-08,5.00000000000000e-01,0.00000000000000e+00,5.02589093454159e-01
4.61160000000000e-08,5.00000000000000e-01,0.00000000000000e+00,6.31667195799073e-02
4.66924293228019e-08,5.00000000000000e-01,0.00000000000000e+00,-3.79174185354654e-02
4.77969730291791e-08,5.00000000000000e-01,0.00000000000000e+00,3.60959967884727e-02
4.92433829534748e-08,5.00000000000000e-01,0.00000000000000e+00,-2.88835262760338e-02
5.00000000000000e-08,5.00000000000000e-01,0.00000000000000e+00,2.48732895500672e-02
5.00100000000000e-08,5.00000000000000e-01,4.99999999999905e-02,1.93632814570639e-02
5.00300000000000e-08,5.00000000000000e-01,1.49999999999972e-01,1.15533105959718e-02
5.00700000000000e-08,5.00000000000000e-01,3.50000000000000e-01,4.69683188345082e-03
5.01000000000000e-08,5.00000000000000e-01,5.00000000000000e-01,2.38521547350679e-03
5.01080000000000e-08,5.00000000000000e-01,5.00000000000000e-01,2.06022285249064e-03
5.01240000000000e-08,5.00000000000000e-01,5.00000000000000e-01,1.48200763950272e-03
5.01560000000000e-08,5.00000000000000e-01,5.00000000000000e-01,7.32888078609141e-04
5.02200000000000e-08,5.00000000000000e-01,5.00000000000000e-01,1.49200661010186e-04
5.03480000000000e-08,5.00000000000000e-01,5.00000000000000e-01,-2.42584620648786e-05
5.06040000000000e-08,5.00000000000000e-01,5.00000000000000e-01,1.00523494686623e-05
5.11160000000001e-08,5.00000000000000e-01,5.00000000000000e-01,-8.59403499514806e-06
5.21400000000002e-08,5.00000000000000e-01,5.00000000000000e-01,5.91204285037457e-06
5.41880000000003e-08,5.00000000000000e-01,5.00000000000000e-01,-6.90770880474841e-06
5.51000000000000e-08,5.00000000000000e-01,5.00000000000000e-01,4.50050790288918e-06
5.51100000000000e-08,4.50000000000018e-01,5.00000000000000e-01,-7.04284874343056e-05
5.51300000000000e-08,3.50000000000004e-01,5.00000000000000e-01,-1.71900202386721e-04
5.51700000000000e-08,1.50000000000008e-01,5.00000000000000e-01,-1.74177924985613e-04
5.52000000000000e-08,0.00000000000000e+00,5.00000000000000e-01,1.22030070901877e-04
5.52080000000000e-08,0.00000000000000e+00,5.00000000000000e-01,2.91124698938036e-04
5.52240000000000e-08,0.00000000000000e+00,5.00000000000000e-01,4.73034714185271e-04
5.52560000000000e-08,0.00000000000000e+00,5.00000000000000e-01,3.80006659049685e-04
5.53200000000000e-08,0.00000000000000e+00,5.00000000000000e-01,-5.29365384588518e-04
5.54480000000000e-08,0.00000000000000e+00,5.00000000000000e-01,-1.34798600883730e-03
5.57040000000000e-08,0.00000000000000e+00,5.00000000000000e-01,3.79009328939153e-04
5.61109595532708e-08,0.00000000000000e+00,5.00000000000000e-01,-2.39368401096124e-04
5.67483764654522e-08,0.00000000000000e+00,5.00000000000000e-01,1.79323652987128e-04
5.80035970370244e-08,0.00000000000000e+00,5.00000000000000e-01,-1.18562576613588e-04
5.93521716282826e-08,0.00000000000000e+00,5.00000000000000e-01,7.42114685693598e-05
6.20493208107988e-08,0.00000000000000e+00,5.00000000000000e-01,-5.30726170830426e-05
6.50000000000000e-08,0.00000000000000e+00,5.00000000000000e-01,3.79440108881730e-05
6.50100000000000e-08,4.99999999999905e-02,5.00000000000000e-01,2.25347044557983e-04
6.50300000000000e-08,1.49999999999972e-01,5.00000000000000e-01,4.85096616861941e-04
6.50700000000000e-08,3.49999999999934e-01,5.00000000000000e-01,6.13294574795288e-04
6.51000000000000e-08,4.99999999999971e-01,5.00000000000000e-01,3.26845878491938e-04
6.51080000000000e-08,5.00000000000000e-01,5.00000000000000e-01,1.68304374592657e-05
6.51240000000000e-08,5.00000000000000e-01,5.00000000000000e-01,-7.70844492673090e-04
6.51560000000000e-08,5.00000000000000e-01,5.00000000000000e-01,-2.51783853146495e-03
6.52200000000000e-08,5.00000000000000e-01,5.00000000000000e-01,-4.82197863417413e-03
6.53480000000000e-08,5.00000000000000e-01,5.00000000000000e-01,4.80675972053281e-03
6.56040000000000e-08,5.00000000000000e-01,5.00000000000000e-01,3.37041032497625e-01
6.61159999999999e-08,5.00000000000000e-01,5.00000000000000e-01,5.18990313186970e-01
6.67348536782540e-08,5.00000000000000e-01,5.00000000000000e-01,4.83717769117418e-01
6.79725610347621e-08,5.00000000000000e-01,5.00000000000000e-01,5.15806600183008e-01
6.96954340686660e-08,5.00000000000000e-01,5.00000000000000e-01,4.84527059150234e-01
7.01000000000000e-08,5.00000000000000e-01,5.00000000000000e-01,5.13197450867788e-01
7.01100000000000e-08,5.00000000000000e-01,4.50000000000010e-01,5.07515345566841e-01
7.01300000000000e-08,5.00000000000000e-01,3.50000000000028e-01,5.01053065798526e-01
7.01700000000000e-08,5.00000000000000e-01,1.50000000000066e-01,4.99728373633385e-01
7.02000000000000e-08,5.00000000000000e-01,2.86437540353290e-14,5.00004074186211e-01
7.02080000000000e-08,5.00000000000000e-01,0.00000000000000e+00,4.99982993389891e-01
7.02240000000000e-08,5.00000000000000e-01,0.00000000000000e+00,4.99951867998106e-01
7.02560000000000e-08,5.00000000000000e-01,0.00000000000000e+00,4.99959225791367e-01
7.03200000000000e-08,5.00000000000000e-01,0.00000000000000e+00,4.99955280121932e-01
7.04480000000000e-08,5.00000000000000e-01,0.00000000000000e+00,4.99981607360427e-01
7.07040000000000e-08,5.00000000000000e-01,0.00000000000000e+00,4.99996654677299e-01
7.11350376324573e-08,5.00000000000000e-01,0.00000000000000e+00,4.99969701006596e-01
7.18227710280402e-08,5.00000000000000e-01,0.00000000000000e+00,4.99998381938561e-01
7.31982378192061e-08,5.00000000000000e-01,0.00000000000000e+00,4.99973818863675e-01
7.51000000000000e-08,5.00000000000000e-01,0.00000000000000e+00,5.00000236329456e-01
7.51100000000000e-08,4.50000000000051e-01,0.00000000000000e+00,4.99918284627463e-01
7.51300000000000e-08,3.50000000000070e-01,0.00000000000000e+00,4.99826881346351e-01
7.51700000000000e-08,1.50000000000108e-01,0.00000000000000e+00,5.00129609654346e-01
7.52000000000000e-08,6.99995617026161e-14,0.00000000000000e+00,5.01804780882567e-01
7.52080000000000e-08,0.00000000000000e+00,0.00000000000000e+00,5.02322479530120e-01
7.52240000000000e-08,0.00000000000000e+00,0.00000000000000e+00,5.02998904763780e-01
7.52560000000000e-08,0.00000000000000e+00,0.00000000000000e+00,5.02998273261154e-01
7.53200000000000e-08,0.00000000000000e+00,0.00000000000000e+00,4.96224530135375e-01
7.54480000000000e-08,0.00000000000000e+00,0.00000000000000e+00,4.86566444481909e-01
7.57040000000000e-08,0.00000000000000e+00,0.00000000000000e+00,4.98370105654729e-01
7.60943185286904e-08,0.00000000000000e+00,0.00000000000000e+00,5.00458987886654e-01
7.68032292602922e-08,0.00000000000000e+00,0.00000000000000e+00,4.99161740701887e-01
7.76427556562815e-08,0.00000000000000e+00,0.00000000000000e+00,5.00406403905038e-01
7.81000000000000e-08,0.00000000000000e+00,0.00000000000000e+00,4.99471405843754e-01
7.82679052791979e-08,0.00000000000000e+00,0.00000000000000e+00,4.99819285366407e-01
7.86037158375936e-08,0.00000000000000e+00,0.00000000000000e+00,4.99942013332969e-01
7.92753369543850e-08,0.00000000000000e+00,0.00000000000000e+00,4.99872361574266e-01
8.06185791879679e-08,0.00000000000000e+00,0.00000000000000e+00,4.99963479945495e-01
8.33050636551336e-08,0.00000000000000e+00,0.00000000000000e+00,4.99914645803781e-01
8.50000000000000e-08,0.00000000000000e+00,0.00000000000000e+00,4.99984119896318e-01
8.50100000000000e-08,4.99999999999905e-02,0.00000000000000e+00,5.00057067780153e-01
8.50300000000000e-08,1.49999999999972e-01,0.00000000000000e+00,5.00123309068109e-01
8.50700000000000e-08,3.49999999999934e-01,0.00000000000000e+00,5.00032836561429e-01
8.51000000000000e-08,4.99999999999971e-01,0.00000000000000e+00,4.99886094666522e-01
8.51080000000000e-08,5.00000000000000e-01,0.00000000000000e+00,4.99813958916916e-01
8.51240000000000e-08,5.00000000000000e-01,0.00000000000000e+00,4.99725362990058e-01
8.51560000000000e-08,5.00000000000000e-01,0.00000000000000e+00,4.99694553032003e-01
8.52200000000000e-08,5.00000000000000e-01,0.00000000000000e+00,4.99795641889575e-01
8.53480000000000e-08,5.00000000000000e-01,0.00000000000000e+00,5.00755095034162e-01
8.56040000000000e-08,5.00000000000000e-01,0.00000000000000e+00,5.02492950054557e-01
8.61159999999999e-08,5.00000000000000e-01,0.00000000000000e+00,6.31093175454804e-02
8.66926521026326e-08,5.00000000000000e-01,0.00000000000000e+00,-3.78977988120452e-02
8.77972939048749e-08,5.00000000000000e-01,0.00000000000000e+00,3.60749704419777e-02
8.92444863408263e-08,5.00000000000000e-01,0.00000000000000e+00,-2.88713783031723e-02
9.00000000000000e-08,5.00000000000000e-01,0.00000000000000e+00,2.48535571528615e-02
9.00100000000000e-08,5.00000000000000e-01,4.99999999999905e-02,1.93466362129843e-02
9.00300000000000e-08,5.00000000000000e-01,1.49999999999972e-01,1.15419042498964e-02
9.00700000000000e-08,5.00000000000000e-01,3.49999999999934e-01,4.69198546852257e-03
9.01000000000000e-08,5.00000000000000e-01,4.99999999999971e-01,2.38264841220517e-03
9.01080000000000e-08,5.00000000000000e-01,5.00000000000000e-01,2.05802975409171e-03
9.01240000000000e-08,5.00000000000000e-01,5.00000000000000e-01,1.48044722865830e-03
9.01560000000000e-08,5.00000000000000e-01,5.00000000000000e-01,7.32115852783509e-04
9.02200000000000e-08,5.00000000000000e-01,5.00000000000000e-01,1.49051680557247e-04
9.03480000000000e-08,5.00000000000000e-01,5.00000000000000e-01,-2.42349478494358e-05
9.06040000000000e-08,5.00000000000000e-01,5.00000000000000e-01,1.00451340917136e-05
9.11159999999999e-08,5.00000000000000e-01,5.00000000000000e-01,-8.58559931519315e-06
9.21399999999999e-08,5.00000000000000e-01,5.00000000000000e-01,5.90879513497587e-06
9.41879999999998e-08,5.00000000000000e-01,5.00000000000000e-01,-6.90103678769845e-06
9.51000000000000e-08,5.00000000000000e-01,5.00000000000000e-01,4.49855510056742e-06
9.51100000000000e-08,4.50000000000051e-01,5.00000000000000e-01,-7.04299211701856e-05
9.51300000000000e-08,3.50000000000070e-01,5.00000000000000e-01,-1.71900619926106e-04
9.51700000000000e-08,1.50000000000108e-01,5.00000000000000e-01,-1.74177021454905e-04
9.52000000000000e-08,6.99995617026161e-14,5.00000000000000e-01,1.22032796675380e-04
9.52080000000000e-08,0.00000000000000e+00,5.00000000000000e-01,2.91128944136014e-04
9.52240000000000e-08,0.00000000000000e+00,5.00000000000000e-01,4.73046296278076e-04
9.52560000000000e-08,0.00000000000000e+00,5.00000000000000e-01,3.80070182466621e-04
9.53200000000000e-08,0.00000000000000e+00,5.00000000000000e-01,-5.29053572892922e-04
9.54480000000000e-08,0.00000000000000e+00,5.00000000000000e-01,-1.34714186497854e-03
9.57040000000000e-08,0.00000000000000e+00,5.00000000000000e-01,3.78864479295908e-04
9.61111056531444e-08,0.00000000000000e+00,5.00000000000000e-01,-2.39401646099067e-04
9.67486234807182e-08,0.00000000000000e+00,5.00000000000000e-01,1.79411794897859e-04
9.80046770425691e-08,0.00000000000000e+00,5.00000000000000e-01,-1.18044559182311e-04
9.93534208390943e-08,0.00000000000000e+00,5.00000000000000e-01,7.38322156455355e-05
1.02050908432145e-07,0.00000000000000e+00,5.00000000000000e-01,-5.27540495675002e-05
1.05000000000000e-07,0.00000000000000e+00,5.00000000000000e-01,3.76648262755590e-05
1.05010000000000e-07,4.99999999999905e-02,5.00000000000000e-01,2.25006557206066e-04
1.05030000000000e-07,1.49999999999972e-01,5.00000000000000e-01,4.84766391228131e-04
1.05070000000000e-07,3.49999999999934e-01,5.00000000000000e-01,6.13113692391559e-04
1.05100000000000e-07,4.99999999999971e-01,5.00000000000000e-01,3.26689541695527e-04
1.05108000000000e-07,5.00000000000000e-01,5.00000000000000e-01,1.66633318526080e-05
1.05124000000000e-07,5.00000000000000e-01,5.00000000000000e-01,-7.71021865495325e-04
1.05156000000000e-07,5.00000000000000e-01,5.00000000000000e-01,-2.51797799621455e-03
1.05220000000000e-07,5.00000000000000e-01,5.00000000000000e-01,-4.82202848847010e-03
1.05348000000000e-07,5.00000000000000e-01,5.00000000000000e-01,4.80732433690977e-03
1.05604000000000e-07,5.00000000000000e-01,5.00000000000000e-01,3.37043220007439e-01
1.06116000000000e-07,5.00000000000000e-01,5.00000000000000e-01,5.18990394835402e-01
1.06734851978839e-07,5.00000000000000e-01,5.00000000000000e-01,4.83717629425519e-01
1.07972555936517e-07,5.00000000000000e-01,5.00000000000000e-01,5.15806686669302e-01
1.09695432061874e-07,5.00000000000000e-01,5.00000000000000e-01,4.84526938969213e-01
1.10100000000000e-07,5.00000000000000e-01,5.00000000000000e-01,5.13197536195828e-01
1.10110000000000e-07,5.00000000000000e-01,4.50000000000076e-01,5.07515395047373e-01
1.10130000000000e-07,5.00000000000000e-01,3.50000000000095e-01,5.01053074433175e-01
1.10170000000000e-07,5.00000000000000e-01,1.50000000000133e-01,4.99728373044317e-01
