Time,v(clk),v(data),v(out)
1.00000000000000e-08,5.00000000000000e-01,0.00000000000000e+00,-7.89955653724035e-06
1.00100000000000e-08,5.00000000000000e-01,4.99999999999988e-02,7.10677930754189e-07
1.00300000000000e-08,5.00000000000000e-01,1.49999999999996e-01,9.06512797693715e-06
1.00700000000000e-08,5.00000000000000e-01,3.49999999999992e-01,7.03893277682194e-06
1.01000000000000e-08,5.00000000000000e-01,4.99999999999996e-01,2.21313312077226e-06
1.01080000000000e-08,5.00000000000000e-01,5.00000000000000e-01,1.79556324653857e-06
1.01240000000000e-08,5.00000000000000e-01,5.00000000000000e-01,1.36753400672984e-06
1.01560000000000e-08,5.00000000000000e-01,5.00000000000000e-01,5.70792362666189e-06
1.02200000000000e-08,5.00000000000000e-01,5.00000000000000e-01,8.98711438634264e-06
1.03480000000000e-08,5.00000000000000e-01,5.00000000000000e-01,4.58093253234704e-06
1.06040000000000e-08,5.00000000000000e-01,5.00000000000000e-01,2.91042531321700e-06
1.11160000000000e-08,5.00000000000000e-01,5.00000000000000e-01,4.53977583768188e-06
1.21400000000000e-08,5.00000000000000e-01,5.00000000000000e-01,2.80530389344495e-06
1.41880000000000e-08,5.00000000000000e-01,5.00000000000000e-01,3.93842662877158e-06
1.51000000000000e-08,5.00000000000000e-01,5.00000000000000e-01,2.52834724085837e-06
1.51100000000000e-08,4.49999999999993e-01,5.00000000000000e-01,-7.26354898635817e-05
1.51300000000000e-08,3.49999999999995e-01,5.00000000000000e-01,-1.80986528686075e-04
1.51700000000000e-08,1.50000000000000e-01,5.00000000000000e-01,-1.93332879322654e-04
1.52000000000000e-08,0.00000000000000e+00,5.00000000000000e-01,1.04183192732012e-04
1.52080000000000e-08,0.00000000000000e+00,5.00000000000000e-01,2.77633069822682e-04
1.52240000000000e-08,0.00000000000000e+00,5.00000000000000e-01,4.87638076197054e-04
1.52560000000000e-08,0.00000000000000e+00,5.00000000000000e-01,4.78535388599086e-04
1.53200000000000e-08,0.00000000000000e+00,5.00000000000000e-01,6.76326944942934e-05
1.54480000000000e-08,0.00000000000000e+00,5.00000000000000e-01,-3.29889917808579e-04
1.57040000000000e-08,0.00000000000000e+00,5.00000000000000e-01,9.66224964285591e-05
1.62160000000000e-08,0.00000000000000e+00,5.00000000000000e-01,-1.49996641804484e-04
1.68900307263018e-08,0.00000000000000e+00,5.00000000000000e-01,1.54368534379067e-04
1.82380921789055e-08,0.00000000000000e+00,5.00000000000000e-01,-1.04259262617220e-04
1.97951809686074e-08,0.00000000000000e+00,5.00000000000000e-01,7.71114870424666e-05
2.29093585480113e-08,0.00000000000000e+00,5.00000000000000e-01,-5.91226679257889e-05
2.50000000000000e-08,0.00000000000000e+00,5.00000000000000e-01,4.58608655593963e-05
2.50100000000000e-08,4.99999999999905e-02,5.00000000000000e-01,1.91455995900446e-04
2.50300000000000e-08,1.50000000000005e-01,5.00000000000000e-01,4.21791364476586e-04
2.50700000000000e-08,3.50000000000000e-01,5.00000000000000e-01,6.03866637541431e-04
2.51000000000000e-08,5.00000000000000e-01,5.00000000000000e-01,4.37936354846971e-04
2.51080000000000e-08,5.00000000000000e-01,5.00000000000000e-01,2.03850023402480e-04
2.51240000000000e-08,5.00000000000000e-01,5.00000000000000e-01,-4.09752060312768e-04
2.51560000000000e-08,5.00000000000000e-01,5.00000000000000e-01,-1.94050501858455e-03
2.52200000000000e-08,5.00000000000000e-01,5.00000000000000e-01,-4.24142582205829e-03
2.53480000000000e-08,5.00000000000000e-01,5.00000000000000e-01,-1.96361394256776e-03
2.56040000000000e-08,5.00000000000000e-01,5.00000000000000e-01,2.58768411157932e-01
2.61160000000000e-08,5.00000000000000e-01,5.00000000000000e-01,5.13355913821147e-01
2.68451421736962e-08,5.00000000000000e-01,5.00000000000000e-01,4.90783873928669e-01
2.81074070616636e-08,5.00000000000000e-01,5.00000000000000e-01,5.10060287394326e-01
2.98329208085802e-08,5.00000000000000e-01,5.00000000000000e-01,4.90908380601212e-01
3.01000000000000e-08,5.00000000000000e-01,5.00000000000000e-01,5.07704051713597e-01
3.01100000000000e-08,5.00000000000000e-01,4.50000000000026e-01,5.04502661292336e-01
3.01300000000000e-08,5.00000000000000e-01,3.50000000000012e-01,5.00770292666309e-01
3.01700000000000e-08,5.00000000000000e-01,1.50000000000017e-01,4.99836183305856e-01
3.02000000000000e-08,5.00000000000000e-01,1.21014309684142e-14,4.99981460237101e-01
3.02080000000000e-08,5.00000000000000e-01,0.00000000000000e+00,4.99974176892274e-01
3.02240000000000e-08,5.00000000000000e-01,0.00000000000000e+00,4.99959755111321e-01
3.02560000000000e-08,5.00000000000000e-01,0.00000000000000e+00,4.99952458738334e-01
3.03200000000000e-08,5.00000000000000e-01,0.00000000000000e+00,4.99951777361777e-01
3.04480000000000e-08,5.00000000000000e-01,0.00000000000000e+00,4.99979116585190e-01
3.07040000000000e-08,5.00000000000000e-01,0.00000000000000e+00,4.99988345529296e-01
3.11258745556851e-08,5.00000000000000e-01,0.00000000000000e+00,4.99964827621841e-01
3.18246560257180e-08,5.00000000000000e-01,0.00000000000000e+00,4.99990119165584e-01
3.30770841039534e-08,5.00000000000000e-01,0.00000000000000e+00,4.99970998286889e-01
3.51000000000000e-08,4.99999999999975e-01,0.00000000000000e+00,4.99993083073443e-01
3.51100000000000e-08,4.49999999999985e-01,0.00000000000000e+00,4.99915062575574e-01
3.51300000000000e-08,3.49999999999971e-01,0.00000000000000e+00,4.99829873543776e-01
3.51700000000000e-08,1.49999999999975e-01,0.00000000000000e+00,5.00186897908627e-01
3.52000000000000e-08,0.00000000000000e+00,0.00000000000000e+00,5.01827502418073e-01
3.52080000000000e-08,0.00000000000000e+00,0.00000000000000e+00,5.02343835546994e-01
3.52240000000000e-08,0.00000000000000e+00,0.00000000000000e+00,5.03022209368328e-01
3.52560000000000e-08,0.00000000000000e+00,0.00000000000000e+00,5.03091849347009e-01
3.53200000000000e-08,0.00000000000000e+00,0.00000000000000e+00,4.97361658037784e-01
3.54480000000000e-08,0.00000000000000e+00,0.00000000000000e+00,4.86632879660000e-01
3.57040000000000e-08,0.00000000000000e+00,0.00000000000000e+00,4.97009286459961e-01
3.61122790636827e-08,0.00000000000000e+00,0.00000000000000e+00,5.01190304771456e-01
3.68071844131875e-08,0.00000000000000e+00,0.00000000000000e+00,4.98410376850162e-01
3.77077085464577e-08,0.00000000000000e+00,0.00000000000000e+00,5.00975930051550e-01
3.91000000000000e-08,0.00000000000000e+00,0.00000000000000e+00,4.98830342323375e-01
3.92801048266540e-08,0.00000000000000e+00,0.00000000000000e+00,4.99724422459105e-01
3.96403144799621e-08,0.00000000000000e+00,0.00000000000000e+00,5.00004430765224e-01
4.03607337865782e-08,0.00000000000000e+00,0.00000000000000e+00,4.99808403661813e-01
4.18015723998104e-08,0.00000000000000e+00,0.00000000000000e+00,5.00004291516156e-01
4.46832496262748e-08,0.00000000000000e+00,0.00000000000000e+00,4.99850988930590e-01
4.50000000000000e-08,0.00000000000000e+00,0.00000000000000e+00,4.99990500797690e-01
4.50100000000000e-08,4.99999999999905e-02,0.00000000000000e+00,5.00065713759091e-01
4.50300000000000e-08,1.50000000000005e-01,0.00000000000000e+00,5.00133065262015e-01
4.50700000000000e-08,3.50000000000000e-01,0.00000000000000e+00,5.00038621503881e-01
4.51000000000000e-08,5.00000000000000e-01,0.00000000000000e+00,4.99894861641534e-01
4.51080000000000e-08,5.00000000000000e-01,0.00000000000000e+00,4.99823219705353e-01
4.51240000000000e-08,5.00000000000000e-01,0.00000000000000e+00,4.99730226170547e-01
4.51560000000000e-08,5.00000000000000e-01,0.00000000000000e+00,4.99682704398656e-01
4.52200000000000e-08,5.00000000000000e-01,0.00000000000000e+00,4.99761359915551e-01
4.53480000000000e-08,5.00000000000000e-01,0.00000000000000e+00,5.00239238262326e-01
4.56040000000000e-08,5.00000000000000e-01,0.00000000000000e+00,5.22218991561336e-01
4.61160000000000e-08,5.00000000000000e-01,0.00000000000000e+00,1.12233313105907e-01
4.67465700634194e-08,5.00000000000000e-01,0.00000000000000e+00,-5.23050652083617e-02
4.77324227115534e-08,5.00000000000000e-01,0.00000000000000e+00,4.99524086751800e-02
4.91889256586324e-08,5.00000000000000e-01,0.00000000000000e+00,-3.64593502029337e-02
5.00000000000000e-08,5.00000000000000e-01,0.00000000000000e+00,3.11485629132309e-02
5.00100000000000e-08,5.00000000000000e-01,4.99999999999905e-02,2.60789652095459e-02
5.00300000000000e-08,5.00000000000000e-01,1.49999999999972e-01,1.79386647142926e-02
5.00700000000000e-08,5.00000000000000e-01,3.50000000000000e-01,8.60263398125763e-03
5.01000000000000e-08,5.00000000000000e-01,5.00000000000000e-01,5.00915486678762e-03
5.01080000000000e-08,5.00000000000000e-01,5.00000000000000e-01,4.39053814546673e-03
5.01240000000000e-08,5.00000000000000e-01,5.00000000000000e-01,3.15065232354948e-03
5.01560000000000e-08,5.00000000000000e-01,5.00000000000000e-01,1.78058864951482e-03
5.02200000000000e-08,5.00000000000000e-01,5.00000000000000e-01,4.72043816866927e-04
5.03480000000000e-08,5.00000000000000e-01,5.00000000000000e-01,-2.44147144577503e-05
5.06040000000000e-08,5.00000000000000e-01,5.00000000000000e-01,5.72115696637759e-06
5.11160000000001e-08,5.00000000000000e-01,5.00000000000000e-01,-3.13326055145779e-06
5.21400000000002e-08,5.00000000000000e-01,5.00000000000000e-01,1.28049749746617e-06
5.41880000000003e-08,5.00000000000000e-01,5.00000000000000e-01,-1.21151873472454e-06
5.51000000000000e-08,5.00000000000000e-01,5.00000000000000e-01,-1.06269202896671e-07
5.51100000000000e-08,4.50000000000018e-01,5.00000000000000e-01,-7.40948121558671e-05
5.51300000000000e-08,3.50000000000004e-01,5.00000000000000e-01,-1.78896191845260e-04
5.51700000000000e-08,1.50000000000008e-01,5.00000000000000e-01,-1.95436392972766e-04
5.52000000000000e-08,0.00000000000000e+00,5.00000000000000e-01,9.96760643397834e-05
5.52080000000000e-08,0.00000000000000e+00,5.00000000000000e-01,2.72083631533845e-04
5.52240000000000e-08,0.00000000000000e+00,5.00000000000000e-01,4.71600639308484e-04
5.52560000000000e-08,0.00000000000000e+00,5.00000000000000e-01,4.25757372007451e-04
5.53200000000000e-08,0.00000000000000e+00,5.00000000000000e-01,-4.00443394028678e-04
5.54480000000000e-08,0.00000000000000e+00,5.00000000000000e-01,-1.43731513533395e-03
5.57040000000000e-08,0.00000000000000e+00,5.00000000000000e-01,2.17905924098278e-04
5.61226191562435e-08,0.00000000000000e+00,5.00000000000000e-01,-1.11546958576786e-04
5.68075967615026e-08,0.00000000000000e+00,5.00000000000000e-01,5.71675073129836e-05
5.79915408504916e-08,0.00000000000000e+00,5.00000000000000e-01,2.69192698754512e-05
5.94425857550428e-08,0.00000000000000e+00,5.00000000000000e-01,-7.06365073131323e-05
6.23446755641452e-08,0.00000000000000e+00,5.00000000000000e-01,9.35824780739091e-05
6.50000000000000e-08,0.00000000000000e+00,5.00000000000000e-01,-1.07710310492265e-04
6.50100000000000e-08,4.99999999999905e-02,5.00000000000000e-01,1.03316727007863e-04
6.50300000000000e-08,1.49999999999972e-01,5.00000000000000e-01,4.11249729888381e-04
6.50700000000000e-08,3.49999999999934e-01,5.00000000000000e-01,6.26908407516023e-04
6.51000000000000e-08,4.99999999999971e-01,5.00000000000000e-01,4.96693139325106e-04
6.51080000000000e-08,5.00000000000000e-01,5.00000000000000e-01,2.91809201604321e-04
6.51240000000000e-08,5.00000000000000e-01,5.00000000000000e-01,-2.67433461028081e-04
6.51560000000000e-08,5.00000000000000e-01,5.00000000000000e-01,-1.77244757295787e-03
6.52200000000000e-08,5.00000000000000e-01,5.00000000000000e-01,-4.15682154487603e-03
6.53480000000000e-08,5.00000000000000e-01,5.00000000000000e-01,-2.41403782759302e-03
6.56040000000000e-08,5.00000000000000e-01,5.00000000000000e-01,2.54378036040352e-01
6.61159999999999e-08,5.00000000000000e-01,5.00000000000000e-01,5.12759604664142e-01
6.68513677843367e-08,5.00000000000000e-01,5.00000000000000e-01,4.91187104672061e-01
6.81074318840996e-08,5.00000000000000e-01,5.00000000000000e-01,5.09673945758338e-01
6.98377924615829e-08,5.00000000000000e-01,5.00000000000000e-01,4.91283672370455e-01
7.01000000000000e-08,5.00000000000000e-01,5.00000000000000e-01,5.07393817880153e-01
7.01100000000000e-08,5.00000000000000e-01,4.50000000000010e-01,5.04319123740557e-01
7.01300000000000e-08,5.00000000000000e-01,3.50000000000028e-01,5.00736164171504e-01
7.01700000000000e-08,5.00000000000000e-01,1.50000000000066e-01,4.99842793818553e-01
7.02000000000000e-08,5.00000000000000e-01,2.86437540353290e-14,4.99982088684101e-01
7.02080000000000e-08,5.00000000000000e-01,0.00000000000000e+00,4.99974824148429e-01
7.02240000000000e-08,5.00000000000000e-01,0.00000000000000e+00,4.99960595867132e-01
7.02560000000000e-08,5.00000000000000e-01,0.00000000000000e+00,4.99953045973240e-01
7.03200000000000e-08,5.00000000000000e-01,0.00000000000000e+00,4.99952466533393e-01
7.04480000000000e-08,5.00000000000000e-01,0.00000000000000e+00,4.99979074652979e-01
7.07040000000000e-08,5.00000000000000e-01,0.00000000000000e+00,4.99988637955726e-01
7.11252262564471e-08,5.00000000000000e-01,0.00000000000000e+00,4.99965013857004e-01
7.18242809067253e-08,5.00000000000000e-01,0.00000000000000e+00,4.99990123019859e-01
7.30730194104044e-08,5.00000000000000e-01,0.00000000000000e+00,4.99971042842322e-01
7.51000000000000e-08,5.00000000000000e-01,0.00000000000000e+00,4.99993282148042e-01
7.51100000000000e-08,4.50000000000051e-01,0.00000000000000e+00,4.99924209055519e-01
7.51300000000000e-08,3.50000000000070e-01,0.00000000000000e+00,4.99829775031640e-01
7.51700000000000e-08,1.50000000000108e-01,0.00000000000000e+00,5.00180309654237e-01
7.52000000000000e-08,6.99995617026161e-14,0.00000000000000e+00,5.01828431875354e-01
7.52080000000000e-08,0.00000000000000e+00,0.00000000000000e+00,5.02344442299074e-01
7.52240000000000e-08,0.00000000000000e+00,0.00000000000000e+00,5.03022651030619e-01
7.52560000000000e-08,0.00000000000000e+00,0.00000000000000e+00,5.03093146878794e-01
7.53200000000000e-08,0.00000000000000e+00,0.00000000000000e+00,4.97366963462292e-01
7.54480000000000e-08,0.00000000000000e+00,0.00000000000000e+00,4.86636927847001e-01
7.57040000000000e-08,0.00000000000000e+00,0.00000000000000e+00,4.97007434635445e-01
7.61122940253133e-08,0.00000000000000e+00,0.00000000000000e+00,5.01191763350674e-01
7.68072202896528e-08,0.00000000000000e+00,0.00000000000000e+00,4.98409121057922e-01
7.77077534985021e-08,0.00000000000000e+00,0.00000000000000e+00,5.00977049397101e-01
7.81000000000000e-08,0.00000000000000e+00,0.00000000000000e+00,4.99015258306059e-01
7.82801066417699e-08,0.00000000000000e+00,0.00000000000000e+00,4.99727449204356e-01
7.86403199253096e-08,0.00000000000000e+00,0.00000000000000e+00,4.99957185307498e-01
7.93607464923892e-08,0.00000000000000e+00,0.00000000000000e+00,4.99810490958269e-01
8.08015996265482e-08,0.00000000000000e+00,0.00000000000000e+00,4.99976889640563e-01
8.36833058948662e-08,0.00000000000000e+00,0.00000000000000e+00,4.99864031076912e-01
8.50000000000000e-08,0.00000000000000e+00,0.00000000000000e+00,4.99994298205366e-01
8.50100000000000e-08,4.99999999999905e-02,0.00000000000000e+00,5.00069313181147e-01
8.50300000000000e-08,1.49999999999972e-01,0.00000000000000e+00,5.00135614144951e-01
8.50700000000000e-08,3.49999999999934e-01,0.00000000000000e+00,5.00039479714179e-01
8.51000000000000e-08,4.99999999999971e-01,0.00000000000000e+00,4.99895165727124e-01
8.51080000000000e-08,5.00000000000000e-01,0.00000000000000e+00,4.99823465402687e-01
8.51240000000000e-08,5.00000000000000e-01,0.00000000000000e+00,4.99730378022976e-01
8.51560000000000e-08,5.00000000000000e-01,0.00000000000000e+00,4.99682748698587e-01
8.52200000000000e-08,5.00000000000000e-01,0.00000000000000e+00,4.99761352564155e-01
8.53480000000000e-08,5.00000000000000e-01,0.00000000000000e+00,5.00239356347025e-01
8.56040000000000e-08,5.00000000000000e-01,0.00000000000000e+00,5.22220773025650e-01
8.61159999999999e-08,5.00000000000000e-01,0.00000000000000e+00,1.12227448764125e-01
8.67465481071207e-08,5.00000000000000e-01,0.00000000000000e+00,-5.23035219824388e-02
8.77324457608483e-08,5.00000000000000e-01,0.00000000000000e+00,4.99510044161258e-02
8.91889146979458e-08,5.00000000000000e-01,0.00000000000000e+00,-3.64586824714532e-02
9.00000000000000e-08,5.00000000000000e-01,0.00000000000000e+00,3.11480282036707e-02
9.00100000000000e-08,5.00000000000000e-01,4.99999999999905e-02,2.60782500576014e-02
9.00300000000000e-08,5.00000000000000e-01,1.49999999999972e-01,1.79379059250712e-02
9.00700000000000e-08,5.00000000000000e-01,3.49999999999934e-01,8.60223867057612e-03
9.01000000000000e-08,5.00000000000000e-01,4.99999999999971e-01,5.00890927819491e-03
9.01080000000000e-08,5.00000000000000e-01,5.00000000000000e-01,4.39032514636219e-03
9.01240000000000e-08,5.00000000000000e-01,5.00000000000000e-01,3.15049740232028e-03
9.01560000000000e-08,5.00000000000000e-01,5.00000000000000e-01,1.78050450273189e-03
9.02200000000000e-08,5.00000000000000e-01,5.00000000000000e-01,4.72021556145098e-04
9.03480000000000e-08,5.00000000000000e-01,5.00000000000000e-01,-2.44132259295121e-05
9.06040000000000e-08,5.00000000000000e-01,5.00000000000000e-01,5.72028561479643e-06
9.11159999999999e-08,5.00000000000000e-01,5.00000000000000e-01,-3.13287928851123e-06
9.21399999999999e-08,5.00000000000000e-01,5.00000000000000e-01,1.27991377634872e-06
9.41879999999998e-08,5.00000000000000e-01,5.00000000000000e-01,-1.21124656733088e-06
9.51000000000000e-08,5.00000000000000e-01,5.00000000000000e-01,-1.06731447208942e-07
9.51100000000000e-08,4.50000000000051e-01,5.00000000000000e-01,-7.40951535873197e-05
9.51300000000000e-08,3.50000000000070e-01,5.00000000000000e-01,-1.78896496016968e-04
9.51700000000000e-08,1.50000000000108e-01,5.00000000000000e-01,-1.95436586743862e-04
9.52000000000000e-08,6.99995617026161e-14,5.00000000000000e-01,9.96758269081466e-05
9.52080000000000e-08,0.00000000000000e+00,5.00000000000000e-01,2.72083329515380e-04
9.52240000000000e-08,0.00000000000000e+00,5.00000000000000e-01,4.71600020869010e-04
9.52560000000000e-08,0.00000000000000e+00,5.00000000000000e-01,4.25754729427887e-04
9.53200000000000e-08,0.00000000000000e+00,5.00000000000000e-01,-4.00456259331612e-04
9.54480000000000e-08,0.00000000000000e+00,5.00000000000000e-01,-1.43735431694274e-03
9.57040000000000e-08,0.00000000000000e+00,5.00000000000000e-01,2.17906550080554e-04
9.61226126335203e-08,0.00000000000000e+00,5.00000000000000e-01,-1.11541600833327e-04
9.68075859953951e-08,0.00000000000000e+00,5.00000000000000e-01,5.71605852806197e-05
9.79914968934221e-08,0.00000000000000e+00,5.00000000000000e-01,2.69289905200278e-05
9.94425360672586e-08,0.00000000000000e+00,5.00000000000000e-01,-7.06464233555257e-05
1.02344614414931e-07,0.00000000000000e+00,5.00000000000000e-01,9.35923083420762e-05
1.05000000000000e-07,0.00000000000000e+00,5.00000000000000e-01,-1.07719672027072e-04
1.05010000000000e-07,4.99999999999905e-02,5.00000000000000e-01,1.03310507468299e-04
1.05030000000000e-07,1.49999999999972e-01,5.00000000000000e-01,4.11247215141408e-04
1.05070000000000e-07,3.49999999999934e-01,5.00000000000000e-01,6.26907771191336e-04
1.05100000000000e-07,4.99999999999971e-01,5.00000000000000e-01,4.96693936771146e-04
1.05108000000000e-07,5.00000000000000e-01,5.00000000000000e-01,2.91810816617090e-04
1.05124000000000e-07,5.00000000000000e-01,5.00000000000000e-01,-2.67430161836273e-04
1.05156000000000e-07,5.00000000000000e-01,5.00000000000000e-01,-1.77244318882308e-03
1.05220000000000e-07,5.00000000000000e-01,5.00000000000000e-01,-4.15681936372019e-03
1.05348000000000e-07,5.00000000000000e-01,5.00000000000000e-01,-2.41404567237452e-03
1.05604000000000e-07,5.00000000000000e-01,5.00000000000000e-01,2.54377959118648e-01
1.06116000000000e-07,5.00000000000000e-01,5.00000000000000e-01,5.12759595446900e-01
1.06851367895628e-07,5.00000000000000e-01,5.00000000000000e-01,4.91187111974036e-01
1.08107431889031e-07,5.00000000000000e-01,5.00000000000000e-01,5.09673938749956e-01
1.09837792545493e-07,5.00000000000000e-01,5.00000000000000e-01,4.91283679136979e-01
1.10100000000000e-07,5.00000000000000e-01,5.00000000000000e-01,5.07393812304111e-01
1.10110000000000e-07,5.00000000000000e-01,4.50000000000076e-01,5.04319120427660e-01
1.10130000000000e-07,5.00000000000000e-01,3.50000000000095e-01,5.00736163573592e-01
1.10170000000000e-07,5.00000000000000e-01,1.50000000000133e-01,4.99842793940598e-01
