Time,v(clk),v(data),v(out)
1.00000000000000e-08,5.00000000000000e-01,0.00000000000000e+00,5.45498902044042e-07
1.00100000000000e-08,5.00000000000000e-01,4.99999999999988e-02,-3.36637645953486e-08
1.00300000000000e-08,5.00000000000000e-01,1.49999999999996e-01,-7.32689405487374e-07
1.00700000000000e-08,5.00000000000000e-01,3.49999999999992e-01,-3.51866222686459e-06
1.01000000000000e-08,5.00000000000000e-01,4.99999999999996e-01,-6.86199016782657e-06
1.01080000000000e-08,5.00000000000000e-01,5.00000000000000e-01,-7.66373586141844e-06
1.01240000000000e-08,5.00000000000000e-01,5.00000000000000e-01,-8.82397881195318e-06
1.01560000000000e-08,5.00000000000000e-01,5.00000000000000e-01,-5.18413891528735e-06
1.02200000000000e-08,5.00000000000000e-01,5.00000000000000e-01,2.79164450415342e-06
1.03480000000000e-08,5.00000000000000e-01,5.00000000000000e-01,9.03636064399083e-06
1.06040000000000e-08,5.00000000000000e-01,5.00000000000000e-01,1.73399188894974e-06
1.11160000000000e-08,5.00000000000000e-01,5.00000000000000e-01,5.33018688038400e-06
1.21400000000000e-08,5.00000000000000e-01,5.00000000000000e-01,3.06738600603512e-06
1.41880000000000e-08,5.00000000000000e-01,5.00000000000000e-01,4.43153364350531e-06
1.51000000000000e-08,5.00000000000000e-01,5.00000000000000e-01,2.93494739265175e-06
1.51100000000000e-08,4.49999999999993e-01,5.00000000000000e-01,-8.01959169107330e-05
1.51300000000000e-08,3.49999999999995e-01,5.00000000000000e-01,-2.14062102689587e-04
1.51700000000000e-08,1.50000000000000e-01,5.00000000000000e-01,-3.06969467445899e-04
1.52000000000000e-08,0.00000000000000e+00,5.00000000000000e-01,-6.21209430764769e-05
1.52080000000000e-08,0.00000000000000e+00,5.00000000000000e-01,1.27208727581971e-04
1.52240000000000e-08,0.00000000000000e+00,5.00000000000000e-01,3.97241808549734e-04
1.52560000000000e-08,0.00000000000000e+00,5.00000000000000e-01,5.51912194279115e-04
1.53200000000000e-08,0.00000000000000e+00,5.00000000000000e-01,3.76076897226352e-04
1.54480000000000e-08,0.00000000000000e+00,5.00000000000000e-01,-1.60151680207096e-04
1.57040000000000e-08,0.00000000000000e+00,5.00000000000000e-01,-2.06161195692629e-04
1.62160000000000e-08,0.00000000000000e+00,5.00000000000000e-01,8.70773046552469e-05
1.69769466348442e-08,0.00000000000000e+00,5.00000000000000e-01,-1.07454388699959e-04
1.80861708648521e-08,0.00000000000000e+00,5.00000000000000e-01,1.83105898363361e-04
2.03046193248677e-08,0.00000000000000e+00,5.00000000000000e-01,-1.95965059398984e-04
2.29561046890177e-08,0.00000000000000e+00,5.00000000000000e-01,2.03650323825087e-04
2.50000000000000e-08,0.00000000000000e+00,5.00000000000000e-01,-2.00375322417905e-04
2.50100000000000e-08,4.99999999999905e-02,5.00000000000000e-01,-3.38939001846492e-05
2.50300000000000e-08,1.50000000000005e-01,5.00000000000000e-01,2.50700030721536e-04
2.50700000000000e-08,3.50000000000000e-01,5.00000000000000e-01,5.75580829507212e-04
2.51000000000000e-08,5.00000000000000e-01,5.00000000000000e-01,5.86296281039206e-04
2.51080000000000e-08,5.00000000000000e-01,5.00000000000000e-01,4.64288784933882e-04
2.51240000000000e-08,5.00000000000000e-01,5.00000000000000e-01,1.68019411827453e-04
2.51560000000000e-08,5.00000000000000e-01,5.00000000000000e-01,-7.14788426959129e-04
2.52200000000000e-08,5.00000000000000e-01,5.00000000000000e-01,-2.66196936438939e-03
2.53480000000000e-08,5.00000000000000e-01,5.00000000000000e-01,-5.05595733427157e-03
2.56040000000000e-08,5.00000000000000e-01,5.00000000000000e-01,3.81087874047059e-02
2.61160000000000e-08,5.00000000000000e-01,5.00000000000000e-01,4.35690694507099e-01
2.71400000000000e-08,5.00000000000000e-01,5.00000000000000e-01,5.16146352302933e-01
2.82488420539454e-08,5.00000000000000e-01,5.00000000000000e-01,4.82714855964137e-01
3.01000000000000e-08,5.00000000000000e-01,5.00000000000000e-01,5.14544236957019e-01
3.01100000000000e-08,5.00000000000000e-01,4.50000000000026e-01,5.09740715851138e-01
3.01300000000000e-08,5.00000000000000e-01,3.50000000000012e-01,5.03301175078844e-01
3.01700000000000e-08,5.00000000000000e-01,1.50000000000017e-01,5.00064896482700e-01
3.02000000000000e-08,5.00000000000000e-01,1.21014309684142e-14,5.00072412124205e-01
3.02080000000000e-08,5.00000000000000e-01,0.00000000000000e+00,5.00056322516586e-01
3.02240000000000e-08,5.00000000000000e-01,0.00000000000000e+00,5.00027147179573e-01
3.02560000000000e-08,5.00000000000000e-01,0.00000000000000e+00,5.00002592431681e-01
3.03200000000000e-08,5.00000000000000e-01,0.00000000000000e+00,4.99989729219805e-01
3.04480000000000e-08,5.00000000000000e-01,0.00000000000000e+00,4.99972022186293e-01
3.07040000000000e-08,5.00000000000000e-01,0.00000000000000e+00,4.99992580188939e-01
3.11748119184207e-08,5.00000000000000e-01,0.00000000000000e+00,4.99974685470456e-01
3.19514185046125e-08,5.00000000000000e-01,0.00000000000000e+00,4.99978250338633e-01
3.30601352312669e-08,5.00000000000000e-01,0.00000000000000e+00,4.99983838195141e-01
3.51000000000000e-08,4.99999999999975e-01,0.00000000000000e+00,4.99978524804151e-01
3.51100000000000e-08,4.49999999999985e-01,0.00000000000000e+00,4.99895759377073e-01
3.51300000000000e-08,3.49999999999971e-01,0.00000000000000e+00,4.99785320334255e-01
3.51700000000000e-08,1.49999999999975e-01,0.00000000000000e+00,5.00051295798403e-01
3.52000000000000e-08,0.00000000000000e+00,0.00000000000000e+00,5.01509231522003e-01
3.52080000000000e-08,0.00000000000000e+00,0.00000000000000e+00,5.02020730213348e-01
3.52240000000000e-08,0.00000000000000e+00,0.00000000000000e+00,5.02748677839904e-01
3.52560000000000e-08,0.00000000000000e+00,0.00000000000000e+00,5.03270855547510e-01
3.53200000000000e-08,0.00000000000000e+00,0.00000000000000e+00,5.01874956415031e-01
3.54480000000000e-08,0.00000000000000e+00,0.00000000000000e+00,4.89972253477979e-01
3.57040000000000e-08,0.00000000000000e+00,0.00000000000000e+00,4.89763764003954e-01
3.61754794155307e-08,0.00000000000000e+00,0.00000000000000e+00,5.03069114735067e-01
3.68219154130732e-08,0.00000000000000e+00,0.00000000000000e+00,4.96641428002755e-01
3.81147874081583e-08,0.00000000000000e+00,0.00000000000000e+00,5.02311492211657e-01
3.91000000000000e-08,0.00000000000000e+00,0.00000000000000e+00,4.97680485936683e-01
3.92568920095737e-08,0.00000000000000e+00,0.00000000000000e+00,4.99365606495110e-01
3.95706760287210e-08,0.00000000000000e+00,0.00000000000000e+00,5.00114947948544e-01
4.01982440670157e-08,0.00000000000000e+00,0.00000000000000e+00,4.99660749165064e-01
4.14533801436050e-08,0.00000000000000e+00,0.00000000000000e+00,5.00062571811263e-01
4.39636522967837e-08,0.00000000000000e+00,0.00000000000000e+00,4.99749677936565e-01
4.50000000000000e-08,0.00000000000000e+00,0.00000000000000e+00,5.00057947836414e-01
4.50100000000000e-08,4.99999999999905e-02,0.00000000000000e+00,5.00128053577060e-01
4.50300000000000e-08,1.50000000000005e-01,0.00000000000000e+00,5.00201656914902e-01
4.50700000000000e-08,3.50000000000000e-01,0.00000000000000e+00,5.00130357870831e-01
4.51000000000000e-08,5.00000000000000e-01,0.00000000000000e+00,4.99979399362752e-01
4.51080000000000e-08,5.00000000000000e-01,0.00000000000000e+00,4.99894271934421e-01
4.51240000000000e-08,5.00000000000000e-01,0.00000000000000e+00,4.99768444868184e-01
4.51560000000000e-08,5.00000000000000e-01,0.00000000000000e+00,4.99684165377115e-01
4.52200000000000e-08,5.00000000000000e-01,0.00000000000000e+00,4.99696271720875e-01
4.53480000000000e-08,5.00000000000000e-01,0.00000000000000e+00,4.99830808445023e-01
4.56040000000000e-08,5.00000000000000e-01,0.00000000000000e+00,5.01839996083666e-01
4.61160000000000e-08,5.00000000000000e-01,0.00000000000000e+00,2.80084899657385e-01
4.71400000000000e-08,5.00000000000000e-01,0.00000000000000e+00,-3.65567271901990e-02
4.82153775827730e-08,5.00000000000000e-01,0.00000000000000e+00,3.31955546921188e-02
5.00000000000000e-08,5.00000000000000e-01,0.00000000000000e+00,-2.09737789258308e-02
5.00100000000000e-08,5.00000000000000e-01,4.99999999999905e-02,-1.95958636132026e-02
5.00300000000000e-08,5.00000000000000e-01,1.49999999999972e-01,-1.64247270135596e-02
5.00700000000000e-08,5.00000000000000e-01,3.50000000000000e-01,-1.03292731327030e-02
5.01000000000000e-08,5.00000000000000e-01,5.00000000000000e-01,-7.22846209335619e-03
5.01080000000000e-08,5.00000000000000e-01,5.00000000000000e-01,-6.60345135594809e-03
5.01240000000000e-08,5.00000000000000e-01,5.00000000000000e-01,-5.45729364943108e-03
5.01560000000000e-08,5.00000000000000e-01,5.00000000000000e-01,-3.70625055280094e-03
5.02200000000000e-08,5.00000000000000e-01,5.00000000000000e-01,-1.66390272298698e-03
5.03480000000000e-08,5.00000000000000e-01,5.00000000000000e-01,-2.26620321246714e-04
5.06040000000000e-08,5.00000000000000e-01,5.00000000000000e-01,4.53264944230286e-05
5.11160000000001e-08,5.00000000000000e-01,5.00000000000000e-01,-2.42605352163347e-05
5.21400000000002e-08,5.00000000000000e-01,5.00000000000000e-01,1.93630916979545e-05
5.41880000000003e-08,5.00000000000000e-01,5.00000000000000e-01,-1.38494161714166e-05
5.51000000000000e-08,5.00000000000000e-01,5.00000000000000e-01,1.23171752630692e-05
5.51100000000000e-08,4.50000000000018e-01,5.00000000000000e-01,-7.21879059253916e-05
5.51300000000000e-08,3.50000000000004e-01,5.00000000000000e-01,-2.04407130409076e-04
5.51700000000000e-08,1.50000000000008e-01,5.00000000000000e-01,-3.03069549423308e-04
5.52000000000000e-08,0.00000000000000e+00,5.00000000000000e-01,-6.10203843854282e-05
5.52080000000000e-08,0.00000000000000e+00,5.00000000000000e-01,1.27612025709392e-04
5.52240000000000e-08,0.00000000000000e+00,5.00000000000000e-01,3.96079304138056e-04
5.52560000000000e-08,0.00000000000000e+00,5.00000000000000e-01,5.55506750964996e-04
5.53200000000000e-08,0.00000000000000e+00,5.00000000000000e-01,3.13534009091086e-04
5.54480000000000e-08,0.00000000000000e+00,5.00000000000000e-01,-5.51260935662622e-04
5.57040000000000e-08,0.00000000000000e+00,5.00000000000000e-01,-3.50069510393507e-04
5.62160000000000e-08,0.00000000000000e+00,5.00000000000000e-01,2.06757495397999e-04
5.69763785961831e-08,0.00000000000000e+00,5.00000000000000e-01,-2.10635767320588e-04
5.80859003284274e-08,0.00000000000000e+00,5.00000000000000e-01,2.72554828682287e-04
6.03049437929162e-08,0.00000000000000e+00,5.00000000000000e-01,-2.81235670524814e-04
6.29554239871840e-08,0.00000000000000e+00,5.00000000000000e-01,2.83875077810360e-04
6.50000000000000e-08,0.00000000000000e+00,5.00000000000000e-01,-2.77000931501476e-04
6.50100000000000e-08,4.99999999999905e-02,5.00000000000000e-01,-9.14421802108295e-05
6.50300000000000e-08,1.49999999999972e-01,5.00000000000000e-01,2.20701098529223e-04
6.50700000000000e-08,3.49999999999934e-01,5.00000000000000e-01,5.62910136564850e-04
6.51000000000000e-08,4.99999999999971e-01,5.00000000000000e-01,5.80491115600316e-04
6.51080000000000e-08,5.00000000000000e-01,5.00000000000000e-01,4.59266502966217e-04
6.51240000000000e-08,5.00000000000000e-01,5.00000000000000e-01,1.64332610294783e-04
6.51560000000000e-08,5.00000000000000e-01,5.00000000000000e-01,-7.16671629106193e-04
6.52200000000000e-08,5.00000000000000e-01,5.00000000000000e-01,-2.66235133483487e-03
6.53480000000000e-08,5.00000000000000e-01,5.00000000000000e-01,-5.05581026757738e-03
6.56040000000000e-08,5.00000000000000e-01,5.00000000000000e-01,3.81124990822975e-02
6.61159999999999e-08,5.00000000000000e-01,5.00000000000000e-01,4.35693415692310e-01
6.71399999999999e-08,5.00000000000000e-01,5.00000000000000e-01,5.16145926898396e-01
6.82488489826359e-08,5.00000000000000e-01,5.00000000000000e-01,4.82715282571335e-01
7.01000000000000e-08,5.00000000000000e-01,5.00000000000000e-01,5.14543861759175e-01
7.01100000000000e-08,5.00000000000000e-01,4.50000000000010e-01,5.09740467227424e-01
7.01300000000000e-08,5.00000000000000e-01,3.50000000000028e-01,5.03301093995658e-01
7.01700000000000e-08,5.00000000000000e-01,1.50000000000066e-01,5.00064900888515e-01
7.02000000000000e-08,5.00000000000000e-01,2.86437540353290e-14,5.00072414671424e-01
7.02080000000000e-08,5.00000000000000e-01,0.00000000000000e+00,5.00056325898456e-01
7.02240000000000e-08,5.00000000000000e-01,0.00000000000000e+00,5.00027151753097e-01
7.02560000000000e-08,5.00000000000000e-01,0.00000000000000e+00,5.00002597125164e-01
7.03200000000000e-08,5.00000000000000e-01,0.00000000000000e+00,4.99989732507677e-01
7.04480000000000e-08,5.00000000000000e-01,0.00000000000000e+00,4.99972023811081e-01
7.07040000000000e-08,5.00000000000000e-01,0.00000000000000e+00,4.99992578965767e-01
7.11748151124705e-08,5.00000000000000e-01,0.00000000000000e+00,4.99974686787145e-01
7.19514179717955e-08,5.00000000000000e-01,0.00000000000000e+00,4.99978249570229e-01
7.30601438848026e-08,5.00000000000000e-01,0.00000000000000e+00,4.99983839219589e-01
7.51000000000000e-08,5.00000000000000e-01,0.00000000000000e+00,4.99978524040365e-01
7.51100000000000e-08,4.50000000000051e-01,0.00000000000000e+00,4.99895759666191e-01
7.51300000000000e-08,3.50000000000070e-01,0.00000000000000e+00,4.99785321649428e-01
7.51700000000000e-08,1.50000000000108e-01,0.00000000000000e+00,5.00051296520198e-01
7.52000000000000e-08,6.99995617026161e-14,0.00000000000000e+00,5.01509231883845e-01
7.52080000000000e-08,0.00000000000000e+00,0.00000000000000e+00,5.02020730967258e-01
7.52240000000000e-08,0.00000000000000e+00,0.00000000000000e+00,5.02748679043768e-01
7.52560000000000e-08,0.00000000000000e+00,0.00000000000000e+00,5.03270857651470e-01
7.53200000000000e-08,0.00000000000000e+00,0.00000000000000e+00,5.01874966784530e-01
7.54480000000000e-08,0.00000000000000e+00,0.00000000000000e+00,4.89972273199304e-01
7.57040000000000e-08,0.00000000000000e+00,0.00000000000000e+00,4.89763762820622e-01
7.61754794044149e-08,0.00000000000000e+00,0.00000000000000e+00,5.03069112079661e-01
7.68219154035145e-08,0.00000000000000e+00,0.00000000000000e+00,4.96641430314652e-01
7.81000000000000e-08,0.00000000000000e+00,0.00000000000000e+00,5.02306394997298e-01
7.82292871998199e-08,0.00000000000000e+00,0.00000000000000e+00,5.00399233908285e-01
7.84878615994597e-08,0.00000000000000e+00,0.00000000000000e+00,4.99483764586343e-01
7.90050103987394e-08,0.00000000000000e+00,0.00000000000000e+00,5.00051854258870e-01
8.00393079972986e-08,0.00000000000000e+00,0.00000000000000e+00,4.99668677962155e-01
8.21079031944171e-08,0.00000000000000e+00,0.00000000000000e+00,5.00071083285826e-01
8.50000000000000e-08,0.00000000000000e+00,0.00000000000000e+00,4.99755325729372e-01
8.50100000000000e-08,4.99999999999905e-02,0.00000000000000e+00,4.99872329403842e-01
8.50300000000000e-08,1.49999999999972e-01,0.00000000000000e+00,5.00030486145559e-01
8.50700000000000e-08,3.49999999999934e-01,0.00000000000000e+00,5.00066592842473e-01
8.51000000000000e-08,4.99999999999971e-01,0.00000000000000e+00,4.99965161256682e-01
8.51080000000000e-08,5.00000000000000e-01,0.00000000000000e+00,4.99894074231241e-01
8.51240000000000e-08,5.00000000000000e-01,0.00000000000000e+00,4.99790053876354e-01
8.51560000000000e-08,5.00000000000000e-01,0.00000000000000e+00,4.99685595268731e-01
8.52200000000000e-08,5.00000000000000e-01,0.00000000000000e+00,4.99686512073413e-01
8.53480000000000e-08,5.00000000000000e-01,0.00000000000000e+00,4.99821183552611e-01
8.56040000000000e-08,5.00000000000000e-01,0.00000000000000e+00,5.01845274147564e-01
8.61159999999999e-08,5.00000000000000e-01,0.00000000000000e+00,2.80089661779287e-01
8.71399999999999e-08,5.00000000000000e-01,0.00000000000000e+00,-3.65568534936333e-02
8.82152701580607e-08,5.00000000000000e-01,0.00000000000000e+00,3.31962078584495e-02
9.00000000000000e-08,5.00000000000000e-01,0.00000000000000e+00,-2.09736879156305e-02
9.00100000000000e-08,5.00000000000000e-01,4.99999999999905e-02,-1.95949465338119e-02
9.00300000000000e-08,5.00000000000000e-01,1.49999999999972e-01,-1.64244113229120e-02
9.00700000000000e-08,5.00000000000000e-01,3.49999999999934e-01,-1.03291185857645e-02
9.01000000000000e-08,5.00000000000000e-01,4.99999999999971e-01,-7.22836945148315e-03
9.01080000000000e-08,5.00000000000000e-01,5.00000000000000e-01,-6.60336680634485e-03
9.01240000000000e-08,5.00000000000000e-01,5.00000000000000e-01,-5.45722406813379e-03
9.01560000000000e-08,5.00000000000000e-01,5.00000000000000e-01,-3.70620443723956e-03
9.02200000000000e-08,5.00000000000000e-01,5.00000000000000e-01,-1.66388371242925e-03
9.03480000000000e-08,5.00000000000000e-01,5.00000000000000e-01,-2.26618167136101e-04
9.06040000000000e-08,5.00000000000000e-01,5.00000000000000e-01,4.53265659932263e-05
9.11159999999999e-08,5.00000000000000e-01,5.00000000000000e-01,-2.42603055704491e-05
9.21399999999999e-08,5.00000000000000e-01,5.00000000000000e-01,1.93629576984052e-05
9.41879999999998e-08,5.00000000000000e-01,5.00000000000000e-01,-1.38494068868556e-05
9.51000000000000e-08,5.00000000000000e-01,5.00000000000000e-01,1.23171942020932e-05
9.51100000000000e-08,4.50000000000051e-01,5.00000000000000e-01,-7.21873172670404e-05
9.51300000000000e-08,3.50000000000070e-01,5.00000000000000e-01,-2.04407265087546e-04
9.51700000000000e-08,1.50000000000108e-01,5.00000000000000e-01,-3.03069870235442e-04
9.52000000000000e-08,6.99995617026161e-14,5.00000000000000e-01,-6.10206431426522e-05
9.52080000000000e-08,0.00000000000000e+00,5.00000000000000e-01,1.27611782165374e-04
9.52240000000000e-08,0.00000000000000e+00,5.00000000000000e-01,3.96079080039732e-04
9.52560000000000e-08,0.00000000000000e+00,5.00000000000000e-01,5.55506433601430e-04
9.53200000000000e-08,0.00000000000000e+00,5.00000000000000e-01,3.13532020025695e-04
9.54480000000000e-08,0.00000000000000e+00,5.00000000000000e-01,-5.51283539523890e-04
9.57040000000000e-08,0.00000000000000e+00,5.00000000000000e-01,-3.50080316251850e-04
9.62159999999999e-08,0.00000000000000e+00,5.00000000000000e-01,2.06765567018173e-04
9.69763786140495e-08,0.00000000000000e+00,5.00000000000000e-01,-2.10642410130761e-04
9.80859003447758e-08,0.00000000000000e+00,5.00000000000000e-01,2.72560545188634e-04
1.00304943806229e-07,0.00000000000000e+00,5.00000000000000e-01,-2.81241076445173e-04
1.02955424118601e-07,0.00000000000000e+00,5.00000000000000e-01,2.83880147314249e-04
1.05000000000000e-07,0.00000000000000e+00,5.00000000000000e-01,-2.77005685088730e-04
1.05010000000000e-07,4.99999999999905e-02,5.00000000000000e-01,-9.14455667022293e-05
1.05030000000000e-07,1.49999999999972e-01,5.00000000000000e-01,2.20699342535519e-04
1.05070000000000e-07,3.49999999999934e-01,5.00000000000000e-01,5.62909340077404e-04
1.05100000000000e-07,4.99999999999971e-01,5.00000000000000e-01,5.80490732654725e-04
1.05108000000000e-07,5.00000000000000e-01,5.00000000000000e-01,4.59266172218621e-04
1.05124000000000e-07,5.00000000000000e-01,5.00000000000000e-01,1.64332379532985e-04
1.05156000000000e-07,5.00000000000000e-01,5.00000000000000e-01,-7.16671725102598e-04
1.05220000000000e-07,5.00000000000000e-01,5.00000000000000e-01,-2.66235133092225e-03
1.05348000000000e-07,5.00000000000000e-01,5.00000000000000e-01,-5.05581025301841e-03
1.05604000000000e-07,5.00000000000000e-01,5.00000000000000e-01,3.81124984995291e-02
1.06116000000000e-07,5.00000000000000e-01,5.00000000000000e-01,4.35693415267933e-01
1.07140000000000e-07,5.00000000000000e-01,5.00000000000000e-01,5.16145926963072e-01
1.08248848981524e-07,5.00000000000000e-01,5.00000000000000e-01,4.82715282534287e-01
1.10100000000000e-07,5.00000000000000e-01,5.00000000000000e-01,5.14543861800613e-01
1.10110000000000e-07,5.00000000000000e-01,4.50000000000076e-01,5.09740467256754e-01
1.10130000000000e-07,5.00000000000000e-01,3.50000000000095e-01,5.03301094005028e-01
1.10170000000000e-07,5.00000000000000e-01,1.50000000000133e-01,5.00064900887491e-01
1.10200000000000e-07,5.00000000000000e-01,9.48130463029884e-14,5.00072414670789e-01
1.10208000000000e-07,5.00000000000000e-01,0.00000000000000e+00,5.00056325897741e-01
1.10224000000000e-07,5.00000000000000e-01,0.00000000000000e+00,5.00027151752196e-01
1.10256000000000e-07,5.00000000000000e-01,0.00000000000000e+00,5.00002597124283e-01
1.10320000000000e-07,5.00000000000000e-01,0.00000000000000e+00,4.99989732507205e-01
