Time,v(clk),v(data),v(out)
1.00000000000000e-08,6.00000000000000e-01,0.00000000000000e+00,2.47879969367307e-05
1.00100000000000e-08,6.00000000000000e-01,5.99999999999986e-02,1.79191643484844e-05
1.00300000000000e-08,6.00000000000000e-01,1.79999999999996e-01,9.44216750190657e-06
1.00700000000000e-08,6.00000000000000e-01,4.19999999999990e-01,2.90098931212540e-06
1.01000000000000e-08,6.00000000000000e-01,5.99999999999995e-01,-6.76214732271696e-07
1.01080000000000e-08,6.00000000000000e-01,6.00000000000000e-01,-3.05815050297142e-07
1.01240000000000e-08,6.00000000000000e-01,6.00000000000000e-01,8.55038211941550e-07
1.01560000000000e-08,6.00000000000000e-01,6.00000000000000e-01,4.38866381868852e-06
1.02200000000000e-08,6.00000000000000e-01,6.00000000000000e-01,6.09366406967293e-06
1.03480000000000e-08,6.00000000000000e-01,6.00000000000000e-01,1.57824653825717e-06
1.06040000000000e-08,6.00000000000000e-01,6.00000000000000e-01,3.67409398497470e-06
1.11160000000000e-08,6.00000000000000e-01,6.00000000000000e-01,2.71182412774768e-06
1.21400000000000e-08,6.00000000000000e-01,6.00000000000000e-01,3.04878125233308e-06
1.41880000000000e-08,6.00000000000000e-01,6.00000000000000e-01,2.31114226784644e-06
1.51000000000000e-08,6.00000000000000e-01,6.00000000000000e-01,2.49772226486658e-06
1.51100000000000e-08,5.39999999999992e-01,6.00000000000000e-01,-5.22167520678116e-05
1.51300000000000e-08,4.19999999999994e-01,6.00000000000000e-01,-1.24095893310763e-04
1.51700000000000e-08,1.80000000000000e-01,6.00000000000000e-01,-8.60908065992844e-05
1.52000000000000e-08,0.00000000000000e+00,6.00000000000000e-01,1.42005829458072e-04
1.52080000000000e-08,0.00000000000000e+00,6.00000000000000e-01,2.50406606738522e-04
1.52240000000000e-08,0.00000000000000e+00,6.00000000000000e-01,3.59282330221901e-04
1.52560000000000e-08,0.00000000000000e+00,6.00000000000000e-01,2.41442512228990e-04
1.53200000000000e-08,0.00000000000000e+00,6.00000000000000e-01,-1.38963332692338e-04
1.54480000000000e-08,0.00000000000000e+00,6.00000000000000e-01,-1.85108729845517e-04
1.57040000000000e-08,0.00000000000000e+00,6.00000000000000e-01,-4.90671771359811e-05
1.61185553975091e-08,0.00000000000000e+00,6.00000000000000e-01,4.22807125410440e-05
1.66551235901634e-08,0.00000000000000e+00,6.00000000000000e-01,9.87146449013456e-05
1.77249979613066e-08,0.00000000000000e+00,6.00000000000000e-01,-1.41207785138368e-04
1.90241331786108e-08,0.00000000000000e+00,6.00000000000000e-01,1.61594716109746e-04
2.15507118939713e-08,0.00000000000000e+00,6.00000000000000e-01,-1.65734760363814e-04
2.50000000000000e-08,0.00000000000000e+00,6.00000000000000e-01,1.71182993974706e-04
2.50100000000000e-08,5.99999999999886e-02,6.00000000000000e-01,2.22217909747469e-04
2.50300000000000e-08,1.80000000000006e-01,6.00000000000000e-01,2.97103426492272e-04
2.50700000000000e-08,4.20000000000000e-01,6.00000000000000e-01,3.27531143143038e-04
2.51000000000000e-08,6.00000000000000e-01,6.00000000000000e-01,-4.88006766311347e-04
2.51080000000000e-08,6.00000000000000e-01,6.00000000000000e-01,-1.05938116853022e-03
2.51240000000000e-08,6.00000000000000e-01,6.00000000000000e-01,-2.26639955092699e-03
2.51560000000000e-08,6.00000000000000e-01,6.00000000000000e-01,-4.26623750514350e-03
2.52200000000000e-08,6.00000000000000e-01,6.00000000000000e-01,-3.84592189584789e-03
2.53480000000000e-08,6.00000000000000e-01,6.00000000000000e-01,1.65141231719326e-01
2.56040000000000e-08,6.00000000000000e-01,6.00000000000000e-01,5.79958445366888e-01
2.61160000000000e-08,6.00000000000000e-01,6.00000000000000e-01,6.06709685240307e-01
2.67056314359830e-08,6.00000000000000e-01,6.00000000000000e-01,5.93222210426596e-01
2.77114029153544e-08,6.00000000000000e-01,6.00000000000000e-01,6.05434282718603e-01
2.90185264801661e-08,6.00000000000000e-01,6.00000000000000e-01,5.94332817949162e-01
3.16327736097895e-08,6.00000000000000e-01,6.00000000000000e-01,6.05016534807264e-01
3.51000000000000e-08,5.99999999999970e-01,6.00000000000000e-01,5.94664549856298e-01
3.51100000000000e-08,5.39999999999982e-01,6.00000000000000e-01,5.96613182760843e-01
3.51300000000000e-08,4.19999999999965e-01,6.00000000000000e-01,5.99007877600289e-01
3.51700000000000e-08,1.79999999999970e-01,6.00000000000000e-01,6.00371973339291e-01
3.52000000000000e-08,0.00000000000000e+00,6.00000000000000e-01,6.01899702363211e-01
3.52080000000000e-08,0.00000000000000e+00,6.00000000000000e-01,6.02301783605355e-01
3.52240000000000e-08,0.00000000000000e+00,6.00000000000000e-01,6.02691557299567e-01
3.52560000000000e-08,0.00000000000000e+00,6.00000000000000e-01,6.00774107786009e-01
3.53200000000000e-08,0.00000000000000e+00,6.00000000000000e-01,5.86487487721771e-01
3.54480000000000e-08,0.00000000000000e+00,6.00000000000000e-01,5.81656211975163e-01
3.57040000000000e-08,0.00000000000000e+00,6.00000000000000e-01,6.02586480726686e-01
3.61558101923087e-08,0.00000000000000e+00,6.00000000000000e-01,5.97006013284055e-01
3.67984223005212e-08,0.00000000000000e+00,6.00000000000000e-01,6.01961227188498e-01
3.80836465169460e-08,0.00000000000000e+00,6.00000000000000e-01,5.97775971979797e-01
4.06540949497957e-08,0.00000000000000e+00,6.00000000000000e-01,6.01876428312838e-01
4.44540949497957e-08,0.00000000000000e+00,6.00000000000000e-01,5.97986317094726e-01
4.50000000000000e-08,0.00000000000000e+00,6.00000000000000e-01,6.01526670005145e-01
4.50100000000000e-08,5.99999999999886e-02,6.00000000000000e-01,6.01127821748949e-01
4.50300000000000e-08,1.80000000000006e-01,6.00000000000000e-01,6.00542142548883e-01
4.50700000000000e-08,4.20000000000000e-01,6.00000000000000e-01,6.00113396269190e-01
4.51000000000000e-08,6.00000000000000e-01,6.00000000000000e-01,5.99572807598460e-01
4.51080000000000e-08,6.00000000000000e-01,5.52000000000025e-01,5.99249475887339e-01
4.51240000000000e-08,6.00000000000000e-01,4.55999999999996e-01,5.98618722548491e-01
4.51560000000000e-08,6.00000000000000e-01,2.64000000000016e-01,5.97756828870203e-01
4.52000000000000e-08,6.00000000000000e-01,3.44169137633799e-14,5.97239906256976e-01
4.52064000000000e-08,6.00000000000000e-01,0.00000000000000e+00,5.97206284852654e-01
4.52192000000000e-08,6.00000000000000e-01,0.00000000000000e+00,5.97136494504975e-01
4.52448000000000e-08,6.00000000000000e-01,0.00000000000000e+00,5.97124975521620e-01
4.52960000000000e-08,6.00000000000000e-01,0.00000000000000e+00,5.97695160081474e-01
4.53984000000000e-08,6.00000000000000e-01,0.00000000000000e+00,5.99093717601255e-01
4.56032000000000e-08,6.00000000000000e-01,0.00000000000000e+00,5.99987950324689e-01
4.58758179834104e-08,6.00000000000000e-01,0.00000000000000e+00,5.99974426309812e-01
4.63744617769377e-08,6.00000000000000e-01,0.00000000000000e+00,6.00024216661029e-01
4.71028473012357e-08,6.00000000000000e-01,0.00000000000000e+00,5.99977931594490e-01
4.85596183498318e-08,6.00000000000000e-01,0.00000000000000e+00,6.00020850970684e-01
5.11879755228571e-08,6.00000000000000e-01,0.00000000000000e+00,5.99979759443797e-01
5.49879755228571e-08,6.00000000000000e-01,0.00000000000000e+00,6.00019777870984e-01
5.51000000000000e-08,6.00000000000000e-01,0.00000000000000e+00,5.99992447583635e-01
5.51100000000000e-08,5.40000000000021e-01,0.00000000000000e+00,5.99940131374146e-01
5.51300000000000e-08,4.20000000000004e-01,0.00000000000000e+00,5.99874853074618e-01
5.51700000000000e-08,1.80000000000010e-01,0.00000000000000e+00,6.00438483526336e-01
5.52000000000000e-08,0.00000000000000e+00,0.00000000000000e+00,6.02068857971459e-01
5.52080000000000e-08,0.00000000000000e+00,0.00000000000000e+00,6.02503941393964e-01
5.52240000000000e-08,0.00000000000000e+00,0.00000000000000e+00,6.03130644705958e-01
5.52560000000000e-08,0.00000000000000e+00,0.00000000000000e+00,6.03741869832242e-01
5.53200000000000e-08,0.00000000000000e+00,0.00000000000000e+00,6.03763135346305e-01
5.54480000000000e-08,0.00000000000000e+00,0.00000000000000e+00,6.00239316386129e-01
5.56834016397432e-08,0.00000000000000e+00,0.00000000000000e+00,5.99457118410916e-01
5.59908039884641e-08,0.00000000000000e+00,0.00000000000000e+00,5.99923463307418e-01
5.66056086859058e-08,0.00000000000000e+00,0.00000000000000e+00,5.99665641805051e-01
5.72800616720883e-08,0.00000000000000e+00,0.00000000000000e+00,5.99967090954888e-01
5.86289676444533e-08,0.00000000000000e+00,0.00000000000000e+00,5.99763068401148e-01
6.13267795891833e-08,0.00000000000000e+00,0.00000000000000e+00,6.00025008652770e-01
6.50000000000000e-08,0.00000000000000e+00,0.00000000000000e+00,5.99813243989272e-01
6.50100000000000e-08,5.99999999999886e-02,0.00000000000000e+00,5.99905860856277e-01
6.50300000000000e-08,1.79999999999966e-01,0.00000000000000e+00,6.00003357593231e-01
6.50700000000000e-08,4.19999999999920e-01,0.00000000000000e+00,5.99958167772660e-01
6.51000000000000e-08,5.99999999999966e-01,0.00000000000000e+00,5.99811013141922e-01
6.51080000000000e-08,6.00000000000000e-01,0.00000000000000e+00,5.99762903657608e-01
6.51240000000000e-08,6.00000000000000e-01,0.00000000000000e+00,5.99692354515326e-01
6.51560000000000e-08,6.00000000000000e-01,0.00000000000000e+00,5.99675711005824e-01
6.52200000000000e-08,6.00000000000000e-01,0.00000000000000e+00,6.00050421885164e-01
6.53480000000000e-08,6.00000000000000e-01,0.00000000000000e+00,6.06904432881951e-01
6.56040000000000e-08,6.00000000000000e-01,0.00000000000000e+00,2.25443169162954e-01
6.60549876322424e-08,6.00000000000000e-01,0.00000000000000e+00,-7.13538014700554e-02
6.64904606626327e-08,6.00000000000000e-01,0.00000000000000e+00,6.03074360389328e-02
6.73614067234132e-08,6.00000000000000e-01,0.00000000000000e+00,-4.09080615572837e-02
6.83055779006307e-08,6.00000000000000e-01,0.00000000000000e+00,3.96580970960423e-02
7.01235497455557e-08,6.00000000000000e-01,0.00000000000000e+00,-3.15686830843255e-02
7.28778449667775e-08,6.00000000000000e-01,0.00000000000000e+00,3.35944132014641e-02
7.51000000000000e-08,6.00000000000000e-01,0.00000000000000e+00,-2.76650295754851e-02
7.51100000000000e-08,5.40000000000061e-01,0.00000000000000e+00,-2.25613656004989e-02
7.51300000000000e-08,4.20000000000084e-01,0.00000000000000e+00,-1.37021008107125e-02
7.51700000000000e-08,1.80000000000129e-01,0.00000000000000e+00,-4.21349711765321e-03
7.52000000000000e-08,8.40438829641244e-14,0.00000000000000e+00,-1.73878710463542e-03
7.52080000000000e-08,0.00000000000000e+00,0.00000000000000e+00,-1.28618766931141e-03
7.52240000000000e-08,0.00000000000000e+00,0.00000000000000e+00,-6.27226742862246e-04
7.52560000000000e-08,0.00000000000000e+00,0.00000000000000e+00,-2.51480743288596e-04
7.53200000000000e-08,0.00000000000000e+00,0.00000000000000e+00,-8.84978505515679e-04
7.54480000000000e-08,0.00000000000000e+00,0.00000000000000e+00,-5.02988357545857e-04
7.57040000000000e-08,0.00000000000000e+00,0.00000000000000e+00,3.43596073448587e-04
7.61137664094912e-08,0.00000000000000e+00,0.00000000000000e+00,-2.68347537068017e-04
7.67826157420328e-08,0.00000000000000e+00,0.00000000000000e+00,2.36239465943623e-04
7.81203144071159e-08,0.00000000000000e+00,0.00000000000000e+00,-2.16921185688326e-04
8.07957117372822e-08,0.00000000000000e+00,0.00000000000000e+00,2.12641777439340e-04
8.45957117372822e-08,0.00000000000000e+00,0.00000000000000e+00,-2.04409048987449e-04
8.50000000000000e-08,0.00000000000000e+00,0.00000000000000e+00,1.66349156522933e-04
8.50100000000000e-08,5.99999999999886e-02,0.00000000000000e+00,1.85389055850749e-04
8.50300000000000e-08,1.79999999999966e-01,0.00000000000000e+00,2.09348008519981e-04
8.50700000000000e-08,4.19999999999920e-01,0.00000000000000e+00,1.13874930824161e-04
8.51000000000000e-08,5.99999999999966e-01,0.00000000000000e+00,-1.03269290113235e-04
8.51080000000000e-08,6.00000000000000e-01,0.00000000000000e+00,-1.71918563342942e-04
8.51240000000000e-08,6.00000000000000e-01,0.00000000000000e+00,-2.49407439722203e-04
8.51560000000000e-08,6.00000000000000e-01,0.00000000000000e+00,-2.53336960403056e-04
8.52200000000000e-08,6.00000000000000e-01,0.00000000000000e+00,-9.30254612440257e-05
8.53480000000000e-08,6.00000000000000e-01,0.00000000000000e+00,5.72361258030125e-05
8.56040000000000e-08,6.00000000000000e-01,0.00000000000000e+00,3.97861269735653e-05
8.61159999999999e-08,6.00000000000000e-01,0.00000000000000e+00,-2.33676340459892e-05
8.69574413198404e-08,6.00000000000000e-01,0.00000000000000e+00,3.03211735632010e-05
8.82493653763942e-08,6.00000000000000e-01,0.00000000000000e+00,-1.97110064027220e-05
9.00000000000000e-08,6.00000000000000e-01,0.00000000000000e+00,2.55250242789805e-05
9.00100000000000e-08,6.00000000000000e-01,5.99999999999886e-02,1.80291397997648e-05
9.00300000000000e-08,6.00000000000000e-01,1.79999999999966e-01,9.21500704412909e-06
9.00700000000000e-08,6.00000000000000e-01,4.19999999999920e-01,3.04193140295006e-06
9.01000000000000e-08,6.00000000000000e-01,5.99999999999966e-01,-5.98461754562629e-07
9.01080000000000e-08,6.00000000000000e-01,6.00000000000000e-01,-2.10771940331589e-07
9.01240000000000e-08,6.00000000000000e-01,6.00000000000000e-01,8.89301620878025e-07
9.01560000000000e-08,6.00000000000000e-01,6.00000000000000e-01,4.30596469386951e-06
9.02200000000000e-08,6.00000000000000e-01,6.00000000000000e-01,5.97614535904206e-06
9.03480000000000e-08,6.00000000000000e-01,6.00000000000000e-01,1.64332040871948e-06
9.06040000000000e-08,6.00000000000000e-01,6.00000000000000e-01,3.67791645553353e-06
9.11159999999999e-08,6.00000000000000e-01,6.00000000000000e-01,2.69010247360476e-06
9.21399999999999e-08,6.00000000000000e-01,6.00000000000000e-01,3.07788518475773e-06
9.41879999999998e-08,6.00000000000000e-01,6.00000000000000e-01,2.33335347372271e-06
9.51000000000000e-08,6.00000000000000e-01,6.00000000000000e-01,2.62221152436560e-06
9.51100000000000e-08,5.40000000000061e-01,6.00000000000000e-01,-5.03183091285220e-05
9.51300000000000e-08,4.20000000000084e-01,6.00000000000000e-01,-1.23069624081686e-04
9.51700000000000e-08,1.80000000000129e-01,6.00000000000000e-01,-8.55304969948484e-05
9.52000000000000e-08,8.40438829641244e-14,6.00000000000000e-01,1.42228426332477e-04
9.52080000000000e-08,0.00000000000000e+00,6.00000000000000e-01,2.50596513337586e-04
9.52240000000000e-08,0.00000000000000e+00,6.00000000000000e-01,3.59412033874990e-04
9.52560000000000e-08,0.00000000000000e+00,6.00000000000000e-01,2.41504702584341e-04
9.53200000000000e-08,0.00000000000000e+00,6.00000000000000e-01,-1.38926526281717e-04
9.54480000000000e-08,0.00000000000000e+00,6.00000000000000e-01,-1.85104645707264e-04
9.57040000000000e-08,0.00000000000000e+00,6.00000000000000e-01,-4.90721616754532e-05
9.61185554111835e-08,0.00000000000000e+00,6.00000000000000e-01,4.22855754241315e-05
9.66551234527170e-08,0.00000000000000e+00,6.00000000000000e-01,9.87099771193262e-05
9.77249977811254e-08,0.00000000000000e+00,6.00000000000000e-01,-1.41203247108865e-04
9.90241319047545e-08,0.00000000000000e+00,6.00000000000000e-01,1.61590320099091e-04
1.01550709176754e-07,0.00000000000000e+00,6.00000000000000e-01,-1.65730423441410e-04
1.05000000000000e-07,0.00000000000000e+00,6.00000000000000e-01,1.71178706096687e-04
1.05010000000000e-07,5.99999999999886e-02,6.00000000000000e-01,2.22215446754416e-04
1.05030000000000e-07,1.79999999999966e-01,6.00000000000000e-01,2.97102988688708e-04
1.05070000000000e-07,4.19999999999920e-01,6.00000000000000e-01,3.27531289548648e-04
1.05100000000000e-07,5.99999999999966e-01,6.00000000000000e-01,-4.88007267181526e-04
1.05108000000000e-07,6.00000000000000e-01,6.00000000000000e-01,-1.05938189235014e-03
1.05124000000000e-07,6.00000000000000e-01,6.00000000000000e-01,-2.26640044437097e-03
1.05156000000000e-07,6.00000000000000e-01,6.00000000000000e-01,-4.26623810116022e-03
1.05220000000000e-07,6.00000000000000e-01,6.00000000000000e-01,-3.84591989384906e-03
1.05348000000000e-07,6.00000000000000e-01,6.00000000000000e-01,1.65141260323612e-01
1.05604000000000e-07,6.00000000000000e-01,6.00000000000000e-01,5.79958456221627e-01
1.06116000000000e-07,6.00000000000000e-01,6.00000000000000e-01,6.06709681218042e-01
1.06705631439886e-07,6.00000000000000e-01,6.00000000000000e-01,5.93222214806336e-01
1.07711402906468e-07,6.00000000000000e-01,6.00000000000000e-01,6.05434279098088e-01
1.09018526469048e-07,6.00000000000000e-01,6.00000000000000e-01,5.94332821818036e-01
1.11632773594209e-07,6.00000000000000e-01,6.00000000000000e-01,6.05016531364166e-01
1.15100000000000e-07,6.00000000000000e-01,6.00000000000000e-01,5.94664553565158e-01
1.15110000000000e-07,5.40000000000061e-01,6.00000000000000e-01,5.96613184948727e-01
1.15130000000000e-07,4.20000000000084e-01,6.00000000000000e-01,5.99007877999741e-01
1.15170000000000e-07,1.80000000000129e-01,6.00000000000000e-01,6.00371973269262e-01
1.15200000000000e-07,8.40438829641244e-14,6.00000000000000e-01,6.01899702354312e-01
1.15208000000000e-07,0.00000000000000e+00,6.00000000000000e-01,6.02301783604026e-01
1.15224000000000e-07,0.00000000000000e+00,6.00000000000000e-01,6.02691557302297e-01
1.15256000000000e-07,0.00000000000000e+00,6.00000000000000e-01,6.00774107816975e-01
1.15320000000000e-07,0.00000000000000e+00,6.00000000000000e-01,5.86487487754065e-01
1.15448000000000e-07,0.00000000000000e+00,6.00000000000000e-01,5.81656211941837e-01
1.15704000000000e-07,0.00000000000000e+00,6.00000000000000e-01,6.02586480754358e-01
1.16155810191701e-07,0.00000000000000e+00,6.00000000000000e-01,5.97006013265621e-01
1.16798422299738e-07,0.00000000000000e+00,6.00000000000000e-01,6.01961227203912e-01
1.18083646515811e-07,0.00000000000000e+00,6.00000000000000e-01,5.97775971965973e-01
1.20654094947956e-07,0.00000000000000e+00,6.00000000000000e-01,6.01876428326139e-01
1.24454094947956e-07,0.00000000000000e+00,6.00000000000000e-01,5.97986317082022e-01
1.25000000000000e-07,0.00000000000000e+00,6.00000000000000e-01,6.01526670016444e-01
1.25010000000000e-07,5.99999999999092e-02,6.00000000000000e-01,6.01127821757568e-01
1.25030000000000e-07,1.79999999999886e-01,6.00000000000000e-01,6.00542142552727e-01
1.25070000000000e-07,4.19999999999841e-01,6.00000000000000e-01,6.00113396269304e-01
1.25100000000000e-07,5.99999999999886e-01,6.00000000000000e-01,5.99572807598157e-01
1.25108000000000e-07,6.00000000000000e-01,5.51999999999946e-01,5.99249475886999e-01
1.25124000000000e-07,6.00000000000000e-01,4.55999999999996e-01,5.98618722547693e-01
1.25156000000000e-07,6.00000000000000e-01,2.63999999999937e-01,5.97756828870869e-01
1.25200000000000e-07,6.00000000000000e-01,0.00000000000000e+00,5.97239906255104e-01
1.25206400000000e-07,6.00000000000000e-01,0.00000000000000e+00,5.97206284852085e-01
1.25219200000000e-07,6.00000000000000e-01,0.00000000000000e+00,5.97136494504328e-01
1.25244800000000e-07,6.00000000000000e-01,0.00000000000000e+00,5.97124975525265e-01
1.25296000000000e-07,6.00000000000000e-01,0.00000000000000e+00,5.97695160081423e-01
1.25398400000000e-07,6.00000000000000e-01,0.00000000000000e+00,5.99093717602408e-01
1.25603200000000e-07,6.00000000000000e-01,0.00000000000000e+00,5.99987950324524e-01
1.25875817984573e-07,6.00000000000000e-01,0.00000000000000e+00,5.99974426309920e-01
1.26374461776888e-07,6.00000000000000e-01,0.00000000000000e+00,6.00024216661192e-01
1.27102847307690e-07,6.00000000000000e-01,0.00000000000000e+00,5.99977931594445e-01
1.28559618369294e-07,6.00000000000000e-01,0.00000000000000e+00,6.00020850970704e-01
1.31187975563056e-07,6.00000000000000e-01,0.00000000000000e+00,5.99979759443744e-01
1.34987975563056e-07,6.00000000000000e-01,0.00000000000000e+00,6.00019777871053e-01
1.35100000000000e-07,5.99999999999891e-01,0.00000000000000e+00,5.99992447586698e-01
1.35110000000000e-07,5.39999999999823e-01,0.00000000000000e+00,5.99940131376500e-01
1.35130000000000e-07,4.19999999999846e-01,0.00000000000000e+00,5.99874853077299e-01
1.35170000000000e-07,1.79999999999891e-01,0.00000000000000e+00,6.00438483527188e-01
1.35200000000000e-07,0.00000000000000e+00,0.00000000000000e+00,6.02068857982165e-01
1.35208000000000e-07,0.00000000000000e+00,0.00000000000000e+00,6.02503941403893e-01
1.35224000000000e-07,0.00000000000000e+00,0.00000000000000e+00,6.03130644714173e-01
1.35256000000000e-07,0.00000000000000e+00,0.00000000000000e+00,6.03741869830259e-01
