Time,v(clk),v(data),v(out)
1.00000000000000e-08,6.00000000000000e-01,0.00000000000000e+00,2.01704359386557e-05
1.00100000000000e-08,6.00000000000000e-01,5.99999999999986e-02,2.06350694362464e-05
1.00300000000000e-08,6.00000000000000e-01,1.79999999999996e-01,1.92213062321853e-05
1.00700000000000e-08,6.00000000000000e-01,4.19999999999990e-01,1.38398180692667e-05
1.01000000000000e-08,6.00000000000000e-01,5.99999999999995e-01,1.10259092082898e-05
1.01080000000000e-08,6.00000000000000e-01,6.00000000000000e-01,1.04732812302999e-05
1.01240000000000e-08,6.00000000000000e-01,6.00000000000000e-01,1.05778192377726e-05
1.01560000000000e-08,6.00000000000000e-01,6.00000000000000e-01,1.28486261778346e-05
1.02200000000000e-08,6.00000000000000e-01,6.00000000000000e-01,1.48515292294552e-05
1.03480000000000e-08,6.00000000000000e-01,6.00000000000000e-01,1.14639144940011e-05
1.06040000000000e-08,6.00000000000000e-01,6.00000000000000e-01,1.02025495718177e-05
1.11160000000000e-08,6.00000000000000e-01,6.00000000000000e-01,9.92467438284440e-06
1.21400000000000e-08,6.00000000000000e-01,6.00000000000000e-01,1.00565417591701e-05
1.41880000000000e-08,6.00000000000000e-01,6.00000000000000e-01,8.90420842397134e-06
1.51000000000000e-08,6.00000000000000e-01,6.00000000000000e-01,9.51638309678021e-06
1.51100000000000e-08,5.39999999999992e-01,6.00000000000000e-01,-4.64319971121493e-05
1.51300000000000e-08,4.19999999999994e-01,6.00000000000000e-01,-1.29033721915563e-04
1.51700000000000e-08,1.80000000000000e-01,6.00000000000000e-01,-1.06390998637053e-04
1.52000000000000e-08,0.00000000000000e+00,6.00000000000000e-01,1.21636354980588e-04
1.52080000000000e-08,0.00000000000000e+00,6.00000000000000e-01,2.37708988501867e-04
1.52240000000000e-08,0.00000000000000e+00,6.00000000000000e-01,3.71398844033234e-04
1.52560000000000e-08,0.00000000000000e+00,6.00000000000000e-01,3.06016167263314e-04
1.53200000000000e-08,0.00000000000000e+00,6.00000000000000e-01,-1.07840181037190e-04
1.54480000000000e-08,0.00000000000000e+00,6.00000000000000e-01,-2.82918915798385e-04
1.57040000000000e-08,0.00000000000000e+00,6.00000000000000e-01,-1.48148718620480e-05
1.61493740059689e-08,0.00000000000000e+00,6.00000000000000e-01,8.46974556138920e-06
1.66986551260121e-08,0.00000000000000e+00,6.00000000000000e-01,1.40162484754125e-04
1.77972173660986e-08,0.00000000000000e+00,6.00000000000000e-01,-1.50403013198535e-04
1.90236539352703e-08,0.00000000000000e+00,6.00000000000000e-01,1.75924124183220e-04
2.14765270736137e-08,0.00000000000000e+00,6.00000000000000e-01,-1.62277567366379e-04
2.50000000000000e-08,0.00000000000000e+00,6.00000000000000e-01,1.77268947250141e-04
2.50100000000000e-08,5.99999999999886e-02,6.00000000000000e-01,2.44095376293607e-04
2.50300000000000e-08,1.80000000000006e-01,6.00000000000000e-01,3.45070096083581e-04
2.50700000000000e-08,4.20000000000000e-01,6.00000000000000e-01,4.05219462832458e-04
2.51000000000000e-08,6.00000000000000e-01,6.00000000000000e-01,-1.33331816637695e-04
2.51080000000000e-08,6.00000000000000e-01,6.00000000000000e-01,-5.60561137964530e-04
2.51240000000000e-08,6.00000000000000e-01,6.00000000000000e-01,-1.52116910487630e-03
2.51560000000000e-08,6.00000000000000e-01,6.00000000000000e-01,-3.36965581318272e-03
2.52200000000000e-08,6.00000000000000e-01,6.00000000000000e-01,-4.84176227654214e-03
2.53480000000000e-08,6.00000000000000e-01,6.00000000000000e-01,7.49646278852474e-02
2.56040000000000e-08,6.00000000000000e-01,6.00000000000000e-01,5.17460339176599e-01
2.61160000000000e-08,6.00000000000000e-01,6.00000000000000e-01,6.20949641433290e-01
2.66862813279626e-08,6.00000000000000e-01,6.00000000000000e-01,5.79070703683416e-01
2.78178009856276e-08,6.00000000000000e-01,6.00000000000000e-01,6.17945882014582e-01
2.93126721266755e-08,6.00000000000000e-01,6.00000000000000e-01,5.81334853199855e-01
3.23024144087712e-08,6.00000000000000e-01,6.00000000000000e-01,6.16895830498164e-01
3.51000000000000e-08,5.99999999999970e-01,6.00000000000000e-01,5.82233470239107e-01
3.51100000000000e-08,5.39999999999982e-01,6.00000000000000e-01,5.88849449035235e-01
3.51300000000000e-08,4.19999999999965e-01,6.00000000000000e-01,5.97094564252939e-01
3.51700000000000e-08,1.79999999999970e-01,6.00000000000000e-01,6.00669833839337e-01
3.52000000000000e-08,0.00000000000000e+00,6.00000000000000e-01,6.01982421693281e-01
3.52080000000000e-08,0.00000000000000e+00,6.00000000000000e-01,6.02369560418759e-01
3.52240000000000e-08,0.00000000000000e+00,6.00000000000000e-01,6.02773753101093e-01
3.52560000000000e-08,0.00000000000000e+00,6.00000000000000e-01,6.01518436866581e-01
3.53200000000000e-08,0.00000000000000e+00,6.00000000000000e-01,5.89690289633374e-01
3.54480000000000e-08,0.00000000000000e+00,6.00000000000000e-01,5.79941821888876e-01
3.57040000000000e-08,0.00000000000000e+00,6.00000000000000e-01,5.99496651648875e-01
3.61960258339090e-08,0.00000000000000e+00,6.00000000000000e-01,5.99060344035374e-01
3.68426415498346e-08,0.00000000000000e+00,6.00000000000000e-01,6.00048752411221e-01
3.81358729816859e-08,0.00000000000000e+00,6.00000000000000e-01,5.99383037673482e-01
4.07223358453885e-08,0.00000000000000e+00,6.00000000000000e-01,6.00218032418801e-01
4.45223358453885e-08,0.00000000000000e+00,6.00000000000000e-01,5.99487807343755e-01
4.50000000000000e-08,0.00000000000000e+00,6.00000000000000e-01,6.00176291915844e-01
4.50100000000000e-08,5.99999999999886e-02,6.00000000000000e-01,6.00145590612221e-01
4.50300000000000e-08,1.80000000000006e-01,6.00000000000000e-01,6.00091686625938e-01
4.50700000000000e-08,4.20000000000000e-01,6.00000000000000e-01,6.00022862848496e-01
4.51000000000000e-08,6.00000000000000e-01,6.00000000000000e-01,5.99697319012522e-01
4.51080000000000e-08,6.00000000000000e-01,5.52000000000025e-01,5.99458794814607e-01
4.51240000000000e-08,6.00000000000000e-01,4.55999999999996e-01,5.98958124312456e-01
4.51560000000000e-08,6.00000000000000e-01,2.64000000000016e-01,5.98152652392454e-01
4.52000000000000e-08,6.00000000000000e-01,3.44169137633799e-14,5.97627464954197e-01
4.52064000000000e-08,6.00000000000000e-01,0.00000000000000e+00,5.97590662321820e-01
4.52192000000000e-08,6.00000000000000e-01,0.00000000000000e+00,5.97511948040800e-01
4.52448000000000e-08,6.00000000000000e-01,0.00000000000000e+00,5.97413583414680e-01
4.52960000000000e-08,6.00000000000000e-01,0.00000000000000e+00,5.97573171068109e-01
4.53984000000000e-08,6.00000000000000e-01,0.00000000000000e+00,5.98537714093760e-01
4.56032000000000e-08,6.00000000000000e-01,0.00000000000000e+00,5.99745727591707e-01
4.58761536315258e-08,6.00000000000000e-01,0.00000000000000e+00,5.99954713867986e-01
4.64220608945774e-08,6.00000000000000e-01,0.00000000000000e+00,6.00035300038071e-01
4.70618499192221e-08,6.00000000000000e-01,0.00000000000000e+00,5.99971872556275e-01
4.83414279685114e-08,6.00000000000000e-01,0.00000000000000e+00,6.00024744828481e-01
5.09005840670901e-08,6.00000000000000e-01,0.00000000000000e+00,5.99976683919739e-01
5.47005840670901e-08,6.00000000000000e-01,0.00000000000000e+00,6.00022300954279e-01
5.51000000000000e-08,6.00000000000000e-01,0.00000000000000e+00,5.99985237904029e-01
5.51100000000000e-08,5.40000000000021e-01,0.00000000000000e+00,5.99933077213954e-01
5.51300000000000e-08,4.20000000000004e-01,0.00000000000000e+00,5.99875255146779e-01
5.51700000000000e-08,1.80000000000010e-01,0.00000000000000e+00,6.00452390541769e-01
5.52000000000000e-08,0.00000000000000e+00,0.00000000000000e+00,6.02075283319063e-01
5.52080000000000e-08,0.00000000000000e+00,0.00000000000000e+00,6.02512675768730e-01
5.52240000000000e-08,0.00000000000000e+00,0.00000000000000e+00,6.03143464911928e-01
5.52560000000000e-08,0.00000000000000e+00,0.00000000000000e+00,6.03737679279385e-01
5.53200000000000e-08,0.00000000000000e+00,0.00000000000000e+00,6.03961260639193e-01
5.54480000000000e-08,0.00000000000000e+00,0.00000000000000e+00,6.00455076417645e-01
5.57040000000000e-08,0.00000000000000e+00,0.00000000000000e+00,5.98606629658685e-01
5.60420212248458e-08,0.00000000000000e+00,0.00000000000000e+00,5.99775416667660e-01
5.67180636745375e-08,0.00000000000000e+00,0.00000000000000e+00,5.99362887538963e-01
5.74251686045793e-08,0.00000000000000e+00,0.00000000000000e+00,5.99941996079064e-01
5.88393784646627e-08,0.00000000000000e+00,0.00000000000000e+00,5.99600732299107e-01
6.16677981848296e-08,0.00000000000000e+00,0.00000000000000e+00,6.00033986261500e-01
6.50000000000000e-08,0.00000000000000e+00,0.00000000000000e+00,5.99681758832365e-01
6.50100000000000e-08,5.99999999999886e-02,0.00000000000000e+00,5.99773909361402e-01
6.50300000000000e-08,1.79999999999966e-01,0.00000000000000e+00,5.99885627954494e-01
6.50700000000000e-08,4.19999999999920e-01,0.00000000000000e+00,5.99889714980678e-01
6.51000000000000e-08,5.99999999999966e-01,0.00000000000000e+00,5.99775250688619e-01
6.51080000000000e-08,6.00000000000000e-01,0.00000000000000e+00,5.99725375961024e-01
6.51240000000000e-08,6.00000000000000e-01,0.00000000000000e+00,5.99664051263478e-01
6.51560000000000e-08,6.00000000000000e-01,0.00000000000000e+00,5.99638468977634e-01
6.52200000000000e-08,6.00000000000000e-01,0.00000000000000e+00,5.99778193658345e-01
6.53480000000000e-08,6.00000000000000e-01,0.00000000000000e+00,6.03029298179548e-01
6.56040000000000e-08,6.00000000000000e-01,0.00000000000000e+00,3.48853347139566e-01
6.56680000000000e-08,6.00000000000000e-01,0.00000000000000e+00,1.89685593479589e-01
6.57959999999999e-08,6.00000000000000e-01,0.00000000000000e+00,1.40546614085047e-02
6.60519999999999e-08,6.00000000000000e-01,0.00000000000000e+00,-6.30369750832388e-03
6.65639999999999e-08,6.00000000000000e-01,0.00000000000000e+00,4.41075925749456e-03
6.71533915976471e-08,6.00000000000000e-01,0.00000000000000e+00,-3.22383558361237e-03
6.83321747929415e-08,6.00000000000000e-01,0.00000000000000e+00,2.78129260906058e-03
7.06897411835303e-08,6.00000000000000e-01,0.00000000000000e+00,-2.57149243883062e-03
7.44897411835303e-08,6.00000000000000e-01,0.00000000000000e+00,2.46421617527864e-03
7.51000000000000e-08,6.00000000000000e-01,0.00000000000000e+00,-1.83683628859966e-03
7.51100000000000e-08,5.40000000000061e-01,0.00000000000000e+00,-1.51759080715686e-03
7.51300000000000e-08,4.20000000000084e-01,0.00000000000000e+00,-1.01820909467080e-03
7.51700000000000e-08,1.80000000000129e-01,0.00000000000000e+00,-4.40659397849694e-04
7.52000000000000e-08,8.40438829641244e-14,0.00000000000000e+00,-5.78323255315885e-05
7.52080000000000e-08,0.00000000000000e+00,0.00000000000000e+00,8.20570392804157e-05
7.52240000000000e-08,0.00000000000000e+00,0.00000000000000e+00,2.52288330300054e-04
7.52560000000000e-08,0.00000000000000e+00,0.00000000000000e+00,2.11694106579501e-04
7.53200000000000e-08,0.00000000000000e+00,0.00000000000000e+00,-4.14305504397167e-04
7.54480000000000e-08,0.00000000000000e+00,0.00000000000000e+00,-5.05865517009960e-04
7.57040000000000e-08,0.00000000000000e+00,0.00000000000000e+00,2.30686990559496e-04
7.61435439007120e-08,0.00000000000000e+00,0.00000000000000e+00,-1.35551308345536e-04
7.68025291932627e-08,0.00000000000000e+00,0.00000000000000e+00,1.16894913254128e-04
7.81204997783643e-08,0.00000000000000e+00,0.00000000000000e+00,-8.77023065537475e-05
8.07564409485673e-08,0.00000000000000e+00,0.00000000000000e+00,9.74698793381368e-05
8.45564409485673e-08,0.00000000000000e+00,0.00000000000000e+00,-7.79254066815445e-05
8.50000000000000e-08,0.00000000000000e+00,0.00000000000000e+00,6.77879551027692e-05
8.50100000000000e-08,5.99999999999886e-02,0.00000000000000e+00,1.30117556689929e-04
8.50300000000000e-08,1.79999999999966e-01,0.00000000000000e+00,2.10858722006928e-04
8.50700000000000e-08,4.19999999999920e-01,0.00000000000000e+00,1.67647563447310e-04
8.51000000000000e-08,5.99999999999966e-01,0.00000000000000e+00,-2.66845689802717e-05
8.51080000000000e-08,6.00000000000000e-01,0.00000000000000e+00,-1.08430543984989e-04
8.51240000000000e-08,6.00000000000000e-01,0.00000000000000e+00,-2.16991967421296e-04
8.51560000000000e-08,6.00000000000000e-01,0.00000000000000e+00,-2.42997098039210e-04
8.52200000000000e-08,6.00000000000000e-01,0.00000000000000e+00,-1.33593195964864e-04
8.53480000000000e-08,6.00000000000000e-01,0.00000000000000e+00,2.38424972421464e-05
8.56040000000000e-08,6.00000000000000e-01,0.00000000000000e+00,7.35622092550969e-05
8.61159999999999e-08,6.00000000000000e-01,0.00000000000000e+00,-9.28170530410666e-06
8.71072247236751e-08,6.00000000000000e-01,0.00000000000000e+00,3.08516137532463e-05
8.82843102915051e-08,6.00000000000000e-01,0.00000000000000e+00,-2.58095159426722e-07
9.00000000000000e-08,6.00000000000000e-01,0.00000000000000e+00,2.02912204115111e-05
9.00100000000000e-08,6.00000000000000e-01,5.99999999999886e-02,2.07137547517527e-05
9.00300000000000e-08,6.00000000000000e-01,1.79999999999966e-01,1.92480683757837e-05
9.00700000000000e-08,6.00000000000000e-01,4.19999999999920e-01,1.38693920674754e-05
9.01000000000000e-08,6.00000000000000e-01,5.99999999999966e-01,1.10890642812111e-05
9.01080000000000e-08,6.00000000000000e-01,6.00000000000000e-01,1.09366258739113e-05
9.01240000000000e-08,6.00000000000000e-01,6.00000000000000e-01,1.08331969089839e-05
9.01560000000000e-08,6.00000000000000e-01,6.00000000000000e-01,1.31783745747974e-05
9.02200000000000e-08,6.00000000000000e-01,6.00000000000000e-01,1.46234855234323e-05
9.03480000000000e-08,6.00000000000000e-01,6.00000000000000e-01,1.16436006607525e-05
9.06040000000000e-08,6.00000000000000e-01,6.00000000000000e-01,9.92010458520862e-06
9.11159999999999e-08,6.00000000000000e-01,6.00000000000000e-01,1.02307294449367e-05
9.21399999999999e-08,6.00000000000000e-01,6.00000000000000e-01,9.75182562540193e-06
9.41879999999998e-08,6.00000000000000e-01,6.00000000000000e-01,9.20462625098820e-06
9.51000000000000e-08,6.00000000000000e-01,6.00000000000000e-01,9.22556600547152e-06
9.51100000000000e-08,5.40000000000061e-01,6.00000000000000e-01,-4.65690834021704e-05
9.51300000000000e-08,4.20000000000084e-01,6.00000000000000e-01,-1.28935098216217e-04
9.51700000000000e-08,1.80000000000129e-01,6.00000000000000e-01,-1.06232508987898e-04
9.52000000000000e-08,8.40438829641244e-14,6.00000000000000e-01,1.21754107850494e-04
9.52080000000000e-08,0.00000000000000e+00,6.00000000000000e-01,2.37815201489189e-04
9.52240000000000e-08,0.00000000000000e+00,6.00000000000000e-01,3.71482564807617e-04
9.52560000000000e-08,0.00000000000000e+00,6.00000000000000e-01,3.06065954765532e-04
9.53200000000000e-08,0.00000000000000e+00,6.00000000000000e-01,-1.07825545436258e-04
9.54480000000000e-08,0.00000000000000e+00,6.00000000000000e-01,-2.82921361614518e-04
9.57040000000000e-08,0.00000000000000e+00,6.00000000000000e-01,-1.48140463369657e-05
9.61493742492448e-08,0.00000000000000e+00,6.00000000000000e-01,8.46923371437477e-06
9.66986556264591e-08,0.00000000000000e+00,6.00000000000000e-01,1.40162325754973e-04
9.77972183808876e-08,0.00000000000000e+00,6.00000000000000e-01,-1.50402671692699e-04
9.90236549439541e-08,0.00000000000000e+00,6.00000000000000e-01,1.75923677713768e-04
1.01476528070087e-07,0.00000000000000e+00,6.00000000000000e-01,-1.62277077246961e-04
1.05000000000000e-07,0.00000000000000e+00,6.00000000000000e-01,1.77268441489357e-04
1.05010000000000e-07,5.99999999999886e-02,6.00000000000000e-01,2.44095020261612e-04
1.05030000000000e-07,1.79999999999966e-01,6.00000000000000e-01,3.45069973885365e-04
1.05070000000000e-07,4.19999999999920e-01,6.00000000000000e-01,4.05219498203033e-04
1.05100000000000e-07,5.99999999999966e-01,6.00000000000000e-01,-1.33331856541748e-04
1.05108000000000e-07,6.00000000000000e-01,6.00000000000000e-01,-5.60561193979424e-04
1.05124000000000e-07,6.00000000000000e-01,6.00000000000000e-01,-1.52116920849840e-03
1.05156000000000e-07,6.00000000000000e-01,6.00000000000000e-01,-3.36965589895998e-03
1.05220000000000e-07,6.00000000000000e-01,6.00000000000000e-01,-4.84176206852054e-03
1.05348000000000e-07,6.00000000000000e-01,6.00000000000000e-01,7.49646364459864e-02
1.05604000000000e-07,6.00000000000000e-01,6.00000000000000e-01,5.17460346883559e-01
1.06116000000000e-07,6.00000000000000e-01,6.00000000000000e-01,6.20949640105032e-01
1.06686281336729e-07,6.00000000000000e-01,6.00000000000000e-01,5.79070704928225e-01
1.07817800979657e-07,6.00000000000000e-01,6.00000000000000e-01,6.17945880893491e-01
1.09312672109662e-07,6.00000000000000e-01,6.00000000000000e-01,5.81334854389129e-01
1.12302414369671e-07,6.00000000000000e-01,6.00000000000000e-01,6.16895829434127e-01
1.15100000000000e-07,6.00000000000000e-01,6.00000000000000e-01,5.82233471363819e-01
1.15110000000000e-07,5.40000000000061e-01,6.00000000000000e-01,5.88849449726295e-01
1.15130000000000e-07,4.20000000000084e-01,6.00000000000000e-01,5.97094564411992e-01
1.15170000000000e-07,1.80000000000129e-01,6.00000000000000e-01,6.00669833816515e-01
1.15200000000000e-07,8.40438829641244e-14,6.00000000000000e-01,6.01982421681396e-01
1.15208000000000e-07,0.00000000000000e+00,6.00000000000000e-01,6.02369560413696e-01
1.15224000000000e-07,0.00000000000000e+00,6.00000000000000e-01,6.02773753100125e-01
1.15256000000000e-07,0.00000000000000e+00,6.00000000000000e-01,6.01518436881161e-01
1.15320000000000e-07,0.00000000000000e+00,6.00000000000000e-01,5.89690289631659e-01
1.15448000000000e-07,0.00000000000000e+00,6.00000000000000e-01,5.79941821874075e-01
1.15704000000000e-07,0.00000000000000e+00,6.00000000000000e-01,5.99496651704496e-01
1.16196025831604e-07,0.00000000000000e+00,6.00000000000000e-01,5.99060343987628e-01
1.16842641548044e-07,0.00000000000000e+00,6.00000000000000e-01,6.00048752447412e-01
1.18135872980922e-07,0.00000000000000e+00,6.00000000000000e-01,5.99383037638964e-01
1.20722335846680e-07,0.00000000000000e+00,6.00000000000000e-01,6.00218032450483e-01
1.24522335846680e-07,0.00000000000000e+00,6.00000000000000e-01,5.99487807313624e-01
1.25000000000000e-07,0.00000000000000e+00,6.00000000000000e-01,6.00176291939433e-01
1.25010000000000e-07,5.99999999999092e-02,6.00000000000000e-01,6.00145590629969e-01
1.25030000000000e-07,1.79999999999886e-01,6.00000000000000e-01,6.00091686634730e-01
1.25070000000000e-07,4.19999999999841e-01,6.00000000000000e-01,6.00022862850148e-01
1.25100000000000e-07,5.99999999999886e-01,6.00000000000000e-01,5.99697319012986e-01
1.25108000000000e-07,6.00000000000000e-01,5.51999999999946e-01,5.99458794815104e-01
1.25124000000000e-07,6.00000000000000e-01,4.55999999999996e-01,5.98958124312777e-01
1.25156000000000e-07,6.00000000000000e-01,2.63999999999937e-01,5.98152652392618e-01
1.25200000000000e-07,6.00000000000000e-01,0.00000000000000e+00,5.97627464954322e-01
1.25206400000000e-07,6.00000000000000e-01,0.00000000000000e+00,5.97590662322969e-01
1.25219200000000e-07,6.00000000000000e-01,0.00000000000000e+00,5.97511948041646e-01
1.25244800000000e-07,6.00000000000000e-01,0.00000000000000e+00,5.97413583414240e-01
1.25296000000000e-07,6.00000000000000e-01,0.00000000000000e+00,5.97573171070034e-01
1.25398400000000e-07,6.00000000000000e-01,0.00000000000000e+00,5.98537714095144e-01
1.25603200000000e-07,6.00000000000000e-01,0.00000000000000e+00,5.99745727590730e-01
1.25876153631853e-07,6.00000000000000e-01,0.00000000000000e+00,5.99954713868476e-01
1.26422060895558e-07,6.00000000000000e-01,0.00000000000000e+00,6.00035300037648e-01
1.27061849921481e-07,6.00000000000000e-01,0.00000000000000e+00,5.99971872556589e-01
1.28341427973328e-07,6.00000000000000e-01,0.00000000000000e+00,6.00024744828113e-01
1.30900584077022e-07,6.00000000000000e-01,0.00000000000000e+00,5.99976683919959e-01
1.34700584077022e-07,6.00000000000000e-01,0.00000000000000e+00,6.00022300953850e-01
1.35100000000000e-07,5.99999999999891e-01,0.00000000000000e+00,5.99985237904582e-01
1.35110000000000e-07,5.39999999999823e-01,0.00000000000000e+00,5.99933077214315e-01
1.35130000000000e-07,4.19999999999846e-01,0.00000000000000e+00,5.99875255146911e-01
1.35170000000000e-07,1.79999999999891e-01,0.00000000000000e+00,6.00452390545056e-01
1.35200000000000e-07,0.00000000000000e+00,0.00000000000000e+00,6.02075283320167e-01
1.35208000000000e-07,0.00000000000000e+00,0.00000000000000e+00,6.02512675769071e-01
