Time,v(clk),v(data),v(out),v(reset)
1.00000000000000e-08,6.00000000000000e-01,0.00000000000000e+00,4.12467805887716e-05,0.00000000000000e+00
1.00100000000000e-08,6.00000000000000e-01,5.99999999999986e-02,2.96601573262223e-05,0.00000000000000e+00
1.00300000000000e-08,6.00000000000000e-01,1.79999999999996e-01,1.28650465038502e-05,0.00000000000000e+00
1.00700000000000e-08,6.00000000000000e-01,4.19999999999990e-01,1.31623464012104e-06,0.00000000000000e+00
1.01000000000000e-08,6.00000000000000e-01,5.99999999999995e-01,-6.98887657100966e-07,0.00000000000000e+00
1.01080000000000e-08,6.00000000000000e-01,6.00000000000000e-01,-4.82759861315796e-07,0.00000000000000e+00
1.01240000000000e-08,6.00000000000000e-01,6.00000000000000e-01,3.70451544488837e-07,0.00000000000000e+00
1.01560000000000e-08,6.00000000000000e-01,6.00000000000000e-01,1.95492570381761e-06,0.00000000000000e+00
1.02200000000000e-08,6.00000000000000e-01,6.00000000000000e-01,2.32838425749324e-06,0.00000000000000e+00
1.03480000000000e-08,6.00000000000000e-01,6.00000000000000e-01,8.87543215893905e-07,0.00000000000000e+00
1.06040000000000e-08,6.00000000000000e-01,6.00000000000000e-01,1.78349345475969e-06,0.00000000000000e+00
1.11160000000000e-08,6.00000000000000e-01,6.00000000000000e-01,1.38396829958524e-06,0.00000000000000e+00
1.21400000000000e-08,6.00000000000000e-01,6.00000000000000e-01,1.29965163125868e-06,0.00000000000000e+00
1.41880000000000e-08,6.00000000000000e-01,6.00000000000000e-01,1.06246844573991e-06,0.00000000000000e+00
1.51000000000000e-08,6.00000000000000e-01,6.00000000000000e-01,9.08804012529716e-07,0.00000000000000e+00
1.51100000000000e-08,5.39999999999992e-01,6.00000000000000e-01,1.67057192717639e-04,6.00000000000085e-02
1.51300000000000e-08,4.19999999999994e-01,6.00000000000000e-01,3.33627900728585e-04,1.80000000000006e-01
1.51700000000000e-08,1.80000000000000e-01,6.00000000000000e-01,1.70661683605890e-04,4.20000000000000e-01
1.52000000000000e-08,0.00000000000000e+00,6.00000000000000e-01,2.73736680799289e-05,6.00000000000000e-01
1.52080000000000e-08,0.00000000000000e+00,6.00000000000000e-01,1.92532679431368e-06,6.00000000000000e-01
1.52240000000000e-08,0.00000000000000e+00,6.00000000000000e-01,-2.59437386688210e-05,6.00000000000000e-01
1.52560000000000e-08,0.00000000000000e+00,6.00000000000000e-01,-1.64473230695669e-05,6.00000000000000e-01
1.53200000000000e-08,0.00000000000000e+00,6.00000000000000e-01,-4.28117706074982e-06,6.00000000000000e-01
1.54480000000000e-08,0.00000000000000e+00,6.00000000000000e-01,-7.95452702762357e-05,6.00000000000000e-01
1.57040000000000e-08,0.00000000000000e+00,6.00000000000000e-01,-3.41481739653381e-05,6.00000000000000e-01
1.62160000000000e-08,0.00000000000000e+00,6.00000000000000e-01,-1.04989731302961e-04,6.00000000000000e-01
1.69100405078607e-08,0.00000000000000e+00,6.00000000000000e-01,1.44739958667741e-04,6.00000000000000e-01
1.81369641596411e-08,0.00000000000000e+00,6.00000000000000e-01,-9.52289582834584e-05,6.00000000000000e-01
1.96681778862427e-08,0.00000000000000e+00,6.00000000000000e-01,6.57276258033660e-05,6.00000000000000e-01
2.27306053394460e-08,0.00000000000000e+00,6.00000000000000e-01,-5.23045580386775e-05,6.00000000000000e-01
2.50000000000000e-08,0.00000000000000e+00,6.00000000000000e-01,3.76331997026761e-05,6.00000000000000e-01
2.50100000000000e-08,5.99999999999886e-02,6.00000000000000e-01,1.48441934030477e-04,6.00000000000000e-01
2.50300000000000e-08,1.80000000000006e-01,6.00000000000000e-01,3.01250800059737e-04,6.00000000000000e-01
2.50700000000000e-08,4.20000000000000e-01,6.00000000000000e-01,3.33212895023263e-04,6.00000000000000e-01
2.51000000000000e-08,6.00000000000000e-01,6.00000000000000e-01,-5.68622610974887e-04,6.00000000000000e-01
2.51080000000000e-08,6.00000000000000e-01,6.00000000000000e-01,-1.20648931716071e-03,6.00000000000000e-01
2.51240000000000e-08,6.00000000000000e-01,6.00000000000000e-01,-2.54955584721542e-03,6.00000000000000e-01
2.51560000000000e-08,6.00000000000000e-01,6.00000000000000e-01,-4.72311173443987e-03,6.00000000000000e-01
2.52200000000000e-08,6.00000000000000e-01,6.00000000000000e-01,-5.05660744614841e-03,6.00000000000000e-01
2.53480000000000e-08,6.00000000000000e-01,6.00000000000000e-01,1.20070784321821e-01,6.00000000000000e-01
2.56040000000000e-08,6.00000000000000e-01,6.00000000000000e-01,5.26190672794459e-01,6.00000000000000e-01
2.61160000000000e-08,6.00000000000000e-01,6.00000000000000e-01,6.19050456355865e-01,6.00000000000000e-01
2.67051538374885e-08,6.00000000000000e-01,6.00000000000000e-01,5.81551950513328e-01,6.00000000000000e-01
2.78834615124654e-08,6.00000000000000e-01,6.00000000000000e-01,6.14022298476670e-01,6.00000000000000e-01
2.91975850993377e-08,6.00000000000000e-01,6.00000000000000e-01,5.85487276415024e-01,6.00000000000000e-01
3.18258322730825e-08,6.00000000000000e-01,6.00000000000000e-01,6.12244901406425e-01,6.00000000000000e-01
3.51000000000000e-08,5.99999999999970e-01,6.00000000000000e-01,5.86824848458349e-01,6.00000000000000e-01
3.51100000000000e-08,5.39999999999982e-01,6.00000000000000e-01,5.89958112554768e-01,6.00000000000000e-01
3.51300000000000e-08,4.19999999999965e-01,6.00000000000000e-01,5.94668884516549e-01,6.00000000000000e-01
3.51700000000000e-08,1.79999999999970e-01,6.00000000000000e-01,5.98916382770238e-01,6.00000000000000e-01
3.52000000000000e-08,0.00000000000000e+00,6.00000000000000e-01,6.00744353972236e-01,6.00000000000000e-01
3.52080000000000e-08,0.00000000000000e+00,6.00000000000000e-01,6.01230656921867e-01,6.00000000000000e-01
3.52240000000000e-08,0.00000000000000e+00,6.00000000000000e-01,6.01951466025945e-01,6.00000000000000e-01
3.52560000000000e-08,0.00000000000000e+00,6.00000000000000e-01,6.02498128487871e-01,6.00000000000000e-01
3.53200000000000e-08,0.00000000000000e+00,6.00000000000000e-01,5.99966744337596e-01,6.00000000000000e-01
3.54480000000000e-08,0.00000000000000e+00,6.00000000000000e-01,5.81820191738767e-01,6.00000000000000e-01
3.57040000000000e-08,0.00000000000000e+00,6.00000000000000e-01,5.80575102647894e-01,6.00000000000000e-01
3.62160000000000e-08,0.00000000000000e+00,6.00000000000000e-01,6.05010274121791e-01,6.00000000000000e-01
3.70828191609038e-08,0.00000000000000e+00,6.00000000000000e-01,5.95062950950760e-01,6.00000000000000e-01
3.83681007121795e-08,0.00000000000000e+00,6.00000000000000e-01,6.03596340232729e-01,6.00000000000000e-01
4.09386638147310e-08,0.00000000000000e+00,6.00000000000000e-01,5.96237651046137e-01,6.00000000000000e-01
4.47386638147310e-08,0.00000000000000e+00,6.00000000000000e-01,6.03267506308234e-01,6.00000000000000e-01
4.50000000000000e-08,0.00000000000000e+00,6.00000000000000e-01,5.98338507383230e-01,6.00000000000000e-01
4.50100000000000e-08,5.99999999999886e-02,6.00000000000000e-01,5.98512122310304e-01,5.40000000000011e-01
4.50300000000000e-08,1.80000000000006e-01,6.00000000000000e-01,5.98780208999069e-01,4.19999999999994e-01
4.50700000000000e-08,4.20000000000000e-01,6.00000000000000e-01,5.99888660120872e-01,1.80000000000000e-01
4.51000000000000e-08,6.00000000000000e-01,6.00000000000000e-01,6.02939017301545e-01,0.00000000000000e+00
4.51080000000000e-08,6.00000000000000e-01,6.00000000000000e-01,6.04085534147367e-01,0.00000000000000e+00
4.51240000000000e-08,6.00000000000000e-01,6.00000000000000e-01,6.06054667815673e-01,0.00000000000000e+00
4.51560000000000e-08,6.00000000000000e-01,6.00000000000000e-01,6.09123479313928e-01,0.00000000000000e+00
4.52200000000000e-08,6.00000000000000e-01,6.00000000000000e-01,6.15422608831497e-01,0.00000000000000e+00
4.53480000000000e-08,6.00000000000000e-01,6.00000000000000e-01,5.08340256678600e-01,0.00000000000000e+00
4.56040000000000e-08,6.00000000000000e-01,6.00000000000000e-01,4.18952120980920e-02,0.00000000000000e+00
4.59961843087471e-08,6.00000000000000e-01,6.00000000000000e-01,-2.65913831774578e-02,0.00000000000000e+00
4.66055286900121e-08,6.00000000000000e-01,6.00000000000000e-01,2.34971671308860e-02,0.00000000000000e+00
4.74088673137519e-08,6.00000000000000e-01,6.00000000000000e-01,-1.90418680080968e-02,0.00000000000000e+00
4.86670785592305e-08,6.00000000000000e-01,6.00000000000000e-01,1.82974763325342e-02,0.00000000000000e+00
5.01000000000000e-08,6.00000000000000e-01,5.99999999999966e-01,-1.61026643320734e-02,0.00000000000000e+00
5.03516422490957e-08,6.00000000000000e-01,6.00000000000000e-01,-1.56618825995032e-03,0.00000000000000e+00
5.08549267472872e-08,6.00000000000000e-01,6.00000000000000e-01,1.22684070573010e-03,0.00000000000000e+00
5.18614957436700e-08,6.00000000000000e-01,6.00000000000000e-01,-1.08078881686924e-03,0.00000000000000e+00
5.38746337364358e-08,6.00000000000000e-01,6.00000000000000e-01,1.01968013642653e-03,0.00000000000000e+00
5.51000000000000e-08,6.00000000000000e-01,6.00000000000000e-01,-9.19784973340159e-04,0.00000000000000e+00
5.51100000000000e-08,5.40000000000021e-01,6.00000000000000e-01,-5.18820746673823e-04,5.99999999999787e-02
5.51300000000000e-08,4.20000000000004e-01,6.00000000000000e-01,-1.27993642510052e-05,1.79999999999996e-01
5.51700000000000e-08,1.80000000000010e-01,6.00000000000000e-01,8.94027045400050e-05,4.19999999999990e-01
5.52000000000000e-08,0.00000000000000e+00,6.00000000000000e-01,-4.88193659746450e-06,6.00000000000000e-01
5.52080000000000e-08,0.00000000000000e+00,6.00000000000000e-01,-2.58392764142246e-05,6.00000000000000e-01
5.52240000000000e-08,0.00000000000000e+00,6.00000000000000e-01,-4.50131120540362e-05,6.00000000000000e-01
5.52560000000000e-08,0.00000000000000e+00,6.00000000000000e-01,-3.08045103954366e-05,6.00000000000000e-01
5.53200000000000e-08,0.00000000000000e+00,6.00000000000000e-01,-7.65176101347950e-05,6.00000000000000e-01
5.54480000000000e-08,0.00000000000000e+00,6.00000000000000e-01,-6.01730924452443e-04,6.00000000000000e-01
5.57040000000000e-08,0.00000000000000e+00,6.00000000000000e-01,1.59297082696857e-04,6.00000000000000e-01
5.61541384796735e-08,0.00000000000000e+00,6.00000000000000e-01,-1.06444071204971e-04,6.00000000000000e-01
5.68586757291757e-08,0.00000000000000e+00,6.00000000000000e-01,5.29092337447122e-05,6.00000000000000e-01
5.80212324604334e-08,0.00000000000000e+00,6.00000000000000e-01,-9.20375873452286e-06,6.00000000000000e-01
5.94976493706564e-08,0.00000000000000e+00,6.00000000000000e-01,-1.63806673681988e-05,6.00000000000000e-01
6.24504831911024e-08,0.00000000000000e+00,6.00000000000000e-01,2.80123754742669e-05,6.00000000000000e-01
6.50000000000000e-08,0.00000000000000e+00,6.00000000000000e-01,-3.91777785432859e-05,6.00000000000000e-01
6.50100000000000e-08,5.99999999999886e-02,6.00000000000000e-01,1.26961320871824e-04,6.00000000000000e-01
6.50300000000000e-08,1.79999999999966e-01,6.00000000000000e-01,3.26130678764587e-04,6.00000000000000e-01
6.50700000000000e-08,4.19999999999920e-01,6.00000000000000e-01,2.97371016449416e-04,6.00000000000000e-01
6.51000000000000e-08,5.99999999999966e-01,6.00000000000000e-01,-9.36940661021381e-04,6.00000000000000e-01
6.51080000000000e-08,6.00000000000000e-01,6.00000000000000e-01,-1.64533528282156e-03,6.00000000000000e-01
6.51240000000000e-08,6.00000000000000e-01,6.00000000000000e-01,-3.00686641056689e-03,6.00000000000000e-01
6.51560000000000e-08,6.00000000000000e-01,6.00000000000000e-01,-4.99977879857375e-03,6.00000000000000e-01
6.52200000000000e-08,6.00000000000000e-01,6.00000000000000e-01,-4.18854730767562e-03,6.00000000000000e-01
6.53480000000000e-08,6.00000000000000e-01,6.00000000000000e-01,1.28500650867199e-01,6.00000000000000e-01
6.56040000000000e-08,6.00000000000000e-01,6.00000000000000e-01,5.32453686184698e-01,6.00000000000000e-01
6.61159999999999e-08,6.00000000000000e-01,6.00000000000000e-01,6.17743576536556e-01,6.00000000000000e-01
6.67017232692257e-08,6.00000000000000e-01,6.00000000000000e-01,5.82891922290877e-01,6.00000000000000e-01
6.78731698076771e-08,6.00000000000000e-01,6.00000000000000e-01,6.12942311670910e-01,6.00000000000000e-01
6.91749315301717e-08,6.00000000000000e-01,6.00000000000000e-01,5.86637036451343e-01,6.00000000000000e-01
7.17784549751608e-08,6.00000000000000e-01,6.00000000000000e-01,6.11256046342839e-01,6.00000000000000e-01
7.51000000000000e-08,6.00000000000000e-01,6.00000000000000e-01,5.87890450733748e-01,6.00000000000000e-01
7.51100000000000e-08,5.40000000000061e-01,6.00000000000000e-01,5.90731276221898e-01,6.00000000000000e-01
7.51300000000000e-08,4.20000000000084e-01,6.00000000000000e-01,5.95021202879687e-01,6.00000000000000e-01
7.51700000000000e-08,1.80000000000129e-01,6.00000000000000e-01,5.98960962884211e-01,6.00000000000000e-01
7.52000000000000e-08,8.40438829641244e-14,6.00000000000000e-01,6.00751750783527e-01,6.00000000000000e-01
7.52080000000000e-08,0.00000000000000e+00,6.00000000000000e-01,6.01234863611738e-01,6.00000000000000e-01
7.52240000000000e-08,0.00000000000000e+00,6.00000000000000e-01,6.01950866595705e-01,6.00000000000000e-01
7.52560000000000e-08,0.00000000000000e+00,6.00000000000000e-01,6.02495204522779e-01,6.00000000000000e-01
7.53200000000000e-08,0.00000000000000e+00,6.00000000000000e-01,5.99966273509175e-01,6.00000000000000e-01
7.54480000000000e-08,0.00000000000000e+00,6.00000000000000e-01,5.81824424440863e-01,6.00000000000000e-01
7.57040000000000e-08,0.00000000000000e+00,6.00000000000000e-01,5.80576269790903e-01,6.00000000000000e-01
7.62159999999999e-08,0.00000000000000e+00,6.00000000000000e-01,6.05007607579492e-01,6.00000000000000e-01
7.70828982646257e-08,0.00000000000000e+00,6.00000000000000e-01,5.95065425689339e-01,6.00000000000000e-01
7.83681082254637e-08,0.00000000000000e+00,6.00000000000000e-01,6.03594401595057e-01,6.00000000000000e-01
8.09385281471397e-08,0.00000000000000e+00,6.00000000000000e-01,5.96239525967049e-01,6.00000000000000e-01
8.47385281471397e-08,0.00000000000000e+00,6.00000000000000e-01,6.03265756262964e-01,6.00000000000000e-01
8.50000000000000e-08,0.00000000000000e+00,6.00000000000000e-01,5.98338640638851e-01,6.00000000000000e-01
8.50100000000000e-08,5.99999999999886e-02,6.00000000000000e-01,5.98512168354793e-01,5.40000000000011e-01
8.50300000000000e-08,1.79999999999966e-01,6.00000000000000e-01,5.98780224619957e-01,4.20000000000034e-01
8.50700000000000e-08,4.19999999999920e-01,6.00000000000000e-01,5.99888634803479e-01,1.80000000000080e-01
8.51000000000000e-08,5.99999999999966e-01,6.00000000000000e-01,6.02938786388327e-01,3.44169137633799e-14
8.51080000000000e-08,6.00000000000000e-01,6.00000000000000e-01,6.04085260617350e-01,0.00000000000000e+00
8.51240000000000e-08,6.00000000000000e-01,6.00000000000000e-01,6.06054366451438e-01,0.00000000000000e+00
8.51560000000000e-08,6.00000000000000e-01,6.00000000000000e-01,6.09123297426364e-01,0.00000000000000e+00
8.52200000000000e-08,6.00000000000000e-01,6.00000000000000e-01,6.15422619993450e-01,0.00000000000000e+00
8.53480000000000e-08,6.00000000000000e-01,6.00000000000000e-01,5.08354231135486e-01,0.00000000000000e+00
8.56040000000000e-08,6.00000000000000e-01,6.00000000000000e-01,4.19044696512249e-02,0.00000000000000e+00
8.59962015013607e-08,6.00000000000000e-01,6.00000000000000e-01,-2.65967412119179e-02,0.00000000000000e+00
8.66055276854078e-08,6.00000000000000e-01,6.00000000000000e-01,2.35020480317872e-02,0.00000000000000e+00
8.74089055876987e-08,6.00000000000000e-01,6.00000000000000e-01,-1.90454849419192e-02,0.00000000000000e+00
8.86674588135149e-08,6.00000000000000e-01,6.00000000000000e-01,1.83016128622019e-02,0.00000000000000e+00
9.01000000000000e-08,6.00000000000000e-01,5.99999999999966e-01,-1.61056798361518e-02,0.00000000000000e+00
9.03517106451632e-08,6.00000000000000e-01,6.00000000000000e-01,-1.56615455116784e-03,0.00000000000000e+00
9.08551319354897e-08,6.00000000000000e-01,6.00000000000000e-01,1.22689674034808e-03,0.00000000000000e+00
9.18619745161426e-08,6.00000000000000e-01,6.00000000000000e-01,-1.08087013171392e-03,0.00000000000000e+00
9.38756596774485e-08,6.00000000000000e-01,6.00000000000000e-01,1.01977282324586e-03,0.00000000000000e+00
9.51000000000000e-08,6.00000000000000e-01,6.00000000000000e-01,-9.19788198322783e-04,0.00000000000000e+00
9.51100000000000e-08,5.40000000000061e-01,6.00000000000000e-01,-5.18823087757379e-04,5.99999999999390e-02
9.51300000000000e-08,4.20000000000084e-01,6.00000000000000e-01,-1.28090330542424e-05,1.79999999999916e-01
9.51700000000000e-08,1.80000000000129e-01,6.00000000000000e-01,8.93997323224288e-05,4.19999999999871e-01
9.52000000000000e-08,8.40438829641244e-14,6.00000000000000e-01,-4.87920499233491e-06,5.99999999999916e-01
9.52080000000000e-08,0.00000000000000e+00,6.00000000000000e-01,-2.58349676500250e-05,6.00000000000000e-01
9.52240000000000e-08,0.00000000000000e+00,6.00000000000000e-01,-4.50100088276867e-05,6.00000000000000e-01
9.52560000000000e-08,0.00000000000000e+00,6.00000000000000e-01,-3.08074014797252e-05,6.00000000000000e-01
9.53200000000000e-08,0.00000000000000e+00,6.00000000000000e-01,-7.65415207784892e-05,6.00000000000000e-01
9.54480000000000e-08,0.00000000000000e+00,6.00000000000000e-01,-6.01838798646823e-04,6.00000000000000e-01
9.57040000000000e-08,0.00000000000000e+00,6.00000000000000e-01,1.59325508418401e-04,6.00000000000000e-01
9.61540990209655e-08,0.00000000000000e+00,6.00000000000000e-01,-1.06439374801690e-04,6.00000000000000e-01
9.68586678234201e-08,0.00000000000000e+00,6.00000000000000e-01,5.28983312415091e-05,6.00000000000000e-01
9.80211678411192e-08,0.00000000000000e+00,6.00000000000000e-01,-9.18664342266628e-06,6.00000000000000e-01
9.94975721813979e-08,0.00000000000000e+00,6.00000000000000e-01,-1.64001529939371e-05,6.00000000000000e-01
1.02450380861955e-07,0.00000000000000e+00,6.00000000000000e-01,2.80327103969347e-05,6.00000000000000e-01
1.05000000000000e-07,0.00000000000000e+00,6.00000000000000e-01,-3.91984542110215e-05,6.00000000000000e-01
1.05010000000000e-07,5.99999999999886e-02,6.00000000000000e-01,1.26954215735532e-04,6.00000000000000e-01
1.05030000000000e-07,1.79999999999966e-01,6.00000000000000e-01,3.26135895922147e-04,6.00000000000000e-01
1.05070000000000e-07,4.19999999999920e-01,6.00000000000000e-01,2.97374339759092e-04,6.00000000000000e-01
1.05100000000000e-07,5.99999999999966e-01,6.00000000000000e-01,-9.36938787200373e-04,6.00000000000000e-01
1.05108000000000e-07,6.00000000000000e-01,6.00000000000000e-01,-1.64533380173035e-03,6.00000000000000e-01
1.05124000000000e-07,6.00000000000000e-01,6.00000000000000e-01,-3.00686564847467e-03,6.00000000000000e-01
1.05156000000000e-07,6.00000000000000e-01,6.00000000000000e-01,-4.99977920013848e-03,6.00000000000000e-01
1.05220000000000e-07,6.00000000000000e-01,6.00000000000000e-01,-4.18853801272134e-03,6.00000000000000e-01
1.05348000000000e-07,6.00000000000000e-01,6.00000000000000e-01,1.28500734583528e-01,6.00000000000000e-01
1.05604000000000e-07,6.00000000000000e-01,6.00000000000000e-01,5.32453746053480e-01,6.00000000000000e-01
1.06116000000000e-07,6.00000000000000e-01,6.00000000000000e-01,6.17743563663107e-01,6.00000000000000e-01
1.06701723240051e-07,6.00000000000000e-01,6.00000000000000e-01,5.82891935487623e-01,6.00000000000000e-01
1.07873169720153e-07,6.00000000000000e-01,6.00000000000000e-01,6.12942301110266e-01,6.00000000000000e-01
1.09174931335203e-07,6.00000000000000e-01,6.00000000000000e-01,5.86637047720627e-01,6.00000000000000e-01
1.11778454565304e-07,6.00000000000000e-01,6.00000000000000e-01,6.11256036686132e-01,6.00000000000000e-01
1.15100000000000e-07,6.00000000000000e-01,6.00000000000000e-01,5.87890461150522e-01,6.00000000000000e-01
1.15110000000000e-07,5.40000000000061e-01,6.00000000000000e-01,5.90731283798585e-01,6.00000000000000e-01
1.15130000000000e-07,4.20000000000084e-01,6.00000000000000e-01,5.95021206346393e-01,6.00000000000000e-01
1.15170000000000e-07,1.80000000000129e-01,6.00000000000000e-01,5.98960963325547e-01,6.00000000000000e-01
1.15200000000000e-07,8.40438829641244e-14,6.00000000000000e-01,6.00751750851735e-01,6.00000000000000e-01
1.15208000000000e-07,0.00000000000000e+00,6.00000000000000e-01,6.01234863644106e-01,6.00000000000000e-01
1.15224000000000e-07,0.00000000000000e+00,6.00000000000000e-01,6.01950866582528e-01,6.00000000000000e-01
