Time,v(clk),v(data),v(out)
1.00000000000000e-08,6.00000000000000e-01,0.00000000000000e+00,1.94049224774683e-05
1.00100000000000e-08,6.00000000000000e-01,5.99999999999986e-02,1.78195320902977e-05
1.00300000000000e-08,6.00000000000000e-01,1.79999999999996e-01,1.55808733785581e-05
1.00700000000000e-08,6.00000000000000e-01,4.19999999999990e-01,1.15951424545999e-05
1.01000000000000e-08,6.00000000000000e-01,5.99999999999995e-01,7.58140002794783e-06
1.01080000000000e-08,6.00000000000000e-01,6.00000000000000e-01,6.06971611073065e-06
1.01240000000000e-08,6.00000000000000e-01,6.00000000000000e-01,4.14690899855352e-06
1.01560000000000e-08,6.00000000000000e-01,6.00000000000000e-01,4.17248998735992e-06
1.02200000000000e-08,6.00000000000000e-01,6.00000000000000e-01,9.40020646742618e-06
1.03480000000000e-08,6.00000000000000e-01,6.00000000000000e-01,1.34421224497056e-05
1.06040000000000e-08,6.00000000000000e-01,6.00000000000000e-01,1.29966997335362e-05
1.11160000000000e-08,6.00000000000000e-01,6.00000000000000e-01,1.01314943738960e-05
1.20149475758015e-08,6.00000000000000e-01,6.00000000000000e-01,1.20604900314628e-05
1.38128427274044e-08,6.00000000000000e-01,6.00000000000000e-01,9.85474603726593e-06
1.51000000000000e-08,6.00000000000000e-01,6.00000000000000e-01,1.06797568013590e-05
1.51100000000000e-08,5.39999999999992e-01,6.00000000000000e-01,-5.46649776555636e-05
1.51300000000000e-08,4.19999999999994e-01,6.00000000000000e-01,-1.75026129018256e-04
1.51700000000000e-08,1.80000000000000e-01,6.00000000000000e-01,-3.05607723902611e-04
1.52000000000000e-08,0.00000000000000e+00,6.00000000000000e-01,-1.91124839752026e-04
1.52080000000000e-08,0.00000000000000e+00,6.00000000000000e-01,-5.99799493444728e-05
1.52240000000000e-08,0.00000000000000e+00,6.00000000000000e-01,1.52134041653693e-04
1.52560000000000e-08,0.00000000000000e+00,6.00000000000000e-01,3.65553223504726e-04
1.53200000000000e-08,0.00000000000000e+00,6.00000000000000e-01,4.11603017080195e-04
1.54480000000000e-08,0.00000000000000e+00,6.00000000000000e-01,1.03475873713850e-04
1.57040000000000e-08,0.00000000000000e+00,6.00000000000000e-01,-2.70404257586124e-04
1.62160000000000e-08,0.00000000000000e+00,6.00000000000000e-01,-1.72777685273073e-05
1.71650426614096e-08,0.00000000000000e+00,6.00000000000000e-01,-5.39388696275088e-05
1.84526631319248e-08,0.00000000000000e+00,6.00000000000000e-01,1.47206436555509e-04
2.10279040729552e-08,0.00000000000000e+00,6.00000000000000e-01,-1.15931554632986e-04
2.37570629686475e-08,0.00000000000000e+00,6.00000000000000e-01,1.10504825864299e-04
2.50000000000000e-08,0.00000000000000e+00,6.00000000000000e-01,-5.94301487189322e-05
2.50100000000000e-08,5.99999999999886e-02,6.00000000000000e-01,5.16726624594371e-05
2.50300000000000e-08,1.80000000000006e-01,6.00000000000000e-01,2.49454121584135e-04
2.50700000000000e-08,4.20000000000000e-01,6.00000000000000e-01,5.14595294445863e-04
2.51000000000000e-08,6.00000000000000e-01,6.00000000000000e-01,5.45304626923537e-04
2.51080000000000e-08,6.00000000000000e-01,6.00000000000000e-01,4.63864424669842e-04
2.51240000000000e-08,6.00000000000000e-01,6.00000000000000e-01,2.76506717506106e-04
2.51560000000000e-08,6.00000000000000e-01,6.00000000000000e-01,-2.97756719513251e-04
2.52200000000000e-08,6.00000000000000e-01,6.00000000000000e-01,-1.88127751133518e-03
2.53480000000000e-08,6.00000000000000e-01,6.00000000000000e-01,-4.42158868810334e-03
2.56040000000000e-08,6.00000000000000e-01,6.00000000000000e-01,1.37562826345749e-02
2.61160000000000e-08,6.00000000000000e-01,6.00000000000000e-01,4.10803158474083e-01
2.71400000000000e-08,6.00000000000000e-01,6.00000000000000e-01,6.27620180721550e-01
2.82932674485918e-08,6.00000000000000e-01,6.00000000000000e-01,5.76269033623121e-01
3.01000000000000e-08,6.00000000000000e-01,6.00000000000000e-01,6.21579911060377e-01
3.01100000000000e-08,6.00000000000000e-01,5.40000000000031e-01,6.16492713369089e-01
3.01300000000000e-08,6.00000000000000e-01,4.20000000000014e-01,6.08753381321914e-01
3.01700000000000e-08,6.00000000000000e-01,1.80000000000020e-01,6.02056643532380e-01
3.02000000000000e-08,6.00000000000000e-01,1.44328993201270e-14,6.00671525944920e-01
3.02080000000000e-08,6.00000000000000e-01,0.00000000000000e+00,6.00495939459749e-01
3.02240000000000e-08,6.00000000000000e-01,0.00000000000000e+00,6.00230764470757e-01
3.02560000000000e-08,6.00000000000000e-01,0.00000000000000e+00,5.99963705686004e-01
3.03200000000000e-08,6.00000000000000e-01,0.00000000000000e+00,5.99837512057402e-01
3.04480000000000e-08,6.00000000000000e-01,0.00000000000000e+00,5.99850009651325e-01
3.07040000000000e-08,6.00000000000000e-01,0.00000000000000e+00,5.99925542219502e-01
3.12160000000000e-08,6.00000000000000e-01,0.00000000000000e+00,5.99943009685589e-01
3.20260691922146e-08,6.00000000000000e-01,0.00000000000000e+00,5.99933115015674e-01
3.33598588017264e-08,6.00000000000000e-01,0.00000000000000e+00,5.99951163521490e-01
3.51000000000000e-08,5.99999999999970e-01,0.00000000000000e+00,5.99948650127104e-01
3.51100000000000e-08,5.39999999999982e-01,0.00000000000000e+00,5.99878864566897e-01
3.51300000000000e-08,4.19999999999965e-01,0.00000000000000e+00,5.99773040739297e-01
3.51700000000000e-08,1.79999999999970e-01,0.00000000000000e+00,6.00065181860041e-01
3.52000000000000e-08,0.00000000000000e+00,0.00000000000000e+00,6.01253064022123e-01
3.52080000000000e-08,0.00000000000000e+00,0.00000000000000e+00,6.01661934873230e-01
3.52240000000000e-08,0.00000000000000e+00,0.00000000000000e+00,6.02283823060931e-01
3.52560000000000e-08,0.00000000000000e+00,0.00000000000000e+00,6.02799221498130e-01
3.53200000000000e-08,0.00000000000000e+00,0.00000000000000e+00,6.02064845414647e-01
3.54480000000000e-08,0.00000000000000e+00,0.00000000000000e+00,5.91326934898909e-01
3.57040000000000e-08,0.00000000000000e+00,0.00000000000000e+00,5.77139104335745e-01
3.62160000000000e-08,0.00000000000000e+00,0.00000000000000e+00,5.96510046397920e-01
3.69772581822716e-08,0.00000000000000e+00,0.00000000000000e+00,6.00803897376924e-01
3.82527461142890e-08,0.00000000000000e+00,0.00000000000000e+00,5.98375030735733e-01
3.91000000000000e-08,0.00000000000000e+00,0.00000000000000e+00,6.00469595582303e-01
3.92576198446890e-08,0.00000000000000e+00,0.00000000000000e+00,5.99915610367410e-01
3.95728595340670e-08,0.00000000000000e+00,0.00000000000000e+00,5.99577058823875e-01
4.02033389128229e-08,0.00000000000000e+00,0.00000000000000e+00,5.99766495704593e-01
4.14642976703349e-08,0.00000000000000e+00,0.00000000000000e+00,5.99707537758568e-01
4.39862151853587e-08,0.00000000000000e+00,0.00000000000000e+00,5.99848373677149e-01
4.50000000000000e-08,0.00000000000000e+00,0.00000000000000e+00,5.99790329910876e-01
4.50100000000000e-08,5.99999999999886e-02,0.00000000000000e+00,5.99860116935500e-01
4.50300000000000e-08,1.80000000000006e-01,0.00000000000000e+00,5.99962541316412e-01
4.50700000000000e-08,4.20000000000000e-01,0.00000000000000e+00,6.00013846580631e-01
4.51000000000000e-08,6.00000000000000e-01,0.00000000000000e+00,5.99932043326218e-01
4.51080000000000e-08,6.00000000000000e-01,0.00000000000000e+00,5.99865083742615e-01
4.51240000000000e-08,6.00000000000000e-01,0.00000000000000e+00,5.99755877012962e-01
4.51560000000000e-08,6.00000000000000e-01,0.00000000000000e+00,5.99644551319801e-01
4.52200000000000e-08,6.00000000000000e-01,0.00000000000000e+00,5.99602686530305e-01
4.53480000000000e-08,6.00000000000000e-01,0.00000000000000e+00,5.99660544931196e-01
4.56040000000000e-08,6.00000000000000e-01,0.00000000000000e+00,6.00716363750508e-01
4.61160000000000e-08,6.00000000000000e-01,0.00000000000000e+00,5.93502967536103e-01
4.71400000000000e-08,6.00000000000000e-01,0.00000000000000e+00,9.58480014871682e-02
4.82166724569036e-08,6.00000000000000e-01,0.00000000000000e+00,-5.00738924214824e-02
5.00000000000000e-08,6.00000000000000e-01,0.00000000000000e+00,4.29208797610198e-02
5.00100000000000e-08,6.00000000000000e-01,5.99999999999886e-02,3.87739978547272e-02
5.00300000000000e-08,6.00000000000000e-01,1.79999999999966e-01,3.17326761213787e-02
5.00700000000000e-08,6.00000000000000e-01,4.20000000000000e-01,2.23008745768732e-02
5.01000000000000e-08,6.00000000000000e-01,6.00000000000000e-01,1.73957842688867e-02
5.01080000000000e-08,6.00000000000000e-01,6.00000000000000e-01,1.63233517612273e-02
5.01240000000000e-08,6.00000000000000e-01,6.00000000000000e-01,1.43171915791372e-02
5.01560000000000e-08,6.00000000000000e-01,6.00000000000000e-01,1.10136252400429e-02
5.02200000000000e-08,6.00000000000000e-01,6.00000000000000e-01,6.47138791569601e-03
5.03480000000000e-08,6.00000000000000e-01,6.00000000000000e-01,2.05171171018349e-03
5.06040000000000e-08,6.00000000000000e-01,6.00000000000000e-01,-3.47971634194061e-05
5.11160000000001e-08,6.00000000000000e-01,6.00000000000000e-01,1.38341236082945e-05
5.20620889885709e-08,6.00000000000000e-01,6.00000000000000e-01,-9.49434597662981e-06
5.39542669657125e-08,6.00000000000000e-01,6.00000000000000e-01,1.14601060717534e-05
5.51000000000000e-08,6.00000000000000e-01,6.00000000000000e-01,-3.36404813878165e-06
5.51100000000000e-08,5.40000000000021e-01,6.00000000000000e-01,-6.82551769771444e-05
5.51300000000000e-08,4.20000000000004e-01,6.00000000000000e-01,-1.85734612537652e-04
5.51700000000000e-08,1.80000000000010e-01,6.00000000000000e-01,-3.15935490746072e-04
5.52000000000000e-08,0.00000000000000e+00,6.00000000000000e-01,-2.03605341026987e-04
5.52080000000000e-08,0.00000000000000e+00,6.00000000000000e-01,-7.32124848343910e-05
5.52240000000000e-08,0.00000000000000e+00,6.00000000000000e-01,1.32130692335142e-04
5.52560000000000e-08,0.00000000000000e+00,6.00000000000000e-01,3.39527399730442e-04
5.53200000000000e-08,0.00000000000000e+00,6.00000000000000e-01,3.19362848213357e-04
5.54480000000000e-08,0.00000000000000e+00,6.00000000000000e-01,-6.07550926880293e-04
5.57040000000000e-08,0.00000000000000e+00,6.00000000000000e-01,-1.80694898878054e-03
5.62160000000000e-08,0.00000000000000e+00,6.00000000000000e-01,3.72946691698725e-05
5.69928276460555e-08,0.00000000000000e+00,6.00000000000000e-01,7.65271890976558e-05
5.82977181044611e-08,0.00000000000000e+00,6.00000000000000e-01,-3.05170375066582e-05
6.03150964950206e-08,0.00000000000000e+00,6.00000000000000e-01,9.73559251950147e-05
6.29365990178632e-08,0.00000000000000e+00,6.00000000000000e-01,-1.11800246382839e-04
6.50000000000000e-08,0.00000000000000e+00,6.00000000000000e-01,1.49570103441079e-04
6.50100000000000e-08,5.99999999999886e-02,6.00000000000000e-01,2.17772606450922e-04
6.50300000000000e-08,1.79999999999966e-01,6.00000000000000e-01,3.51556965016028e-04
6.50700000000000e-08,4.19999999999920e-01,6.00000000000000e-01,5.56366986729645e-04
6.51000000000000e-08,5.99999999999966e-01,6.00000000000000e-01,5.72003220125565e-04
6.51080000000000e-08,6.00000000000000e-01,6.00000000000000e-01,4.93117660571391e-04
6.51240000000000e-08,6.00000000000000e-01,6.00000000000000e-01,3.19363136541767e-04
6.51560000000000e-08,6.00000000000000e-01,6.00000000000000e-01,-2.05611946589919e-04
6.52200000000000e-08,6.00000000000000e-01,6.00000000000000e-01,-1.74497390913878e-03
6.53480000000000e-08,6.00000000000000e-01,6.00000000000000e-01,-4.35818221599171e-03
6.56040000000000e-08,6.00000000000000e-01,6.00000000000000e-01,1.20528968151927e-02
6.61159999999999e-08,6.00000000000000e-01,6.00000000000000e-01,4.05609987710553e-01
6.71399999999999e-08,6.00000000000000e-01,6.00000000000000e-01,6.27403959906630e-01
6.82981344359343e-08,6.00000000000000e-01,6.00000000000000e-01,5.76562925821896e-01
7.01000000000000e-08,6.00000000000000e-01,6.00000000000000e-01,6.21379703797697e-01
7.01100000000000e-08,6.00000000000000e-01,5.40000000000011e-01,6.16342146898749e-01
7.01300000000000e-08,6.00000000000000e-01,4.20000000000034e-01,6.08671972818527e-01
7.01700000000000e-08,6.00000000000000e-01,1.80000000000080e-01,6.02028091629586e-01
7.02000000000000e-08,6.00000000000000e-01,3.44169137633799e-14,6.00658588431839e-01
7.02080000000000e-08,6.00000000000000e-01,0.00000000000000e+00,6.00484707394942e-01
7.02240000000000e-08,6.00000000000000e-01,0.00000000000000e+00,6.00222237247624e-01
7.02560000000000e-08,6.00000000000000e-01,0.00000000000000e+00,5.99958957511793e-01
7.03200000000000e-08,6.00000000000000e-01,0.00000000000000e+00,5.99835174014840e-01
7.04480000000000e-08,6.00000000000000e-01,0.00000000000000e+00,5.99848627091011e-01
7.07040000000000e-08,6.00000000000000e-01,0.00000000000000e+00,5.99925402656280e-01
7.12159999999999e-08,6.00000000000000e-01,0.00000000000000e+00,5.99943400126412e-01
7.20240178596098e-08,6.00000000000000e-01,0.00000000000000e+00,5.99932904464097e-01
7.33585532172506e-08,6.00000000000000e-01,0.00000000000000e+00,5.99951375075823e-01
7.51000000000000e-08,6.00000000000000e-01,0.00000000000000e+00,5.99948496156142e-01
7.51100000000000e-08,5.40000000000061e-01,0.00000000000000e+00,5.99878657420598e-01
7.51300000000000e-08,4.20000000000084e-01,0.00000000000000e+00,5.99772790961343e-01
7.51700000000000e-08,1.80000000000129e-01,0.00000000000000e+00,6.00065006768767e-01
7.52000000000000e-08,8.40438829641244e-14,0.00000000000000e+00,6.01252993651803e-01
7.52080000000000e-08,0.00000000000000e+00,0.00000000000000e+00,6.01661856502815e-01
7.52240000000000e-08,0.00000000000000e+00,0.00000000000000e+00,6.02283747103981e-01
7.52560000000000e-08,0.00000000000000e+00,0.00000000000000e+00,6.02799233182297e-01
7.53200000000000e-08,0.00000000000000e+00,0.00000000000000e+00,6.02065237357072e-01
7.54480000000000e-08,0.00000000000000e+00,0.00000000000000e+00,5.91328362796067e-01
7.57040000000000e-08,0.00000000000000e+00,0.00000000000000e+00,5.77140199060425e-01
7.62159999999999e-08,0.00000000000000e+00,0.00000000000000e+00,5.96509657698021e-01
7.69772624736798e-08,0.00000000000000e+00,0.00000000000000e+00,6.00804247414674e-01
7.81000000000000e-08,0.00000000000000e+00,0.00000000000000e+00,5.98389735392340e-01
7.82275494671189e-08,0.00000000000000e+00,0.00000000000000e+00,5.99130424601146e-01
7.84826484013568e-08,0.00000000000000e+00,0.00000000000000e+00,5.99699680589662e-01
7.89928462698325e-08,0.00000000000000e+00,0.00000000000000e+00,5.99567681986576e-01
8.00132420067838e-08,0.00000000000000e+00,0.00000000000000e+00,5.99744059591413e-01
8.20540334806865e-08,0.00000000000000e+00,0.00000000000000e+00,5.99730380779256e-01
8.50000000000000e-08,0.00000000000000e+00,0.00000000000000e+00,5.99856918834107e-01
8.50100000000000e-08,5.99999999999886e-02,0.00000000000000e+00,5.99918285092209e-01
8.50300000000000e-08,1.79999999999966e-01,0.00000000000000e+00,6.00006154906501e-01
8.50700000000000e-08,4.19999999999920e-01,0.00000000000000e+00,6.00039744428655e-01
8.51000000000000e-08,5.99999999999966e-01,0.00000000000000e+00,5.99948762730723e-01
8.51080000000000e-08,6.00000000000000e-01,0.00000000000000e+00,5.99880081777950e-01
8.51240000000000e-08,6.00000000000000e-01,0.00000000000000e+00,5.99767978198846e-01
8.51560000000000e-08,6.00000000000000e-01,0.00000000000000e+00,5.99652829821619e-01
8.52200000000000e-08,6.00000000000000e-01,0.00000000000000e+00,5.99606810450821e-01
8.53480000000000e-08,6.00000000000000e-01,0.00000000000000e+00,5.99662134414814e-01
8.56040000000000e-08,6.00000000000000e-01,0.00000000000000e+00,6.00716456960222e-01
8.61159999999999e-08,6.00000000000000e-01,0.00000000000000e+00,5.93567821842494e-01
8.71399999999999e-08,6.00000000000000e-01,0.00000000000000e+00,9.59040283657917e-02
8.82167360552859e-08,6.00000000000000e-01,0.00000000000000e+00,-5.00956316991628e-02
9.00000000000000e-08,6.00000000000000e-01,0.00000000000000e+00,4.29412890673259e-02
9.00100000000000e-08,6.00000000000000e-01,5.99999999999886e-02,3.87931321394279e-02
9.00300000000000e-08,6.00000000000000e-01,1.79999999999966e-01,3.17493206036504e-02
9.00700000000000e-08,6.00000000000000e-01,4.19999999999920e-01,2.23132196921910e-02
9.01000000000000e-08,6.00000000000000e-01,5.99999999999966e-01,1.74055860333375e-02
9.01080000000000e-08,6.00000000000000e-01,6.00000000000000e-01,1.63325812716329e-02
9.01240000000000e-08,6.00000000000000e-01,6.00000000000000e-01,1.43253387194666e-02
9.01560000000000e-08,6.00000000000000e-01,6.00000000000000e-01,1.10199567373275e-02
9.02200000000000e-08,6.00000000000000e-01,6.00000000000000e-01,6.47514930120419e-03
9.03480000000000e-08,6.00000000000000e-01,6.00000000000000e-01,2.05291267023189e-03
9.06040000000000e-08,6.00000000000000e-01,6.00000000000000e-01,-3.48211309884883e-05
9.11159999999999e-08,6.00000000000000e-01,6.00000000000000e-01,1.38409256094513e-05
9.20626576919979e-08,6.00000000000000e-01,6.00000000000000e-01,-9.50804315495192e-06
9.39559730759938e-08,6.00000000000000e-01,6.00000000000000e-01,1.14700352195300e-05
9.51000000000000e-08,6.00000000000000e-01,6.00000000000000e-01,-3.36849747401176e-06
9.51100000000000e-08,5.40000000000061e-01,6.00000000000000e-01,-6.82585381443918e-05
9.51300000000000e-08,4.20000000000084e-01,6.00000000000000e-01,-1.85738023874685e-04
9.51700000000000e-08,1.80000000000129e-01,6.00000000000000e-01,-3.15938491768759e-04
9.52000000000000e-08,8.40438829641244e-14,6.00000000000000e-01,-2.03608160377365e-04
9.52080000000000e-08,0.00000000000000e+00,6.00000000000000e-01,-7.32153556498930e-05
9.52240000000000e-08,0.00000000000000e+00,6.00000000000000e-01,1.32127520509923e-04
9.52560000000000e-08,0.00000000000000e+00,6.00000000000000e-01,3.39522551942133e-04
9.53200000000000e-08,0.00000000000000e+00,6.00000000000000e-01,3.19343530824891e-04
9.54480000000000e-08,0.00000000000000e+00,6.00000000000000e-01,-6.07633420681965e-04
9.57040000000000e-08,0.00000000000000e+00,6.00000000000000e-01,-1.80719008708796e-03
9.62159999999999e-08,0.00000000000000e+00,6.00000000000000e-01,3.72745886140294e-05
9.69927732122070e-08,0.00000000000000e+00,6.00000000000000e-01,7.65924939873427e-05
9.82976341440374e-08,0.00000000000000e+00,6.00000000000000e-01,-3.05757788536948e-05
1.00314755414340e-07,0.00000000000000e+00,6.00000000000000e-01,9.74231222955237e-05
1.02936215166804e-07,0.00000000000000e+00,6.00000000000000e-01,-1.11865420407588e-04
1.05000000000000e-07,0.00000000000000e+00,6.00000000000000e-01,1.49627446765334e-04
1.05010000000000e-07,5.99999999999886e-02,6.00000000000000e-01,2.17818908783911e-04
1.05030000000000e-07,1.79999999999966e-01,6.00000000000000e-01,3.51587360288022e-04
1.05070000000000e-07,4.19999999999920e-01,6.00000000000000e-01,5.56384159582569e-04
1.05100000000000e-07,5.99999999999966e-01,6.00000000000000e-01,5.72016737823450e-04
1.05108000000000e-07,6.00000000000000e-01,6.00000000000000e-01,4.93131471957599e-04
1.05124000000000e-07,6.00000000000000e-01,6.00000000000000e-01,3.19379422315663e-04
1.05156000000000e-07,6.00000000000000e-01,6.00000000000000e-01,-2.05584620318902e-04
1.05220000000000e-07,6.00000000000000e-01,6.00000000000000e-01,-1.74493646873896e-03
1.05348000000000e-07,6.00000000000000e-01,6.00000000000000e-01,-4.35816418861677e-03
1.05604000000000e-07,6.00000000000000e-01,6.00000000000000e-01,1.20524659306522e-02
1.06116000000000e-07,6.00000000000000e-01,6.00000000000000e-01,4.05608625385297e-01
1.07140000000000e-07,6.00000000000000e-01,6.00000000000000e-01,6.27403904637529e-01
1.08298135777843e-07,6.00000000000000e-01,6.00000000000000e-01,5.76563007724647e-01
1.10100000000000e-07,6.00000000000000e-01,6.00000000000000e-01,6.21379646700872e-01
1.10110000000000e-07,6.00000000000000e-01,5.40000000000091e-01,6.16342100164069e-01
1.10130000000000e-07,6.00000000000000e-01,4.20000000000114e-01,6.08671947689630e-01
1.10170000000000e-07,6.00000000000000e-01,1.80000000000159e-01,6.02028084539101e-01
1.10200000000000e-07,6.00000000000000e-01,1.13686837721616e-13,6.00658585074253e-01
1.10208000000000e-07,6.00000000000000e-01,0.00000000000000e+00,6.00484704319243e-01
1.10224000000000e-07,6.00000000000000e-01,0.00000000000000e+00,6.00222234909315e-01
1.10256000000000e-07,6.00000000000000e-01,0.00000000000000e+00,5.99958956138168e-01
1.10320000000000e-07,6.00000000000000e-01,0.00000000000000e+00,5.99835173224891e-01
1.10448000000000e-07,6.00000000000000e-01,0.00000000000000e+00,5.99848626597953e-01
