Time,v(clk),v(data),v(out)
1.00000000000000e-08,6.00000000000000e-01,0.00000000000000e+00,-2.48238470320836e-06
1.00100000000000e-08,6.00000000000000e-01,5.99999999999986e-02,1.88007212274105e-06
1.00300000000000e-08,6.00000000000000e-01,1.79999999999996e-01,7.05375966224969e-06
1.00700000000000e-08,6.00000000000000e-01,4.19999999999990e-01,9.08071275606409e-06
1.01000000000000e-08,6.00000000000000e-01,5.99999999999995e-01,7.52348270643965e-06
1.01080000000000e-08,6.00000000000000e-01,6.00000000000000e-01,6.95472861847457e-06
1.01240000000000e-08,6.00000000000000e-01,6.00000000000000e-01,5.71490676314762e-06
1.01560000000000e-08,6.00000000000000e-01,6.00000000000000e-01,7.39318361396568e-06
1.02200000000000e-08,6.00000000000000e-01,6.00000000000000e-01,1.31062901059659e-05
1.03480000000000e-08,6.00000000000000e-01,6.00000000000000e-01,1.40238207603366e-05
1.06040000000000e-08,6.00000000000000e-01,6.00000000000000e-01,9.92466744297038e-06
1.11142966812354e-08,6.00000000000000e-01,6.00000000000000e-01,1.16649421880756e-05
1.21348900437063e-08,6.00000000000000e-01,6.00000000000000e-01,1.00433386652360e-05
1.41760767686481e-08,6.00000000000000e-01,6.00000000000000e-01,1.03960822612111e-05
1.51000000000000e-08,6.00000000000000e-01,6.00000000000000e-01,9.36026450528739e-06
1.51100000000000e-08,5.39999999999992e-01,6.00000000000000e-01,-5.09454193687586e-05
1.51300000000000e-08,4.19999999999994e-01,6.00000000000000e-01,-1.50524097530302e-04
1.51700000000000e-08,1.80000000000000e-01,6.00000000000000e-01,-1.93515821390614e-04
1.52000000000000e-08,0.00000000000000e+00,6.00000000000000e-01,3.88274247414139e-06
1.52080000000000e-08,0.00000000000000e+00,6.00000000000000e-01,1.35936651388717e-04
1.52240000000000e-08,0.00000000000000e+00,6.00000000000000e-01,3.22789264187301e-04
1.52560000000000e-08,0.00000000000000e+00,6.00000000000000e-01,4.11029037744919e-04
1.53200000000000e-08,0.00000000000000e+00,6.00000000000000e-01,1.93245405772952e-04
1.54480000000000e-08,0.00000000000000e+00,6.00000000000000e-01,-2.46464980367941e-04
1.57040000000000e-08,0.00000000000000e+00,6.00000000000000e-01,-8.90840789308477e-05
1.62160000000000e-08,0.00000000000000e+00,6.00000000000000e-01,-9.26867124742617e-05
1.68838469224889e-08,0.00000000000000e+00,6.00000000000000e-01,1.26415137837949e-04
1.81418501676356e-08,0.00000000000000e+00,6.00000000000000e-01,-1.20383770324962e-06
1.97878539382763e-08,0.00000000000000e+00,6.00000000000000e-01,-3.63348830215438e-05
2.27806733268658e-08,0.00000000000000e+00,6.00000000000000e-01,7.25460638210575e-05
2.50000000000000e-08,0.00000000000000e+00,6.00000000000000e-01,-7.92796665682201e-05
2.50100000000000e-08,5.99999999999886e-02,6.00000000000000e-01,4.96868876906573e-05
2.50300000000000e-08,1.80000000000006e-01,6.00000000000000e-01,2.58241884952964e-04
2.50700000000000e-08,4.20000000000000e-01,6.00000000000000e-01,4.69348129668111e-04
2.51000000000000e-08,6.00000000000000e-01,6.00000000000000e-01,3.64875391902650e-04
2.51080000000000e-08,6.00000000000000e-01,6.00000000000000e-01,1.93628606132250e-04
2.51240000000000e-08,6.00000000000000e-01,6.00000000000000e-01,-2.61914805787723e-04
2.51560000000000e-08,6.00000000000000e-01,6.00000000000000e-01,-1.54328581087628e-03
2.52200000000000e-08,6.00000000000000e-01,6.00000000000000e-01,-3.87253221539358e-03
2.53480000000000e-08,6.00000000000000e-01,6.00000000000000e-01,-1.08557942105380e-03
2.56040000000000e-08,6.00000000000000e-01,6.00000000000000e-01,2.41082961736731e-01
2.61160000000000e-08,6.00000000000000e-01,6.00000000000000e-01,6.06143667878865e-01
2.68956597631074e-08,6.00000000000000e-01,6.00000000000000e-01,5.95101772482357e-01
2.81232412561948e-08,6.00000000000000e-01,6.00000000000000e-01,6.05226285843336e-01
2.97968950846972e-08,6.00000000000000e-01,6.00000000000000e-01,5.95127855864945e-01
3.22360171800835e-08,6.00000000000000e-01,6.00000000000000e-01,6.04901802779216e-01
3.51000000000000e-08,5.99999999999970e-01,6.00000000000000e-01,5.95291931396042e-01
3.51100000000000e-08,5.39999999999982e-01,6.00000000000000e-01,5.96813078177914e-01
3.51300000000000e-08,4.19999999999965e-01,6.00000000000000e-01,5.98845757662853e-01
3.51700000000000e-08,1.79999999999970e-01,6.00000000000000e-01,6.00403889852168e-01
3.52000000000000e-08,0.00000000000000e+00,6.00000000000000e-01,6.01825327567091e-01
3.52080000000000e-08,0.00000000000000e+00,6.00000000000000e-01,6.02236042218219e-01
3.52240000000000e-08,0.00000000000000e+00,6.00000000000000e-01,6.02789351090291e-01
3.52560000000000e-08,0.00000000000000e+00,6.00000000000000e-01,6.02819579303386e-01
3.53200000000000e-08,0.00000000000000e+00,6.00000000000000e-01,5.97920753691181e-01
3.54480000000000e-08,0.00000000000000e+00,6.00000000000000e-01,5.80355342595053e-01
3.57040000000000e-08,0.00000000000000e+00,6.00000000000000e-01,5.87799512346413e-01
3.62160000000000e-08,0.00000000000000e+00,6.00000000000000e-01,6.04709504084260e-01
3.69047314305370e-08,0.00000000000000e+00,6.00000000000000e-01,5.95213135940972e-01
3.82821942916109e-08,0.00000000000000e+00,6.00000000000000e-01,6.03372326070837e-01
4.10371200137588e-08,0.00000000000000e+00,6.00000000000000e-01,5.96348923655327e-01
4.48371200137588e-08,0.00000000000000e+00,6.00000000000000e-01,6.03125874358556e-01
4.50000000000000e-08,0.00000000000000e+00,6.00000000000000e-01,5.98843794389463e-01
4.50100000000000e-08,5.99999999999886e-02,6.00000000000000e-01,5.99112476580389e-01
4.50300000000000e-08,1.80000000000006e-01,6.00000000000000e-01,5.99530394873839e-01
4.50700000000000e-08,4.20000000000000e-01,6.00000000000000e-01,5.99913812048414e-01
4.51000000000000e-08,6.00000000000000e-01,6.00000000000000e-01,5.99884919678777e-01
4.51080000000000e-08,6.00000000000000e-01,5.52000000000025e-01,5.99768333814785e-01
4.51240000000000e-08,6.00000000000000e-01,4.55999999999996e-01,5.99481027437103e-01
4.51560000000000e-08,6.00000000000000e-01,2.64000000000016e-01,5.98820323472692e-01
4.52000000000000e-08,6.00000000000000e-01,3.44169137633799e-14,5.98158828695874e-01
4.52064000000000e-08,6.00000000000000e-01,0.00000000000000e+00,5.98105484170689e-01
4.52192000000000e-08,6.00000000000000e-01,0.00000000000000e+00,5.98002172787536e-01
4.52448000000000e-08,6.00000000000000e-01,0.00000000000000e+00,5.97835378068272e-01
4.52960000000000e-08,6.00000000000000e-01,0.00000000000000e+00,5.97655976269544e-01
4.53984000000000e-08,6.00000000000000e-01,0.00000000000000e+00,5.97898028050145e-01
4.56032000000000e-08,6.00000000000000e-01,0.00000000000000e+00,5.98863399290168e-01
4.59621492680690e-08,6.00000000000000e-01,0.00000000000000e+00,5.99810719706527e-01
4.66048068269771e-08,6.00000000000000e-01,0.00000000000000e+00,6.00005433889548e-01
4.73318436183965e-08,6.00000000000000e-01,0.00000000000000e+00,6.00025543567579e-01
4.87859172012353e-08,6.00000000000000e-01,0.00000000000000e+00,5.99971096954945e-01
5.16940643669130e-08,6.00000000000000e-01,0.00000000000000e+00,6.00029377491359e-01
5.51000000000000e-08,6.00000000000000e-01,0.00000000000000e+00,5.99970730589937e-01
5.51100000000000e-08,5.40000000000021e-01,0.00000000000000e+00,5.99920199350627e-01
5.51300000000000e-08,4.20000000000004e-01,0.00000000000000e+00,5.99855315987696e-01
5.51700000000000e-08,1.80000000000010e-01,0.00000000000000e+00,6.00323872878230e-01
5.52000000000000e-08,0.00000000000000e+00,0.00000000000000e+00,6.01779673541082e-01
5.52080000000000e-08,0.00000000000000e+00,0.00000000000000e+00,6.02220437191478e-01
5.52240000000000e-08,0.00000000000000e+00,0.00000000000000e+00,6.02873434586530e-01
5.52560000000000e-08,0.00000000000000e+00,0.00000000000000e+00,6.03472998646095e-01
5.53200000000000e-08,0.00000000000000e+00,0.00000000000000e+00,6.04094115990129e-01
5.54480000000000e-08,0.00000000000000e+00,0.00000000000000e+00,6.02866795707935e-01
5.57040000000000e-08,0.00000000000000e+00,0.00000000000000e+00,5.98995370472929e-01
5.61211903762036e-08,0.00000000000000e+00,0.00000000000000e+00,5.99746861037877e-01
5.67570953330203e-08,0.00000000000000e+00,0.00000000000000e+00,5.99569673441074e-01
5.77576580606947e-08,0.00000000000000e+00,0.00000000000000e+00,5.99764439803560e-01
5.94666082709283e-08,0.00000000000000e+00,0.00000000000000e+00,5.99792471204333e-01
6.28845086913956e-08,0.00000000000000e+00,0.00000000000000e+00,5.99841105250895e-01
6.50000000000000e-08,0.00000000000000e+00,0.00000000000000e+00,5.99882621731117e-01
6.50100000000000e-08,5.99999999999886e-02,0.00000000000000e+00,5.99910995982721e-01
6.50300000000000e-08,1.79999999999966e-01,0.00000000000000e+00,5.99947683399212e-01
6.50700000000000e-08,4.19999999999920e-01,0.00000000000000e+00,5.99942517125789e-01
6.51000000000000e-08,5.99999999999966e-01,0.00000000000000e+00,5.99837968894020e-01
6.51080000000000e-08,6.00000000000000e-01,0.00000000000000e+00,5.99778635063849e-01
6.51240000000000e-08,6.00000000000000e-01,0.00000000000000e+00,5.99693052778702e-01
6.51560000000000e-08,6.00000000000000e-01,0.00000000000000e+00,5.99641975596199e-01
6.52200000000000e-08,6.00000000000000e-01,0.00000000000000e+00,5.99656100223847e-01
6.53480000000000e-08,6.00000000000000e-01,0.00000000000000e+00,6.00108071395968e-01
6.56040000000000e-08,6.00000000000000e-01,0.00000000000000e+00,6.09433420192912e-01
6.61159999999999e-08,6.00000000000000e-01,0.00000000000000e+00,1.87132128169732e-01
6.68253522229205e-08,6.00000000000000e-01,0.00000000000000e+00,-6.96531673698746e-02
6.77113076674046e-08,6.00000000000000e-01,0.00000000000000e+00,5.93176722790589e-02
6.92285926795994e-08,6.00000000000000e-01,0.00000000000000e+00,-4.12090030178837e-02
7.09829212460302e-08,6.00000000000000e-01,0.00000000000000e+00,3.90140088029443e-02
7.43705404652163e-08,6.00000000000000e-01,0.00000000000000e+00,-3.19162483044354e-02
7.51000000000000e-08,6.00000000000000e-01,0.00000000000000e+00,2.27482729502097e-02
7.51100000000000e-08,5.40000000000061e-01,0.00000000000000e+00,2.02923749566722e-02
7.51300000000000e-08,4.20000000000084e-01,0.00000000000000e+00,1.57296977830513e-02
7.51700000000000e-08,1.80000000000129e-01,0.00000000000000e+00,9.09965550071237e-03
7.52000000000000e-08,8.40438829641244e-14,0.00000000000000e+00,6.21734335700671e-03
7.52080000000000e-08,0.00000000000000e+00,0.00000000000000e+00,5.74802127972589e-03
7.52240000000000e-08,0.00000000000000e+00,0.00000000000000e+00,4.83189993519214e-03
7.52560000000000e-08,0.00000000000000e+00,0.00000000000000e+00,3.29999162311596e-03
7.53200000000000e-08,0.00000000000000e+00,0.00000000000000e+00,1.07650249111314e-03
7.54480000000000e-08,0.00000000000000e+00,0.00000000000000e+00,-1.26085969928663e-03
7.57040000000000e-08,0.00000000000000e+00,0.00000000000000e+00,-4.04671612673529e-04
7.61435635882845e-08,0.00000000000000e+00,0.00000000000000e+00,3.96419980889356e-04
7.68405734079368e-08,0.00000000000000e+00,0.00000000000000e+00,-3.17767334051687e-04
7.79801696354610e-08,0.00000000000000e+00,0.00000000000000e+00,3.04529453919002e-04
8.02593620905094e-08,0.00000000000000e+00,0.00000000000000e+00,-2.73103636951356e-04
8.40593620905094e-08,0.00000000000000e+00,0.00000000000000e+00,2.79672515163177e-04
8.50000000000000e-08,0.00000000000000e+00,0.00000000000000e+00,-2.29891556091434e-04
8.50100000000000e-08,5.99999999999886e-02,0.00000000000000e+00,-7.24328203168742e-05
8.50300000000000e-08,1.79999999999966e-01,0.00000000000000e+00,1.38619736206415e-04
8.50700000000000e-08,4.19999999999920e-01,0.00000000000000e+00,2.31769444076914e-04
8.51000000000000e-08,5.99999999999966e-01,0.00000000000000e+00,1.01970351890440e-04
8.51080000000000e-08,6.00000000000000e-01,0.00000000000000e+00,1.15286682146748e-05
8.51240000000000e-08,6.00000000000000e-01,0.00000000000000e+00,-1.30724017169799e-04
8.51560000000000e-08,6.00000000000000e-01,0.00000000000000e+00,-2.46951453089762e-04
8.52200000000000e-08,6.00000000000000e-01,0.00000000000000e+00,-2.24044722188975e-04
8.53480000000000e-08,6.00000000000000e-01,0.00000000000000e+00,-6.91909484819425e-05
8.56040000000000e-08,6.00000000000000e-01,0.00000000000000e+00,6.87408929789003e-05
8.61159999999999e-08,6.00000000000000e-01,0.00000000000000e+00,3.21577527533489e-05
8.71399999999999e-08,6.00000000000000e-01,0.00000000000000e+00,-1.94290210801373e-06
8.86832542016353e-08,6.00000000000000e-01,0.00000000000000e+00,2.80856645097994e-05
9.00000000000000e-08,6.00000000000000e-01,0.00000000000000e+00,-2.60200548459107e-06
9.00100000000000e-08,6.00000000000000e-01,5.99999999999886e-02,1.78402569336183e-06
9.00300000000000e-08,6.00000000000000e-01,1.79999999999966e-01,6.99541929877895e-06
9.00700000000000e-08,6.00000000000000e-01,4.19999999999920e-01,9.09231626802787e-06
9.01000000000000e-08,6.00000000000000e-01,5.99999999999966e-01,7.61051570020987e-06
9.01080000000000e-08,6.00000000000000e-01,6.00000000000000e-01,7.03577607444328e-06
9.01240000000000e-08,6.00000000000000e-01,6.00000000000000e-01,5.83491099177130e-06
9.01560000000000e-08,6.00000000000000e-01,6.00000000000000e-01,7.31187134477701e-06
9.02200000000000e-08,6.00000000000000e-01,6.00000000000000e-01,1.30718976999247e-05
9.03480000000000e-08,6.00000000000000e-01,6.00000000000000e-01,1.39566544179112e-05
9.06040000000000e-08,6.00000000000000e-01,6.00000000000000e-01,9.98430759997782e-06
9.11159999999999e-08,6.00000000000000e-01,6.00000000000000e-01,1.16335342467203e-05
9.21399999999999e-08,6.00000000000000e-01,6.00000000000000e-01,1.00649809536418e-05
9.41879999999998e-08,6.00000000000000e-01,6.00000000000000e-01,1.03726492040939e-05
9.51000000000000e-08,6.00000000000000e-01,6.00000000000000e-01,9.37990310280988e-06
9.51100000000000e-08,5.40000000000061e-01,6.00000000000000e-01,-5.05843331361222e-05
9.51300000000000e-08,4.20000000000084e-01,6.00000000000000e-01,-1.50451579404957e-04
9.51700000000000e-08,1.80000000000129e-01,6.00000000000000e-01,-1.93560187394484e-04
9.52000000000000e-08,8.40438829641244e-14,6.00000000000000e-01,3.85277242626048e-06
9.52080000000000e-08,0.00000000000000e+00,6.00000000000000e-01,1.35909314905029e-04
9.52240000000000e-08,0.00000000000000e+00,6.00000000000000e-01,3.22766999373662e-04
9.52560000000000e-08,0.00000000000000e+00,6.00000000000000e-01,4.11007049053488e-04
9.53200000000000e-08,0.00000000000000e+00,6.00000000000000e-01,1.93190427530125e-04
9.54480000000000e-08,0.00000000000000e+00,6.00000000000000e-01,-2.46484540419339e-04
9.57040000000000e-08,0.00000000000000e+00,6.00000000000000e-01,-8.90189472698803e-05
9.62159999999999e-08,0.00000000000000e+00,6.00000000000000e-01,-9.27401422165172e-05
9.68838892806405e-08,0.00000000000000e+00,6.00000000000000e-01,1.26469161112646e-04
9.81419938329187e-08,0.00000000000000e+00,6.00000000000000e-01,-1.26077746950316e-06
9.97879162847139e-08,0.00000000000000e+00,6.00000000000000e-01,-3.62840091926650e-05
1.02781001682873e-07,0.00000000000000e+00,6.00000000000000e-01,7.24961959663083e-05
1.05000000000000e-07,0.00000000000000e+00,6.00000000000000e-01,-7.92361600298009e-05
1.05010000000000e-07,5.99999999999886e-02,6.00000000000000e-01,4.97246611070937e-05
1.05030000000000e-07,1.79999999999966e-01,6.00000000000000e-01,2.58273641494777e-04
1.05070000000000e-07,4.19999999999920e-01,6.00000000000000e-01,4.69372698382348e-04
1.05100000000000e-07,5.99999999999966e-01,6.00000000000000e-01,3.64915906255418e-04
1.05108000000000e-07,6.00000000000000e-01,6.00000000000000e-01,1.93683641837437e-04
1.05124000000000e-07,6.00000000000000e-01,6.00000000000000e-01,-2.61830058802308e-04
1.05156000000000e-07,6.00000000000000e-01,6.00000000000000e-01,-1.54317346612130e-03
1.05220000000000e-07,6.00000000000000e-01,6.00000000000000e-01,-3.87245959116003e-03
1.05348000000000e-07,6.00000000000000e-01,6.00000000000000e-01,-1.08599973737000e-03
1.05604000000000e-07,6.00000000000000e-01,6.00000000000000e-01,2.41078933072443e-01
1.06116000000000e-07,6.00000000000000e-01,6.00000000000000e-01,6.06142790248436e-01
1.06895666492640e-07,6.00000000000000e-01,6.00000000000000e-01,5.95102275558213e-01
1.08123246555651e-07,6.00000000000000e-01,6.00000000000000e-01,6.05225780294246e-01
1.09796906802826e-07,6.00000000000000e-01,6.00000000000000e-01,5.95128309400449e-01
1.12236032387492e-07,6.00000000000000e-01,6.00000000000000e-01,6.04901349521203e-01
1.15100000000000e-07,6.00000000000000e-01,6.00000000000000e-01,5.95292360383567e-01
1.15110000000000e-07,5.40000000000061e-01,6.00000000000000e-01,5.96813374426700e-01
1.15130000000000e-07,4.20000000000084e-01,6.00000000000000e-01,5.98845870379528e-01
1.15170000000000e-07,1.80000000000129e-01,6.00000000000000e-01,6.00403895516572e-01
1.15200000000000e-07,8.40438829641244e-14,6.00000000000000e-01,6.01825327349566e-01
1.15208000000000e-07,0.00000000000000e+00,6.00000000000000e-01,6.02236041924331e-01
1.15224000000000e-07,0.00000000000000e+00,6.00000000000000e-01,6.02789350885099e-01
1.15256000000000e-07,0.00000000000000e+00,6.00000000000000e-01,6.02819579864904e-01
1.15320000000000e-07,0.00000000000000e+00,6.00000000000000e-01,5.97920758381587e-01
1.15448000000000e-07,0.00000000000000e+00,6.00000000000000e-01,5.80355347890958e-01
1.15704000000000e-07,0.00000000000000e+00,6.00000000000000e-01,5.87799510183573e-01
1.16216000000000e-07,0.00000000000000e+00,6.00000000000000e-01,6.04709505333031e-01
1.16904731415563e-07,0.00000000000000e+00,6.00000000000000e-01,5.95213134887565e-01
1.18282194246689e-07,0.00000000000000e+00,6.00000000000000e-01,6.03372326922887e-01
1.21037119908941e-07,0.00000000000000e+00,6.00000000000000e-01,5.96348922829528e-01
1.24837119908941e-07,0.00000000000000e+00,6.00000000000000e-01,6.03125875133294e-01
1.25000000000000e-07,0.00000000000000e+00,6.00000000000000e-01,5.98843793180530e-01
1.25010000000000e-07,5.99999999999092e-02,6.00000000000000e-01,5.99112475598180e-01
1.25030000000000e-07,1.79999999999886e-01,6.00000000000000e-01,5.99530394256166e-01
1.25070000000000e-07,4.19999999999841e-01,6.00000000000000e-01,5.99913811827618e-01
1.25100000000000e-07,5.99999999999886e-01,6.00000000000000e-01,5.99884919616871e-01
1.25108000000000e-07,6.00000000000000e-01,5.51999999999946e-01,5.99768333781532e-01
1.25124000000000e-07,6.00000000000000e-01,4.55999999999996e-01,5.99481027445665e-01
1.25156000000000e-07,6.00000000000000e-01,2.63999999999937e-01,5.98820323501284e-01
1.25200000000000e-07,6.00000000000000e-01,0.00000000000000e+00,5.98158828706030e-01
1.25206400000000e-07,6.00000000000000e-01,0.00000000000000e+00,5.98105484179066e-01
1.25219200000000e-07,6.00000000000000e-01,0.00000000000000e+00,5.98002172793257e-01
1.25244800000000e-07,6.00000000000000e-01,0.00000000000000e+00,5.97835378070091e-01
1.25296000000000e-07,6.00000000000000e-01,0.00000000000000e+00,5.97655976267740e-01
1.25398400000000e-07,6.00000000000000e-01,0.00000000000000e+00,5.97898028030358e-01
1.25603200000000e-07,6.00000000000000e-01,0.00000000000000e+00,5.98863399255299e-01
1.25962149272466e-07,6.00000000000000e-01,0.00000000000000e+00,5.99810719722512e-01
1.26604806828644e-07,6.00000000000000e-01,0.00000000000000e+00,6.00005433892703e-01
1.27331843450542e-07,6.00000000000000e-01,0.00000000000000e+00,6.00025543560086e-01
1.28785916694337e-07,6.00000000000000e-01,0.00000000000000e+00,5.99971096955503e-01
1.31694063181928e-07,6.00000000000000e-01,0.00000000000000e+00,6.00029377492444e-01
1.35100000000000e-07,5.99999999999891e-01,0.00000000000000e+00,5.99970730587359e-01
1.35110000000000e-07,5.39999999999823e-01,0.00000000000000e+00,5.99920199180864e-01
1.35130000000000e-07,4.19999999999846e-01,0.00000000000000e+00,5.99855315671283e-01
1.35170000000000e-07,1.79999999999891e-01,0.00000000000000e+00,6.00323872662012e-01
1.35200000000000e-07,0.00000000000000e+00,0.00000000000000e+00,6.01779673477172e-01
1.35208000000000e-07,0.00000000000000e+00,0.00000000000000e+00,6.02220437071237e-01
1.35224000000000e-07,0.00000000000000e+00,0.00000000000000e+00,6.02873434413725e-01
1.35256000000000e-07,0.00000000000000e+00,0.00000000000000e+00,6.03472998551711e-01
1.35320000000000e-07,0.00000000000000e+00,0.00000000000000e+00,6.04094115992298e-01
1.35448000000000e-07,0.00000000000000e+00,0.00000000000000e+00,6.02866795715786e-01
