Time,v(clk),v(data),v(out)
1.00000000000000e-08,6.00000000000000e-01,0.00000000000000e+00,-2.46241040111148e-06
1.00100000000000e-08,6.00000000000000e-01,5.99999999999986e-02,1.89507827681734e-06
1.00300000000000e-08,6.00000000000000e-01,1.79999999999996e-01,7.06303255593871e-06
1.00700000000000e-08,6.00000000000000e-01,4.19999999999990e-01,9.08633716091567e-06
1.01000000000000e-08,6.00000000000000e-01,5.99999999999995e-01,7.52706797620128e-06
1.01080000000000e-08,6.00000000000000e-01,6.00000000000000e-01,6.95799943807585e-06
1.01240000000000e-08,6.00000000000000e-01,6.00000000000000e-01,5.71819454060762e-06
1.01560000000000e-08,6.00000000000000e-01,6.00000000000000e-01,7.39608701538774e-06
1.02200000000000e-08,6.00000000000000e-01,6.00000000000000e-01,1.31065775798231e-05
1.03480000000000e-08,6.00000000000000e-01,6.00000000000000e-01,1.40227897367368e-05
1.06040000000000e-08,6.00000000000000e-01,6.00000000000000e-01,9.92535460509272e-06
1.11144673136280e-08,6.00000000000000e-01,6.00000000000000e-01,1.16648030702420e-05
1.21354019408840e-08,6.00000000000000e-01,6.00000000000000e-01,1.00431739124282e-05
1.41772711953961e-08,6.00000000000000e-01,6.00000000000000e-01,1.03957748450322e-05
1.51000000000000e-08,6.00000000000000e-01,6.00000000000000e-01,9.36042279133832e-06
1.51100000000000e-08,5.39999999999992e-01,6.00000000000000e-01,-5.09417801562786e-05
1.51300000000000e-08,4.19999999999994e-01,6.00000000000000e-01,-1.50523392100574e-04
1.51700000000000e-08,1.80000000000000e-01,6.00000000000000e-01,-1.93516309996318e-04
1.52000000000000e-08,0.00000000000000e+00,6.00000000000000e-01,3.88241645532528e-06
1.52080000000000e-08,0.00000000000000e+00,6.00000000000000e-01,1.35936355909826e-04
1.52240000000000e-08,0.00000000000000e+00,6.00000000000000e-01,3.22789029441294e-04
1.52560000000000e-08,0.00000000000000e+00,6.00000000000000e-01,4.11028819212400e-04
1.53200000000000e-08,0.00000000000000e+00,6.00000000000000e-01,1.93244868221469e-04
1.54480000000000e-08,0.00000000000000e+00,6.00000000000000e-01,-2.46465139732789e-04
1.57040000000000e-08,0.00000000000000e+00,6.00000000000000e-01,-8.90834073812123e-05
1.62160000000000e-08,0.00000000000000e+00,6.00000000000000e-01,-9.26872663771141e-05
1.68838473606911e-08,0.00000000000000e+00,6.00000000000000e-01,1.26415698501576e-04
1.81418516478304e-08,0.00000000000000e+00,6.00000000000000e-01,-1.20442816916363e-06
1.97878545815323e-08,0.00000000000000e+00,6.00000000000000e-01,-3.63343550469786e-05
2.27806767109746e-08,0.00000000000000e+00,6.00000000000000e-01,7.25455463021518e-05
2.50000000000000e-08,0.00000000000000e+00,6.00000000000000e-01,-7.92792146211883e-05
2.50100000000000e-08,5.99999999999886e-02,6.00000000000000e-01,4.96872796440992e-05
2.50300000000000e-08,1.80000000000006e-01,6.00000000000000e-01,2.58242213587258e-04
2.50700000000000e-08,4.20000000000000e-01,6.00000000000000e-01,4.69348383063763e-04
2.51000000000000e-08,6.00000000000000e-01,6.00000000000000e-01,3.64875809972458e-04
2.51080000000000e-08,6.00000000000000e-01,6.00000000000000e-01,1.93629174243426e-04
2.51240000000000e-08,6.00000000000000e-01,6.00000000000000e-01,-2.61913930622359e-04
2.51560000000000e-08,6.00000000000000e-01,6.00000000000000e-01,-1.54328465046213e-03
2.52200000000000e-08,6.00000000000000e-01,6.00000000000000e-01,-3.87253146566342e-03
2.53480000000000e-08,6.00000000000000e-01,6.00000000000000e-01,-1.08558373094247e-03
2.56040000000000e-08,6.00000000000000e-01,6.00000000000000e-01,2.41082919556017e-01
2.61160000000000e-08,6.00000000000000e-01,6.00000000000000e-01,6.06143658631665e-01
2.68956598341564e-08,6.00000000000000e-01,6.00000000000000e-01,5.95101777781468e-01
2.81232413121655e-08,6.00000000000000e-01,6.00000000000000e-01,6.05226280508897e-01
2.97968952089166e-08,6.00000000000000e-01,6.00000000000000e-01,5.95127860642712e-01
3.01000000000000e-08,6.00000000000000e-01,6.00000000000000e-01,6.03972271780855e-01
3.01100000000000e-08,6.00000000000000e-01,5.40000000000031e-01,6.02647476482017e-01
3.01300000000000e-08,6.00000000000000e-01,4.20000000000014e-01,6.00872466367459e-01
3.01700000000000e-08,6.00000000000000e-01,1.80000000000020e-01,5.99974899480729e-01
3.02000000000000e-08,6.00000000000000e-01,1.44328993201270e-14,5.99970449290872e-01
3.02080000000000e-08,6.00000000000000e-01,0.00000000000000e+00,5.99961897859523e-01
3.02240000000000e-08,6.00000000000000e-01,0.00000000000000e+00,5.99948105272427e-01
3.02560000000000e-08,6.00000000000000e-01,0.00000000000000e+00,5.99936080778340e-01
3.03200000000000e-08,6.00000000000000e-01,0.00000000000000e+00,5.99952912820625e-01
3.04480000000000e-08,6.00000000000000e-01,0.00000000000000e+00,5.99946920978956e-01
3.07040000000000e-08,6.00000000000000e-01,0.00000000000000e+00,5.99962035374382e-01
3.10979965330188e-08,6.00000000000000e-01,0.00000000000000e+00,5.99954009094012e-01
3.18175292726196e-08,6.00000000000000e-01,0.00000000000000e+00,5.99954975663398e-01
3.27482271393779e-08,6.00000000000000e-01,0.00000000000000e+00,5.99966899264957e-01
3.46096228728946e-08,6.00000000000000e-01,0.00000000000000e+00,5.99958948127101e-01
3.51000000000000e-08,5.99999999999970e-01,0.00000000000000e+00,5.99974918478514e-01
3.51100000000000e-08,5.39999999999982e-01,0.00000000000000e+00,5.99912514794428e-01
3.51300000000000e-08,4.19999999999965e-01,0.00000000000000e+00,5.99828754550248e-01
3.51700000000000e-08,1.79999999999970e-01,0.00000000000000e+00,6.00280436196253e-01
3.52000000000000e-08,0.00000000000000e+00,0.00000000000000e+00,6.01709701540760e-01
3.52080000000000e-08,0.00000000000000e+00,0.00000000000000e+00,6.02128141411010e-01
3.52240000000000e-08,0.00000000000000e+00,0.00000000000000e+00,6.02691108466613e-01
3.52560000000000e-08,0.00000000000000e+00,0.00000000000000e+00,6.02732698179577e-01
3.53200000000000e-08,0.00000000000000e+00,0.00000000000000e+00,5.97951140230466e-01
3.54480000000000e-08,0.00000000000000e+00,0.00000000000000e+00,5.80406325150890e-01
3.57040000000000e-08,0.00000000000000e+00,0.00000000000000e+00,5.87749987301404e-01
3.61261539306756e-08,0.00000000000000e+00,0.00000000000000e+00,6.04253262775955e-01
3.67641139346949e-08,0.00000000000000e+00,0.00000000000000e+00,5.95301876211485e-01
3.77686905042015e-08,0.00000000000000e+00,0.00000000000000e+00,6.03000261963738e-01
3.91000000000000e-08,0.00000000000000e+00,0.00000000000000e+00,5.96771661067100e-01
3.92722180631008e-08,0.00000000000000e+00,0.00000000000000e+00,5.99137095493871e-01
3.96166541893023e-08,0.00000000000000e+00,0.00000000000000e+00,6.00127489194543e-01
4.03055264417052e-08,0.00000000000000e+00,0.00000000000000e+00,5.99507548958016e-01
4.16832709465112e-08,0.00000000000000e+00,0.00000000000000e+00,6.00063806309050e-01
4.44387599561232e-08,0.00000000000000e+00,0.00000000000000e+00,5.99619639292808e-01
4.50000000000000e-08,0.00000000000000e+00,0.00000000000000e+00,6.00019655637602e-01
4.50100000000000e-08,5.99999999999886e-02,0.00000000000000e+00,6.00050710058473e-01
4.50300000000000e-08,1.80000000000006e-01,0.00000000000000e+00,6.00074378406773e-01
4.50700000000000e-08,4.20000000000000e-01,0.00000000000000e+00,6.00001225454338e-01
4.51000000000000e-08,6.00000000000000e-01,0.00000000000000e+00,5.99870534322803e-01
4.51080000000000e-08,6.00000000000000e-01,0.00000000000000e+00,5.99805169646262e-01
4.51240000000000e-08,6.00000000000000e-01,0.00000000000000e+00,5.99709647729794e-01
4.51560000000000e-08,6.00000000000000e-01,0.00000000000000e+00,5.99648208688931e-01
4.52200000000000e-08,6.00000000000000e-01,0.00000000000000e+00,5.99656506679446e-01
4.53480000000000e-08,6.00000000000000e-01,0.00000000000000e+00,6.00097677634342e-01
4.56040000000000e-08,6.00000000000000e-01,0.00000000000000e+00,6.09353128642902e-01
4.61160000000000e-08,6.00000000000000e-01,0.00000000000000e+00,1.87186070368426e-01
4.68270531076306e-08,6.00000000000000e-01,0.00000000000000e+00,-6.97118139889435e-02
4.77129753848908e-08,6.00000000000000e-01,0.00000000000000e+00,5.93942684543794e-02
4.92324302176095e-08,6.00000000000000e-01,0.00000000000000e+00,-4.12546350592253e-02
5.00000000000000e-08,6.00000000000000e-01,0.00000000000000e+00,3.08087495032646e-02
5.00100000000000e-08,6.00000000000000e-01,5.99999999999886e-02,2.75002205813586e-02
5.00300000000000e-08,6.00000000000000e-01,1.79999999999966e-01,2.14555772040607e-02
5.00700000000000e-08,6.00000000000000e-01,4.20000000000000e-01,1.25820769513303e-02
5.01000000000000e-08,6.00000000000000e-01,6.00000000000000e-01,8.41592757315681e-03
5.01080000000000e-08,6.00000000000000e-01,6.00000000000000e-01,7.60498934891152e-03
5.01240000000000e-08,6.00000000000000e-01,6.00000000000000e-01,6.12864977368428e-03
5.01560000000000e-08,6.00000000000000e-01,6.00000000000000e-01,3.97732881516672e-03
5.02200000000000e-08,6.00000000000000e-01,6.00000000000000e-01,1.58885596257115e-03
5.03480000000000e-08,6.00000000000000e-01,6.00000000000000e-01,1.30172635515902e-04
5.06040000000000e-08,6.00000000000000e-01,6.00000000000000e-01,-2.92378593676722e-05
5.11160000000001e-08,6.00000000000000e-01,6.00000000000000e-01,2.11772497289396e-05
5.21400000000002e-08,6.00000000000000e-01,6.00000000000000e-01,-7.77475566767719e-06
5.41880000000003e-08,6.00000000000000e-01,6.00000000000000e-01,1.61544322343494e-05
5.51000000000000e-08,6.00000000000000e-01,6.00000000000000e-01,-3.52642025926164e-06
5.51100000000000e-08,5.40000000000021e-01,6.00000000000000e-01,-6.28371399996122e-05
5.51300000000000e-08,4.20000000000004e-01,6.00000000000000e-01,-1.63171637875936e-04
5.51700000000000e-08,1.80000000000010e-01,6.00000000000000e-01,-1.96645212982474e-04
5.52000000000000e-08,0.00000000000000e+00,6.00000000000000e-01,-5.24907017412229e-06
5.52080000000000e-08,0.00000000000000e+00,6.00000000000000e-01,1.25232451285213e-04
5.52240000000000e-08,0.00000000000000e+00,6.00000000000000e-01,3.04023983640975e-04
5.52560000000000e-08,0.00000000000000e+00,6.00000000000000e-01,3.61096789319691e-04
5.53200000000000e-08,0.00000000000000e+00,6.00000000000000e-01,-8.41267980900562e-05
5.54480000000000e-08,0.00000000000000e+00,6.00000000000000e-01,-1.33092512907187e-03
5.57040000000000e-08,0.00000000000000e+00,6.00000000000000e-01,-3.72212319114391e-04
5.61442911561936e-08,0.00000000000000e+00,6.00000000000000e-01,1.71288324230946e-04
5.68402571450616e-08,0.00000000000000e+00,6.00000000000000e-01,-1.26120083475642e-04
5.79236012556796e-08,0.00000000000000e+00,6.00000000000000e-01,2.60349573124808e-04
5.95451484955055e-08,0.00000000000000e+00,6.00000000000000e-01,-2.89334441920573e-04
6.22315013031913e-08,0.00000000000000e+00,6.00000000000000e-01,3.17238269178313e-04
6.50000000000000e-08,0.00000000000000e+00,6.00000000000000e-01,-3.13573981989407e-04
6.50100000000000e-08,5.99999999999886e-02,6.00000000000000e-01,-1.17537239252168e-04
6.50300000000000e-08,1.79999999999966e-01,6.00000000000000e-01,1.74478275336357e-04
6.50700000000000e-08,4.19999999999920e-01,6.00000000000000e-01,4.40769894317884e-04
6.51000000000000e-08,5.99999999999966e-01,6.00000000000000e-01,3.80544414488322e-04
6.51080000000000e-08,6.00000000000000e-01,6.00000000000000e-01,2.29636620733206e-04
6.51240000000000e-08,6.00000000000000e-01,6.00000000000000e-01,-1.82810878480009e-04
6.51560000000000e-08,6.00000000000000e-01,6.00000000000000e-01,-1.41731316770914e-03
6.52200000000000e-08,6.00000000000000e-01,6.00000000000000e-01,-3.78267864607638e-03
6.53480000000000e-08,6.00000000000000e-01,6.00000000000000e-01,-1.46814903712997e-03
6.56040000000000e-08,6.00000000000000e-01,6.00000000000000e-01,2.37271262253336e-01
6.61159999999999e-08,6.00000000000000e-01,6.00000000000000e-01,6.05302700572276e-01
6.69021330702829e-08,6.00000000000000e-01,6.00000000000000e-01,5.95580451373147e-01
6.81272013970566e-08,6.00000000000000e-01,6.00000000000000e-01,6.04747523346421e-01
6.98074690601539e-08,6.00000000000000e-01,6.00000000000000e-01,5.95560035263769e-01
7.01000000000000e-08,6.00000000000000e-01,6.00000000000000e-01,6.03616954120475e-01
7.01100000000000e-08,6.00000000000000e-01,5.40000000000011e-01,6.02407970653774e-01
7.01300000000000e-08,6.00000000000000e-01,4.20000000000034e-01,6.00790281691436e-01
7.01700000000000e-08,6.00000000000000e-01,1.80000000000080e-01,5.99961884296344e-01
7.02000000000000e-08,6.00000000000000e-01,3.44169137633799e-14,5.99970117555030e-01
7.02080000000000e-08,6.00000000000000e-01,0.00000000000000e+00,5.99962614866021e-01
7.02240000000000e-08,6.00000000000000e-01,0.00000000000000e+00,5.99951100277529e-01
7.02560000000000e-08,6.00000000000000e-01,0.00000000000000e+00,5.99939002662523e-01
7.03200000000000e-08,6.00000000000000e-01,0.00000000000000e+00,5.99954214079846e-01
7.04480000000000e-08,6.00000000000000e-01,0.00000000000000e+00,5.99947548276018e-01
7.07040000000000e-08,6.00000000000000e-01,0.00000000000000e+00,5.99962022669259e-01
7.10975967235250e-08,6.00000000000000e-01,0.00000000000000e+00,5.99953075039145e-01
7.18173826731058e-08,6.00000000000000e-01,0.00000000000000e+00,5.99956903296749e-01
7.27464387008594e-08,6.00000000000000e-01,0.00000000000000e+00,5.99964808620858e-01
7.46045507563666e-08,6.00000000000000e-01,0.00000000000000e+00,5.99961300962030e-01
7.51000000000000e-08,6.00000000000000e-01,0.00000000000000e+00,5.99972904021767e-01
7.51100000000000e-08,5.40000000000061e-01,0.00000000000000e+00,5.99913806140903e-01
7.51300000000000e-08,4.20000000000084e-01,0.00000000000000e+00,5.99832939911682e-01
7.51700000000000e-08,1.80000000000129e-01,0.00000000000000e+00,6.00283138901140e-01
7.52000000000000e-08,8.40438829641244e-14,0.00000000000000e+00,6.01709654651696e-01
7.52080000000000e-08,0.00000000000000e+00,0.00000000000000e+00,6.02128308857259e-01
7.52240000000000e-08,0.00000000000000e+00,0.00000000000000e+00,6.02691435618344e-01
7.52560000000000e-08,0.00000000000000e+00,0.00000000000000e+00,6.02732915089240e-01
7.53200000000000e-08,0.00000000000000e+00,0.00000000000000e+00,5.97953157411475e-01
7.54480000000000e-08,0.00000000000000e+00,0.00000000000000e+00,5.80408209518841e-01
7.57040000000000e-08,0.00000000000000e+00,0.00000000000000e+00,5.87748070200416e-01
7.61261555642337e-08,0.00000000000000e+00,0.00000000000000e+00,6.04254044727044e-01
7.67641164438449e-08,0.00000000000000e+00,0.00000000000000e+00,5.95301227671463e-01
7.77686942915089e-08,0.00000000000000e+00,0.00000000000000e+00,6.03000776831352e-01
7.81000000000000e-08,0.00000000000000e+00,0.00000000000000e+00,5.97692840918577e-01
7.82722185642586e-08,0.00000000000000e+00,0.00000000000000e+00,5.99271906002447e-01
7.86166556927758e-08,0.00000000000000e+00,0.00000000000000e+00,5.99954389864096e-01
7.93055299498102e-08,0.00000000000000e+00,0.00000000000000e+00,5.99563833479966e-01
8.06832784638789e-08,0.00000000000000e+00,0.00000000000000e+00,5.99959841183452e-01
8.34387754920164e-08,0.00000000000000e+00,0.00000000000000e+00,5.99690056187347e-01
8.50000000000000e-08,0.00000000000000e+00,0.00000000000000e+00,5.99987710461322e-01
8.50100000000000e-08,5.99999999999886e-02,0.00000000000000e+00,6.00022468342264e-01
8.50300000000000e-08,1.79999999999966e-01,0.00000000000000e+00,6.00054035865337e-01
8.50700000000000e-08,4.19999999999920e-01,0.00000000000000e+00,5.99992969801739e-01
8.51000000000000e-08,5.99999999999966e-01,0.00000000000000e+00,5.99866480924359e-01
8.51080000000000e-08,6.00000000000000e-01,0.00000000000000e+00,5.99801238047789e-01
8.51240000000000e-08,6.00000000000000e-01,0.00000000000000e+00,5.99705967860578e-01
8.51560000000000e-08,6.00000000000000e-01,0.00000000000000e+00,5.99646281900370e-01
8.52200000000000e-08,6.00000000000000e-01,0.00000000000000e+00,5.99658483871576e-01
8.53480000000000e-08,6.00000000000000e-01,0.00000000000000e+00,6.00100026555588e-01
8.56040000000000e-08,6.00000000000000e-01,0.00000000000000e+00,6.09351951410753e-01
8.61159999999999e-08,6.00000000000000e-01,0.00000000000000e+00,1.87183362607613e-01
8.68272127539028e-08,6.00000000000000e-01,0.00000000000000e+00,-6.97213522527078e-02
8.77130959440066e-08,6.00000000000000e-01,0.00000000000000e+00,5.94028082599746e-02
8.92327365730358e-08,6.00000000000000e-01,0.00000000000000e+00,-4.12616483046395e-02
9.00000000000000e-08,6.00000000000000e-01,0.00000000000000e+00,3.08084738610372e-02
9.00100000000000e-08,6.00000000000000e-01,5.99999999999886e-02,2.74998810404167e-02
9.00300000000000e-08,6.00000000000000e-01,1.79999999999966e-01,2.14551692107053e-02
9.00700000000000e-08,6.00000000000000e-01,4.19999999999920e-01,1.25817892862519e-02
9.01000000000000e-08,6.00000000000000e-01,5.99999999999966e-01,8.41572694845131e-03
9.01080000000000e-08,6.00000000000000e-01,6.00000000000000e-01,7.60480732990437e-03
9.01240000000000e-08,6.00000000000000e-01,6.00000000000000e-01,6.12850160457477e-03
9.01560000000000e-08,6.00000000000000e-01,6.00000000000000e-01,3.97723125577576e-03
9.02200000000000e-08,6.00000000000000e-01,6.00000000000000e-01,1.58881607468529e-03
9.03480000000000e-08,6.00000000000000e-01,6.00000000000000e-01,1.30168777781561e-04
9.06040000000000e-08,6.00000000000000e-01,6.00000000000000e-01,-2.92363679896337e-05
9.11159999999999e-08,6.00000000000000e-01,6.00000000000000e-01,2.11768130412085e-05
9.21399999999999e-08,6.00000000000000e-01,6.00000000000000e-01,-7.77423018488883e-06
9.41879999999998e-08,6.00000000000000e-01,6.00000000000000e-01,1.61541696111185e-05
9.51000000000000e-08,6.00000000000000e-01,6.00000000000000e-01,-3.52603957467362e-06
9.51100000000000e-08,5.40000000000061e-01,6.00000000000000e-01,-6.28366389464757e-05
9.51300000000000e-08,4.20000000000084e-01,6.00000000000000e-01,-1.63171296674709e-04
9.51700000000000e-08,1.80000000000129e-01,6.00000000000000e-01,-1.96644907402392e-04
9.52000000000000e-08,8.40438829641244e-14,6.00000000000000e-01,-5.24877043592969e-06
9.52080000000000e-08,0.00000000000000e+00,6.00000000000000e-01,1.25232786031486e-04
9.52240000000000e-08,0.00000000000000e+00,6.00000000000000e-01,3.04024467263957e-04
9.52560000000000e-08,0.00000000000000e+00,6.00000000000000e-01,3.61098243168011e-04
9.53200000000000e-08,0.00000000000000e+00,6.00000000000000e-01,-8.41200256008201e-05
9.54480000000000e-08,0.00000000000000e+00,6.00000000000000e-01,-1.33089364582389e-03
9.57040000000000e-08,0.00000000000000e+00,6.00000000000000e-01,-3.72200081898207e-04
9.61442967980320e-08,0.00000000000000e+00,6.00000000000000e-01,1.71281438129596e-04
9.68402602647385e-08,0.00000000000000e+00,6.00000000000000e-01,-1.26113382537641e-04
9.79236175125958e-08,0.00000000000000e+00,6.00000000000000e-01,2.60340900735344e-04
9.95451660966097e-08,0.00000000000000e+00,6.00000000000000e-01,-2.89326104343146e-04
1.02231541722449e-07,0.00000000000000e+00,6.00000000000000e-01,3.17230240421892e-04
1.05000000000000e-07,0.00000000000000e+00,6.00000000000000e-01,-3.13566344908163e-04
1.05010000000000e-07,5.99999999999886e-02,6.00000000000000e-01,-1.17531616897884e-04
1.05030000000000e-07,1.79999999999966e-01,6.00000000000000e-01,1.74481523644125e-04
1.05070000000000e-07,4.19999999999920e-01,6.00000000000000e-01,4.40771486848381e-04
1.05100000000000e-07,5.99999999999966e-01,6.00000000000000e-01,3.80543368170769e-04
1.05108000000000e-07,6.00000000000000e-01,6.00000000000000e-01,2.29633808003331e-04
1.05124000000000e-07,6.00000000000000e-01,6.00000000000000e-01,-1.82817562950667e-04
1.05156000000000e-07,6.00000000000000e-01,6.00000000000000e-01,-1.41732431151167e-03
1.05220000000000e-07,6.00000000000000e-01,6.00000000000000e-01,-3.78268676934022e-03
1.05348000000000e-07,6.00000000000000e-01,6.00000000000000e-01,-1.46811569613352e-03
1.05604000000000e-07,6.00000000000000e-01,6.00000000000000e-01,2.37271598514701e-01
1.06116000000000e-07,6.00000000000000e-01,6.00000000000000e-01,6.05302775821891e-01
1.06902132481524e-07,6.00000000000000e-01,6.00000000000000e-01,5.95580408825836e-01
1.08127201029467e-07,6.00000000000000e-01,6.00000000000000e-01,6.04747565862697e-01
1.09807468083466e-07,6.00000000000000e-01,6.00000000000000e-01,5.95559996954672e-01
1.10100000000000e-07,6.00000000000000e-01,6.00000000000000e-01,6.03616985560530e-01
1.10110000000000e-07,6.00000000000000e-01,5.40000000000091e-01,6.02407991837696e-01
