Time,v(clk),v(data),v(out)
1.00000000000000e-08,4.50000000000000e-01,0.00000000000000e+00,-1.74105079118704e-05
1.00100000000000e-08,4.50000000000000e-01,4.49999999999989e-02,-1.18836790118093e-05
1.00300000000000e-08,4.50000000000000e-01,1.34999999999997e-01,-3.84699862046589e-06
1.00700000000000e-08,4.50000000000000e-01,3.14999999999992e-01,-1.06924283510557e-07
1.01000000000000e-08,4.50000000000000e-01,4.49999999999997e-01,-1.92317716710133e-06
1.01080000000000e-08,4.50000000000000e-01,4.50000000000000e-01,-2.31981493366978e-06
1.01240000000000e-08,4.50000000000000e-01,4.50000000000000e-01,-2.25311892916580e-06
1.01560000000000e-08,4.50000000000000e-01,4.50000000000000e-01,4.37779762968438e-07
1.02200000000000e-08,4.50000000000000e-01,4.50000000000000e-01,4.91647910023235e-06
1.03480000000000e-08,4.50000000000000e-01,4.50000000000000e-01,3.53370927273777e-06
1.06040000000000e-08,4.50000000000000e-01,4.50000000000000e-01,5.39044293930424e-07
1.11160000000000e-08,4.50000000000000e-01,4.50000000000000e-01,2.32402721788653e-06
1.21400000000000e-08,4.50000000000000e-01,4.50000000000000e-01,9.79668014778820e-07
1.41880000000000e-08,4.50000000000000e-01,4.50000000000000e-01,1.82972491662723e-06
1.51000000000000e-08,4.50000000000000e-01,4.50000000000000e-01,9.48548585780716e-07
1.51100000000000e-08,4.04999999999994e-01,4.50000000000000e-01,-4.59153210022323e-05
1.51300000000000e-08,3.14999999999996e-01,4.50000000000000e-01,-1.19292149044332e-04
1.51700000000000e-08,1.35000000000000e-01,4.50000000000000e-01,-1.77533377927384e-04
1.52000000000000e-08,0.00000000000000e+00,4.50000000000000e-01,-6.73624477557574e-05
1.52080000000000e-08,0.00000000000000e+00,4.50000000000000e-01,3.95562716370354e-05
1.52240000000000e-08,0.00000000000000e+00,4.50000000000000e-01,1.91999353185000e-04
1.52560000000000e-08,0.00000000000000e+00,4.50000000000000e-01,2.71048429459360e-04
1.53200000000000e-08,0.00000000000000e+00,4.50000000000000e-01,1.65473046443456e-04
1.54480000000000e-08,0.00000000000000e+00,4.50000000000000e-01,-6.55221021743195e-05
1.57040000000000e-08,0.00000000000000e+00,4.50000000000000e-01,-8.29392242271999e-05
1.62160000000000e-08,0.00000000000000e+00,4.50000000000000e-01,-1.44348888147924e-05
1.71695127192102e-08,0.00000000000000e+00,4.50000000000000e-01,8.70595569252546e-06
1.83386386771699e-08,0.00000000000000e+00,4.50000000000000e-01,4.67390656809490e-05
2.06768905930892e-08,0.00000000000000e+00,4.50000000000000e-01,-6.52866635368126e-05
2.38878890281451e-08,0.00000000000000e+00,4.50000000000000e-01,7.40927021787836e-05
2.50000000000000e-08,0.00000000000000e+00,4.50000000000000e-01,-8.76711369098308e-05
2.50100000000000e-08,4.49999999999915e-02,4.50000000000000e-01,1.27243720002002e-05
2.50300000000000e-08,1.35000000000004e-01,4.50000000000000e-01,1.72471359139212e-04
2.50700000000000e-08,3.15000000000000e-01,4.50000000000000e-01,2.96707625469565e-04
2.51000000000000e-08,4.50000000000000e-01,4.50000000000000e-01,2.17650393673746e-04
2.51080000000000e-08,4.50000000000000e-01,4.50000000000000e-01,9.99456136354451e-05
2.51240000000000e-08,4.50000000000000e-01,4.50000000000000e-01,-2.42131591787591e-04
2.51560000000000e-08,4.50000000000000e-01,4.50000000000000e-01,-1.29805787669713e-03
2.52200000000000e-08,4.50000000000000e-01,4.50000000000000e-01,-3.19226974756303e-03
2.53480000000000e-08,4.50000000000000e-01,4.50000000000000e-01,-4.91036029198567e-03
2.56040000000000e-08,4.50000000000000e-01,4.50000000000000e-01,1.17948892590666e-01
2.61160000000000e-08,4.50000000000000e-01,4.50000000000000e-01,4.34724265475236e-01
2.71400000000000e-08,4.50000000000000e-01,4.50000000000000e-01,4.55144816648678e-01
2.84198365631240e-08,4.50000000000000e-01,4.50000000000000e-01,4.43854268225121e-01
3.06931139275008e-08,4.50000000000000e-01,4.50000000000000e-01,4.54321842283809e-01
3.37726645959838e-08,4.50000000000000e-01,4.50000000000000e-01,4.44901644468087e-01
3.51000000000000e-08,4.49999999999978e-01,4.50000000000000e-01,4.53696335828902e-01
3.51100000000000e-08,4.04999999999986e-01,4.50000000000000e-01,4.52712884089369e-01
3.51300000000000e-08,3.14999999999974e-01,4.50000000000000e-01,4.51251449719817e-01
3.51700000000000e-08,1.34999999999978e-01,4.50000000000000e-01,4.50311531713453e-01
3.52000000000000e-08,0.00000000000000e+00,4.50000000000000e-01,4.50996025644505e-01
3.52080000000000e-08,0.00000000000000e+00,4.50000000000000e-01,4.51293423766384e-01
3.52240000000000e-08,0.00000000000000e+00,4.50000000000000e-01,4.51733099392499e-01
3.52560000000000e-08,0.00000000000000e+00,4.50000000000000e-01,4.52117908704481e-01
3.53200000000000e-08,0.00000000000000e+00,4.50000000000000e-01,4.51849735323944e-01
3.54480000000000e-08,0.00000000000000e+00,4.50000000000000e-01,4.44854509249664e-01
3.57040000000000e-08,0.00000000000000e+00,4.50000000000000e-01,4.36253637898762e-01
3.62160000000000e-08,0.00000000000000e+00,4.50000000000000e-01,4.48732688003164e-01
3.72400000000000e-08,0.00000000000000e+00,4.50000000000000e-01,4.50340881514876e-01
3.87065418390864e-08,0.00000000000000e+00,4.50000000000000e-01,4.49338937463003e-01
4.16396255172590e-08,0.00000000000000e+00,4.50000000000000e-01,4.50307836653370e-01
4.50000000000000e-08,0.00000000000000e+00,4.50000000000000e-01,4.49528428480753e-01
4.50100000000000e-08,4.49999999999915e-02,4.50000000000000e-01,4.49638987370585e-01
4.50300000000000e-08,1.35000000000004e-01,4.50000000000000e-01,4.49823713123965e-01
4.50700000000000e-08,3.15000000000000e-01,4.50000000000000e-01,4.50009165600237e-01
4.51000000000000e-08,4.50000000000000e-01,4.50000000000000e-01,4.49984148256639e-01
4.51080000000000e-08,4.50000000000000e-01,4.14000000000019e-01,4.49900083415071e-01
4.51240000000000e-08,4.50000000000000e-01,3.41999999999997e-01,4.49663802650287e-01
4.51560000000000e-08,4.50000000000000e-01,1.98000000000012e-01,4.49012153170183e-01
4.52000000000000e-08,4.50000000000000e-01,2.57571741713036e-14,4.48302742137023e-01
4.52064000000000e-08,4.50000000000000e-01,0.00000000000000e+00,4.48245330140483e-01
4.52192000000000e-08,4.50000000000000e-01,0.00000000000000e+00,4.48137761455954e-01
4.52448000000000e-08,4.50000000000000e-01,0.00000000000000e+00,4.47970750753368e-01
4.52960000000000e-08,4.50000000000000e-01,0.00000000000000e+00,4.47769725387142e-01
4.53984000000000e-08,4.50000000000000e-01,0.00000000000000e+00,4.47695635091693e-01
4.56032000000000e-08,4.50000000000000e-01,0.00000000000000e+00,4.48761673788192e-01
4.60128000000000e-08,4.50000000000000e-01,0.00000000000000e+00,4.50180542586369e-01
4.65363701686882e-08,4.50000000000000e-01,0.00000000000000e+00,4.49875469552096e-01
4.75835105060646e-08,4.50000000000000e-01,0.00000000000000e+00,4.50103099040929e-01
4.89963341999339e-08,4.50000000000000e-01,0.00000000000000e+00,4.49908663360198e-01
5.18219815876725e-08,4.50000000000000e-01,0.00000000000000e+00,4.50084742766271e-01
5.51000000000000e-08,4.50000000000000e-01,0.00000000000000e+00,4.49919192628873e-01
5.51100000000000e-08,4.05000000000016e-01,0.00000000000000e+00,4.49882041950039e-01
5.51300000000000e-08,3.15000000000003e-01,0.00000000000000e+00,4.49826914762775e-01
5.51700000000000e-08,1.35000000000008e-01,0.00000000000000e+00,4.49922389796847e-01
5.52000000000000e-08,0.00000000000000e+00,0.00000000000000e+00,4.50774885929789e-01
5.52080000000000e-08,0.00000000000000e+00,0.00000000000000e+00,4.51090050132077e-01
5.52240000000000e-08,0.00000000000000e+00,0.00000000000000e+00,4.51582297545880e-01
5.52560000000000e-08,0.00000000000000e+00,0.00000000000000e+00,4.52081953431765e-01
5.53200000000000e-08,0.00000000000000e+00,0.00000000000000e+00,4.52542709220253e-01
5.54480000000000e-08,0.00000000000000e+00,0.00000000000000e+00,4.52541991610486e-01
5.57040000000000e-08,0.00000000000000e+00,0.00000000000000e+00,4.50616698518667e-01
5.62160000000000e-08,0.00000000000000e+00,0.00000000000000e+00,4.49557465413132e-01
5.68682129343235e-08,0.00000000000000e+00,0.00000000000000e+00,4.50033819820525e-01
5.81726388029706e-08,0.00000000000000e+00,0.00000000000000e+00,4.49754767311913e-01
5.96722097311098e-08,0.00000000000000e+00,0.00000000000000e+00,4.49994729743255e-01
6.26713515873883e-08,0.00000000000000e+00,0.00000000000000e+00,4.49834813773539e-01
6.50000000000000e-08,0.00000000000000e+00,0.00000000000000e+00,4.49996346885390e-01
6.50100000000000e-08,4.49999999999915e-02,0.00000000000000e+00,4.50049513563367e-01
6.50300000000000e-08,1.34999999999974e-01,0.00000000000000e+00,4.50117369300072e-01
6.50700000000000e-08,3.14999999999940e-01,0.00000000000000e+00,4.50088599465482e-01
6.51000000000000e-08,4.49999999999974e-01,0.00000000000000e+00,4.49981592946877e-01
6.51080000000000e-08,4.50000000000000e-01,0.00000000000000e+00,4.49926911283889e-01
6.51240000000000e-08,4.50000000000000e-01,0.00000000000000e+00,4.49837921207401e-01
6.51560000000000e-08,4.50000000000000e-01,0.00000000000000e+00,4.49753903278945e-01
6.52200000000000e-08,4.50000000000000e-01,0.00000000000000e+00,4.49718914576271e-01
6.53480000000000e-08,4.50000000000000e-01,0.00000000000000e+00,4.49877876416623e-01
6.56040000000000e-08,4.50000000000000e-01,0.00000000000000e+00,4.56004901383738e-01
6.61159999999999e-08,4.50000000000000e-01,0.00000000000000e+00,1.34232179868482e-01
6.71399999999999e-08,4.50000000000000e-01,0.00000000000000e+00,-4.77780846336435e-02
6.80621875263046e-08,4.50000000000000e-01,0.00000000000000e+00,5.25552417297550e-02
6.99065625789139e-08,4.50000000000000e-01,0.00000000000000e+00,-3.35410746168396e-02
7.24397284848768e-08,4.50000000000000e-01,0.00000000000000e+00,3.97490938593272e-02
7.51000000000000e-08,4.50000000000000e-01,0.00000000000000e+00,-2.83395881554135e-02
7.51100000000000e-08,4.05000000000046e-01,0.00000000000000e+00,-2.40521863351226e-02
7.51300000000000e-08,3.15000000000063e-01,0.00000000000000e+00,-1.66062522478279e-02
7.51700000000000e-08,1.35000000000097e-01,0.00000000000000e+00,-7.59474195707256e-03
7.52000000000000e-08,6.29496454962464e-14,0.00000000000000e+00,-4.28975517385581e-03
7.52080000000000e-08,0.00000000000000e+00,0.00000000000000e+00,-3.63932342183170e-03
7.52240000000000e-08,0.00000000000000e+00,0.00000000000000e+00,-2.52848156672497e-03
7.52560000000000e-08,0.00000000000000e+00,0.00000000000000e+00,-1.18493822526490e-03
7.53200000000000e-08,0.00000000000000e+00,0.00000000000000e+00,-2.24922165093122e-04
7.54480000000000e-08,0.00000000000000e+00,0.00000000000000e+00,-3.30599265793593e-04
7.57040000000000e-08,0.00000000000000e+00,0.00000000000000e+00,-3.74500279790725e-04
7.62159999999999e-08,0.00000000000000e+00,0.00000000000000e+00,2.13335145150781e-04
7.72399999999999e-08,0.00000000000000e+00,0.00000000000000e+00,-1.58246822988028e-04
7.87092808008381e-08,0.00000000000000e+00,0.00000000000000e+00,1.30561050246106e-04
8.16478424025144e-08,0.00000000000000e+00,0.00000000000000e+00,-1.17179921380529e-04
8.50000000000000e-08,0.00000000000000e+00,0.00000000000000e+00,1.08105262352189e-04
8.50100000000000e-08,4.49999999999915e-02,0.00000000000000e+00,1.73585305877050e-04
8.50300000000000e-08,1.34999999999974e-01,0.00000000000000e+00,2.61695464478288e-04
8.50700000000000e-08,3.14999999999940e-01,0.00000000000000e+00,2.35633655827766e-04
8.51000000000000e-08,4.49999999999974e-01,0.00000000000000e+00,8.99854991406324e-05
8.51080000000000e-08,4.50000000000000e-01,0.00000000000000e+00,1.30178928700944e-05
8.51240000000000e-08,4.50000000000000e-01,0.00000000000000e+00,-1.09037628715246e-04
8.51560000000000e-08,4.50000000000000e-01,0.00000000000000e+00,-2.00847370400062e-04
8.52200000000000e-08,4.50000000000000e-01,0.00000000000000e+00,-1.64281775577299e-04
8.53480000000000e-08,4.50000000000000e-01,0.00000000000000e+00,-4.26714753123461e-05
8.56040000000000e-08,4.50000000000000e-01,0.00000000000000e+00,4.61227109024871e-05
8.61159999999999e-08,4.50000000000000e-01,0.00000000000000e+00,1.59424796110520e-05
8.71399999999999e-08,4.50000000000000e-01,0.00000000000000e+00,-1.60476261967784e-05
8.87041483534666e-08,4.50000000000000e-01,0.00000000000000e+00,2.11167571934133e-05
9.00000000000000e-08,4.50000000000000e-01,0.00000000000000e+00,-1.72712502275944e-05
9.00100000000000e-08,4.50000000000000e-01,4.49999999999915e-02,-1.16617971987129e-05
9.00300000000000e-08,4.50000000000000e-01,1.34999999999974e-01,-3.56714738928426e-06
9.00700000000000e-08,4.50000000000000e-01,3.14999999999940e-01,2.03734890687202e-07
9.01000000000000e-08,4.50000000000000e-01,4.49999999999974e-01,-1.60183951367077e-06
9.01080000000000e-08,4.50000000000000e-01,4.50000000000000e-01,-2.02519838436721e-06
9.01240000000000e-08,4.50000000000000e-01,4.50000000000000e-01,-1.93415992547769e-06
9.01560000000000e-08,4.50000000000000e-01,4.50000000000000e-01,6.00946136984637e-07
9.02200000000000e-08,4.50000000000000e-01,4.50000000000000e-01,4.87088420645515e-06
9.03480000000000e-08,4.50000000000000e-01,4.50000000000000e-01,3.37113593227092e-06
9.06040000000000e-08,4.50000000000000e-01,4.50000000000000e-01,7.00432012785968e-07
9.11159999999999e-08,4.50000000000000e-01,4.50000000000000e-01,2.22413097194629e-06
9.21399999999999e-08,4.50000000000000e-01,4.50000000000000e-01,1.05825904826717e-06
9.41879999999998e-08,4.50000000000000e-01,4.50000000000000e-01,1.76182529284738e-06
9.51000000000000e-08,4.50000000000000e-01,4.50000000000000e-01,1.00018696100150e-06
9.51100000000000e-08,4.05000000000046e-01,4.50000000000000e-01,-4.58708352088708e-05
9.51300000000000e-08,3.15000000000063e-01,4.50000000000000e-01,-1.19255722241127e-04
9.51700000000000e-08,1.35000000000097e-01,4.50000000000000e-01,-1.77514788207031e-04
9.52000000000000e-08,6.29496454962464e-14,4.50000000000000e-01,-6.73521688304979e-05
9.52080000000000e-08,0.00000000000000e+00,4.50000000000000e-01,3.95654087399985e-05
9.52240000000000e-08,0.00000000000000e+00,4.50000000000000e-01,1.92006582336174e-04
9.52560000000000e-08,0.00000000000000e+00,4.50000000000000e-01,2.71053305633782e-04
9.53200000000000e-08,0.00000000000000e+00,4.50000000000000e-01,1.65478796296442e-04
9.54480000000000e-08,0.00000000000000e+00,4.50000000000000e-01,-6.54901190824501e-05
9.57040000000000e-08,0.00000000000000e+00,4.50000000000000e-01,-8.29329897649774e-05
9.62159999999999e-08,0.00000000000000e+00,4.50000000000000e-01,-1.44402717202419e-05
9.71695129086304e-08,0.00000000000000e+00,4.50000000000000e-01,8.71139222327968e-06
9.83386399408289e-08,0.00000000000000e+00,4.50000000000000e-01,4.67336147380077e-05
1.00676894005226e-07,0.00000000000000e+00,4.50000000000000e-01,-6.52811832563775e-05
1.03887891265331e-07,0.00000000000000e+00,4.50000000000000e-01,7.40873171847212e-05
1.05000000000000e-07,0.00000000000000e+00,4.50000000000000e-01,-8.76659213572429e-05
1.05010000000000e-07,4.49999999999915e-02,4.50000000000000e-01,1.27277055051167e-05
1.05030000000000e-07,1.34999999999974e-01,4.50000000000000e-01,1.72472566970339e-04
1.05070000000000e-07,3.14999999999940e-01,4.50000000000000e-01,2.96707736408823e-04
1.05100000000000e-07,4.49999999999974e-01,4.50000000000000e-01,2.17649693286130e-04
1.05108000000000e-07,4.50000000000000e-01,4.50000000000000e-01,9.99443935485456e-05
1.05124000000000e-07,4.50000000000000e-01,4.50000000000000e-01,-2.42134053340254e-04
1.05156000000000e-07,4.50000000000000e-01,4.50000000000000e-01,-1.29806157071126e-03
1.05220000000000e-07,4.50000000000000e-01,4.50000000000000e-01,-3.19227213717881e-03
1.05348000000000e-07,4.50000000000000e-01,4.50000000000000e-01,-4.91035819372915e-03
1.05604000000000e-07,4.50000000000000e-01,4.50000000000000e-01,1.17948969450886e-01
1.06116000000000e-07,4.50000000000000e-01,4.50000000000000e-01,4.34724295741559e-01
1.07140000000000e-07,4.50000000000000e-01,4.50000000000000e-01,4.55144805468505e-01
1.08419836553801e-07,4.50000000000000e-01,4.50000000000000e-01,4.43854282427937e-01
1.10693113858422e-07,4.50000000000000e-01,4.50000000000000e-01,4.54321832189603e-01
1.13772664439068e-07,4.50000000000000e-01,4.50000000000000e-01,4.44901656988262e-01
1.15100000000000e-07,4.50000000000000e-01,4.50000000000000e-01,4.53696326406993e-01
1.15110000000000e-07,4.05000000000046e-01,4.50000000000000e-01,4.52712877543506e-01
1.15130000000000e-07,3.15000000000063e-01,4.50000000000000e-01,4.51251447148399e-01
1.15170000000000e-07,1.35000000000097e-01,4.50000000000000e-01,4.50311531547375e-01
1.15200000000000e-07,6.29496454962464e-14,4.50000000000000e-01,4.50996025627090e-01
1.15208000000000e-07,0.00000000000000e+00,4.50000000000000e-01,4.51293423759120e-01
1.15224000000000e-07,0.00000000000000e+00,4.50000000000000e-01,4.51733099397848e-01
1.15256000000000e-07,0.00000000000000e+00,4.50000000000000e-01,4.52117908711636e-01
1.15320000000000e-07,0.00000000000000e+00,4.50000000000000e-01,4.51849735274783e-01
1.15448000000000e-07,0.00000000000000e+00,4.50000000000000e-01,4.44854509019439e-01
1.15704000000000e-07,0.00000000000000e+00,4.50000000000000e-01,4.36253637783747e-01
1.16216000000000e-07,0.00000000000000e+00,4.50000000000000e-01,4.48732688105345e-01
1.17240000000000e-07,0.00000000000000e+00,4.50000000000000e-01,4.50340881424127e-01
1.18706541836780e-07,0.00000000000000e+00,4.50000000000000e-01,4.49338937541275e-01
1.21639625510339e-07,0.00000000000000e+00,4.50000000000000e-01,4.50307836579488e-01
1.25000000000000e-07,0.00000000000000e+00,4.50000000000000e-01,4.49528428550444e-01
1.25010000000000e-07,4.49999999999319e-02,4.50000000000000e-01,4.49638987427671e-01
1.25030000000000e-07,1.34999999999915e-01,4.50000000000000e-01,4.49823713161143e-01
1.25070000000000e-07,3.14999999999881e-01,4.50000000000000e-01,4.50009165616781e-01
1.25100000000000e-07,4.49999999999915e-01,4.50000000000000e-01,4.49984148265929e-01
1.25108000000000e-07,4.50000000000000e-01,4.13999999999959e-01,4.49900083423485e-01
1.25124000000000e-07,4.50000000000000e-01,3.41999999999997e-01,4.49663802657162e-01
1.25156000000000e-07,4.50000000000000e-01,1.97999999999952e-01,4.49012153174216e-01
1.25200000000000e-07,4.50000000000000e-01,0.00000000000000e+00,4.48302742138384e-01
1.25206400000000e-07,4.50000000000000e-01,0.00000000000000e+00,4.48245330141538e-01
1.25219200000000e-07,4.50000000000000e-01,0.00000000000000e+00,4.48137761456607e-01
1.25244800000000e-07,4.50000000000000e-01,0.00000000000000e+00,4.47970750753577e-01
1.25296000000000e-07,4.50000000000000e-01,0.00000000000000e+00,4.47769725383657e-01
1.25398400000000e-07,4.50000000000000e-01,0.00000000000000e+00,4.47695635090991e-01
1.25603200000000e-07,4.50000000000000e-01,0.00000000000000e+00,4.48761673786217e-01
1.26012800000000e-07,4.50000000000000e-01,0.00000000000000e+00,4.50180542586760e-01
1.26536370162671e-07,4.50000000000000e-01,0.00000000000000e+00,4.49875469552663e-01
1.27583510488014e-07,4.50000000000000e-01,0.00000000000000e+00,4.50103099040335e-01
1.28996334152676e-07,4.50000000000000e-01,0.00000000000000e+00,4.49908663361414e-01
1.31821981481999e-07,4.50000000000000e-01,0.00000000000000e+00,4.50084742765478e-01
1.35100000000000e-07,4.49999999999918e-01,0.00000000000000e+00,4.49919192629740e-01
1.35110000000000e-07,4.04999999999867e-01,0.00000000000000e+00,4.49882041951192e-01
1.35130000000000e-07,3.14999999999884e-01,0.00000000000000e+00,4.49826914763668e-01
1.35170000000000e-07,1.34999999999918e-01,0.00000000000000e+00,4.49922389798573e-01
1.35200000000000e-07,0.00000000000000e+00,0.00000000000000e+00,4.50774885930395e-01
1.35208000000000e-07,0.00000000000000e+00,0.00000000000000e+00,4.51090050132713e-01
1.35224000000000e-07,0.00000000000000e+00,0.00000000000000e+00,4.51582297546528e-01
1.35256000000000e-07,0.00000000000000e+00,0.00000000000000e+00,4.52081953424618e-01
1.35320000000000e-07,0.00000000000000e+00,0.00000000000000e+00,4.52542709231272e-01
1.35448000000000e-07,0.00000000000000e+00,0.00000000000000e+00,4.52541991618476e-01
1.35704000000000e-07,0.00000000000000e+00,0.00000000000000e+00,4.50616698507469e-01
1.36216000000000e-07,0.00000000000000e+00,0.00000000000000e+00,4.49557465418078e-01
1.36868212934926e-07,0.00000000000000e+00,0.00000000000000e+00,4.50033819817038e-01
1.38172638804779e-07,0.00000000000000e+00,0.00000000000000e+00,4.49754767313845e-01
