Time,v(clk),v(data),v(out)
1.00000000000000e-08,4.50000000000000e-01,0.00000000000000e+00,1.11252378485246e-05
1.00100000000000e-08,4.50000000000000e-01,4.49999999999989e-02,9.92315320656051e-06
1.00300000000000e-08,4.50000000000000e-01,1.34999999999997e-01,8.44165528019608e-06
1.00700000000000e-08,4.50000000000000e-01,3.14999999999992e-01,6.49152612252485e-06
1.01000000000000e-08,4.50000000000000e-01,4.49999999999997e-01,4.34809230911992e-06
1.01080000000000e-08,4.50000000000000e-01,4.50000000000000e-01,3.72087725093034e-06
1.01240000000000e-08,4.50000000000000e-01,4.50000000000000e-01,3.25485874973913e-06
1.01560000000000e-08,4.50000000000000e-01,4.50000000000000e-01,4.25229418990480e-06
1.02200000000000e-08,4.50000000000000e-01,4.50000000000000e-01,7.21606427469407e-06
1.03480000000000e-08,4.50000000000000e-01,4.50000000000000e-01,1.16102275396733e-05
1.06040000000000e-08,4.50000000000000e-01,4.50000000000000e-01,1.10243589486296e-05
1.11160000000000e-08,4.50000000000000e-01,4.50000000000000e-01,1.13777413576800e-05
1.21400000000000e-08,4.50000000000000e-01,4.50000000000000e-01,1.08430928663899e-05
1.41880000000000e-08,4.50000000000000e-01,4.50000000000000e-01,1.01971942079782e-05
1.51000000000000e-08,4.50000000000000e-01,4.50000000000000e-01,9.97315458473817e-06
1.51100000000000e-08,4.04999999999994e-01,4.50000000000000e-01,-3.78620425527873e-05
1.51300000000000e-08,3.14999999999996e-01,4.50000000000000e-01,-1.18617083832470e-04
1.51700000000000e-08,1.35000000000000e-01,4.50000000000000e-01,-2.00670898535676e-04
1.52000000000000e-08,0.00000000000000e+00,4.50000000000000e-01,-1.05113488184198e-04
1.52080000000000e-08,0.00000000000000e+00,4.50000000000000e-01,-4.33254768603120e-06
1.52240000000000e-08,0.00000000000000e+00,4.50000000000000e-01,1.54264026799800e-04
1.52560000000000e-08,0.00000000000000e+00,4.50000000000000e-01,2.86583836410698e-04
1.53200000000000e-08,0.00000000000000e+00,4.50000000000000e-01,2.41404250524643e-04
1.54480000000000e-08,0.00000000000000e+00,4.50000000000000e-01,-5.28983095935791e-05
1.57040000000000e-08,0.00000000000000e+00,4.50000000000000e-01,-1.81479312744381e-04
1.62160000000000e-08,0.00000000000000e+00,4.50000000000000e-01,3.57526197462075e-05
1.72400000000000e-08,0.00000000000000e+00,4.50000000000000e-01,-3.40779340687958e-05
1.85642718336936e-08,0.00000000000000e+00,4.50000000000000e-01,9.48752129280098e-05
1.88953397921170e-08,0.00000000000000e+00,4.50000000000000e-01,7.30194859233785e-07
1.95574757089638e-08,0.00000000000000e+00,4.50000000000000e-01,9.80559180621329e-07
2.08817475426575e-08,0.00000000000000e+00,4.50000000000000e-01,1.75817473000786e-05
2.35302912100447e-08,0.00000000000000e+00,4.50000000000000e-01,-1.31171956127812e-06
2.50000000000000e-08,0.00000000000000e+00,4.50000000000000e-01,1.74857626290261e-05
2.50100000000000e-08,4.49999999999915e-02,4.50000000000000e-01,1.01766806402975e-04
2.50300000000000e-08,1.35000000000004e-01,4.50000000000000e-01,2.42999774721607e-04
2.50700000000000e-08,3.15000000000000e-01,4.50000000000000e-01,3.95124532119533e-04
2.51000000000000e-08,4.50000000000000e-01,4.50000000000000e-01,3.70094056583621e-04
2.51080000000000e-08,4.50000000000000e-01,4.50000000000000e-01,2.89563237462570e-04
2.51240000000000e-08,4.50000000000000e-01,4.50000000000000e-01,9.49060387963815e-05
2.51560000000000e-08,4.50000000000000e-01,4.50000000000000e-01,-5.09604460320653e-04
2.52200000000000e-08,4.50000000000000e-01,4.50000000000000e-01,-1.98812083836224e-03
2.53480000000000e-08,4.50000000000000e-01,4.50000000000000e-01,-3.90041728695665e-03
2.56040000000000e-08,4.50000000000000e-01,4.50000000000000e-01,2.84899109046640e-02
2.61160000000000e-08,4.50000000000000e-01,4.50000000000000e-01,3.65383841581993e-01
2.71400000000000e-08,4.50000000000000e-01,4.50000000000000e-01,4.68889002880227e-01
2.83733043983180e-08,4.50000000000000e-01,4.50000000000000e-01,4.30319185367315e-01
3.01000000000000e-08,4.50000000000000e-01,4.50000000000000e-01,4.66182309571235e-01
3.01100000000000e-08,4.50000000000000e-01,4.05000000000023e-01,4.61900493731714e-01
3.01300000000000e-08,4.50000000000000e-01,3.15000000000011e-01,4.55623638164584e-01
3.01700000000000e-08,4.50000000000000e-01,1.35000000000015e-01,4.50950154665492e-01
3.02000000000000e-08,4.50000000000000e-01,1.08801856413265e-14,4.50262730061662e-01
3.02080000000000e-08,4.50000000000000e-01,0.00000000000000e+00,4.50183155507712e-01
3.02240000000000e-08,4.50000000000000e-01,0.00000000000000e+00,4.50056524186772e-01
3.02560000000000e-08,4.50000000000000e-01,0.00000000000000e+00,4.49931573534452e-01
3.03200000000000e-08,4.50000000000000e-01,0.00000000000000e+00,4.49850930617556e-01
3.04480000000000e-08,4.50000000000000e-01,0.00000000000000e+00,4.49955612585297e-01
3.07040000000000e-08,4.50000000000000e-01,0.00000000000000e+00,4.49912594371471e-01
3.12160000000000e-08,4.50000000000000e-01,0.00000000000000e+00,4.49961865727325e-01
3.20684199632259e-08,4.50000000000000e-01,0.00000000000000e+00,4.49916796438769e-01
3.35083743644036e-08,4.50000000000000e-01,0.00000000000000e+00,4.49967761866477e-01
3.51000000000000e-08,4.49999999999978e-01,0.00000000000000e+00,4.49932857785942e-01
3.51100000000000e-08,4.04999999999986e-01,0.00000000000000e+00,4.49884258831142e-01
3.51300000000000e-08,3.14999999999974e-01,0.00000000000000e+00,4.49820396605871e-01
3.51700000000000e-08,1.34999999999978e-01,0.00000000000000e+00,4.49946306165745e-01
3.52000000000000e-08,0.00000000000000e+00,0.00000000000000e+00,4.50778634556190e-01
3.52080000000000e-08,0.00000000000000e+00,0.00000000000000e+00,4.51090683123547e-01
3.52240000000000e-08,0.00000000000000e+00,0.00000000000000e+00,4.51559295758020e-01
3.52560000000000e-08,0.00000000000000e+00,0.00000000000000e+00,4.51966179744097e-01
3.53200000000000e-08,0.00000000000000e+00,0.00000000000000e+00,4.51761023406301e-01
3.54480000000000e-08,0.00000000000000e+00,0.00000000000000e+00,4.46233185916889e-01
3.57040000000000e-08,0.00000000000000e+00,0.00000000000000e+00,4.36297958394901e-01
3.62160000000000e-08,0.00000000000000e+00,0.00000000000000e+00,4.46643504757224e-01
3.69619785613789e-08,0.00000000000000e+00,0.00000000000000e+00,4.50979259536383e-01
3.84348947150638e-08,0.00000000000000e+00,0.00000000000000e+00,4.48277512541209e-01
3.91000000000000e-08,0.00000000000000e+00,0.00000000000000e+00,4.50575473428610e-01
3.92592426510237e-08,0.00000000000000e+00,0.00000000000000e+00,4.49928723038651e-01
3.95777279530711e-08,0.00000000000000e+00,0.00000000000000e+00,4.49583902881474e-01
4.02146985571660e-08,0.00000000000000e+00,0.00000000000000e+00,4.49790610705436e-01
4.14886397653556e-08,0.00000000000000e+00,0.00000000000000e+00,4.49693176013752e-01
4.40365221817349e-08,0.00000000000000e+00,0.00000000000000e+00,4.49843774677522e-01
4.50000000000000e-08,0.00000000000000e+00,0.00000000000000e+00,4.49756460426367e-01
4.50100000000000e-08,4.49999999999915e-02,0.00000000000000e+00,4.49820165771902e-01
4.50300000000000e-08,1.35000000000004e-01,0.00000000000000e+00,4.49907591494335e-01
4.50700000000000e-08,3.15000000000000e-01,0.00000000000000e+00,4.49926374125680e-01
4.51000000000000e-08,4.50000000000000e-01,0.00000000000000e+00,4.49851865369014e-01
4.51080000000000e-08,4.50000000000000e-01,0.00000000000000e+00,4.49803311494686e-01
4.51240000000000e-08,4.50000000000000e-01,0.00000000000000e+00,4.49724940589254e-01
4.51560000000000e-08,4.50000000000000e-01,0.00000000000000e+00,4.49647974314643e-01
4.52200000000000e-08,4.50000000000000e-01,0.00000000000000e+00,4.49611672739163e-01
4.53480000000000e-08,4.50000000000000e-01,0.00000000000000e+00,4.49698478598861e-01
4.56040000000000e-08,4.50000000000000e-01,0.00000000000000e+00,4.51082290663171e-01
4.61160000000000e-08,4.50000000000000e-01,0.00000000000000e+00,3.40158701135583e-01
4.71400000000000e-08,4.50000000000000e-01,0.00000000000000e+00,2.81482192701556e-04
4.83628411181643e-08,4.50000000000000e-01,0.00000000000000e+00,-1.35655424435530e-04
5.00000000000000e-08,4.50000000000000e-01,0.00000000000000e+00,1.37807546061310e-03
5.00100000000000e-08,4.50000000000000e-01,4.49999999999915e-02,3.84969007053391e-04
5.00300000000000e-08,4.50000000000000e-01,1.34999999999974e-01,-6.89889097903615e-04
5.00700000000000e-08,4.50000000000000e-01,3.15000000000000e-01,-7.98755664157519e-04
5.01000000000000e-08,4.50000000000000e-01,4.50000000000000e-01,-6.62826136069911e-04
5.01080000000000e-08,4.50000000000000e-01,4.50000000000000e-01,-6.18155487872279e-04
5.01240000000000e-08,4.50000000000000e-01,4.50000000000000e-01,-5.29635548081130e-04
5.01560000000000e-08,4.50000000000000e-01,4.50000000000000e-01,-3.71668133656453e-04
5.02200000000000e-08,4.50000000000000e-01,4.50000000000000e-01,-1.65349437867376e-04
5.03480000000000e-08,4.50000000000000e-01,4.50000000000000e-01,2.62783678246677e-05
5.06040000000000e-08,4.50000000000000e-01,4.50000000000000e-01,-4.96300173520592e-07
5.11160000000001e-08,4.50000000000000e-01,4.50000000000000e-01,7.95692789746713e-06
5.21400000000002e-08,4.50000000000000e-01,4.50000000000000e-01,2.14505567072785e-06
5.41880000000003e-08,4.50000000000000e-01,4.50000000000000e-01,6.90975077125532e-06
5.51000000000000e-08,4.50000000000000e-01,4.50000000000000e-01,3.81775542395921e-06
5.51100000000000e-08,4.05000000000016e-01,4.50000000000000e-01,-4.14450130175811e-05
5.51300000000000e-08,3.15000000000003e-01,4.50000000000000e-01,-1.19289690493837e-04
5.51700000000000e-08,1.35000000000008e-01,4.50000000000000e-01,-1.91371801726313e-04
5.52000000000000e-08,0.00000000000000e+00,4.50000000000000e-01,-1.02358312683334e-04
5.52080000000000e-08,0.00000000000000e+00,4.50000000000000e-01,-1.19172044172472e-06
5.52240000000000e-08,0.00000000000000e+00,4.50000000000000e-01,1.50726200283828e-04
5.52560000000000e-08,0.00000000000000e+00,4.50000000000000e-01,2.64296623712877e-04
5.53200000000000e-08,0.00000000000000e+00,4.50000000000000e-01,2.18640435650640e-04
5.54480000000000e-08,0.00000000000000e+00,4.50000000000000e-01,-2.96785276908976e-04
5.57040000000000e-08,0.00000000000000e+00,4.50000000000000e-01,-6.07391511673105e-04
5.62160000000000e-08,0.00000000000000e+00,4.50000000000000e-01,1.77408393128877e-04
5.72400000000000e-08,0.00000000000000e+00,4.50000000000000e-01,-1.06305637797166e-04
5.85652434247952e-08,0.00000000000000e+00,4.50000000000000e-01,1.29695757037097e-04
5.88965542809940e-08,0.00000000000000e+00,4.50000000000000e-01,3.01498468829649e-05
5.95591759933916e-08,0.00000000000000e+00,4.50000000000000e-01,-1.32637783729229e-05
6.08844194181868e-08,0.00000000000000e+00,4.50000000000000e-01,2.70091786441252e-05
6.35349062677771e-08,0.00000000000000e+00,4.50000000000000e-01,-8.88544992530592e-06
6.50000000000000e-08,0.00000000000000e+00,4.50000000000000e-01,2.23870101415651e-05
6.50100000000000e-08,4.49999999999915e-02,4.50000000000000e-01,1.06819451186457e-04
6.50300000000000e-08,1.34999999999974e-01,4.50000000000000e-01,2.48109334199699e-04
6.50700000000000e-08,3.14999999999940e-01,4.50000000000000e-01,3.99516925645604e-04
6.51000000000000e-08,4.49999999999974e-01,4.50000000000000e-01,3.73643718559247e-04
6.51080000000000e-08,4.50000000000000e-01,4.50000000000000e-01,2.92901461610838e-04
6.51240000000000e-08,4.50000000000000e-01,4.50000000000000e-01,9.78488058229338e-05
6.51560000000000e-08,4.50000000000000e-01,4.50000000000000e-01,-5.07307852866894e-04
6.52200000000000e-08,4.50000000000000e-01,4.50000000000000e-01,-1.98681160360833e-03
6.53480000000000e-08,4.50000000000000e-01,4.50000000000000e-01,-3.90008797819993e-03
6.56040000000000e-08,4.50000000000000e-01,4.50000000000000e-01,2.84874049455024e-02
6.61159999999999e-08,4.50000000000000e-01,4.50000000000000e-01,3.65380904188922e-01
6.71399999999999e-08,4.50000000000000e-01,4.50000000000000e-01,4.68889281355333e-01
6.83732999453225e-08,4.50000000000000e-01,4.50000000000000e-01,4.30318977833655e-01
7.01000000000000e-08,4.50000000000000e-01,4.50000000000000e-01,4.66182531898230e-01
7.01100000000000e-08,4.50000000000000e-01,4.05000000000009e-01,4.61900653075718e-01
7.01300000000000e-08,4.50000000000000e-01,3.15000000000026e-01,4.55623712025696e-01
7.01700000000000e-08,4.50000000000000e-01,1.35000000000060e-01,4.50950165784417e-01
7.02000000000000e-08,4.50000000000000e-01,2.57571741713036e-14,4.50262728629235e-01
7.02080000000000e-08,4.50000000000000e-01,0.00000000000000e+00,4.50183151569563e-01
7.02240000000000e-08,4.50000000000000e-01,0.00000000000000e+00,4.50056516210438e-01
7.02560000000000e-08,4.50000000000000e-01,0.00000000000000e+00,4.49931563458908e-01
7.03200000000000e-08,4.50000000000000e-01,0.00000000000000e+00,4.49850924327237e-01
7.04480000000000e-08,4.50000000000000e-01,0.00000000000000e+00,4.49955613625861e-01
7.07040000000000e-08,4.50000000000000e-01,0.00000000000000e+00,4.49912591848908e-01
7.12159999999999e-08,4.50000000000000e-01,0.00000000000000e+00,4.49961866821914e-01
7.20684200460960e-08,4.50000000000000e-01,0.00000000000000e+00,4.49916794487538e-01
7.35083748677235e-08,4.50000000000000e-01,0.00000000000000e+00,4.49967762985266e-01
7.51000000000000e-08,4.50000000000000e-01,0.00000000000000e+00,4.49932856216606e-01
7.51100000000000e-08,4.05000000000046e-01,0.00000000000000e+00,4.49884257982555e-01
7.51300000000000e-08,3.15000000000063e-01,0.00000000000000e+00,4.49820396065226e-01
7.51700000000000e-08,1.35000000000097e-01,0.00000000000000e+00,4.49946305899149e-01
7.52000000000000e-08,6.29496454962464e-14,0.00000000000000e+00,4.50778634301302e-01
7.52080000000000e-08,0.00000000000000e+00,0.00000000000000e+00,4.51090682850068e-01
7.52240000000000e-08,0.00000000000000e+00,0.00000000000000e+00,4.51559295420728e-01
7.52560000000000e-08,0.00000000000000e+00,0.00000000000000e+00,4.51966178999720e-01
7.53200000000000e-08,0.00000000000000e+00,0.00000000000000e+00,4.51761020018460e-01
7.54480000000000e-08,0.00000000000000e+00,0.00000000000000e+00,4.46233171094956e-01
7.57040000000000e-08,0.00000000000000e+00,0.00000000000000e+00,4.36297948351179e-01
7.62159999999999e-08,0.00000000000000e+00,0.00000000000000e+00,4.46643510822909e-01
7.69619785625059e-08,0.00000000000000e+00,0.00000000000000e+00,4.50979255002771e-01
7.81000000000000e-08,0.00000000000000e+00,0.00000000000000e+00,4.48306648550057e-01
7.82472916155430e-08,0.00000000000000e+00,0.00000000000000e+00,4.49215343948552e-01
7.85418748466289e-08,0.00000000000000e+00,0.00000000000000e+00,4.49778987560671e-01
7.91310413088008e-08,0.00000000000000e+00,0.00000000000000e+00,4.49567533612703e-01
8.03093742331445e-08,0.00000000000000e+00,0.00000000000000e+00,4.49800439331730e-01
8.26660400818319e-08,0.00000000000000e+00,0.00000000000000e+00,4.49701932331975e-01
8.50000000000000e-08,0.00000000000000e+00,0.00000000000000e+00,4.49862317089892e-01
8.50100000000000e-08,4.49999999999915e-02,0.00000000000000e+00,4.49904603528069e-01
8.50300000000000e-08,1.34999999999974e-01,0.00000000000000e+00,4.49958276683403e-01
8.50700000000000e-08,3.14999999999940e-01,0.00000000000000e+00,4.49947349712655e-01
8.51000000000000e-08,4.49999999999974e-01,0.00000000000000e+00,4.49864753659379e-01
8.51080000000000e-08,4.50000000000000e-01,0.00000000000000e+00,4.49812930808135e-01
8.51240000000000e-08,4.50000000000000e-01,0.00000000000000e+00,4.49729734769160e-01
8.51560000000000e-08,4.50000000000000e-01,0.00000000000000e+00,4.49650648879670e-01
8.52200000000000e-08,4.50000000000000e-01,0.00000000000000e+00,4.49630965452089e-01
8.53480000000000e-08,4.50000000000000e-01,0.00000000000000e+00,4.49693107592700e-01
8.56040000000000e-08,4.50000000000000e-01,0.00000000000000e+00,4.51083037845186e-01
8.61159999999999e-08,4.50000000000000e-01,0.00000000000000e+00,3.40469616124219e-01
8.71399999999999e-08,4.50000000000000e-01,0.00000000000000e+00,3.97142848135888e-04
8.83614892919663e-08,4.50000000000000e-01,0.00000000000000e+00,-2.34177189687616e-04
9.00000000000000e-08,4.50000000000000e-01,0.00000000000000e+00,1.45173919300723e-03
9.00100000000000e-08,4.50000000000000e-01,4.49999999999915e-02,4.50113954670275e-04
9.00300000000000e-08,4.50000000000000e-01,1.34999999999974e-01,-6.39787736807770e-04
9.00700000000000e-08,4.50000000000000e-01,3.14999999999940e-01,-7.69346241700324e-04
9.01000000000000e-08,4.50000000000000e-01,4.49999999999974e-01,-6.42778888177854e-04
9.01080000000000e-08,4.50000000000000e-01,4.50000000000000e-01,-5.99920697042726e-04
9.01240000000000e-08,4.50000000000000e-01,4.50000000000000e-01,-5.14726426996098e-04
9.01560000000000e-08,4.50000000000000e-01,4.50000000000000e-01,-3.61777637900636e-04
9.02200000000000e-08,4.50000000000000e-01,4.50000000000000e-01,-1.61255644695102e-04
9.03480000000000e-08,4.50000000000000e-01,4.50000000000000e-01,2.52056371313203e-05
9.06040000000000e-08,4.50000000000000e-01,4.50000000000000e-01,-2.46291479905070e-07
9.11159999999999e-08,4.50000000000000e-01,4.50000000000000e-01,7.82077490442054e-06
9.21399999999999e-08,4.50000000000000e-01,4.50000000000000e-01,2.27558093029122e-06
9.41879999999998e-08,4.50000000000000e-01,4.50000000000000e-01,6.83656231920387e-06
9.51000000000000e-08,4.50000000000000e-01,4.50000000000000e-01,3.87075334451828e-06
9.51100000000000e-08,4.05000000000046e-01,4.50000000000000e-01,-4.14907394888434e-05
9.51300000000000e-08,3.15000000000063e-01,4.50000000000000e-01,-1.19496764447440e-04
9.51700000000000e-08,1.35000000000097e-01,4.50000000000000e-01,-1.91705138645318e-04
9.52000000000000e-08,6.29496454962464e-14,4.50000000000000e-01,-1.02578312677952e-04
9.52080000000000e-08,0.00000000000000e+00,4.50000000000000e-01,-1.39249632425537e-06
9.52240000000000e-08,0.00000000000000e+00,4.50000000000000e-01,1.50562034565462e-04
9.52560000000000e-08,0.00000000000000e+00,4.50000000000000e-01,2.64186286609194e-04
9.53200000000000e-08,0.00000000000000e+00,4.50000000000000e-01,2.18581271795810e-04
9.54480000000000e-08,0.00000000000000e+00,4.50000000000000e-01,-2.96869128442890e-04
9.57040000000000e-08,0.00000000000000e+00,4.50000000000000e-01,-6.07671976398230e-04
9.62159999999999e-08,0.00000000000000e+00,4.50000000000000e-01,1.77464743263625e-04
9.72399999999999e-08,0.00000000000000e+00,4.50000000000000e-01,-1.06311644064216e-04
9.85652438593451e-08,0.00000000000000e+00,4.50000000000000e-01,1.29676963230949e-04
9.88965548241815e-08,0.00000000000000e+00,4.50000000000000e-01,3.01627242912505e-05
9.95591767538541e-08,0.00000000000000e+00,4.50000000000000e-01,-1.32674615669418e-05
1.00884420613199e-07,0.00000000000000e+00,4.50000000000000e-01,2.70103150719963e-05
1.03534908331890e-07,0.00000000000000e+00,4.50000000000000e-01,-8.88564871775631e-06
1.05000000000000e-07,0.00000000000000e+00,4.50000000000000e-01,2.23859164133209e-05
1.05010000000000e-07,4.49999999999915e-02,4.50000000000000e-01,1.06819393402423e-04
1.05030000000000e-07,1.34999999999974e-01,4.50000000000000e-01,2.48110607022622e-04
1.05070000000000e-07,3.14999999999940e-01,4.50000000000000e-01,3.99519014980150e-04
1.05100000000000e-07,4.49999999999974e-01,4.50000000000000e-01,3.73645682089425e-04
1.05108000000000e-07,4.50000000000000e-01,4.50000000000000e-01,2.92903349596835e-04
1.05124000000000e-07,4.50000000000000e-01,4.50000000000000e-01,9.78505383751396e-05
1.05156000000000e-07,4.50000000000000e-01,4.50000000000000e-01,-5.07306427835350e-04
1.05220000000000e-07,4.50000000000000e-01,4.50000000000000e-01,-1.98681074367359e-03
1.05348000000000e-07,4.50000000000000e-01,4.50000000000000e-01,-3.90008774223100e-03
1.05604000000000e-07,4.50000000000000e-01,4.50000000000000e-01,2.84874037346068e-02
1.06116000000000e-07,4.50000000000000e-01,4.50000000000000e-01,3.65380902699446e-01
1.07140000000000e-07,4.50000000000000e-01,4.50000000000000e-01,4.68889281502186e-01
1.08373299943177e-07,4.50000000000000e-01,4.50000000000000e-01,4.30318977719904e-01
1.10100000000000e-07,4.50000000000000e-01,4.50000000000000e-01,4.66182532038712e-01
1.10110000000000e-07,4.50000000000000e-01,4.05000000000068e-01,4.61900653176210e-01
1.10130000000000e-07,4.50000000000000e-01,3.15000000000085e-01,4.55623712072197e-01
1.10170000000000e-07,4.50000000000000e-01,1.35000000000119e-01,4.50950165788033e-01
