Time,v(clk),v(data),v(out)
1.00000000000000e-08,4.50000000000000e-01,0.00000000000000e+00,-1.81390402354646e-05
1.00100000000000e-08,4.50000000000000e-01,4.49999999999989e-02,-1.75370948490641e-05
1.00300000000000e-08,4.50000000000000e-01,1.34999999999997e-01,-1.56801303565837e-05
1.00700000000000e-08,4.50000000000000e-01,3.14999999999992e-01,-1.25824894588906e-05
1.01000000000000e-08,4.50000000000000e-01,4.49999999999997e-01,-1.26977447324067e-05
1.01080000000000e-08,4.50000000000000e-01,4.50000000000000e-01,-1.26561516162124e-05
1.01240000000000e-08,4.50000000000000e-01,4.50000000000000e-01,-1.16415197008377e-05
1.01560000000000e-08,4.50000000000000e-01,4.50000000000000e-01,-7.45721961042944e-06
1.02200000000000e-08,4.50000000000000e-01,4.50000000000000e-01,-6.88356525373884e-07
1.03480000000000e-08,4.50000000000000e-01,4.50000000000000e-01,4.42512249960655e-06
1.06040000000000e-08,4.50000000000000e-01,4.50000000000000e-01,2.07397661078530e-06
1.11160000000000e-08,4.50000000000000e-01,4.50000000000000e-01,2.26658199777886e-06
1.21400000000000e-08,4.50000000000000e-01,4.50000000000000e-01,2.43617617301170e-06
1.41880000000000e-08,4.50000000000000e-01,4.50000000000000e-01,1.66488876501098e-06
1.51000000000000e-08,4.50000000000000e-01,4.50000000000000e-01,2.03714794262417e-06
1.51100000000000e-08,4.04999999999994e-01,4.50000000000000e-01,-4.88574765094216e-05
1.51300000000000e-08,3.14999999999996e-01,4.50000000000000e-01,-1.36808571826116e-04
1.51700000000000e-08,1.35000000000000e-01,4.50000000000000e-01,-2.56922295133521e-04
1.52000000000000e-08,0.00000000000000e+00,4.50000000000000e-01,-2.35810008496741e-04
1.52080000000000e-08,0.00000000000000e+00,4.50000000000000e-01,-1.47109762709763e-04
1.52240000000000e-08,0.00000000000000e+00,4.50000000000000e-01,1.45539183508264e-06
1.52560000000000e-08,0.00000000000000e+00,4.50000000000000e-01,1.61381242606333e-04
1.53200000000000e-08,0.00000000000000e+00,4.50000000000000e-01,2.16542544562753e-04
1.54480000000000e-08,0.00000000000000e+00,4.50000000000000e-01,9.54720387856822e-05
1.57040000000000e-08,0.00000000000000e+00,4.50000000000000e-01,-6.97939793551997e-05
1.62160000000000e-08,0.00000000000000e+00,4.50000000000000e-01,-2.75797293410839e-05
1.72400000000000e-08,0.00000000000000e+00,4.50000000000000e-01,-6.10245007450095e-05
1.87859307295247e-08,0.00000000000000e+00,4.50000000000000e-01,6.07652941459185e-05
2.12203310719800e-08,0.00000000000000e+00,4.50000000000000e-01,-9.13469616746704e-06
2.49909158650623e-08,0.00000000000000e+00,4.50000000000000e-01,-1.10531906857853e-05
2.50000000000000e-08,0.00000000000000e+00,4.50000000000000e-01,-1.99228729245299e-06
2.50100000000000e-08,4.49999999999915e-02,4.50000000000000e-01,8.42631014351669e-05
2.50300000000000e-08,1.35000000000004e-01,4.50000000000000e-01,2.26272612755228e-04
2.50700000000000e-08,3.15000000000000e-01,4.50000000000000e-01,3.39772329699992e-04
2.51000000000000e-08,4.50000000000000e-01,4.50000000000000e-01,2.83223774644632e-04
2.51080000000000e-08,4.50000000000000e-01,4.50000000000000e-01,1.93723398165001e-04
2.51240000000000e-08,4.50000000000000e-01,4.50000000000000e-01,-4.74433079159647e-05
2.51560000000000e-08,4.50000000000000e-01,4.50000000000000e-01,-8.71269849629361e-04
2.52200000000000e-08,4.50000000000000e-01,4.50000000000000e-01,-2.67802570819860e-03
2.53480000000000e-08,4.50000000000000e-01,4.50000000000000e-01,-5.03857529726846e-03
2.56040000000000e-08,4.50000000000000e-01,4.50000000000000e-01,3.12027879226371e-02
2.61160000000000e-08,4.50000000000000e-01,4.50000000000000e-01,3.07437895339296e-01
2.71400000000000e-08,4.50000000000000e-01,4.50000000000000e-01,4.71285998655438e-01
2.86197828880626e-08,4.50000000000000e-01,4.50000000000000e-01,4.31071865787883e-01
3.01000000000000e-08,4.50000000000000e-01,4.50000000000000e-01,4.65537007934387e-01
3.01100000000000e-08,4.50000000000000e-01,4.05000000000023e-01,4.63171389392895e-01
3.01300000000000e-08,4.50000000000000e-01,3.15000000000011e-01,4.59170767512626e-01
3.01700000000000e-08,4.50000000000000e-01,1.35000000000015e-01,4.54311532276218e-01
3.02000000000000e-08,4.50000000000000e-01,1.08801856413265e-14,4.52452348626754e-01
3.02080000000000e-08,4.50000000000000e-01,0.00000000000000e+00,4.52128637977367e-01
3.02240000000000e-08,4.50000000000000e-01,0.00000000000000e+00,4.51554722302440e-01
3.02560000000000e-08,4.50000000000000e-01,0.00000000000000e+00,4.50738867038472e-01
3.03200000000000e-08,4.50000000000000e-01,0.00000000000000e+00,4.50096547076998e-01
3.04480000000000e-08,4.50000000000000e-01,0.00000000000000e+00,4.49847168439380e-01
3.07040000000000e-08,4.50000000000000e-01,0.00000000000000e+00,4.49914364741044e-01
3.12160000000000e-08,4.50000000000000e-01,0.00000000000000e+00,4.49914441674391e-01
3.22400000000000e-08,4.50000000000000e-01,0.00000000000000e+00,4.49930138398060e-01
3.39239958993928e-08,4.50000000000000e-01,0.00000000000000e+00,4.49920241000999e-01
3.51000000000000e-08,4.49999999999978e-01,0.00000000000000e+00,4.49944107844115e-01
3.51100000000000e-08,4.04999999999986e-01,0.00000000000000e+00,4.49882139665904e-01
3.51300000000000e-08,3.14999999999974e-01,0.00000000000000e+00,4.49774051055870e-01
3.51700000000000e-08,1.34999999999978e-01,0.00000000000000e+00,4.49728599197061e-01
3.52000000000000e-08,0.00000000000000e+00,0.00000000000000e+00,4.50156221762158e-01
3.52080000000000e-08,0.00000000000000e+00,0.00000000000000e+00,4.50379666351915e-01
3.52240000000000e-08,0.00000000000000e+00,0.00000000000000e+00,4.50759212037452e-01
3.52560000000000e-08,0.00000000000000e+00,0.00000000000000e+00,4.51242761966109e-01
3.53200000000000e-08,0.00000000000000e+00,0.00000000000000e+00,4.51681396160404e-01
3.54480000000000e-08,0.00000000000000e+00,0.00000000000000e+00,4.51376832211986e-01
3.57040000000000e-08,0.00000000000000e+00,0.00000000000000e+00,4.44740101255403e-01
3.62160000000000e-08,0.00000000000000e+00,0.00000000000000e+00,4.33663072369346e-01
3.72400000000000e-08,0.00000000000000e+00,0.00000000000000e+00,4.46302761410849e-01
3.83386652521831e-08,0.00000000000000e+00,0.00000000000000e+00,4.51158144512577e-01
3.91000000000000e-08,0.00000000000000e+00,0.00000000000000e+00,4.48790951617127e-01
3.93197330504366e-08,0.00000000000000e+00,0.00000000000000e+00,4.49254600661845e-01
3.97591991513098e-08,0.00000000000000e+00,0.00000000000000e+00,4.49631452474753e-01
4.06381313530563e-08,0.00000000000000e+00,0.00000000000000e+00,4.49591090344825e-01
4.23959957565491e-08,0.00000000000000e+00,0.00000000000000e+00,4.49695114435561e-01
4.50000000000000e-08,0.00000000000000e+00,0.00000000000000e+00,4.49712104527547e-01
4.50100000000000e-08,4.49999999999915e-02,0.00000000000000e+00,4.49774045956374e-01
4.50300000000000e-08,1.35000000000004e-01,0.00000000000000e+00,4.49873916589590e-01
4.50700000000000e-08,3.15000000000000e-01,0.00000000000000e+00,4.49944579145864e-01
4.51000000000000e-08,4.50000000000000e-01,0.00000000000000e+00,4.49885050045394e-01
4.51080000000000e-08,4.50000000000000e-01,0.00000000000000e+00,4.49826965486069e-01
4.51240000000000e-08,4.50000000000000e-01,0.00000000000000e+00,4.49721261975054e-01
4.51560000000000e-08,4.50000000000000e-01,0.00000000000000e+00,4.49569612121698e-01
4.52200000000000e-08,4.50000000000000e-01,0.00000000000000e+00,4.49399932353376e-01
4.53480000000000e-08,4.50000000000000e-01,0.00000000000000e+00,4.49407457814653e-01
4.56040000000000e-08,4.50000000000000e-01,0.00000000000000e+00,4.51629441861212e-01
4.61160000000000e-08,4.50000000000000e-01,0.00000000000000e+00,4.59085491777417e-01
4.71400000000000e-08,4.50000000000000e-01,0.00000000000000e+00,4.92374933756202e-02
4.85824255456931e-08,4.50000000000000e-01,0.00000000000000e+00,-3.31539607631829e-02
5.00000000000000e-08,4.50000000000000e-01,0.00000000000000e+00,3.25354784079354e-02
5.00100000000000e-08,4.50000000000000e-01,4.49999999999915e-02,2.79607130600093e-02
5.00300000000000e-08,4.50000000000000e-01,1.34999999999974e-01,2.02769167871199e-02
5.00700000000000e-08,4.50000000000000e-01,3.15000000000000e-01,1.07220485689433e-02
5.01000000000000e-08,4.50000000000000e-01,4.50000000000000e-01,6.63647152146833e-03
5.01080000000000e-08,4.50000000000000e-01,4.50000000000000e-01,5.89435908580260e-03
5.01240000000000e-08,4.50000000000000e-01,4.50000000000000e-01,4.56317028972851e-03
5.01560000000000e-08,4.50000000000000e-01,4.50000000000000e-01,2.73394467367406e-03
5.02200000000000e-08,4.50000000000000e-01,4.50000000000000e-01,9.06349772231970e-04
5.03480000000000e-08,4.50000000000000e-01,4.50000000000000e-01,1.32087024231516e-05
5.06040000000000e-08,4.50000000000000e-01,4.50000000000000e-01,1.10942210848446e-06
5.11160000000001e-08,4.50000000000000e-01,4.50000000000000e-01,-3.06040686989806e-06
5.21400000000002e-08,4.50000000000000e-01,4.50000000000000e-01,-3.26690103183945e-07
5.41880000000003e-08,4.50000000000000e-01,4.50000000000000e-01,-2.38091879589675e-06
5.51000000000000e-08,4.50000000000000e-01,4.50000000000000e-01,-2.66372917612223e-07
5.51100000000000e-08,4.05000000000016e-01,4.50000000000000e-01,-5.08210651940649e-05
5.51300000000000e-08,3.15000000000003e-01,4.50000000000000e-01,-1.38755213209489e-04
5.51700000000000e-08,1.35000000000008e-01,4.50000000000000e-01,-2.50431945886961e-04
5.52000000000000e-08,0.00000000000000e+00,4.50000000000000e-01,-2.35521501363668e-04
5.52080000000000e-08,0.00000000000000e+00,4.50000000000000e-01,-1.46948166055330e-04
5.52240000000000e-08,0.00000000000000e+00,4.50000000000000e-01,-2.16243287714385e-06
5.52560000000000e-08,0.00000000000000e+00,4.50000000000000e-01,1.47489677664384e-04
5.53200000000000e-08,0.00000000000000e+00,4.50000000000000e-01,1.98270044753923e-04
5.54480000000000e-08,0.00000000000000e+00,4.50000000000000e-01,7.10949430179145e-05
5.57040000000000e-08,0.00000000000000e+00,4.50000000000000e-01,-3.47915366800913e-04
5.62160000000000e-08,0.00000000000000e+00,4.50000000000000e-01,-3.26120140289739e-04
5.72400000000000e-08,0.00000000000000e+00,4.50000000000000e-01,1.51749225758564e-04
5.87874805578830e-08,0.00000000000000e+00,4.50000000000000e-01,-1.04392160673482e-04
6.12192896047422e-08,0.00000000000000e+00,4.50000000000000e-01,1.26018343806145e-04
6.49953282490185e-08,0.00000000000000e+00,4.50000000000000e-01,-1.35083771199546e-04
6.50000000000000e-08,0.00000000000000e+00,4.50000000000000e-01,-1.31807852033393e-04
6.50093435019630e-08,4.20457588334305e-02,4.50000000000000e-01,-4.25534169219074e-05
6.50280305058890e-08,1.26137276500291e-01,4.50000000000000e-01,1.06854886524552e-04
6.50654045137409e-08,2.94320311834014e-01,4.50000000000000e-01,2.61042191692262e-04
6.51000000000000e-08,4.49999999999974e-01,4.50000000000000e-01,2.31239466434219e-04
6.51074748015704e-08,4.50000000000000e-01,4.50000000000000e-01,1.53625971321618e-04
6.51224244047112e-08,4.50000000000000e-01,4.50000000000000e-01,-5.42756078401527e-05
6.51523236109927e-08,4.50000000000000e-01,4.50000000000000e-01,-7.85950184479793e-04
6.52121220235558e-08,4.50000000000000e-01,4.50000000000000e-01,-2.49305907660172e-03
6.53317188486820e-08,4.50000000000000e-01,4.50000000000000e-01,-4.81067773328259e-03
6.55709124989344e-08,4.50000000000000e-01,4.50000000000000e-01,1.98026685099407e-02
6.60492997994392e-08,4.50000000000000e-01,4.50000000000000e-01,2.70671800330321e-01
6.70060744004489e-08,4.50000000000000e-01,4.50000000000000e-01,4.69514865588785e-01
6.84715284088650e-08,4.50000000000000e-01,4.50000000000000e-01,4.34596192260520e-01
7.01000000000000e-08,4.50000000000000e-01,4.50000000000000e-01,4.64317043522884e-01
7.01100000000000e-08,4.50000000000000e-01,4.05000000000009e-01,4.62098606225049e-01
7.01300000000000e-08,4.50000000000000e-01,3.15000000000026e-01,4.58365911932811e-01
7.01700000000000e-08,4.50000000000000e-01,1.35000000000060e-01,4.53799700899802e-01
7.02000000000000e-08,4.50000000000000e-01,2.57571741713036e-14,4.52052726698193e-01
7.02080000000000e-08,4.50000000000000e-01,0.00000000000000e+00,4.51749167558901e-01
7.02240000000000e-08,4.50000000000000e-01,0.00000000000000e+00,4.51212667988039e-01
7.02560000000000e-08,4.50000000000000e-01,0.00000000000000e+00,4.50457134696904e-01
7.03200000000000e-08,4.50000000000000e-01,0.00000000000000e+00,4.49901488624954e-01
7.04480000000000e-08,4.50000000000000e-01,0.00000000000000e+00,4.49781695752882e-01
7.07040000000000e-08,4.50000000000000e-01,0.00000000000000e+00,4.49895471516040e-01
7.12159999999999e-08,4.50000000000000e-01,0.00000000000000e+00,4.49911649864254e-01
7.22399999999999e-08,4.50000000000000e-01,0.00000000000000e+00,4.49918024887636e-01
7.39251623144434e-08,4.50000000000000e-01,0.00000000000000e+00,4.49918954096061e-01
7.51000000000000e-08,4.50000000000000e-01,0.00000000000000e+00,4.49936538083757e-01
7.51100000000000e-08,4.05000000000046e-01,0.00000000000000e+00,4.49875334990634e-01
7.51300000000000e-08,3.15000000000063e-01,0.00000000000000e+00,4.49768410299903e-01
7.51700000000000e-08,1.35000000000097e-01,0.00000000000000e+00,4.49723862812911e-01
7.52000000000000e-08,6.29496454962464e-14,0.00000000000000e+00,4.50151423847595e-01
7.52080000000000e-08,0.00000000000000e+00,0.00000000000000e+00,4.50374865520372e-01
7.52240000000000e-08,0.00000000000000e+00,0.00000000000000e+00,4.50754126122511e-01
7.52560000000000e-08,0.00000000000000e+00,0.00000000000000e+00,4.51236186633326e-01
7.53200000000000e-08,0.00000000000000e+00,0.00000000000000e+00,4.51667569333308e-01
7.54480000000000e-08,0.00000000000000e+00,0.00000000000000e+00,4.51317583402493e-01
7.57040000000000e-08,0.00000000000000e+00,0.00000000000000e+00,4.44511146920424e-01
7.62159999999999e-08,0.00000000000000e+00,0.00000000000000e+00,4.33557308170048e-01
7.72399999999999e-08,0.00000000000000e+00,0.00000000000000e+00,4.46405514744112e-01
7.81000000000000e-08,0.00000000000000e+00,0.00000000000000e+00,4.50814156608479e-01
7.82098644246623e-08,0.00000000000000e+00,0.00000000000000e+00,4.50247574429086e-01
7.84295932739868e-08,0.00000000000000e+00,0.00000000000000e+00,4.49610013498936e-01
7.88690509726358e-08,0.00000000000000e+00,0.00000000000000e+00,4.49476555554592e-01
7.97479663699338e-08,0.00000000000000e+00,0.00000000000000e+00,4.49586551189925e-01
8.15057971645299e-08,0.00000000000000e+00,0.00000000000000e+00,4.49641216622072e-01
8.50000000000000e-08,0.00000000000000e+00,0.00000000000000e+00,4.49733694466021e-01
8.50100000000000e-08,4.49999999999915e-02,0.00000000000000e+00,4.49801501728116e-01
8.50300000000000e-08,1.34999999999974e-01,0.00000000000000e+00,4.49907374078580e-01
8.50700000000000e-08,3.14999999999940e-01,0.00000000000000e+00,4.49974666768773e-01
8.51000000000000e-08,4.49999999999974e-01,0.00000000000000e+00,4.49909899081827e-01
8.51080000000000e-08,4.50000000000000e-01,0.00000000000000e+00,4.49852284445712e-01
8.51240000000000e-08,4.50000000000000e-01,0.00000000000000e+00,4.49746638468829e-01
8.51560000000000e-08,4.50000000000000e-01,0.00000000000000e+00,4.49590201127703e-01
8.52200000000000e-08,4.50000000000000e-01,0.00000000000000e+00,4.49404202576009e-01
8.53480000000000e-08,4.50000000000000e-01,0.00000000000000e+00,4.49398474297798e-01
8.56040000000000e-08,4.50000000000000e-01,0.00000000000000e+00,4.51636919555689e-01
8.61159999999999e-08,4.50000000000000e-01,0.00000000000000e+00,4.59060935438314e-01
8.71399999999999e-08,4.50000000000000e-01,0.00000000000000e+00,4.92241022625566e-02
8.85831068071115e-08,4.50000000000000e-01,0.00000000000000e+00,-3.31542098923458e-02
9.00000000000000e-08,4.50000000000000e-01,0.00000000000000e+00,3.25299143199993e-02
9.00100000000000e-08,4.50000000000000e-01,4.49999999999915e-02,2.79553918505150e-02
9.00300000000000e-08,4.50000000000000e-01,1.34999999999974e-01,2.02722151751849e-02
9.00700000000000e-08,4.50000000000000e-01,3.14999999999940e-01,1.07187708712006e-02
9.01000000000000e-08,4.50000000000000e-01,4.49999999999974e-01,6.63409940299351e-03
9.01080000000000e-08,4.50000000000000e-01,4.50000000000000e-01,5.89338257779038e-03
9.01240000000000e-08,4.50000000000000e-01,4.50000000000000e-01,4.56217152033452e-03
9.01560000000000e-08,4.50000000000000e-01,4.50000000000000e-01,2.73323327826435e-03
9.02200000000000e-08,4.50000000000000e-01,4.50000000000000e-01,9.06111162307072e-04
9.03480000000000e-08,4.50000000000000e-01,4.50000000000000e-01,1.31657855607058e-05
9.06040000000000e-08,4.50000000000000e-01,4.50000000000000e-01,1.12355898585111e-06
9.11159999999999e-08,4.50000000000000e-01,4.50000000000000e-01,-3.06372090832369e-06
9.21399999999999e-08,4.50000000000000e-01,4.50000000000000e-01,-3.17994052457214e-07
9.41879999999998e-08,4.50000000000000e-01,4.50000000000000e-01,-2.38326436885049e-06
9.51000000000000e-08,4.50000000000000e-01,4.50000000000000e-01,-2.60591230690464e-07
9.51100000000000e-08,4.05000000000046e-01,4.50000000000000e-01,-5.08205003613010e-05
9.51300000000000e-08,3.15000000000063e-01,4.50000000000000e-01,-1.38756023471083e-04
9.51700000000000e-08,1.35000000000097e-01,4.50000000000000e-01,-2.50433381000170e-04
9.52000000000000e-08,6.29496454962464e-14,4.50000000000000e-01,-2.35522321451131e-04
9.52080000000000e-08,0.00000000000000e+00,4.50000000000000e-01,-1.46948809583283e-04
9.52240000000000e-08,0.00000000000000e+00,4.50000000000000e-01,-2.16232444495701e-06
9.52560000000000e-08,0.00000000000000e+00,4.50000000000000e-01,1.47491995619975e-04
9.53200000000000e-08,0.00000000000000e+00,4.50000000000000e-01,1.98279742779712e-04
9.54480000000000e-08,0.00000000000000e+00,4.50000000000000e-01,7.11388111852423e-05
9.57040000000000e-08,0.00000000000000e+00,4.50000000000000e-01,-3.47654989462381e-04
9.62159999999999e-08,0.00000000000000e+00,4.50000000000000e-01,-3.25698433793854e-04
9.72399999999999e-08,0.00000000000000e+00,4.50000000000000e-01,1.50785775484983e-04
9.87874791034561e-08,0.00000000000000e+00,4.50000000000000e-01,-1.03685939760558e-04
1.01219291968970e-07,0.00000000000000e+00,4.50000000000000e-01,1.25429656524003e-04
1.04995325599972e-07,0.00000000000000e+00,4.50000000000000e-01,-1.34570957304701e-04
1.05000000000000e-07,0.00000000000000e+00,4.50000000000000e-01,-1.31261684065326e-04
1.05009348800055e-07,4.20696002475887e-02,4.50000000000000e-01,-4.19840686704670e-05
1.05028046400165e-07,1.26208800742766e-01,4.50000000000000e-01,1.07416859652362e-04
1.05065441600385e-07,2.94487201733121e-01,4.50000000000000e-01,2.61410725464841e-04
1.05100000000000e-07,4.49999999999974e-01,4.50000000000000e-01,2.31455484270761e-04
1.05107479040044e-07,4.50000000000000e-01,4.50000000000000e-01,1.53768176987999e-04
1.05122437120132e-07,4.50000000000000e-01,4.50000000000000e-01,-5.43608966397241e-05
1.05152353280308e-07,4.50000000000000e-01,4.50000000000000e-01,-7.86739359908355e-04
1.05212185600660e-07,4.50000000000000e-01,4.50000000000000e-01,-2.49464917272526e-03
1.05331850241364e-07,4.50000000000000e-01,4.50000000000000e-01,-4.81267254871552e-03
1.05571179522773e-07,4.50000000000000e-01,4.50000000000000e-01,1.98878239937209e-02
1.06049838085590e-07,4.50000000000000e-01,4.50000000000000e-01,2.70988137915964e-01
1.07007155211224e-07,4.50000000000000e-01,4.50000000000000e-01,4.69539969161916e-01
1.08472579297063e-07,4.50000000000000e-01,4.50000000000000e-01,4.34560874588726e-01
1.10100000000000e-07,4.50000000000000e-01,4.50000000000000e-01,4.64335085294402e-01
1.10110000000000e-07,4.50000000000000e-01,4.05000000000068e-01,4.62114630386282e-01
1.10130000000000e-07,4.50000000000000e-01,3.15000000000085e-01,4.58377660005735e-01
1.10170000000000e-07,4.50000000000000e-01,1.35000000000119e-01,4.53806432698305e-01
1.10200000000000e-07,4.50000000000000e-01,8.53206394424433e-14,4.52057600703578e-01
1.10208000000000e-07,4.50000000000000e-01,0.00000000000000e+00,4.51753704670253e-01
1.10224000000000e-07,4.50000000000000e-01,0.00000000000000e+00,4.51216596119276e-01
1.10256000000000e-07,4.50000000000000e-01,0.00000000000000e+00,4.50460125061637e-01
1.10320000000000e-07,4.50000000000000e-01,0.00000000000000e+00,4.49903204738974e-01
1.10448000000000e-07,4.50000000000000e-01,0.00000000000000e+00,4.49782419294704e-01
