Time,v(clk),v(data),v(out),v(reset)
1.00000000000000e-08,4.50000000000000e-01,0.00000000000000e+00,-1.38068774485705e-02,0.00000000000000e+00
1.00100000000000e-08,4.50000000000000e-01,4.49999999999989e-02,-1.17730958671111e-02,0.00000000000000e+00
1.00300000000000e-08,4.50000000000000e-01,1.34999999999997e-01,-8.82203980074726e-03,0.00000000000000e+00
1.00700000000000e-08,4.50000000000000e-01,3.14999999999992e-01,-6.14707369161115e-03,0.00000000000000e+00
1.01000000000000e-08,4.50000000000000e-01,4.49999999999997e-01,-4.97439436823718e-03,0.00000000000000e+00
1.01080000000000e-08,4.50000000000000e-01,4.50000000000000e-01,-4.70483924343437e-03,0.00000000000000e+00
1.01240000000000e-08,4.50000000000000e-01,4.50000000000000e-01,-4.19353916747191e-03,0.00000000000000e+00
1.01560000000000e-08,4.50000000000000e-01,4.50000000000000e-01,-3.30240395623457e-03,0.00000000000000e+00
1.02200000000000e-08,4.50000000000000e-01,4.50000000000000e-01,-2.07266880104251e-03,0.00000000000000e+00
1.03480000000000e-08,4.50000000000000e-01,4.50000000000000e-01,-7.70652309338274e-04,0.00000000000000e+00
1.06040000000000e-08,4.50000000000000e-01,4.50000000000000e-01,-3.29813072410395e-05,0.00000000000000e+00
1.11160000000000e-08,4.50000000000000e-01,4.50000000000000e-01,8.85079131355757e-06,0.00000000000000e+00
1.21400000000000e-08,4.50000000000000e-01,4.50000000000000e-01,-4.41506388945169e-06,0.00000000000000e+00
1.41880000000000e-08,4.50000000000000e-01,4.50000000000000e-01,6.16493047431513e-06,0.00000000000000e+00
1.51000000000000e-08,4.50000000000000e-01,4.50000000000000e-01,-1.68061801559399e-06,0.00000000000000e+00
1.51100000000000e-08,4.04999999999994e-01,4.50000000000000e-01,1.68124645965141e-04,4.50000000000064e-02
1.51300000000000e-08,3.14999999999996e-01,4.50000000000000e-01,3.83280727892420e-04,1.35000000000004e-01
1.51700000000000e-08,1.35000000000000e-01,4.50000000000000e-01,3.43412557738773e-04,3.15000000000000e-01
1.52000000000000e-08,0.00000000000000e+00,4.50000000000000e-01,2.32018932152411e-04,4.50000000000000e-01
1.52080000000000e-08,0.00000000000000e+00,4.50000000000000e-01,2.00330250647286e-04,4.50000000000000e-01
1.52240000000000e-08,0.00000000000000e+00,4.50000000000000e-01,1.53419971169973e-04,4.50000000000000e-01
1.52560000000000e-08,0.00000000000000e+00,4.50000000000000e-01,1.09406848685281e-04,4.50000000000000e-01
1.53200000000000e-08,0.00000000000000e+00,4.50000000000000e-01,7.94003895537090e-05,4.50000000000000e-01
1.54480000000000e-08,0.00000000000000e+00,4.50000000000000e-01,-2.17110939232067e-04,4.50000000000000e-01
1.57040000000000e-08,0.00000000000000e+00,4.50000000000000e-01,-8.05780647420713e-04,4.50000000000000e-01
1.62160000000000e-08,0.00000000000000e+00,4.50000000000000e-01,-2.12708603308121e-05,4.50000000000000e-01
1.71185029052284e-08,0.00000000000000e+00,4.50000000000000e-01,4.76056080482429e-05,4.50000000000000e-01
1.86398423601022e-08,0.00000000000000e+00,4.50000000000000e-01,-7.25757151927115e-05,4.50000000000000e-01
2.08161615044678e-08,0.00000000000000e+00,4.50000000000000e-01,1.21735379228627e-04,4.50000000000000e-01
2.46161615044678e-08,0.00000000000000e+00,4.50000000000000e-01,-1.37616229740884e-04,4.50000000000000e-01
2.50000000000000e-08,0.00000000000000e+00,4.50000000000000e-01,1.51776628219438e-04,4.50000000000000e-01
2.50100000000000e-08,4.49999999999915e-02,4.50000000000000e-01,2.31818528134711e-04,4.50000000000000e-01
2.50300000000000e-08,1.35000000000004e-01,4.50000000000000e-01,3.78578255244157e-04,4.50000000000000e-01
2.50700000000000e-08,3.15000000000000e-01,4.50000000000000e-01,5.67633250990990e-04,4.50000000000000e-01
2.51000000000000e-08,4.50000000000000e-01,4.50000000000000e-01,5.98140239741876e-04,4.50000000000000e-01
2.51080000000000e-08,4.50000000000000e-01,4.50000000000000e-01,5.50938168657859e-04,4.50000000000000e-01
2.51240000000000e-08,4.50000000000000e-01,4.50000000000000e-01,4.60502106867697e-04,4.50000000000000e-01
2.51560000000000e-08,4.50000000000000e-01,4.50000000000000e-01,2.81400673738025e-04,4.50000000000000e-01
2.52200000000000e-08,4.50000000000000e-01,4.50000000000000e-01,-2.84952639601099e-04,4.50000000000000e-01
2.53480000000000e-08,4.50000000000000e-01,4.50000000000000e-01,-1.88150694736799e-03,4.50000000000000e-01
2.56040000000000e-08,4.50000000000000e-01,4.50000000000000e-01,-4.18306109267041e-03,4.50000000000000e-01
2.61160000000000e-08,4.50000000000000e-01,4.50000000000000e-01,6.32803246871306e-02,4.50000000000000e-01
2.71400000000000e-08,4.50000000000000e-01,4.50000000000000e-01,4.26432085611780e-01,4.50000000000000e-01
2.91880000000000e-08,4.50000000000000e-01,4.50000000000000e-01,4.57830574264323e-01,4.50000000000000e-01
3.16781575522187e-08,4.50000000000000e-01,4.50000000000000e-01,4.40464454691348e-01,4.50000000000000e-01
3.51000000000000e-08,4.49999999999978e-01,4.50000000000000e-01,4.57516928197236e-01,4.50000000000000e-01
3.51100000000000e-08,4.04999999999986e-01,4.50000000000000e-01,4.55276582377919e-01,4.50000000000000e-01
3.51300000000000e-08,3.14999999999974e-01,4.50000000000000e-01,4.52127499904174e-01,4.50000000000000e-01
3.51700000000000e-08,1.34999999999978e-01,4.50000000000000e-01,4.50266832550661e-01,4.50000000000000e-01
3.52000000000000e-08,0.00000000000000e+00,4.50000000000000e-01,4.50985603676955e-01,4.50000000000000e-01
3.52080000000000e-08,0.00000000000000e+00,4.50000000000000e-01,4.51315143739119e-01,4.50000000000000e-01
3.52240000000000e-08,0.00000000000000e+00,4.50000000000000e-01,4.51806490794527e-01,4.50000000000000e-01
3.52560000000000e-08,0.00000000000000e+00,4.50000000000000e-01,4.52254987759707e-01,4.50000000000000e-01
3.53200000000000e-08,0.00000000000000e+00,4.50000000000000e-01,4.52313054085500e-01,4.50000000000000e-01
3.54480000000000e-08,0.00000000000000e+00,4.50000000000000e-01,4.47611630651226e-01,4.50000000000000e-01
3.57040000000000e-08,0.00000000000000e+00,4.50000000000000e-01,4.38185804296417e-01,4.50000000000000e-01
3.62160000000000e-08,0.00000000000000e+00,4.50000000000000e-01,4.47514169973708e-01,4.50000000000000e-01
3.72400000000000e-08,0.00000000000000e+00,4.50000000000000e-01,4.51181611061077e-01,4.50000000000000e-01
3.87418486837524e-08,0.00000000000000e+00,4.50000000000000e-01,4.48519733305383e-01,4.50000000000000e-01
4.17455460512570e-08,0.00000000000000e+00,4.50000000000000e-01,4.51063286933967e-01,4.50000000000000e-01
4.50000000000000e-08,0.00000000000000e+00,4.50000000000000e-01,4.48817749800270e-01,4.50000000000000e-01
4.50100000000000e-08,4.49999999999915e-02,4.50000000000000e-01,4.48926894964886e-01,4.05000000000009e-01
4.50300000000000e-08,1.35000000000004e-01,4.50000000000000e-01,4.49108348665406e-01,3.14999999999996e-01
4.50700000000000e-08,3.15000000000000e-01,4.50000000000000e-01,4.49605344616433e-01,1.35000000000000e-01
4.51000000000000e-08,4.50000000000000e-01,4.50000000000000e-01,4.51889873926591e-01,0.00000000000000e+00
4.51080000000000e-08,4.50000000000000e-01,4.50000000000000e-01,4.52913304269330e-01,0.00000000000000e+00
4.51240000000000e-08,4.50000000000000e-01,4.50000000000000e-01,4.54721731414623e-01,0.00000000000000e+00
4.51560000000000e-08,4.50000000000000e-01,4.50000000000000e-01,4.57751890685666e-01,0.00000000000000e+00
4.52200000000000e-08,4.50000000000000e-01,4.50000000000000e-01,4.63441788342305e-01,0.00000000000000e+00
4.53480000000000e-08,4.50000000000000e-01,4.50000000000000e-01,4.74966322348730e-01,0.00000000000000e+00
4.56040000000000e-08,4.50000000000000e-01,4.50000000000000e-01,3.96182774971410e-01,0.00000000000000e+00
4.61160000000000e-08,4.50000000000000e-01,4.50000000000000e-01,6.55082993290762e-02,0.00000000000000e+00
4.69618164035882e-08,4.50000000000000e-01,4.50000000000000e-01,-2.39018553536739e-02,0.00000000000000e+00
4.84611424401986e-08,4.50000000000000e-01,4.50000000000000e-01,1.95677295933579e-02,0.00000000000000e+00
5.01000000000000e-08,4.50000000000000e-01,4.49999999999974e-01,-1.31381747916574e-02,0.00000000000000e+00
5.03202695170793e-08,4.50000000000000e-01,4.50000000000000e-01,-4.16986526524623e-03,0.00000000000000e+00
5.07608085512380e-08,4.50000000000000e-01,4.50000000000000e-01,1.07412021371959e-03,0.00000000000000e+00
5.16418866195553e-08,4.50000000000000e-01,4.50000000000000e-01,-6.16647050755740e-04,0.00000000000000e+00
5.34040427561899e-08,4.50000000000000e-01,4.50000000000000e-01,4.87211821455663e-04,0.00000000000000e+00
5.51000000000000e-08,4.50000000000000e-01,4.50000000000000e-01,-3.82599222872258e-04,0.00000000000000e+00
5.51100000000000e-08,4.05000000000016e-01,4.50000000000000e-01,-1.45417463715956e-04,4.49999999999840e-02
5.51300000000000e-08,3.15000000000003e-01,4.50000000000000e-01,1.61425212214475e-04,1.34999999999997e-01
5.51700000000000e-08,1.35000000000008e-01,4.50000000000000e-01,1.97250782667371e-04,3.14999999999992e-01
5.52000000000000e-08,0.00000000000000e+00,4.50000000000000e-01,1.11753301582029e-04,4.50000000000000e-01
5.52080000000000e-08,0.00000000000000e+00,4.50000000000000e-01,8.64573121584986e-05,4.50000000000000e-01
5.52240000000000e-08,0.00000000000000e+00,4.50000000000000e-01,5.15357567084165e-05,4.50000000000000e-01
5.52560000000000e-08,0.00000000000000e+00,4.50000000000000e-01,3.03577903029290e-05,4.50000000000000e-01
5.53200000000000e-08,0.00000000000000e+00,4.50000000000000e-01,2.91841970749412e-05,4.50000000000000e-01
5.54480000000000e-08,0.00000000000000e+00,4.50000000000000e-01,-2.20131071948827e-04,4.50000000000000e-01
5.57040000000000e-08,0.00000000000000e+00,4.50000000000000e-01,-7.03933490653483e-04,4.50000000000000e-01
5.62160000000000e-08,0.00000000000000e+00,4.50000000000000e-01,-5.62792244053825e-06,4.50000000000000e-01
5.70775213430821e-08,0.00000000000000e+00,4.50000000000000e-01,9.52506199528441e-05,4.50000000000000e-01
5.86162788639938e-08,0.00000000000000e+00,4.50000000000000e-01,-1.38352845129683e-04,4.50000000000000e-01
6.07038120574839e-08,0.00000000000000e+00,4.50000000000000e-01,1.59088035383703e-04,4.50000000000000e-01
6.45038120574839e-08,0.00000000000000e+00,4.50000000000000e-01,-1.59166997986372e-04,4.50000000000000e-01
6.50000000000000e-08,0.00000000000000e+00,4.50000000000000e-01,1.25181318215203e-04,4.50000000000000e-01
6.50100000000000e-08,4.49999999999915e-02,4.50000000000000e-01,2.11065118955418e-04,4.50000000000000e-01
6.50300000000000e-08,1.34999999999974e-01,4.50000000000000e-01,3.64578079926924e-04,4.50000000000000e-01
6.50700000000000e-08,3.14999999999940e-01,4.50000000000000e-01,5.57725196463625e-04,4.50000000000000e-01
6.51000000000000e-08,4.49999999999974e-01,4.50000000000000e-01,5.86623589280202e-04,4.50000000000000e-01
6.51080000000000e-08,4.50000000000000e-01,4.50000000000000e-01,5.37465698901229e-04,4.50000000000000e-01
6.51240000000000e-08,4.50000000000000e-01,4.50000000000000e-01,4.39234154598352e-04,4.50000000000000e-01
6.51560000000000e-08,4.50000000000000e-01,4.50000000000000e-01,2.17387324957845e-04,4.50000000000000e-01
6.52200000000000e-08,4.50000000000000e-01,4.50000000000000e-01,-4.71159077616717e-04,4.50000000000000e-01
6.53480000000000e-08,4.50000000000000e-01,4.50000000000000e-01,-2.10534789617307e-03,4.50000000000000e-01
6.56040000000000e-08,4.50000000000000e-01,4.50000000000000e-01,-4.23786652280957e-03,4.50000000000000e-01
6.61159999999999e-08,4.50000000000000e-01,4.50000000000000e-01,7.04171159179877e-02,4.50000000000000e-01
6.71399999999999e-08,4.50000000000000e-01,4.50000000000000e-01,4.28627952848190e-01,4.50000000000000e-01
6.91879999999998e-08,4.50000000000000e-01,4.50000000000000e-01,4.57197348822685e-01,4.50000000000000e-01
7.17342947616585e-08,4.50000000000000e-01,4.50000000000000e-01,4.41235793334292e-01,4.50000000000000e-01
7.51000000000000e-08,4.50000000000000e-01,4.50000000000000e-01,4.56897287064346e-01,4.50000000000000e-01
7.51100000000000e-08,4.05000000000046e-01,4.50000000000000e-01,4.54845332366730e-01,4.50000000000000e-01
7.51300000000000e-08,3.15000000000063e-01,4.50000000000000e-01,4.51957469062473e-01,4.50000000000000e-01
7.51700000000000e-08,1.35000000000097e-01,4.50000000000000e-01,4.50257605873969e-01,4.50000000000000e-01
7.52000000000000e-08,6.29496454962464e-14,4.50000000000000e-01,4.50984784478119e-01,4.50000000000000e-01
7.52080000000000e-08,0.00000000000000e+00,4.50000000000000e-01,4.51315426314013e-01,4.50000000000000e-01
7.52240000000000e-08,0.00000000000000e+00,4.50000000000000e-01,4.51808503896571e-01,4.50000000000000e-01
7.52560000000000e-08,0.00000000000000e+00,4.50000000000000e-01,4.52258058654834e-01,4.50000000000000e-01
7.53200000000000e-08,0.00000000000000e+00,4.50000000000000e-01,4.52313133266540e-01,4.50000000000000e-01
7.54480000000000e-08,0.00000000000000e+00,4.50000000000000e-01,4.47607153908124e-01,4.50000000000000e-01
7.57040000000000e-08,0.00000000000000e+00,4.50000000000000e-01,4.38194259128206e-01,4.50000000000000e-01
7.62159999999999e-08,0.00000000000000e+00,4.50000000000000e-01,4.47520643052030e-01,4.50000000000000e-01
7.72399999999999e-08,0.00000000000000e+00,4.50000000000000e-01,4.51176390161695e-01,4.50000000000000e-01
7.87419432656784e-08,0.00000000000000e+00,4.50000000000000e-01,4.48524216112283e-01,4.50000000000000e-01
8.17458297970355e-08,0.00000000000000e+00,4.50000000000000e-01,4.51059184313860e-01,4.50000000000000e-01
8.50000000000000e-08,0.00000000000000e+00,4.50000000000000e-01,4.48821658290703e-01,4.50000000000000e-01
8.50100000000000e-08,4.49999999999915e-02,4.50000000000000e-01,4.48930179354815e-01,4.05000000000009e-01
8.50300000000000e-08,1.34999999999974e-01,4.50000000000000e-01,4.49110553381376e-01,3.15000000000026e-01
8.50700000000000e-08,3.14999999999940e-01,4.50000000000000e-01,4.49606243309047e-01,1.35000000000060e-01
8.51000000000000e-08,4.49999999999974e-01,4.50000000000000e-01,4.51890414319835e-01,2.57571741713036e-14
8.51080000000000e-08,4.50000000000000e-01,4.50000000000000e-01,4.52913789613456e-01,0.00000000000000e+00
8.51240000000000e-08,4.50000000000000e-01,4.50000000000000e-01,4.54722129485491e-01,0.00000000000000e+00
8.51560000000000e-08,4.50000000000000e-01,4.50000000000000e-01,4.57752182420441e-01,0.00000000000000e+00
8.52200000000000e-08,4.50000000000000e-01,4.50000000000000e-01,4.63442050534201e-01,0.00000000000000e+00
8.53480000000000e-08,4.50000000000000e-01,4.50000000000000e-01,4.74966618941572e-01,0.00000000000000e+00
8.56040000000000e-08,4.50000000000000e-01,4.50000000000000e-01,3.96184002376703e-01,0.00000000000000e+00
8.61159999999999e-08,4.50000000000000e-01,4.50000000000000e-01,6.55095961601947e-02,0.00000000000000e+00
8.69631478587934e-08,4.50000000000000e-01,4.50000000000000e-01,-2.39316428214540e-02,0.00000000000000e+00
8.84619850679822e-08,4.50000000000000e-01,4.50000000000000e-01,1.95918575710018e-02,0.00000000000000e+00
9.01000000000000e-08,4.50000000000000e-01,4.49999999999974e-01,-1.31503260642915e-02,0.00000000000000e+00
9.03204165609139e-08,4.50000000000000e-01,4.50000000000000e-01,-4.17272436452683e-03,0.00000000000000e+00
9.07612496827418e-08,4.50000000000000e-01,4.50000000000000e-01,1.07601495402932e-03,0.00000000000000e+00
9.16429159263976e-08,4.50000000000000e-01,4.50000000000000e-01,-6.17808875293720e-04,0.00000000000000e+00
9.34062484137093e-08,4.50000000000000e-01,4.50000000000000e-01,4.88119122024913e-04,0.00000000000000e+00
9.51000000000000e-08,4.50000000000000e-01,4.50000000000000e-01,-3.83118934495796e-04,0.00000000000000e+00
9.51100000000000e-08,4.05000000000046e-01,4.50000000000000e-01,-1.45921451567853e-04,4.49999999999542e-02
9.51300000000000e-08,3.15000000000063e-01,4.50000000000000e-01,1.60966400264237e-04,1.34999999999937e-01
9.51700000000000e-08,1.35000000000097e-01,4.50000000000000e-01,1.96899504528274e-04,3.14999999999903e-01
9.52000000000000e-08,6.29496454962464e-14,4.50000000000000e-01,1.11470927182354e-04,4.49999999999937e-01
9.52080000000000e-08,0.00000000000000e+00,4.50000000000000e-01,8.61901873627224e-05,4.50000000000000e-01
9.52240000000000e-08,0.00000000000000e+00,4.50000000000000e-01,5.12975538041333e-05,4.50000000000000e-01
9.52560000000000e-08,0.00000000000000e+00,4.50000000000000e-01,3.01655155774960e-05,4.50000000000000e-01
9.53200000000000e-08,0.00000000000000e+00,4.50000000000000e-01,2.90623641732712e-05,4.50000000000000e-01
9.54480000000000e-08,0.00000000000000e+00,4.50000000000000e-01,-2.20179574824460e-04,4.50000000000000e-01
9.57040000000000e-08,0.00000000000000e+00,4.50000000000000e-01,-7.03949704229687e-04,4.50000000000000e-01
9.62159999999999e-08,0.00000000000000e+00,4.50000000000000e-01,-5.62829289898516e-06,4.50000000000000e-01
9.70776591213782e-08,0.00000000000000e+00,4.50000000000000e-01,9.52365767067660e-05,4.50000000000000e-01
9.86163546373376e-08,0.00000000000000e+00,4.50000000000000e-01,-1.38338479683475e-04,4.50000000000000e-01
1.00704190295297e-07,0.00000000000000e+00,4.50000000000000e-01,1.59074411211747e-04,4.50000000000000e-01
1.04504190295297e-07,0.00000000000000e+00,4.50000000000000e-01,-1.59155218387961e-04,4.50000000000000e-01
1.05000000000000e-07,0.00000000000000e+00,4.50000000000000e-01,1.25143431957846e-04,4.50000000000000e-01
1.05010000000000e-07,4.49999999999915e-02,4.50000000000000e-01,2.11030619562881e-04,4.50000000000000e-01
1.05030000000000e-07,1.34999999999974e-01,4.50000000000000e-01,3.64548951531873e-04,4.50000000000000e-01
1.05070000000000e-07,3.14999999999940e-01,4.50000000000000e-01,5.57701404631850e-04,4.50000000000000e-01
1.05100000000000e-07,4.49999999999974e-01,4.50000000000000e-01,5.86603585106954e-04,4.50000000000000e-01
1.05108000000000e-07,4.50000000000000e-01,4.50000000000000e-01,5.37446803041339e-04,4.50000000000000e-01
1.05124000000000e-07,4.50000000000000e-01,4.50000000000000e-01,4.39217425887067e-04,4.50000000000000e-01
1.05156000000000e-07,4.50000000000000e-01,4.50000000000000e-01,2.17374632755181e-04,4.50000000000000e-01
1.05220000000000e-07,4.50000000000000e-01,4.50000000000000e-01,-4.71164689454483e-04,4.50000000000000e-01
1.05348000000000e-07,4.50000000000000e-01,4.50000000000000e-01,-2.10534875908050e-03,4.50000000000000e-01
1.05604000000000e-07,4.50000000000000e-01,4.50000000000000e-01,-4.23786850316336e-03,4.50000000000000e-01
1.06116000000000e-07,4.50000000000000e-01,4.50000000000000e-01,7.04178233187864e-02,4.50000000000000e-01
1.07140000000000e-07,4.50000000000000e-01,4.50000000000000e-01,4.28628165158600e-01,4.50000000000000e-01
1.09188000000000e-07,4.50000000000000e-01,4.50000000000000e-01,4.57197285917465e-01,4.50000000000000e-01
1.11734300525160e-07,4.50000000000000e-01,4.50000000000000e-01,4.41235870389464e-01,4.50000000000000e-01
1.15100000000000e-07,4.50000000000000e-01,4.50000000000000e-01,4.56897225728135e-01,4.50000000000000e-01
1.15110000000000e-07,4.05000000000046e-01,4.50000000000000e-01,4.54845290088425e-01,4.50000000000000e-01
1.15130000000000e-07,3.15000000000063e-01,4.50000000000000e-01,4.51957452729899e-01,4.50000000000000e-01
1.15170000000000e-07,1.35000000000097e-01,4.50000000000000e-01,4.50257604847380e-01,4.50000000000000e-01
1.15200000000000e-07,6.29496454962464e-14,4.50000000000000e-01,4.50984784180609e-01,4.50000000000000e-01
1.15208000000000e-07,0.00000000000000e+00,4.50000000000000e-01,4.51315426182052e-01,4.50000000000000e-01
1.15224000000000e-07,0.00000000000000e+00,4.50000000000000e-01,4.51808504018335e-01,4.50000000000000e-01
1.15256000000000e-07,0.00000000000000e+00,4.50000000000000e-01,4.52258058862549e-01,4.50000000000000e-01
1.15320000000000e-07,0.00000000000000e+00,4.50000000000000e-01,4.52313133227197e-01,4.50000000000000e-01
1.15448000000000e-07,0.00000000000000e+00,4.50000000000000e-01,4.47607154118291e-01,4.50000000000000e-01
1.15704000000000e-07,0.00000000000000e+00,4.50000000000000e-01,4.38194260392103e-01,4.50000000000000e-01
1.16216000000000e-07,0.00000000000000e+00,4.50000000000000e-01,4.47520643200170e-01,4.50000000000000e-01
1.17240000000000e-07,0.00000000000000e+00,4.50000000000000e-01,4.51176389955120e-01,4.50000000000000e-01
1.18741943322201e-07,0.00000000000000e+00,4.50000000000000e-01,4.48524216284942e-01,4.50000000000000e-01
