Time,v(clk),v(data),v(out)
1.00000000000000e-08,4.50000000000000e-01,0.00000000000000e+00,5.97188704089431e-06
1.00100000000000e-08,4.50000000000000e-01,4.49999999999989e-02,7.55762150080747e-06
1.00300000000000e-08,4.50000000000000e-01,1.34999999999997e-01,8.83367210254699e-06
1.00700000000000e-08,4.50000000000000e-01,3.14999999999992e-01,8.25790219088907e-06
1.01000000000000e-08,4.50000000000000e-01,4.49999999999997e-01,5.26211076060101e-06
1.01080000000000e-08,4.50000000000000e-01,4.50000000000000e-01,4.24817360811236e-06
1.01240000000000e-08,4.50000000000000e-01,4.50000000000000e-01,3.11665559975249e-06
1.01560000000000e-08,4.50000000000000e-01,4.50000000000000e-01,2.71233659459441e-06
1.02200000000000e-08,4.50000000000000e-01,4.50000000000000e-01,3.54195841706373e-06
1.03480000000000e-08,4.50000000000000e-01,4.50000000000000e-01,5.10068204492495e-06
1.06040000000000e-08,4.50000000000000e-01,4.50000000000000e-01,3.72219517476638e-06
1.11160000000000e-08,4.50000000000000e-01,4.50000000000000e-01,1.97923874075551e-06
1.21400000000000e-08,4.50000000000000e-01,4.50000000000000e-01,2.92438090196412e-06
1.41880000000000e-08,4.50000000000000e-01,4.50000000000000e-01,2.25969717528550e-06
1.51000000000000e-08,4.50000000000000e-01,4.50000000000000e-01,2.53928644555063e-06
1.51100000000000e-08,4.04999999999994e-01,4.50000000000000e-01,-4.65358390509332e-05
1.51300000000000e-08,3.14999999999996e-01,4.50000000000000e-01,-1.31928020915238e-04
1.51700000000000e-08,1.35000000000000e-01,4.50000000000000e-01,-2.38664229274640e-04
1.52000000000000e-08,0.00000000000000e+00,4.50000000000000e-01,-1.50622953126511e-04
1.52080000000000e-08,0.00000000000000e+00,4.50000000000000e-01,-3.81753783040700e-05
1.52240000000000e-08,0.00000000000000e+00,4.50000000000000e-01,1.37529176203487e-04
1.52560000000000e-08,0.00000000000000e+00,4.50000000000000e-01,2.97453055209750e-04
1.53200000000000e-08,0.00000000000000e+00,4.50000000000000e-01,3.14830009898848e-04
1.54480000000000e-08,0.00000000000000e+00,4.50000000000000e-01,1.02948984627781e-04
1.57040000000000e-08,0.00000000000000e+00,4.50000000000000e-01,-1.54479383560290e-04
1.62160000000000e-08,0.00000000000000e+00,4.50000000000000e-01,1.24253124308710e-05
1.72400000000000e-08,0.00000000000000e+00,4.50000000000000e-01,-5.48580284016626e-05
1.87175031656306e-08,0.00000000000000e+00,4.50000000000000e-01,4.47206691015587e-05
2.11986973510194e-08,0.00000000000000e+00,4.50000000000000e-01,4.68909978426375e-06
2.49986973510194e-08,0.00000000000000e+00,4.50000000000000e-01,-2.42343297313652e-05
2.50000000000000e-08,0.00000000000000e+00,4.50000000000000e-01,-2.27619046525157e-05
2.50026052979612e-08,1.17238408255934e-02,4.50000000000000e-01,6.53670266976408e-06
2.50078158938837e-08,3.51715224767803e-02,4.50000000000000e-01,6.17678490962489e-05
2.50182370857287e-08,8.20668857791541e-02,4.50000000000000e-01,1.59040001217532e-04
2.50390794694186e-08,1.75857612383902e-01,4.50000000000000e-01,3.19257223976847e-04
2.50807642367985e-08,3.63439065593397e-01,4.50000000000000e-01,4.92547040821925e-04
2.51000000000000e-08,4.50000000000000e-01,4.50000000000000e-01,5.13162125818090e-04
2.51083369534760e-08,4.50000000000000e-01,4.50000000000000e-01,4.69596542068317e-04
2.51250108604279e-08,4.50000000000000e-01,4.50000000000000e-01,3.87928090682645e-04
2.51583586743318e-08,4.50000000000000e-01,4.50000000000000e-01,2.28582594260139e-04
2.52250543021397e-08,4.50000000000000e-01,4.50000000000000e-01,-2.88435255748468e-04
2.53584455577553e-08,4.50000000000000e-01,4.50000000000000e-01,-1.90046240271806e-03
2.56252280689866e-08,4.50000000000000e-01,4.50000000000000e-01,-4.27851187044035e-03
2.61587930914492e-08,4.50000000000000e-01,4.50000000000000e-01,8.20526521621683e-02
2.72259231363743e-08,4.50000000000000e-01,4.50000000000000e-01,4.33028029587557e-01
2.93601832262245e-08,4.50000000000000e-01,4.50000000000000e-01,4.55957976773641e-01
3.21044503479900e-08,4.50000000000000e-01,4.50000000000000e-01,4.42646277139474e-01
3.51000000000000e-08,4.49999999999978e-01,4.50000000000000e-01,4.55682193092636e-01
3.51100000000000e-08,4.04999999999986e-01,4.50000000000000e-01,4.54016372979902e-01
3.51300000000000e-08,3.14999999999974e-01,4.50000000000000e-01,4.51629576412415e-01
3.51700000000000e-08,1.34999999999978e-01,4.50000000000000e-01,4.50232063673607e-01
3.52000000000000e-08,0.00000000000000e+00,4.50000000000000e-01,4.50988379072807e-01
3.52080000000000e-08,0.00000000000000e+00,4.50000000000000e-01,4.51322945041023e-01
3.52240000000000e-08,0.00000000000000e+00,4.50000000000000e-01,4.51822197425498e-01
3.52560000000000e-08,0.00000000000000e+00,4.50000000000000e-01,4.52250258050279e-01
3.53200000000000e-08,0.00000000000000e+00,4.50000000000000e-01,4.52299150256318e-01
3.54480000000000e-08,0.00000000000000e+00,4.50000000000000e-01,4.47564580036919e-01
3.57040000000000e-08,0.00000000000000e+00,4.50000000000000e-01,4.38228471373005e-01
3.62160000000000e-08,0.00000000000000e+00,4.50000000000000e-01,4.47549942424547e-01
3.72400000000000e-08,0.00000000000000e+00,4.50000000000000e-01,4.51153518440406e-01
3.87421284242931e-08,0.00000000000000e+00,4.50000000000000e-01,4.48544039667946e-01
4.17463852728793e-08,0.00000000000000e+00,4.50000000000000e-01,4.51041179484655e-01
4.50000000000000e-08,0.00000000000000e+00,4.50000000000000e-01,4.48839355969110e-01
4.50100000000000e-08,4.49999999999915e-02,4.50000000000000e-01,4.49074428040327e-01
4.50300000000000e-08,1.35000000000004e-01,4.50000000000000e-01,4.49462424829736e-01
4.50700000000000e-08,3.15000000000000e-01,4.50000000000000e-01,4.49874672713464e-01
4.51000000000000e-08,4.50000000000000e-01,4.50000000000000e-01,4.49970328270351e-01
4.51080000000000e-08,4.50000000000000e-01,4.14000000000019e-01,4.49948101616727e-01
4.51240000000000e-08,4.50000000000000e-01,3.41999999999997e-01,4.49908659787511e-01
4.51560000000000e-08,4.50000000000000e-01,1.98000000000012e-01,4.49829849076320e-01
4.52000000000000e-08,4.50000000000000e-01,2.57571741713036e-14,4.49676903108829e-01
4.52064000000000e-08,4.50000000000000e-01,0.00000000000000e+00,4.49649464038609e-01
4.52192000000000e-08,4.50000000000000e-01,0.00000000000000e+00,4.49592761417485e-01
4.52448000000000e-08,4.50000000000000e-01,0.00000000000000e+00,4.49480790474650e-01
4.52960000000000e-08,4.50000000000000e-01,0.00000000000000e+00,4.49305002159217e-01
4.53984000000000e-08,4.50000000000000e-01,0.00000000000000e+00,4.49174730563117e-01
4.56032000000000e-08,4.50000000000000e-01,0.00000000000000e+00,4.49377473102149e-01
4.60128000000000e-08,4.50000000000000e-01,0.00000000000000e+00,4.49848915624626e-01
4.67793090228458e-08,4.50000000000000e-01,0.00000000000000e+00,4.50271815220719e-01
4.80442318193658e-08,4.50000000000000e-01,0.00000000000000e+00,4.66110667090511e-01
4.98012617778320e-08,4.50000000000000e-01,0.00000000000000e+00,7.36961750685006e-02
5.33153216947644e-08,4.50000000000000e-01,0.00000000000000e+00,-4.50864899475016e-02
5.51000000000000e-08,4.50000000000000e-01,0.00000000000000e+00,4.11256205890514e-02
5.51100000000000e-08,4.05000000000016e-01,0.00000000000000e+00,3.84553383122059e-02
5.51300000000000e-08,3.15000000000003e-01,0.00000000000000e+00,3.35053396867076e-02
5.51700000000000e-08,1.35000000000008e-01,0.00000000000000e+00,2.55221768608451e-02
5.52000000000000e-08,0.00000000000000e+00,0.00000000000000e+00,2.09406551623193e-02
5.52080000000000e-08,0.00000000000000e+00,0.00000000000000e+00,1.99731530155780e-02
5.52240000000000e-08,0.00000000000000e+00,0.00000000000000e+00,1.80802239389814e-02
5.52560000000000e-08,0.00000000000000e+00,0.00000000000000e+00,1.47016559514297e-02
5.53200000000000e-08,0.00000000000000e+00,0.00000000000000e+00,9.48792262420963e-03
5.54480000000000e-08,0.00000000000000e+00,0.00000000000000e+00,3.31524129062695e-03
5.57040000000000e-08,0.00000000000000e+00,0.00000000000000e+00,-1.16766235962299e-03
5.62160000000000e-08,0.00000000000000e+00,0.00000000000000e+00,-2.08170793781793e-04
5.71060741830638e-08,0.00000000000000e+00,0.00000000000000e+00,2.55957142296415e-04
5.86190299970694e-08,0.00000000000000e+00,0.00000000000000e+00,-2.29958802831916e-04
6.09308685965977e-08,0.00000000000000e+00,0.00000000000000e+00,2.15642475829905e-04
6.47308685965977e-08,0.00000000000000e+00,0.00000000000000e+00,-2.06947598477206e-04
6.50000000000000e-08,0.00000000000000e+00,0.00000000000000e+00,1.03036165683520e-04
6.50100000000000e-08,4.49999999999915e-02,0.00000000000000e+00,1.64468619504726e-04
6.50300000000000e-08,1.34999999999974e-01,0.00000000000000e+00,2.66308622501300e-04
6.50700000000000e-08,3.14999999999940e-01,0.00000000000000e+00,3.24735442724856e-04
6.51000000000000e-08,4.49999999999974e-01,0.00000000000000e+00,2.54368686642047e-04
6.51080000000000e-08,4.50000000000000e-01,0.00000000000000e+00,1.91613937639050e-04
6.51240000000000e-08,4.50000000000000e-01,0.00000000000000e+00,8.10465251715811e-05
6.51560000000000e-08,4.50000000000000e-01,0.00000000000000e+00,-6.03923801035244e-05
6.52200000000000e-08,4.50000000000000e-01,0.00000000000000e+00,-1.59499822702393e-04
6.53480000000000e-08,4.50000000000000e-01,0.00000000000000e+00,-1.20848685600118e-04
6.56040000000000e-08,4.50000000000000e-01,0.00000000000000e+00,-1.70361805520956e-05
6.61159999999999e-08,4.50000000000000e-01,0.00000000000000e+00,4.01736397651932e-06
6.71399999999999e-08,4.50000000000000e-01,0.00000000000000e+00,1.88060563012099e-05
6.91879999999998e-08,4.50000000000000e-01,0.00000000000000e+00,-8.70702218129776e-06
7.29879999999998e-08,4.50000000000000e-01,0.00000000000000e+00,1.19956417373693e-05
7.51000000000000e-08,4.50000000000000e-01,0.00000000000000e+00,-3.92547552803199e-06
7.51100000000000e-08,4.05000000000046e-01,0.00000000000000e+00,-5.33228991874413e-05
7.51300000000000e-08,3.15000000000063e-01,0.00000000000000e+00,-1.39522337895548e-04
7.51700000000000e-08,1.35000000000097e-01,0.00000000000000e+00,-2.44852624739667e-04
7.52000000000000e-08,6.29496454962464e-14,0.00000000000000e+00,-1.56038841414900e-04
7.52080000000000e-08,0.00000000000000e+00,0.00000000000000e+00,-4.34022132071027e-05
7.52240000000000e-08,0.00000000000000e+00,0.00000000000000e+00,1.32742885127247e-04
7.52560000000000e-08,0.00000000000000e+00,0.00000000000000e+00,2.93716343201481e-04
7.53200000000000e-08,0.00000000000000e+00,0.00000000000000e+00,3.12704160946940e-04
7.54480000000000e-08,0.00000000000000e+00,0.00000000000000e+00,1.03461642136086e-04
7.57040000000000e-08,0.00000000000000e+00,0.00000000000000e+00,-1.55860675617424e-04
7.62159999999999e-08,0.00000000000000e+00,0.00000000000000e+00,4.25933053419154e-06
7.72399999999999e-08,0.00000000000000e+00,0.00000000000000e+00,1.33194136948157e-05
7.87116770296203e-08,0.00000000000000e+00,0.00000000000000e+00,-1.53522613643813e-05
8.16550310888613e-08,0.00000000000000e+00,0.00000000000000e+00,1.83931813237887e-05
8.50000000000000e-08,0.00000000000000e+00,0.00000000000000e+00,-1.65118096332240e-05
8.50100000000000e-08,4.49999999999915e-02,0.00000000000000e+00,6.85472620591474e-05
8.50300000000000e-08,1.34999999999974e-01,0.00000000000000e+00,2.04228674877023e-04
8.50700000000000e-08,3.14999999999940e-01,0.00000000000000e+00,2.91274422119625e-04
8.51000000000000e-08,4.49999999999974e-01,0.00000000000000e+00,2.32318911850771e-04
8.51080000000000e-08,4.50000000000000e-01,0.00000000000000e+00,1.71857498711535e-04
8.51240000000000e-08,4.50000000000000e-01,0.00000000000000e+00,6.54571093948314e-05
8.51560000000000e-08,4.50000000000000e-01,0.00000000000000e+00,-6.99122694563861e-05
8.52200000000000e-08,4.50000000000000e-01,0.00000000000000e+00,-1.62655249332171e-04
8.53480000000000e-08,4.50000000000000e-01,0.00000000000000e+00,-1.20230559787340e-04
8.56040000000000e-08,4.50000000000000e-01,0.00000000000000e+00,-1.66218507187850e-05
8.61159999999999e-08,4.50000000000000e-01,0.00000000000000e+00,3.81039009395186e-06
8.71399999999999e-08,4.50000000000000e-01,0.00000000000000e+00,1.89140745823577e-05
8.91879999999998e-08,4.50000000000000e-01,0.00000000000000e+00,-8.76759504243440e-06
9.00000000000000e-08,4.50000000000000e-01,0.00000000000000e+00,6.46156013032161e-06
9.00100000000000e-08,4.50000000000000e-01,4.49999999999915e-02,7.90058761338669e-06
9.00300000000000e-08,4.50000000000000e-01,1.34999999999974e-01,8.73754705590923e-06
9.00700000000000e-08,4.50000000000000e-01,3.14999999999940e-01,8.11021642356524e-06
9.01000000000000e-08,4.50000000000000e-01,4.49999999999974e-01,5.14798761039326e-06
9.01080000000000e-08,4.50000000000000e-01,4.50000000000000e-01,4.14402904601319e-06
9.01240000000000e-08,4.50000000000000e-01,4.50000000000000e-01,3.02709691628322e-06
9.01560000000000e-08,4.50000000000000e-01,4.50000000000000e-01,2.64753551759006e-06
9.02200000000000e-08,4.50000000000000e-01,4.50000000000000e-01,3.61665751551221e-06
9.03480000000000e-08,4.50000000000000e-01,4.50000000000000e-01,5.06759528226541e-06
9.06040000000000e-08,4.50000000000000e-01,4.50000000000000e-01,3.55841258039072e-06
9.11159999999999e-08,4.50000000000000e-01,4.50000000000000e-01,1.98929388753669e-06
9.21399999999999e-08,4.50000000000000e-01,4.50000000000000e-01,2.99765935721057e-06
9.41879999999998e-08,4.50000000000000e-01,4.50000000000000e-01,2.17950787414871e-06
9.51000000000000e-08,4.50000000000000e-01,4.50000000000000e-01,2.83821684045338e-06
9.51100000000000e-08,4.05000000000046e-01,4.50000000000000e-01,-4.54898762901473e-05
9.51300000000000e-08,3.15000000000063e-01,4.50000000000000e-01,-1.31160584967149e-04
9.51700000000000e-08,1.35000000000097e-01,4.50000000000000e-01,-2.38171102869805e-04
9.52000000000000e-08,6.29496454962464e-14,4.50000000000000e-01,-1.50241078657909e-04
9.52080000000000e-08,0.00000000000000e+00,4.50000000000000e-01,-3.78165231466054e-05
9.52240000000000e-08,0.00000000000000e+00,4.50000000000000e-01,1.37844141555092e-04
9.52560000000000e-08,0.00000000000000e+00,4.50000000000000e-01,2.97701151684510e-04
9.53200000000000e-08,0.00000000000000e+00,4.50000000000000e-01,3.14975795536375e-04
9.54480000000000e-08,0.00000000000000e+00,4.50000000000000e-01,1.02947516580000e-04
9.57040000000000e-08,0.00000000000000e+00,4.50000000000000e-01,-1.54526963965798e-04
9.62159999999999e-08,0.00000000000000e+00,4.50000000000000e-01,1.24475005997739e-05
9.72399999999999e-08,0.00000000000000e+00,4.50000000000000e-01,-5.48761928305767e-05
9.87175401244645e-08,0.00000000000000e+00,4.50000000000000e-01,4.47370248786430e-05
1.01198779355534e-07,0.00000000000000e+00,4.50000000000000e-01,4.67389591787045e-06
1.04998779355534e-07,0.00000000000000e+00,4.50000000000000e-01,-2.42203438208166e-05
1.05000000000000e-07,0.00000000000000e+00,4.50000000000000e-01,-2.28340514250649e-05
1.05002441288932e-07,1.09858001937833e-02,4.50000000000000e-01,4.71451973181602e-06
1.05007323866796e-07,3.29574005813498e-02,4.50000000000000e-01,5.68233732032991e-05
1.05017089022524e-07,7.69006013564829e-02,4.50000000000000e-01,1.48927215959570e-04
1.05036619333979e-07,1.64787002906749e-01,4.50000000000000e-01,3.02616674003220e-04
1.05075679956891e-07,3.40559806007282e-01,4.50000000000000e-01,4.81592311449487e-04
1.05100000000000e-07,4.49999999999974e-01,4.50000000000000e-01,5.13190611936706e-04
1.05107812124582e-07,4.50000000000000e-01,4.50000000000000e-01,4.72161563020171e-04
1.05123436373747e-07,4.50000000000000e-01,4.50000000000000e-01,3.95129318842835e-04
1.05154684872076e-07,4.50000000000000e-01,4.50000000000000e-01,2.48218278194198e-04
1.05217181868734e-07,4.50000000000000e-01,4.50000000000000e-01,-2.02813354301182e-04
1.05342175862050e-07,4.50000000000000e-01,4.50000000000000e-01,-1.69853639821048e-03
1.05592163848681e-07,4.50000000000000e-01,4.50000000000000e-01,-4.08567504703317e-03
1.06092139821945e-07,4.50000000000000e-01,4.50000000000000e-01,5.35945137849328e-02
1.07092091768473e-07,4.50000000000000e-01,4.50000000000000e-01,4.22335660708055e-01
1.09091995661528e-07,4.50000000000000e-01,4.50000000000000e-01,4.58855591201511e-01
1.11463133211594e-07,4.50000000000000e-01,4.50000000000000e-01,4.39332350183268e-01
1.15100000000000e-07,4.50000000000000e-01,4.50000000000000e-01,4.58501710367610e-01
1.15110000000000e-07,4.05000000000046e-01,4.50000000000000e-01,4.55962732902033e-01
1.15130000000000e-07,3.15000000000063e-01,4.50000000000000e-01,4.52399221773476e-01
1.15170000000000e-07,1.35000000000097e-01,4.50000000000000e-01,4.50280503158961e-01
1.15200000000000e-07,6.29496454962464e-14,4.50000000000000e-01,4.50983423947915e-01
1.15208000000000e-07,0.00000000000000e+00,4.50000000000000e-01,4.51311076991489e-01
1.15224000000000e-07,0.00000000000000e+00,4.50000000000000e-01,4.51799623771271e-01
1.15256000000000e-07,0.00000000000000e+00,4.50000000000000e-01,4.52246938584860e-01
1.15320000000000e-07,0.00000000000000e+00,4.50000000000000e-01,4.52312740304701e-01
1.15448000000000e-07,0.00000000000000e+00,4.50000000000000e-01,4.47623525706648e-01
1.15704000000000e-07,0.00000000000000e+00,4.50000000000000e-01,4.38163463398332e-01
1.16216000000000e-07,0.00000000000000e+00,4.50000000000000e-01,4.47496019906879e-01
1.17240000000000e-07,0.00000000000000e+00,4.50000000000000e-01,4.51196020336334e-01
1.18741689731217e-07,0.00000000000000e+00,4.50000000000000e-01,4.48507358947693e-01
1.21745069193652e-07,0.00000000000000e+00,4.50000000000000e-01,4.51074623893199e-01
1.25000000000000e-07,0.00000000000000e+00,4.50000000000000e-01,4.48806978105326e-01
1.25010000000000e-07,4.49999999999319e-02,4.50000000000000e-01,4.49046336733349e-01
1.25030000000000e-07,1.34999999999915e-01,4.50000000000000e-01,4.49441993195465e-01
1.25070000000000e-07,3.14999999999881e-01,4.50000000000000e-01,4.49864980613268e-01
1.25100000000000e-07,4.49999999999915e-01,4.50000000000000e-01,4.49964711021681e-01
1.25108000000000e-07,4.50000000000000e-01,4.13999999999959e-01,4.49942962562179e-01
1.25124000000000e-07,4.50000000000000e-01,3.41999999999997e-01,4.49904514809057e-01
1.25156000000000e-07,4.50000000000000e-01,1.97999999999952e-01,4.49827380080915e-01
1.25200000000000e-07,4.50000000000000e-01,0.00000000000000e+00,4.49675671009627e-01
1.25206400000000e-07,4.50000000000000e-01,0.00000000000000e+00,4.49648174464154e-01
1.25219200000000e-07,4.50000000000000e-01,0.00000000000000e+00,4.49591447009110e-01
1.25244800000000e-07,4.50000000000000e-01,0.00000000000000e+00,4.49479802966252e-01
1.25296000000000e-07,4.50000000000000e-01,0.00000000000000e+00,4.49304794350482e-01
1.25398400000000e-07,4.50000000000000e-01,0.00000000000000e+00,4.49175047414269e-01
1.25603200000000e-07,4.50000000000000e-01,0.00000000000000e+00,4.49377895267055e-01
1.26012800000000e-07,4.50000000000000e-01,0.00000000000000e+00,4.49848980121685e-01
1.26779305841514e-07,4.50000000000000e-01,0.00000000000000e+00,4.50276080746057e-01
1.28044183582331e-07,4.50000000000000e-01,0.00000000000000e+00,4.66165876028558e-01
1.29800298895802e-07,4.50000000000000e-01,0.00000000000000e+00,7.36147697175186e-02
1.33312529522745e-07,4.50000000000000e-01,0.00000000000000e+00,-4.50542023975439e-02
1.35100000000000e-07,4.49999999999918e-01,0.00000000000000e+00,4.11103381166139e-02
1.35110000000000e-07,4.04999999999867e-01,0.00000000000000e+00,3.84357944677277e-02
1.35130000000000e-07,3.14999999999884e-01,0.00000000000000e+00,3.34803860271884e-02
1.35170000000000e-07,1.34999999999918e-01,0.00000000000000e+00,2.55024419732461e-02
1.35200000000000e-07,0.00000000000000e+00,0.00000000000000e+00,2.09279423112604e-02
1.35208000000000e-07,0.00000000000000e+00,0.00000000000000e+00,1.99612994752272e-02
1.35224000000000e-07,0.00000000000000e+00,0.00000000000000e+00,1.80699818393139e-02
1.35256000000000e-07,0.00000000000000e+00,0.00000000000000e+00,1.46937202343252e-02
1.35320000000000e-07,0.00000000000000e+00,0.00000000000000e+00,9.48296171488284e-03
1.35448000000000e-07,0.00000000000000e+00,0.00000000000000e+00,3.31300522593874e-03
1.35704000000000e-07,0.00000000000000e+00,0.00000000000000e+00,-1.16934215801190e-03
1.36216000000000e-07,0.00000000000000e+00,0.00000000000000e+00,-2.08613666504404e-04
1.37105547950528e-07,0.00000000000000e+00,0.00000000000000e+00,2.56305216940539e-04
