Time,v(clk),v(data),v(out),v(reset)
1.00000000000000e-08,4.50000000000000e-01,0.00000000000000e+00,5.88387697041289e-06,0.00000000000000e+00
1.00100000000000e-08,4.50000000000000e-01,4.49999999999989e-02,7.76519988643365e-06,0.00000000000000e+00
1.00300000000000e-08,4.50000000000000e-01,1.34999999999997e-01,9.96000370223626e-06,0.00000000000000e+00
1.00700000000000e-08,4.50000000000000e-01,3.14999999999992e-01,1.09289568396079e-05,0.00000000000000e+00
1.01000000000000e-08,4.50000000000000e-01,4.49999999999997e-01,9.12283455225399e-06,0.00000000000000e+00
1.01080000000000e-08,4.50000000000000e-01,4.50000000000000e-01,8.61994650894898e-06,0.00000000000000e+00
1.01240000000000e-08,4.50000000000000e-01,4.50000000000000e-01,7.16686310719972e-06,0.00000000000000e+00
1.01560000000000e-08,4.50000000000000e-01,4.50000000000000e-01,6.65709293800471e-06,0.00000000000000e+00
1.02200000000000e-08,4.50000000000000e-01,4.50000000000000e-01,7.51929660285783e-06,0.00000000000000e+00
1.03480000000000e-08,4.50000000000000e-01,4.50000000000000e-01,8.87813085528877e-06,0.00000000000000e+00
1.06040000000000e-08,4.50000000000000e-01,4.50000000000000e-01,5.88581958651732e-06,0.00000000000000e+00
1.11160000000000e-08,4.50000000000000e-01,4.50000000000000e-01,3.46422062656379e-06,0.00000000000000e+00
1.21400000000000e-08,4.50000000000000e-01,4.50000000000000e-01,5.36818527462242e-06,0.00000000000000e+00
1.41880000000000e-08,4.50000000000000e-01,4.50000000000000e-01,4.28465064761761e-06,0.00000000000000e+00
1.51000000000000e-08,4.50000000000000e-01,4.50000000000000e-01,4.10529228367026e-06,0.00000000000000e+00
1.51100000000000e-08,4.04999999999994e-01,4.50000000000000e-01,1.75098999736091e-04,4.50000000000064e-02
1.51300000000000e-08,3.14999999999996e-01,4.50000000000000e-01,4.38862074555908e-04,1.35000000000004e-01
1.51700000000000e-08,1.35000000000000e-01,4.50000000000000e-01,5.58105541815235e-04,3.15000000000000e-01
1.52000000000000e-08,0.00000000000000e+00,4.50000000000000e-01,4.58889661995032e-04,4.50000000000000e-01
1.52080000000000e-08,0.00000000000000e+00,4.50000000000000e-01,3.99225483891451e-04,4.50000000000000e-01
1.52240000000000e-08,0.00000000000000e+00,4.50000000000000e-01,2.95151528495824e-04,4.50000000000000e-01
1.52560000000000e-08,0.00000000000000e+00,4.50000000000000e-01,1.61480891409695e-04,4.50000000000000e-01
1.53200000000000e-08,0.00000000000000e+00,4.50000000000000e-01,4.50798010334721e-05,4.50000000000000e-01
1.54480000000000e-08,0.00000000000000e+00,4.50000000000000e-01,1.41981199772850e-06,4.50000000000000e-01
1.57040000000000e-08,0.00000000000000e+00,4.50000000000000e-01,-9.31257802462560e-07,4.50000000000000e-01
1.62160000000000e-08,0.00000000000000e+00,4.50000000000000e-01,-8.84399370448853e-05,4.50000000000000e-01
1.72400000000000e-08,0.00000000000000e+00,4.50000000000000e-01,1.90866901543223e-05,4.50000000000000e-01
1.90682755934407e-08,0.00000000000000e+00,4.50000000000000e-01,-7.78883234247747e-05,4.50000000000000e-01
2.20805456475538e-08,0.00000000000000e+00,4.50000000000000e-01,9.58328892096882e-05,4.50000000000000e-01
2.50000000000000e-08,0.00000000000000e+00,4.50000000000000e-01,-5.26562360500258e-05,4.50000000000000e-01
2.50100000000000e-08,4.49999999999915e-02,4.50000000000000e-01,3.77424472105328e-05,4.50000000000000e-01
2.50300000000000e-08,1.35000000000004e-01,4.50000000000000e-01,2.03013605524320e-04,4.50000000000000e-01
2.50700000000000e-08,3.15000000000000e-01,4.50000000000000e-01,4.32467707929818e-04,4.50000000000000e-01
2.51000000000000e-08,4.50000000000000e-01,4.50000000000000e-01,5.02540254874971e-04,4.50000000000000e-01
2.51080000000000e-08,4.50000000000000e-01,4.50000000000000e-01,4.66637873466291e-04,4.50000000000000e-01
2.51240000000000e-08,4.50000000000000e-01,4.50000000000000e-01,3.98885145410484e-04,4.50000000000000e-01
2.51560000000000e-08,4.50000000000000e-01,4.50000000000000e-01,2.79660142704759e-04,4.50000000000000e-01
2.52200000000000e-08,4.50000000000000e-01,4.50000000000000e-01,5.26503401995088e-06,4.50000000000000e-01
2.53480000000000e-08,4.50000000000000e-01,4.50000000000000e-01,-1.12557007187936e-03,4.50000000000000e-01
2.56040000000000e-08,4.50000000000000e-01,4.50000000000000e-01,-3.48742321359045e-03,4.50000000000000e-01
2.61160000000000e-08,4.50000000000000e-01,4.50000000000000e-01,5.44521870491072e-03,4.50000000000000e-01
2.71400000000000e-08,4.50000000000000e-01,4.50000000000000e-01,3.15909481316254e-01,4.50000000000000e-01
2.91880000000000e-08,4.50000000000000e-01,4.50000000000000e-01,4.70642670454265e-01,4.50000000000000e-01
3.17534213737775e-08,4.50000000000000e-01,4.50000000000000e-01,4.31362869366639e-01,4.50000000000000e-01
3.51000000000000e-08,4.49999999999978e-01,4.50000000000000e-01,4.66895983448570e-01,4.50000000000000e-01
3.51100000000000e-08,4.04999999999986e-01,4.50000000000000e-01,4.64287078079047e-01,4.50000000000000e-01
3.51300000000000e-08,3.14999999999974e-01,4.50000000000000e-01,4.59879265289352e-01,4.50000000000000e-01
3.51700000000000e-08,1.34999999999978e-01,4.50000000000000e-01,4.54595681434103e-01,4.50000000000000e-01
3.52000000000000e-08,0.00000000000000e+00,4.50000000000000e-01,4.53044929034142e-01,4.50000000000000e-01
3.52080000000000e-08,0.00000000000000e+00,4.50000000000000e-01,4.52943279194484e-01,4.50000000000000e-01
3.52240000000000e-08,0.00000000000000e+00,4.50000000000000e-01,4.52752149711774e-01,4.50000000000000e-01
3.52560000000000e-08,0.00000000000000e+00,4.50000000000000e-01,4.52467609466457e-01,4.50000000000000e-01
3.53200000000000e-08,0.00000000000000e+00,4.50000000000000e-01,4.52172968796548e-01,4.50000000000000e-01
3.54480000000000e-08,0.00000000000000e+00,4.50000000000000e-01,4.51799025639135e-01,4.50000000000000e-01
3.57040000000000e-08,0.00000000000000e+00,4.50000000000000e-01,4.46637396431255e-01,4.50000000000000e-01
3.62160000000000e-08,0.00000000000000e+00,4.50000000000000e-01,4.34794207005621e-01,4.50000000000000e-01
3.72400000000000e-08,0.00000000000000e+00,4.50000000000000e-01,4.45439558988785e-01,4.50000000000000e-01
3.92880000000000e-08,0.00000000000000e+00,4.50000000000000e-01,4.52273148645881e-01,4.50000000000000e-01
4.22102371283934e-08,0.00000000000000e+00,4.50000000000000e-01,4.47456842137248e-01,4.50000000000000e-01
4.50000000000000e-08,0.00000000000000e+00,4.50000000000000e-01,4.51611279883784e-01,4.50000000000000e-01
4.50100000000000e-08,4.49999999999915e-02,4.50000000000000e-01,4.51394340307787e-01,4.05000000000009e-01
4.50300000000000e-08,1.35000000000004e-01,4.50000000000000e-01,4.50978098590495e-01,3.14999999999996e-01
4.50700000000000e-08,3.15000000000000e-01,4.50000000000000e-01,4.50454644336430e-01,1.35000000000000e-01
4.51000000000000e-08,4.50000000000000e-01,4.50000000000000e-01,4.51214462144423e-01,0.00000000000000e+00
4.51080000000000e-08,4.50000000000000e-01,4.50000000000000e-01,4.51728398747275e-01,0.00000000000000e+00
4.51240000000000e-08,4.50000000000000e-01,4.50000000000000e-01,4.52656383292072e-01,0.00000000000000e+00
4.51560000000000e-08,4.50000000000000e-01,4.50000000000000e-01,4.54179165166945e-01,0.00000000000000e+00
4.52200000000000e-08,4.50000000000000e-01,4.50000000000000e-01,4.56342566738357e-01,0.00000000000000e+00
4.53480000000000e-08,4.50000000000000e-01,4.50000000000000e-01,4.60279534715665e-01,0.00000000000000e+00
4.56040000000000e-08,4.50000000000000e-01,4.50000000000000e-01,4.69444144569235e-01,0.00000000000000e+00
4.61160000000000e-08,4.50000000000000e-01,4.50000000000000e-01,3.38969547564366e-01,0.00000000000000e+00
4.71400000000000e-08,4.50000000000000e-01,4.50000000000000e-01,2.79378114042403e-03,0.00000000000000e+00
4.86298025325587e-08,4.50000000000000e-01,4.50000000000000e-01,-2.13153258805590e-03,0.00000000000000e+00
5.01000000000000e-08,4.50000000000000e-01,4.49999999999974e-01,2.15309836714055e-03,0.00000000000000e+00
5.03909709929381e-08,4.50000000000000e-01,4.50000000000000e-01,2.61064717967305e-04,0.00000000000000e+00
5.09729129788144e-08,4.50000000000000e-01,4.50000000000000e-01,-1.43011188923469e-04,0.00000000000000e+00
5.21367969505669e-08,4.50000000000000e-01,4.50000000000000e-01,1.20712477720492e-04,0.00000000000000e+00
5.44645648940720e-08,4.50000000000000e-01,4.50000000000000e-01,-1.08733311639096e-04,0.00000000000000e+00
5.51000000000000e-08,4.50000000000000e-01,4.50000000000000e-01,8.83482924698992e-05,0.00000000000000e+00
5.51100000000000e-08,4.05000000000016e-01,4.50000000000000e-01,2.35044892893055e-04,4.49999999999840e-02
5.51300000000000e-08,3.15000000000003e-01,4.50000000000000e-01,4.64712386137843e-04,1.34999999999997e-01
5.51700000000000e-08,1.35000000000008e-01,4.50000000000000e-01,5.63818458262956e-04,3.14999999999992e-01
5.52000000000000e-08,0.00000000000000e+00,4.50000000000000e-01,4.59686583785826e-04,4.50000000000000e-01
5.52080000000000e-08,0.00000000000000e+00,4.50000000000000e-01,3.98554160693780e-04,4.50000000000000e-01
5.52240000000000e-08,0.00000000000000e+00,4.50000000000000e-01,2.92141918464613e-04,4.50000000000000e-01
5.52560000000000e-08,0.00000000000000e+00,4.50000000000000e-01,1.54232601034116e-04,4.50000000000000e-01
5.53200000000000e-08,0.00000000000000e+00,4.50000000000000e-01,3.77601231706867e-05,4.50000000000000e-01
5.54480000000000e-08,0.00000000000000e+00,4.50000000000000e-01,-1.41240670678416e-05,4.50000000000000e-01
5.57040000000000e-08,0.00000000000000e+00,4.50000000000000e-01,-1.82400093389455e-04,4.50000000000000e-01
5.62160000000000e-08,0.00000000000000e+00,4.50000000000000e-01,-5.45331344762548e-04,4.50000000000000e-01
5.72400000000000e-08,0.00000000000000e+00,4.50000000000000e-01,1.70777319385817e-04,4.50000000000000e-01
5.89051079454534e-08,0.00000000000000e+00,4.50000000000000e-01,-1.03796138477483e-04,4.50000000000000e-01
6.19917281314148e-08,0.00000000000000e+00,4.50000000000000e-01,6.49259444686036e-05,4.50000000000000e-01
6.50000000000000e-08,0.00000000000000e+00,4.50000000000000e-01,-1.36551057966549e-05,4.50000000000000e-01
6.50100000000000e-08,4.49999999999915e-02,4.50000000000000e-01,6.48122989590841e-05,4.50000000000000e-01
6.50300000000000e-08,1.34999999999974e-01,4.50000000000000e-01,2.11747850419115e-04,4.50000000000000e-01
6.50700000000000e-08,3.14999999999940e-01,4.50000000000000e-01,4.19590099731040e-04,4.50000000000000e-01
6.51000000000000e-08,4.49999999999974e-01,4.50000000000000e-01,4.78646428053675e-04,4.50000000000000e-01
6.51080000000000e-08,4.50000000000000e-01,4.50000000000000e-01,4.39441010884792e-04,4.50000000000000e-01
6.51240000000000e-08,4.50000000000000e-01,4.50000000000000e-01,3.60749116857698e-04,4.50000000000000e-01
6.51560000000000e-08,4.50000000000000e-01,4.50000000000000e-01,1.95918846402021e-04,4.50000000000000e-01
6.52200000000000e-08,4.50000000000000e-01,4.50000000000000e-01,-2.88440239856455e-04,4.50000000000000e-01
6.53480000000000e-08,4.50000000000000e-01,4.50000000000000e-01,-1.65674156302126e-03,4.50000000000000e-01
6.56040000000000e-08,4.50000000000000e-01,4.50000000000000e-01,-3.79132411420039e-03,4.50000000000000e-01
6.61159999999999e-08,4.50000000000000e-01,4.50000000000000e-01,1.01781489068528e-02,4.50000000000000e-01
6.71399999999999e-08,4.50000000000000e-01,4.50000000000000e-01,3.29821069617871e-01,4.50000000000000e-01
6.91879999999998e-08,4.50000000000000e-01,4.50000000000000e-01,4.70898423517097e-01,4.50000000000000e-01
7.17205193271270e-08,4.50000000000000e-01,4.50000000000000e-01,4.30524676757724e-01,4.50000000000000e-01
7.51000000000000e-08,4.50000000000000e-01,4.50000000000000e-01,4.67269405048576e-01,4.50000000000000e-01
7.51100000000000e-08,4.05000000000046e-01,4.50000000000000e-01,4.64659192355132e-01,4.50000000000000e-01
7.51300000000000e-08,3.15000000000063e-01,4.50000000000000e-01,4.60126869234325e-01,4.50000000000000e-01
7.51700000000000e-08,1.35000000000097e-01,4.50000000000000e-01,4.54706620751742e-01,4.50000000000000e-01
7.52000000000000e-08,6.29496454962464e-14,4.50000000000000e-01,4.53110200894839e-01,4.50000000000000e-01
7.52080000000000e-08,0.00000000000000e+00,4.50000000000000e-01,4.53003201249512e-01,4.50000000000000e-01
7.52240000000000e-08,0.00000000000000e+00,4.50000000000000e-01,4.52803622244191e-01,4.50000000000000e-01
7.52560000000000e-08,0.00000000000000e+00,4.50000000000000e-01,4.52508677761242e-01,4.50000000000000e-01
7.53200000000000e-08,0.00000000000000e+00,4.50000000000000e-01,4.52208181365751e-01,4.50000000000000e-01
7.54480000000000e-08,0.00000000000000e+00,4.50000000000000e-01,4.51824752311529e-01,4.50000000000000e-01
7.57040000000000e-08,0.00000000000000e+00,4.50000000000000e-01,4.46751614205164e-01,4.50000000000000e-01
7.62159999999999e-08,0.00000000000000e+00,4.50000000000000e-01,4.34878686777411e-01,4.50000000000000e-01
7.72399999999999e-08,0.00000000000000e+00,4.50000000000000e-01,4.45415559375043e-01,4.50000000000000e-01
7.92879999999998e-08,0.00000000000000e+00,4.50000000000000e-01,4.52290259244647e-01,4.50000000000000e-01
8.22117870827806e-08,0.00000000000000e+00,4.50000000000000e-01,4.47440812565444e-01,4.50000000000000e-01
8.50000000000000e-08,0.00000000000000e+00,4.50000000000000e-01,4.51623963029107e-01,4.50000000000000e-01
8.50100000000000e-08,4.49999999999915e-02,4.50000000000000e-01,4.51405994871745e-01,4.05000000000009e-01
8.50300000000000e-08,1.34999999999974e-01,4.50000000000000e-01,4.50985834710661e-01,3.15000000000026e-01
8.50700000000000e-08,3.14999999999940e-01,4.50000000000000e-01,4.50460370327015e-01,1.35000000000060e-01
8.51000000000000e-08,4.49999999999974e-01,4.50000000000000e-01,4.51218877867804e-01,2.57571741713036e-14
8.51080000000000e-08,4.50000000000000e-01,4.50000000000000e-01,4.51732537444281e-01,0.00000000000000e+00
8.51240000000000e-08,4.50000000000000e-01,4.50000000000000e-01,4.52660021969031e-01,0.00000000000000e+00
8.51560000000000e-08,4.50000000000000e-01,4.50000000000000e-01,4.54182055405208e-01,0.00000000000000e+00
8.52200000000000e-08,4.50000000000000e-01,4.50000000000000e-01,4.56344665026999e-01,0.00000000000000e+00
8.53480000000000e-08,4.50000000000000e-01,4.50000000000000e-01,4.60281239070616e-01,0.00000000000000e+00
8.56040000000000e-08,4.50000000000000e-01,4.50000000000000e-01,4.69447508527771e-01,0.00000000000000e+00
8.61159999999999e-08,4.50000000000000e-01,4.50000000000000e-01,3.38994400898571e-01,0.00000000000000e+00
8.71399999999999e-08,4.50000000000000e-01,4.50000000000000e-01,2.80232297082495e-03,0.00000000000000e+00
8.86297227849565e-08,4.50000000000000e-01,4.50000000000000e-01,-2.13711821430983e-03,0.00000000000000e+00
9.01000000000000e-08,4.50000000000000e-01,4.49999999999974e-01,2.15700442068486e-03,0.00000000000000e+00
9.03912999093149e-08,4.50000000000000e-01,4.50000000000000e-01,2.62002369912903e-04,0.00000000000000e+00
9.09738997279448e-08,4.50000000000000e-01,4.50000000000000e-01,-1.43317759055329e-04,0.00000000000000e+00
9.21390993652046e-08,4.50000000000000e-01,4.50000000000000e-01,1.20888314305654e-04,0.00000000000000e+00
9.44694986397242e-08,4.50000000000000e-01,4.50000000000000e-01,-1.08868465808543e-04,0.00000000000000e+00
9.51000000000000e-08,4.50000000000000e-01,4.50000000000000e-01,8.82164520970181e-05,0.00000000000000e+00
9.51100000000000e-08,4.05000000000046e-01,4.50000000000000e-01,2.34967612269689e-04,4.49999999999542e-02
9.51300000000000e-08,3.15000000000063e-01,4.50000000000000e-01,4.64690378874824e-04,1.34999999999937e-01
9.51700000000000e-08,1.35000000000097e-01,4.50000000000000e-01,5.63832324662672e-04,3.14999999999903e-01
9.52000000000000e-08,6.29496454962464e-14,4.50000000000000e-01,4.59705066658385e-04,4.49999999999937e-01
9.52080000000000e-08,0.00000000000000e+00,4.50000000000000e-01,3.98572934130356e-04,4.50000000000000e-01
9.52240000000000e-08,0.00000000000000e+00,4.50000000000000e-01,2.92160835007757e-04,4.50000000000000e-01
9.52560000000000e-08,0.00000000000000e+00,4.50000000000000e-01,1.54249067518764e-04,4.50000000000000e-01
9.53200000000000e-08,0.00000000000000e+00,4.50000000000000e-01,3.77744821302983e-05,4.50000000000000e-01
9.54480000000000e-08,0.00000000000000e+00,4.50000000000000e-01,-1.41196354166914e-05,4.50000000000000e-01
9.57040000000000e-08,0.00000000000000e+00,4.50000000000000e-01,-1.82441740555199e-04,4.50000000000000e-01
9.62159999999999e-08,0.00000000000000e+00,4.50000000000000e-01,-5.45511488642136e-04,4.50000000000000e-01
9.72399999999999e-08,0.00000000000000e+00,4.50000000000000e-01,1.70817984409505e-04,4.50000000000000e-01
9.89063666092011e-08,0.00000000000000e+00,4.50000000000000e-01,-1.03856389771458e-04,4.50000000000000e-01
1.01992374120044e-07,0.00000000000000e+00,4.50000000000000e-01,6.49701068877111e-05,4.50000000000000e-01
1.05000000000000e-07,0.00000000000000e+00,4.50000000000000e-01,-1.36854457292784e-05,4.50000000000000e-01
1.05010000000000e-07,4.49999999999915e-02,4.50000000000000e-01,6.47733810830442e-05,4.50000000000000e-01
1.05030000000000e-07,1.34999999999974e-01,4.50000000000000e-01,2.11698090979887e-04,4.50000000000000e-01
1.05070000000000e-07,3.14999999999940e-01,4.50000000000000e-01,4.19527182602165e-04,4.50000000000000e-01
1.05100000000000e-07,4.49999999999974e-01,4.50000000000000e-01,4.78579804071254e-04,4.50000000000000e-01
1.05108000000000e-07,4.50000000000000e-01,4.50000000000000e-01,4.39373828592667e-04,4.50000000000000e-01
1.05124000000000e-07,4.50000000000000e-01,4.50000000000000e-01,3.60679756163287e-04,4.50000000000000e-01
1.05156000000000e-07,4.50000000000000e-01,4.50000000000000e-01,1.95839365787973e-04,4.50000000000000e-01
1.05220000000000e-07,4.50000000000000e-01,4.50000000000000e-01,-2.88548961513507e-04,4.50000000000000e-01
1.05348000000000e-07,4.50000000000000e-01,4.50000000000000e-01,-1.65685255908304e-03,4.50000000000000e-01
1.05604000000000e-07,4.50000000000000e-01,4.50000000000000e-01,-3.79137651661282e-03,4.50000000000000e-01
1.06116000000000e-07,4.50000000000000e-01,4.50000000000000e-01,1.01795609644970e-02,4.50000000000000e-01
1.07140000000000e-07,4.50000000000000e-01,4.50000000000000e-01,3.29824565222706e-01,4.50000000000000e-01
1.09188000000000e-07,4.50000000000000e-01,4.50000000000000e-01,4.70898430362003e-01,4.50000000000000e-01
1.11720513209037e-07,4.50000000000000e-01,4.50000000000000e-01,4.30524523113430e-01,4.50000000000000e-01
1.15100000000000e-07,4.50000000000000e-01,4.50000000000000e-01,4.67269446646130e-01,4.50000000000000e-01
1.15110000000000e-07,4.05000000000046e-01,4.50000000000000e-01,4.64659246838855e-01,4.50000000000000e-01
1.15130000000000e-07,3.15000000000063e-01,4.50000000000000e-01,4.60126904643531e-01,4.50000000000000e-01
1.15170000000000e-07,1.35000000000097e-01,4.50000000000000e-01,4.54706634737396e-01,4.50000000000000e-01
1.15200000000000e-07,6.29496454962464e-14,4.50000000000000e-01,4.53110208208731e-01,4.50000000000000e-01
1.15208000000000e-07,0.00000000000000e+00,4.50000000000000e-01,4.53003208345851e-01,4.50000000000000e-01
1.15224000000000e-07,0.00000000000000e+00,4.50000000000000e-01,4.52803629592921e-01,4.50000000000000e-01
1.15256000000000e-07,0.00000000000000e+00,4.50000000000000e-01,4.52508686593338e-01,4.50000000000000e-01
1.15320000000000e-07,0.00000000000000e+00,4.50000000000000e-01,4.52208192547853e-01,4.50000000000000e-01
1.15448000000000e-07,0.00000000000000e+00,4.50000000000000e-01,4.51824767702234e-01,4.50000000000000e-01
1.15704000000000e-07,0.00000000000000e+00,4.50000000000000e-01,4.46751635420084e-01,4.50000000000000e-01
1.16216000000000e-07,0.00000000000000e+00,4.50000000000000e-01,4.34878708400398e-01,4.50000000000000e-01
1.17240000000000e-07,0.00000000000000e+00,4.50000000000000e-01,4.45415551550166e-01,4.50000000000000e-01
1.19288000000000e-07,0.00000000000000e+00,4.50000000000000e-01,4.52290265222955e-01,4.50000000000000e-01
1.22211787456853e-07,0.00000000000000e+00,4.50000000000000e-01,4.47440807191746e-01,4.50000000000000e-01
1.25000000000000e-07,0.00000000000000e+00,4.50000000000000e-01,4.51623967529545e-01,4.50000000000000e-01
1.25010000000000e-07,4.49999999999319e-02,4.50000000000000e-01,4.51405998507866e-01,4.05000000000068e-01
