Time,v(clk),v(data),v(out)
1.00000000000000e-08,4.50000000000000e-01,0.00000000000000e+00,8.58766394409849e-06
1.00100000000000e-08,4.50000000000000e-01,4.49999999999989e-02,5.33172497264173e-06
1.00300000000000e-08,4.50000000000000e-01,1.34999999999997e-01,4.35215033907366e-07
1.00700000000000e-08,4.50000000000000e-01,3.14999999999992e-01,-4.56343386557451e-06
1.01000000000000e-08,4.50000000000000e-01,4.49999999999997e-01,-7.32897811468736e-06
1.01080000000000e-08,4.50000000000000e-01,4.50000000000000e-01,-7.86315704253554e-06
1.01240000000000e-08,4.50000000000000e-01,4.50000000000000e-01,-7.96440599452192e-06
1.01560000000000e-08,4.50000000000000e-01,4.50000000000000e-01,-6.03203574802563e-06
1.02200000000000e-08,4.50000000000000e-01,4.50000000000000e-01,-1.75292214748754e-06
1.03480000000000e-08,4.50000000000000e-01,4.50000000000000e-01,3.32027925334377e-06
1.06040000000000e-08,4.50000000000000e-01,4.50000000000000e-01,1.67481863890678e-06
1.11160000000000e-08,4.50000000000000e-01,4.50000000000000e-01,1.24403646403932e-06
1.21395582680247e-08,4.50000000000000e-01,4.50000000000000e-01,2.07375422621708e-06
1.41866748040742e-08,4.50000000000000e-01,4.50000000000000e-01,1.26769969434684e-06
1.51000000000000e-08,4.50000000000000e-01,4.50000000000000e-01,1.85725436807008e-06
1.51100000000000e-08,4.04999999999994e-01,4.50000000000000e-01,-4.82888223205524e-05
1.51300000000000e-08,3.14999999999996e-01,4.50000000000000e-01,-1.34240423263668e-04
1.51700000000000e-08,1.35000000000000e-01,4.50000000000000e-01,-2.39727097510384e-04
1.52000000000000e-08,0.00000000000000e+00,4.50000000000000e-01,-1.81458382537102e-04
1.52080000000000e-08,0.00000000000000e+00,4.50000000000000e-01,-7.95013336653619e-05
1.52240000000000e-08,0.00000000000000e+00,4.50000000000000e-01,8.61790899293127e-05
1.52560000000000e-08,0.00000000000000e+00,4.50000000000000e-01,2.43143256162287e-04
1.53200000000000e-08,0.00000000000000e+00,4.50000000000000e-01,2.56699136350048e-04
1.54480000000000e-08,0.00000000000000e+00,4.50000000000000e-01,7.64668878924755e-05
1.57040000000000e-08,0.00000000000000e+00,4.50000000000000e-01,-1.08348273312846e-04
1.62160000000000e-08,0.00000000000000e+00,4.50000000000000e-01,1.92592069056530e-07
1.72400000000000e-08,0.00000000000000e+00,4.50000000000000e-01,-6.95508686326908e-05
1.88040409809148e-08,0.00000000000000e+00,4.50000000000000e-01,7.84997199547079e-05
2.17743267040268e-08,0.00000000000000e+00,4.50000000000000e-01,-4.35903087235303e-05
2.50000000000000e-08,0.00000000000000e+00,4.50000000000000e-01,2.10654877779775e-05
2.50100000000000e-08,4.49999999999915e-02,4.50000000000000e-01,1.13781089659287e-04
2.50300000000000e-08,1.35000000000004e-01,4.50000000000000e-01,2.69307605322115e-04
2.50700000000000e-08,3.15000000000000e-01,4.50000000000000e-01,4.17757877467652e-04
2.51000000000000e-08,4.50000000000000e-01,4.50000000000000e-01,4.08665062746637e-04
2.51080000000000e-08,4.50000000000000e-01,4.50000000000000e-01,3.55606371871951e-04
2.51240000000000e-08,4.50000000000000e-01,4.50000000000000e-01,2.51373395735652e-04
2.51560000000000e-08,4.50000000000000e-01,4.50000000000000e-01,-2.65822104349098e-05
2.52200000000000e-08,4.50000000000000e-01,4.50000000000000e-01,-1.18975818196068e-03
2.53480000000000e-08,4.50000000000000e-01,4.50000000000000e-01,-3.58014604727457e-03
2.56040000000000e-08,4.50000000000000e-01,4.50000000000000e-01,6.86731740953746e-04
2.61160000000000e-08,4.50000000000000e-01,4.50000000000000e-01,2.60408240870548e-01
2.71400000000000e-08,4.50000000000000e-01,4.50000000000000e-01,4.68418268603344e-01
2.86093432028296e-08,4.50000000000000e-01,4.50000000000000e-01,4.36501236165971e-01
3.01000000000000e-08,4.50000000000000e-01,4.50000000000000e-01,4.63590841417109e-01
3.01100000000000e-08,4.50000000000000e-01,4.05000000000023e-01,4.60515257706990e-01
3.01300000000000e-08,4.50000000000000e-01,3.15000000000011e-01,4.55748760622732e-01
3.01700000000000e-08,4.50000000000000e-01,1.35000000000015e-01,4.51391481874810e-01
3.02000000000000e-08,4.50000000000000e-01,1.08801856413265e-14,4.50379958676792e-01
3.02080000000000e-08,4.50000000000000e-01,0.00000000000000e+00,4.50258732058563e-01
3.02240000000000e-08,4.50000000000000e-01,0.00000000000000e+00,4.50060252308047e-01
3.02560000000000e-08,4.50000000000000e-01,0.00000000000000e+00,4.49861953028790e-01
3.03200000000000e-08,4.50000000000000e-01,0.00000000000000e+00,4.49800213688502e-01
3.04480000000000e-08,4.50000000000000e-01,0.00000000000000e+00,4.49865564043356e-01
3.07040000000000e-08,4.50000000000000e-01,0.00000000000000e+00,4.49950271946403e-01
3.12160000000000e-08,4.50000000000000e-01,0.00000000000000e+00,4.49981248334544e-01
3.20281021773209e-08,4.50000000000000e-01,0.00000000000000e+00,4.49960616131486e-01
3.36523065319626e-08,4.50000000000000e-01,0.00000000000000e+00,4.49978443223749e-01
3.51000000000000e-08,4.49999999999978e-01,0.00000000000000e+00,4.49970596026566e-01
3.51100000000000e-08,4.04999999999986e-01,0.00000000000000e+00,4.49909035464240e-01
3.51300000000000e-08,3.14999999999974e-01,0.00000000000000e+00,4.49813441282428e-01
3.51700000000000e-08,1.34999999999978e-01,0.00000000000000e+00,4.49842032199097e-01
3.52000000000000e-08,0.00000000000000e+00,0.00000000000000e+00,4.50523473291476e-01
3.52080000000000e-08,0.00000000000000e+00,0.00000000000000e+00,4.50817095250561e-01
3.52240000000000e-08,0.00000000000000e+00,0.00000000000000e+00,4.51277000499195e-01
3.52560000000000e-08,0.00000000000000e+00,0.00000000000000e+00,4.51756837997915e-01
3.53200000000000e-08,0.00000000000000e+00,0.00000000000000e+00,4.52011582710000e-01
3.54480000000000e-08,0.00000000000000e+00,0.00000000000000e+00,4.49649795618707e-01
3.57040000000000e-08,0.00000000000000e+00,0.00000000000000e+00,4.36846390890780e-01
3.62160000000000e-08,0.00000000000000e+00,0.00000000000000e+00,4.41499220980557e-01
3.71190305289465e-08,0.00000000000000e+00,0.00000000000000e+00,4.53542044939424e-01
3.84551559046805e-08,0.00000000000000e+00,0.00000000000000e+00,4.46201192310671e-01
3.91000000000000e-08,0.00000000000000e+00,0.00000000000000e+00,4.51807984608087e-01
3.93049843565476e-08,0.00000000000000e+00,0.00000000000000e+00,4.50264190640426e-01
3.97149530696427e-08,0.00000000000000e+00,0.00000000000000e+00,4.49476872262838e-01
4.05348904958329e-08,0.00000000000000e+00,0.00000000000000e+00,4.49961234101153e-01
4.21747653482134e-08,0.00000000000000e+00,0.00000000000000e+00,4.49679784286304e-01
4.50000000000000e-08,0.00000000000000e+00,0.00000000000000e+00,4.50008944576989e-01
4.50100000000000e-08,4.49999999999915e-02,0.00000000000000e+00,4.50055214010929e-01
4.50300000000000e-08,1.35000000000004e-01,0.00000000000000e+00,4.50115678275738e-01
4.50700000000000e-08,3.15000000000000e-01,0.00000000000000e+00,4.50102064835862e-01
4.51000000000000e-08,4.50000000000000e-01,0.00000000000000e+00,4.50010256642623e-01
4.51080000000000e-08,4.50000000000000e-01,0.00000000000000e+00,4.49954519085748e-01
4.51240000000000e-08,4.50000000000000e-01,0.00000000000000e+00,4.49860560432901e-01
4.51560000000000e-08,4.50000000000000e-01,0.00000000000000e+00,4.49750769081380e-01
4.52200000000000e-08,4.50000000000000e-01,0.00000000000000e+00,4.49685485936720e-01
4.53480000000000e-08,4.50000000000000e-01,0.00000000000000e+00,4.49711918477789e-01
4.56040000000000e-08,4.50000000000000e-01,0.00000000000000e+00,4.50319787932590e-01
4.61160000000000e-08,4.50000000000000e-01,0.00000000000000e+00,4.69489061547767e-01
4.71400000000000e-08,4.50000000000000e-01,0.00000000000000e+00,7.53339095303285e-02
4.84782825193858e-08,4.50000000000000e-01,0.00000000000000e+00,-4.25550335857093e-02
5.00000000000000e-08,4.50000000000000e-01,0.00000000000000e+00,4.17701632416147e-02
5.00100000000000e-08,4.50000000000000e-01,4.49999999999915e-02,3.72737809695151e-02
5.00300000000000e-08,4.50000000000000e-01,1.34999999999974e-01,2.93317949916695e-02
5.00700000000000e-08,4.50000000000000e-01,3.15000000000000e-01,1.81737703692542e-02
5.01000000000000e-08,4.50000000000000e-01,4.50000000000000e-01,1.27139546600479e-02
5.01080000000000e-08,4.50000000000000e-01,4.50000000000000e-01,1.16160329908695e-02
5.01240000000000e-08,4.50000000000000e-01,4.50000000000000e-01,9.61325534354815e-03
5.01560000000000e-08,4.50000000000000e-01,4.50000000000000e-01,6.55848811553603e-03
5.02200000000000e-08,4.50000000000000e-01,4.50000000000000e-01,2.95958848940428e-03
5.03480000000000e-08,4.50000000000000e-01,4.50000000000000e-01,4.11094767146132e-04
5.06040000000000e-08,4.50000000000000e-01,4.50000000000000e-01,-8.21450764510838e-05
5.11160000000001e-08,4.50000000000000e-01,4.50000000000000e-01,3.88240178824557e-05
5.21400000000002e-08,4.50000000000000e-01,4.50000000000000e-01,-2.98123214215254e-05
5.41880000000003e-08,4.50000000000000e-01,4.50000000000000e-01,2.36303941882937e-05
5.51000000000000e-08,4.50000000000000e-01,4.50000000000000e-01,-1.75354470858397e-05
5.51100000000000e-08,4.05000000000016e-01,4.50000000000000e-01,-6.45845124145825e-05
5.51300000000000e-08,3.15000000000003e-01,4.50000000000000e-01,-1.43082148900776e-04
5.51700000000000e-08,1.35000000000008e-01,4.50000000000000e-01,-2.46736094208187e-04
5.52000000000000e-08,0.00000000000000e+00,4.50000000000000e-01,-1.87032921158001e-04
5.52080000000000e-08,0.00000000000000e+00,4.50000000000000e-01,-8.50712984355739e-05
5.52240000000000e-08,0.00000000000000e+00,4.50000000000000e-01,8.07274112432366e-05
5.52560000000000e-08,0.00000000000000e+00,4.50000000000000e-01,2.36931464558748e-04
5.53200000000000e-08,0.00000000000000e+00,4.50000000000000e-01,2.42788074770260e-04
5.54480000000000e-08,0.00000000000000e+00,4.50000000000000e-01,-5.19515035604483e-05
5.57040000000000e-08,0.00000000000000e+00,4.50000000000000e-01,-1.05089278207178e-03
5.62160000000000e-08,0.00000000000000e+00,4.50000000000000e-01,5.01778679168133e-05
5.69958109351040e-08,0.00000000000000e+00,4.50000000000000e-01,-3.28453585410112e-05
5.85554328053121e-08,0.00000000000000e+00,4.50000000000000e-01,-1.41624143612171e-07
6.05875551551990e-08,0.00000000000000e+00,4.50000000000000e-01,7.80805449794798e-05
6.41915437898745e-08,0.00000000000000e+00,4.50000000000000e-01,-1.09443721930952e-04
6.50000000000000e-08,0.00000000000000e+00,4.50000000000000e-01,1.86644817039173e-04
6.50100000000000e-08,4.49999999999915e-02,4.50000000000000e-01,2.25997591582684e-04
6.50300000000000e-08,1.34999999999974e-01,4.50000000000000e-01,3.16168707378016e-04
6.50700000000000e-08,3.14999999999940e-01,4.50000000000000e-01,4.33688074659308e-04
6.51000000000000e-08,4.49999999999974e-01,4.50000000000000e-01,4.16253861662212e-04
6.51080000000000e-08,4.50000000000000e-01,4.50000000000000e-01,3.61143302293164e-04
6.51240000000000e-08,4.50000000000000e-01,4.50000000000000e-01,2.61230984419061e-04
6.51560000000000e-08,4.50000000000000e-01,4.50000000000000e-01,3.97162369020487e-05
6.52200000000000e-08,4.50000000000000e-01,4.50000000000000e-01,-9.85376447386978e-04
6.53480000000000e-08,4.50000000000000e-01,4.50000000000000e-01,-3.39994664795874e-03
6.56040000000000e-08,4.50000000000000e-01,4.50000000000000e-01,-1.13207402787856e-03
6.61159999999999e-08,4.50000000000000e-01,4.50000000000000e-01,2.49800432378148e-01
6.71399999999999e-08,4.50000000000000e-01,4.50000000000000e-01,4.67091184841149e-01
6.86349801851879e-08,4.50000000000000e-01,4.50000000000000e-01,4.37558903908222e-01
7.01000000000000e-08,4.50000000000000e-01,4.50000000000000e-01,4.62746202423150e-01
7.01100000000000e-08,4.50000000000000e-01,4.05000000000009e-01,4.59862875471106e-01
7.01300000000000e-08,4.50000000000000e-01,3.15000000000026e-01,4.55383466364703e-01
7.01700000000000e-08,4.50000000000000e-01,1.35000000000060e-01,4.51273204621118e-01
7.02000000000000e-08,4.50000000000000e-01,2.57571741713036e-14,4.50330582855083e-01
7.02080000000000e-08,4.50000000000000e-01,0.00000000000000e+00,4.50212120209349e-01
7.02240000000000e-08,4.50000000000000e-01,0.00000000000000e+00,4.50017589981244e-01
7.02560000000000e-08,4.50000000000000e-01,0.00000000000000e+00,4.49828553864583e-01
7.03200000000000e-08,4.50000000000000e-01,0.00000000000000e+00,4.49780699133477e-01
7.04480000000000e-08,4.50000000000000e-01,0.00000000000000e+00,4.49865373784380e-01
7.07040000000000e-08,4.50000000000000e-01,0.00000000000000e+00,4.49951076192872e-01
7.12159999999999e-08,4.50000000000000e-01,0.00000000000000e+00,4.49977789902662e-01
7.20239525434913e-08,4.50000000000000e-01,0.00000000000000e+00,4.49962488110256e-01
7.36398576304742e-08,4.50000000000000e-01,0.00000000000000e+00,4.49975561868564e-01
7.51000000000000e-08,4.50000000000000e-01,0.00000000000000e+00,4.49972257808904e-01
7.51100000000000e-08,4.05000000000046e-01,0.00000000000000e+00,4.49909884747243e-01
7.51300000000000e-08,3.15000000000063e-01,0.00000000000000e+00,4.49813177954134e-01
7.51700000000000e-08,1.35000000000097e-01,0.00000000000000e+00,4.49841331963380e-01
7.52000000000000e-08,6.29496454962464e-14,0.00000000000000e+00,4.50522831419593e-01
7.52080000000000e-08,0.00000000000000e+00,0.00000000000000e+00,4.50816320503215e-01
7.52240000000000e-08,0.00000000000000e+00,0.00000000000000e+00,4.51275989972304e-01
7.52560000000000e-08,0.00000000000000e+00,0.00000000000000e+00,4.51755331122891e-01
7.53200000000000e-08,0.00000000000000e+00,0.00000000000000e+00,4.52006755463325e-01
7.54480000000000e-08,0.00000000000000e+00,0.00000000000000e+00,4.49618317580437e-01
7.57040000000000e-08,0.00000000000000e+00,0.00000000000000e+00,4.36798762780849e-01
7.62159999999999e-08,0.00000000000000e+00,0.00000000000000e+00,4.41507557922716e-01
7.71190281498546e-08,0.00000000000000e+00,0.00000000000000e+00,4.53541589004746e-01
7.81000000000000e-08,0.00000000000000e+00,0.00000000000000e+00,4.46412338341078e-01
7.82336131020173e-08,0.00000000000000e+00,0.00000000000000e+00,4.48464330919279e-01
7.85008393060520e-08,0.00000000000000e+00,0.00000000000000e+00,4.49968642866247e-01
7.90352917141214e-08,0.00000000000000e+00,0.00000000000000e+00,4.49509854611815e-01
8.01041965302600e-08,0.00000000000000e+00,0.00000000000000e+00,4.49894591249437e-01
8.22420061625374e-08,0.00000000000000e+00,0.00000000000000e+00,4.49714881331507e-01
8.50000000000000e-08,0.00000000000000e+00,0.00000000000000e+00,4.49977903895963e-01
8.50100000000000e-08,4.49999999999915e-02,0.00000000000000e+00,4.50025371521105e-01
8.50300000000000e-08,1.34999999999974e-01,0.00000000000000e+00,4.50091346606181e-01
8.50700000000000e-08,3.14999999999940e-01,0.00000000000000e+00,4.50087748498096e-01
8.51000000000000e-08,4.49999999999974e-01,0.00000000000000e+00,4.50001149536525e-01
8.51080000000000e-08,4.50000000000000e-01,0.00000000000000e+00,4.49946395656561e-01
8.51240000000000e-08,4.50000000000000e-01,0.00000000000000e+00,4.49853920525652e-01
8.51560000000000e-08,4.50000000000000e-01,0.00000000000000e+00,4.49746482994465e-01
8.52200000000000e-08,4.50000000000000e-01,0.00000000000000e+00,4.49684503320182e-01
8.53480000000000e-08,4.50000000000000e-01,0.00000000000000e+00,4.49712736410978e-01
8.56040000000000e-08,4.50000000000000e-01,0.00000000000000e+00,4.50320527058801e-01
8.61159999999999e-08,4.50000000000000e-01,0.00000000000000e+00,4.69485121196379e-01
8.71399999999999e-08,4.50000000000000e-01,0.00000000000000e+00,7.53252078085966e-02
8.84783503700856e-08,4.50000000000000e-01,0.00000000000000e+00,-4.25534379906182e-02
9.00000000000000e-08,4.50000000000000e-01,0.00000000000000e+00,4.17672135205073e-02
9.00100000000000e-08,4.50000000000000e-01,4.49999999999915e-02,3.72708397298209e-02
9.00300000000000e-08,4.50000000000000e-01,1.34999999999974e-01,2.93290651748506e-02
9.00700000000000e-08,4.50000000000000e-01,3.14999999999940e-01,1.81718515546483e-02
9.01000000000000e-08,4.50000000000000e-01,4.49999999999974e-01,1.27125376076164e-02
9.01080000000000e-08,4.50000000000000e-01,4.50000000000000e-01,1.16147253012433e-02
9.01240000000000e-08,4.50000000000000e-01,4.50000000000000e-01,9.61214110213428e-03
9.01560000000000e-08,4.50000000000000e-01,4.50000000000000e-01,6.55771144305327e-03
9.02200000000000e-08,4.50000000000000e-01,4.50000000000000e-01,2.95922508869764e-03
9.03480000000000e-08,4.50000000000000e-01,4.50000000000000e-01,4.11040304914866e-04
9.06040000000000e-08,4.50000000000000e-01,4.50000000000000e-01,-8.21346674642308e-05
9.11159999999999e-08,4.50000000000000e-01,4.50000000000000e-01,3.88204377154752e-05
9.21399999999999e-08,4.50000000000000e-01,4.50000000000000e-01,-2.98097098494808e-05
9.41879999999998e-08,4.50000000000000e-01,4.50000000000000e-01,2.36286055172708e-05
9.51000000000000e-08,4.50000000000000e-01,4.50000000000000e-01,-1.75342881279768e-05
9.51100000000000e-08,4.05000000000046e-01,4.50000000000000e-01,-6.45835055965854e-05
9.51300000000000e-08,3.15000000000063e-01,4.50000000000000e-01,-1.43081265827467e-04
9.51700000000000e-08,1.35000000000097e-01,4.50000000000000e-01,-2.46735525804870e-04
9.52000000000000e-08,6.29496454962464e-14,4.50000000000000e-01,-1.87032489965482e-04
9.52080000000000e-08,0.00000000000000e+00,4.50000000000000e-01,-8.50708885220958e-05
9.52240000000000e-08,0.00000000000000e+00,4.50000000000000e-01,8.07277950546012e-05
9.52560000000000e-08,0.00000000000000e+00,4.50000000000000e-01,2.36931891336209e-04
9.53200000000000e-08,0.00000000000000e+00,4.50000000000000e-01,2.42789195094899e-04
9.54480000000000e-08,0.00000000000000e+00,4.50000000000000e-01,-5.19419293747020e-05
9.57040000000000e-08,0.00000000000000e+00,4.50000000000000e-01,-1.05085401881441e-03
9.62159999999999e-08,0.00000000000000e+00,4.50000000000000e-01,5.01920765268050e-05
9.69958219793901e-08,0.00000000000000e+00,4.50000000000000e-01,-3.28541354546359e-05
9.85554659381706e-08,0.00000000000000e+00,4.50000000000000e-01,-1.34316142109611e-07
1.00587646566260e-07,0.00000000000000e+00,4.50000000000000e-01,7.80722543894971e-05
1.04191651624819e-07,0.00000000000000e+00,4.50000000000000e-01,-1.09435956772572e-04
1.05000000000000e-07,0.00000000000000e+00,4.50000000000000e-01,1.86645836375317e-04
1.05010000000000e-07,4.49999999999915e-02,4.50000000000000e-01,2.25999465380246e-04
1.05030000000000e-07,1.34999999999974e-01,4.50000000000000e-01,3.16171299628153e-04
1.05070000000000e-07,3.14999999999940e-01,4.50000000000000e-01,4.33689879880191e-04
1.05100000000000e-07,4.49999999999974e-01,4.50000000000000e-01,4.16255128697515e-04
1.05108000000000e-07,4.50000000000000e-01,4.50000000000000e-01,3.61144529336846e-04
1.05124000000000e-07,4.50000000000000e-01,4.50000000000000e-01,2.61232353084812e-04
1.05156000000000e-07,4.50000000000000e-01,4.50000000000000e-01,3.97210218503197e-05
1.05220000000000e-07,4.50000000000000e-01,4.50000000000000e-01,-9.85362064649928e-04
1.05348000000000e-07,4.50000000000000e-01,4.50000000000000e-01,-3.39993526915927e-03
1.05604000000000e-07,4.50000000000000e-01,4.50000000000000e-01,-1.13211197532752e-03
1.06116000000000e-07,4.50000000000000e-01,4.50000000000000e-01,2.49800180090185e-01
1.07140000000000e-07,4.50000000000000e-01,4.50000000000000e-01,4.67091156719797e-01
1.08634980754521e-07,4.50000000000000e-01,4.50000000000000e-01,4.37558931519378e-01
1.10100000000000e-07,4.50000000000000e-01,4.50000000000000e-01,4.62746178959441e-01
1.10110000000000e-07,4.50000000000000e-01,4.05000000000068e-01,4.59862857287538e-01
1.10130000000000e-07,4.50000000000000e-01,3.15000000000085e-01,4.55383456310769e-01
1.10170000000000e-07,4.50000000000000e-01,1.35000000000119e-01,4.51273201393920e-01
1.10200000000000e-07,4.50000000000000e-01,8.53206394424433e-14,4.50330581320677e-01
1.10208000000000e-07,4.50000000000000e-01,0.00000000000000e+00,4.50212118939049e-01
1.10224000000000e-07,4.50000000000000e-01,0.00000000000000e+00,4.50017589170893e-01
1.10256000000000e-07,4.50000000000000e-01,0.00000000000000e+00,4.49828553525955e-01
1.10320000000000e-07,4.50000000000000e-01,0.00000000000000e+00,4.49780698945795e-01
1.10448000000000e-07,4.50000000000000e-01,0.00000000000000e+00,4.49865373703463e-01
1.10704000000000e-07,4.50000000000000e-01,0.00000000000000e+00,4.49951076178329e-01
1.11216000000000e-07,4.50000000000000e-01,0.00000000000000e+00,4.49977789721676e-01
