Time,v(clk),v(data),v(out),v(reset)
1.00000000000000e-08,4.50000000000000e-01,0.00000000000000e+00,-2.07595666305625e-02,0.00000000000000e+00
1.00100000000000e-08,4.50000000000000e-01,4.49999999999989e-02,-1.73833741926622e-02,0.00000000000000e+00
1.00300000000000e-08,4.50000000000000e-01,1.34999999999997e-01,-1.25501365930351e-02,0.00000000000000e+00
1.00700000000000e-08,4.50000000000000e-01,3.14999999999992e-01,-8.00480494554714e-03,0.00000000000000e+00
1.01000000000000e-08,4.50000000000000e-01,4.49999999999997e-01,-5.85164611326711e-03,0.00000000000000e+00
1.01080000000000e-08,4.50000000000000e-01,4.50000000000000e-01,-5.40072821628565e-03,0.00000000000000e+00
1.01240000000000e-08,4.50000000000000e-01,4.50000000000000e-01,-4.56325744554032e-03,0.00000000000000e+00
1.01560000000000e-08,4.50000000000000e-01,4.50000000000000e-01,-3.22579796515142e-03,0.00000000000000e+00
1.02200000000000e-08,4.50000000000000e-01,4.50000000000000e-01,-1.62435359529201e-03,0.00000000000000e+00
1.03480000000000e-08,4.50000000000000e-01,4.50000000000000e-01,-3.36965108832282e-04,0.00000000000000e+00
1.06040000000000e-08,4.50000000000000e-01,4.50000000000000e-01,4.36760492251165e-05,0.00000000000000e+00
1.11160000000000e-08,4.50000000000000e-01,4.50000000000000e-01,-2.07075485933825e-05,0.00000000000000e+00
1.21400000000000e-08,4.50000000000000e-01,4.50000000000000e-01,1.60486424480525e-05,0.00000000000000e+00
1.41880000000000e-08,4.50000000000000e-01,4.50000000000000e-01,-1.14781182704833e-05,0.00000000000000e+00
1.51000000000000e-08,4.50000000000000e-01,4.50000000000000e-01,9.69153765665622e-06,0.00000000000000e+00
1.51100000000000e-08,4.04999999999994e-01,4.50000000000000e-01,1.70126697097039e-04,4.50000000000064e-02
1.51300000000000e-08,3.14999999999996e-01,4.50000000000000e-01,3.86169589226049e-04,1.35000000000004e-01
1.51700000000000e-08,1.35000000000000e-01,4.50000000000000e-01,3.79911734002050e-04,3.15000000000000e-01
1.52000000000000e-08,0.00000000000000e+00,4.50000000000000e-01,2.45537600656855e-04,4.50000000000000e-01
1.52080000000000e-08,0.00000000000000e+00,4.50000000000000e-01,1.94738983452215e-04,4.50000000000000e-01
1.52240000000000e-08,0.00000000000000e+00,4.50000000000000e-01,1.14169712486005e-04,4.50000000000000e-01
1.52560000000000e-08,0.00000000000000e+00,4.50000000000000e-01,3.30164281357528e-05,4.50000000000000e-01
1.53200000000000e-08,0.00000000000000e+00,4.50000000000000e-01,-3.74774896463870e-06,4.50000000000000e-01
1.54480000000000e-08,0.00000000000000e+00,4.50000000000000e-01,-7.73167604006843e-05,4.50000000000000e-01
1.57040000000000e-08,0.00000000000000e+00,4.50000000000000e-01,-6.80179143683870e-04,4.50000000000000e-01
1.62160000000000e-08,0.00000000000000e+00,4.50000000000000e-01,-3.07945800031833e-05,4.50000000000000e-01
1.71371322263333e-08,0.00000000000000e+00,4.50000000000000e-01,2.86262007784879e-05,4.50000000000000e-01
1.87511761005315e-08,0.00000000000000e+00,4.50000000000000e-01,-4.92603469920937e-05,4.50000000000000e-01
2.11146310751424e-08,0.00000000000000e+00,4.50000000000000e-01,1.07428918853276e-04,4.50000000000000e-01
2.49146310751424e-08,0.00000000000000e+00,4.50000000000000e-01,-1.29987698774071e-04,4.50000000000000e-01
2.50000000000000e-08,0.00000000000000e+00,4.50000000000000e-01,8.47523697076746e-05,4.50000000000000e-01
2.50100000000000e-08,4.49999999999915e-02,4.50000000000000e-01,1.65068313954277e-04,4.50000000000000e-01
2.50300000000000e-08,1.35000000000004e-01,4.50000000000000e-01,3.11296057358669e-04,4.50000000000000e-01
2.50700000000000e-08,3.15000000000000e-01,4.50000000000000e-01,4.73886515034529e-04,4.50000000000000e-01
2.51000000000000e-08,4.50000000000000e-01,4.50000000000000e-01,4.76495512983642e-04,4.50000000000000e-01
2.51080000000000e-08,4.50000000000000e-01,4.50000000000000e-01,4.23143692605037e-04,4.50000000000000e-01
2.51240000000000e-08,4.50000000000000e-01,4.50000000000000e-01,3.16396145629540e-04,4.50000000000000e-01
2.51560000000000e-08,4.50000000000000e-01,4.50000000000000e-01,4.38824447212896e-05,4.50000000000000e-01
2.52200000000000e-08,4.50000000000000e-01,4.50000000000000e-01,-9.67543465820710e-04,4.50000000000000e-01
2.53480000000000e-08,4.50000000000000e-01,4.50000000000000e-01,-3.11538445053263e-03,4.50000000000000e-01
2.56040000000000e-08,4.50000000000000e-01,4.50000000000000e-01,-2.58705147012200e-03,4.50000000000000e-01
2.61160000000000e-08,4.50000000000000e-01,4.50000000000000e-01,2.04833971519553e-01,4.50000000000000e-01
2.71400000000000e-08,4.50000000000000e-01,4.50000000000000e-01,4.60555899253299e-01,4.50000000000000e-01
2.88108059511339e-08,4.50000000000000e-01,4.50000000000000e-01,4.43152062407349e-01,4.50000000000000e-01
3.13823394482946e-08,4.50000000000000e-01,4.50000000000000e-01,4.57948886837340e-01,4.50000000000000e-01
3.51000000000000e-08,4.49999999999978e-01,4.50000000000000e-01,4.43229177965351e-01,4.50000000000000e-01
3.51100000000000e-08,4.04999999999986e-01,4.50000000000000e-01,4.44726461928386e-01,4.50000000000000e-01
3.51300000000000e-08,3.14999999999974e-01,4.50000000000000e-01,4.47088134456672e-01,4.50000000000000e-01
3.51700000000000e-08,1.34999999999978e-01,4.50000000000000e-01,4.49334263240675e-01,4.50000000000000e-01
3.52000000000000e-08,0.00000000000000e+00,4.50000000000000e-01,4.50491349713331e-01,4.50000000000000e-01
3.52080000000000e-08,0.00000000000000e+00,4.50000000000000e-01,4.50837172196750e-01,4.50000000000000e-01
3.52240000000000e-08,0.00000000000000e+00,4.50000000000000e-01,4.51382634403635e-01,4.50000000000000e-01
3.52560000000000e-08,0.00000000000000e+00,4.50000000000000e-01,4.51945963510513e-01,4.50000000000000e-01
3.53200000000000e-08,0.00000000000000e+00,4.50000000000000e-01,4.52190365281746e-01,4.50000000000000e-01
3.54480000000000e-08,0.00000000000000e+00,4.50000000000000e-01,4.49935716441076e-01,4.50000000000000e-01
3.57040000000000e-08,0.00000000000000e+00,4.50000000000000e-01,4.37506021990001e-01,4.50000000000000e-01
3.62160000000000e-08,0.00000000000000e+00,4.50000000000000e-01,4.40672263408131e-01,4.50000000000000e-01
3.72400000000000e-08,0.00000000000000e+00,4.50000000000000e-01,4.53474071322968e-01,4.50000000000000e-01
3.88746147141282e-08,0.00000000000000e+00,4.50000000000000e-01,4.46238516624462e-01,4.50000000000000e-01
4.19742548324709e-08,0.00000000000000e+00,4.50000000000000e-01,4.52761321593358e-01,4.50000000000000e-01
4.50000000000000e-08,0.00000000000000e+00,4.50000000000000e-01,4.47134307988794e-01,4.50000000000000e-01
4.50100000000000e-08,4.49999999999915e-02,4.50000000000000e-01,4.47373596156848e-01,4.05000000000009e-01
4.50300000000000e-08,1.35000000000004e-01,4.50000000000000e-01,4.47795610873753e-01,3.14999999999996e-01
4.50700000000000e-08,3.15000000000000e-01,4.50000000000000e-01,4.48615103724249e-01,1.35000000000000e-01
4.51000000000000e-08,4.50000000000000e-01,4.50000000000000e-01,4.50447674910133e-01,0.00000000000000e+00
4.51080000000000e-08,4.50000000000000e-01,4.50000000000000e-01,4.51243325410857e-01,0.00000000000000e+00
4.51240000000000e-08,4.50000000000000e-01,4.50000000000000e-01,4.52652642476543e-01,0.00000000000000e+00
4.51560000000000e-08,4.50000000000000e-01,4.50000000000000e-01,4.54778086586038e-01,0.00000000000000e+00
4.52200000000000e-08,4.50000000000000e-01,4.50000000000000e-01,4.58126500491197e-01,0.00000000000000e+00
4.53480000000000e-08,4.50000000000000e-01,4.50000000000000e-01,4.65456653333282e-01,0.00000000000000e+00
4.56040000000000e-08,4.50000000000000e-01,4.50000000000000e-01,4.20734705455572e-01,0.00000000000000e+00
4.61160000000000e-08,4.50000000000000e-01,4.50000000000000e-01,7.21027804859134e-02,0.00000000000000e+00
4.69921049126401e-08,4.50000000000000e-01,4.50000000000000e-01,-3.31651601823332e-02,0.00000000000000e+00
4.82944417318658e-08,4.50000000000000e-01,4.50000000000000e-01,2.99928334838122e-02,0.00000000000000e+00
5.01000000000000e-08,4.50000000000000e-01,4.49999999999974e-01,-2.14187569078556e-02,0.00000000000000e+00
5.03167185768877e-08,4.50000000000000e-01,4.50000000000000e-01,-5.67545736725937e-03,0.00000000000000e+00
5.07501557306630e-08,4.50000000000000e-01,4.50000000000000e-01,2.31254485295020e-03,0.00000000000000e+00
5.16170300382136e-08,4.50000000000000e-01,4.50000000000000e-01,-1.49978447060172e-03,0.00000000000000e+00
5.33507786533148e-08,4.50000000000000e-01,4.50000000000000e-01,1.23393451103374e-03,0.00000000000000e+00
5.51000000000000e-08,4.50000000000000e-01,4.50000000000000e-01,-1.00558311095674e-03,0.00000000000000e+00
5.51100000000000e-08,4.05000000000016e-01,4.50000000000000e-01,-7.13654508756947e-04,4.49999999999840e-02
5.51300000000000e-08,3.15000000000003e-01,4.50000000000000e-01,-2.67413445698986e-04,1.34999999999997e-01
5.51700000000000e-08,1.35000000000008e-01,4.50000000000000e-01,-3.16055966421633e-05,3.14999999999992e-01
5.52000000000000e-08,0.00000000000000e+00,4.50000000000000e-01,-5.57700132568367e-05,4.50000000000000e-01
5.52080000000000e-08,0.00000000000000e+00,4.50000000000000e-01,-8.37238133252621e-05,4.50000000000000e-01
5.52240000000000e-08,0.00000000000000e+00,4.50000000000000e-01,-1.21863135772761e-04,4.50000000000000e-01
5.52560000000000e-08,0.00000000000000e+00,4.50000000000000e-01,-1.35756475344972e-04,4.50000000000000e-01
5.53200000000000e-08,0.00000000000000e+00,4.50000000000000e-01,-8.71212721578682e-05,4.50000000000000e-01
5.54480000000000e-08,0.00000000000000e+00,4.50000000000000e-01,-8.53452781897912e-05,4.50000000000000e-01
5.57040000000000e-08,0.00000000000000e+00,4.50000000000000e-01,-5.84833789801800e-04,4.50000000000000e-01
5.62160000000000e-08,0.00000000000000e+00,4.50000000000000e-01,-2.10319055992531e-05,4.50000000000000e-01
5.70542424874231e-08,0.00000000000000e+00,4.50000000000000e-01,9.66164927359405e-05,4.50000000000000e-01
5.87136796476082e-08,0.00000000000000e+00,4.50000000000000e-01,-1.37828895094875e-04,4.50000000000000e-01
6.08818156190079e-08,0.00000000000000e+00,4.50000000000000e-01,1.62866080141742e-04,4.50000000000000e-01
6.46818156190079e-08,0.00000000000000e+00,4.50000000000000e-01,-1.65531902200116e-04,4.50000000000000e-01
6.50000000000000e-08,0.00000000000000e+00,4.50000000000000e-01,1.25622573935721e-04,4.50000000000000e-01
6.50100000000000e-08,4.49999999999915e-02,4.50000000000000e-01,1.95078057216393e-04,4.50000000000000e-01
6.50300000000000e-08,1.34999999999974e-01,4.50000000000000e-01,3.22573883310612e-04,4.50000000000000e-01
6.50700000000000e-08,3.14999999999940e-01,4.50000000000000e-01,4.74202026173952e-04,4.50000000000000e-01
6.51000000000000e-08,4.49999999999974e-01,4.50000000000000e-01,4.65122749010956e-04,4.50000000000000e-01
6.51080000000000e-08,4.50000000000000e-01,4.50000000000000e-01,4.02108875422399e-04,4.50000000000000e-01
6.51240000000000e-08,4.50000000000000e-01,4.50000000000000e-01,2.65355679977111e-04,4.50000000000000e-01
6.51560000000000e-08,4.50000000000000e-01,4.50000000000000e-01,-1.35633364540401e-04,4.50000000000000e-01
6.52200000000000e-08,4.50000000000000e-01,4.50000000000000e-01,-1.32186377288245e-03,4.50000000000000e-01
6.53480000000000e-08,4.50000000000000e-01,4.50000000000000e-01,-3.35229258280571e-03,4.50000000000000e-01
6.56040000000000e-08,4.50000000000000e-01,4.50000000000000e-01,-1.70451999466155e-03,4.50000000000000e-01
6.61159999999999e-08,4.50000000000000e-01,4.50000000000000e-01,2.13443968933128e-01,4.50000000000000e-01
6.71399999999999e-08,4.50000000000000e-01,4.50000000000000e-01,4.62023289097131e-01,4.50000000000000e-01
6.87766842864165e-08,4.50000000000000e-01,4.50000000000000e-01,4.42152654150640e-01,4.50000000000000e-01
7.13701833471291e-08,4.50000000000000e-01,4.50000000000000e-01,4.58979152891825e-01,4.50000000000000e-01
7.51000000000000e-08,4.50000000000000e-01,4.50000000000000e-01,4.42297856759534e-01,4.50000000000000e-01
7.51100000000000e-08,4.05000000000046e-01,4.50000000000000e-01,4.43993498859007e-01,4.50000000000000e-01
7.51300000000000e-08,3.15000000000063e-01,4.50000000000000e-01,4.46658272444607e-01,4.50000000000000e-01
7.51700000000000e-08,1.35000000000097e-01,4.50000000000000e-01,4.49196757894862e-01,4.50000000000000e-01
7.52000000000000e-08,6.29496454962464e-14,4.50000000000000e-01,4.50422986898970e-01,4.50000000000000e-01
7.52080000000000e-08,0.00000000000000e+00,4.50000000000000e-01,4.50779727227966e-01,4.50000000000000e-01
7.52240000000000e-08,0.00000000000000e+00,4.50000000000000e-01,4.51342774024214e-01,4.50000000000000e-01
7.52560000000000e-08,0.00000000000000e+00,4.50000000000000e-01,4.51925210417259e-01,4.50000000000000e-01
7.53200000000000e-08,0.00000000000000e+00,4.50000000000000e-01,4.52182631053456e-01,4.50000000000000e-01
7.54480000000000e-08,0.00000000000000e+00,4.50000000000000e-01,4.49929816873265e-01,4.50000000000000e-01
7.57040000000000e-08,0.00000000000000e+00,4.50000000000000e-01,4.37494829284708e-01,4.50000000000000e-01
7.62159999999999e-08,0.00000000000000e+00,4.50000000000000e-01,4.40667810499081e-01,4.50000000000000e-01
7.72399999999999e-08,0.00000000000000e+00,4.50000000000000e-01,4.53476015573610e-01,4.50000000000000e-01
7.88744980740790e-08,0.00000000000000e+00,4.50000000000000e-01,4.46236956757916e-01,4.50000000000000e-01
8.19730702362794e-08,0.00000000000000e+00,4.50000000000000e-01,4.52762577654769e-01,4.50000000000000e-01
8.50000000000000e-08,0.00000000000000e+00,4.50000000000000e-01,4.47132998986876e-01,4.50000000000000e-01
8.50100000000000e-08,4.49999999999915e-02,4.50000000000000e-01,4.47372481531885e-01,4.05000000000009e-01
8.50300000000000e-08,1.34999999999974e-01,4.50000000000000e-01,4.47794752405439e-01,3.15000000000026e-01
8.50700000000000e-08,3.14999999999940e-01,4.50000000000000e-01,4.48614552467014e-01,1.35000000000060e-01
8.51000000000000e-08,4.49999999999974e-01,4.50000000000000e-01,4.50447274248389e-01,2.57571741713036e-14
8.51080000000000e-08,4.50000000000000e-01,4.50000000000000e-01,4.51242948601033e-01,0.00000000000000e+00
8.51240000000000e-08,4.50000000000000e-01,4.50000000000000e-01,4.52652305265364e-01,0.00000000000000e+00
8.51560000000000e-08,4.50000000000000e-01,4.50000000000000e-01,4.54777816788553e-01,0.00000000000000e+00
8.52200000000000e-08,4.50000000000000e-01,4.50000000000000e-01,4.58126323169932e-01,0.00000000000000e+00
8.53480000000000e-08,4.50000000000000e-01,4.50000000000000e-01,4.65456565787316e-01,0.00000000000000e+00
8.56040000000000e-08,4.50000000000000e-01,4.50000000000000e-01,4.20736577157096e-01,0.00000000000000e+00
8.61159999999999e-08,4.50000000000000e-01,4.50000000000000e-01,7.21045729867046e-02,0.00000000000000e+00
8.69921060208398e-08,4.50000000000000e-01,4.50000000000000e-01,-3.31658438543165e-02,0.00000000000000e+00
8.82944358263617e-08,4.50000000000000e-01,4.50000000000000e-01,2.99934039546969e-02,0.00000000000000e+00
9.01000000000000e-08,4.50000000000000e-01,4.49999999999974e-01,-2.14192479520129e-02,0.00000000000000e+00
9.03167207813090e-08,4.50000000000000e-01,4.50000000000000e-01,-5.67555647691265e-03,0.00000000000000e+00
9.07501623439269e-08,4.50000000000000e-01,4.50000000000000e-01,2.31260696364737e-03,0.00000000000000e+00
9.16170454691627e-08,4.50000000000000e-01,4.50000000000000e-01,-1.49982930860390e-03,0.00000000000000e+00
9.33508117196345e-08,4.50000000000000e-01,4.50000000000000e-01,1.23397237411947e-03,0.00000000000000e+00
9.51000000000000e-08,4.50000000000000e-01,4.50000000000000e-01,-1.00560906272724e-03,0.00000000000000e+00
9.51100000000000e-08,4.05000000000046e-01,4.50000000000000e-01,-7.13677740183688e-04,4.49999999999542e-02
9.51300000000000e-08,3.15000000000063e-01,4.50000000000000e-01,-2.67433549546815e-04,1.34999999999937e-01
9.51700000000000e-08,1.35000000000097e-01,4.50000000000000e-01,-3.16191509336372e-05,3.14999999999903e-01
9.52000000000000e-08,6.29496454962464e-14,4.50000000000000e-01,-5.57800770683500e-05,4.49999999999937e-01
9.52080000000000e-08,0.00000000000000e+00,4.50000000000000e-01,-8.37331536599553e-05,4.50000000000000e-01
9.52240000000000e-08,0.00000000000000e+00,4.50000000000000e-01,-1.21871033739181e-04,4.50000000000000e-01
9.52560000000000e-08,0.00000000000000e+00,4.50000000000000e-01,-1.35761673585144e-04,4.50000000000000e-01
9.53200000000000e-08,0.00000000000000e+00,4.50000000000000e-01,-8.71235491005026e-05,4.50000000000000e-01
9.54480000000000e-08,0.00000000000000e+00,4.50000000000000e-01,-8.53480474536754e-05,4.50000000000000e-01
9.57040000000000e-08,0.00000000000000e+00,4.50000000000000e-01,-5.84848488575020e-04,4.50000000000000e-01
9.62159999999999e-08,0.00000000000000e+00,4.50000000000000e-01,-2.10318946869681e-05,4.50000000000000e-01
9.70543930433791e-08,0.00000000000000e+00,4.50000000000000e-01,9.66019976813420e-05,4.50000000000000e-01
9.87137367418714e-08,0.00000000000000e+00,4.50000000000000e-01,-1.37814529933591e-04,4.50000000000000e-01
1.00882227015019e-07,0.00000000000000e+00,4.50000000000000e-01,1.62849472185383e-04,4.50000000000000e-01
1.04682227015019e-07,0.00000000000000e+00,4.50000000000000e-01,-1.65517392785796e-04,4.50000000000000e-01
1.05000000000000e-07,0.00000000000000e+00,4.50000000000000e-01,1.25542928540881e-04,4.50000000000000e-01
1.05010000000000e-07,4.49999999999915e-02,4.50000000000000e-01,1.95009049454312e-04,4.50000000000000e-01
1.05030000000000e-07,1.34999999999974e-01,4.50000000000000e-01,3.22524871186308e-04,4.50000000000000e-01
1.05070000000000e-07,3.14999999999940e-01,4.50000000000000e-01,4.74170222154138e-04,4.50000000000000e-01
1.05100000000000e-07,4.49999999999974e-01,4.50000000000000e-01,4.65099286423888e-04,4.50000000000000e-01
1.05108000000000e-07,4.50000000000000e-01,4.50000000000000e-01,4.02087831826548e-04,4.50000000000000e-01
1.05124000000000e-07,4.50000000000000e-01,4.50000000000000e-01,2.65338859195816e-04,4.50000000000000e-01
1.05156000000000e-07,4.50000000000000e-01,4.50000000000000e-01,-1.35639438278434e-04,4.50000000000000e-01
1.05220000000000e-07,4.50000000000000e-01,4.50000000000000e-01,-1.32185475893731e-03,4.50000000000000e-01
1.05348000000000e-07,4.50000000000000e-01,4.50000000000000e-01,-3.35228562407933e-03,4.50000000000000e-01
1.05604000000000e-07,4.50000000000000e-01,4.50000000000000e-01,-1.70440850509960e-03,4.50000000000000e-01
1.06116000000000e-07,4.50000000000000e-01,4.50000000000000e-01,2.13444918081717e-01,4.50000000000000e-01
1.07140000000000e-07,4.50000000000000e-01,4.50000000000000e-01,4.62023438926033e-01,4.50000000000000e-01
1.08776680430454e-07,4.50000000000000e-01,4.50000000000000e-01,4.42152548062844e-01,4.50000000000000e-01
1.11370182150223e-07,4.50000000000000e-01,4.50000000000000e-01,4.58979259719563e-01,4.50000000000000e-01
1.15100000000000e-07,4.50000000000000e-01,4.50000000000000e-01,4.42297758122445e-01,4.50000000000000e-01
1.15110000000000e-07,4.05000000000046e-01,4.50000000000000e-01,4.43993420928635e-01,4.50000000000000e-01
1.15130000000000e-07,3.15000000000063e-01,4.50000000000000e-01,4.46658226325796e-01,4.50000000000000e-01
1.15170000000000e-07,1.35000000000097e-01,4.50000000000000e-01,4.49196742888181e-01,4.50000000000000e-01
1.15200000000000e-07,6.29496454962464e-14,4.50000000000000e-01,4.50422979400287e-01,4.50000000000000e-01
1.15208000000000e-07,0.00000000000000e+00,4.50000000000000e-01,4.50779720913378e-01,4.50000000000000e-01
1.15224000000000e-07,0.00000000000000e+00,4.50000000000000e-01,4.51342769620133e-01,4.50000000000000e-01
1.15256000000000e-07,0.00000000000000e+00,4.50000000000000e-01,4.51925208094789e-01,4.50000000000000e-01
1.15320000000000e-07,0.00000000000000e+00,4.50000000000000e-01,4.52182630148006e-01,4.50000000000000e-01
1.15448000000000e-07,0.00000000000000e+00,4.50000000000000e-01,4.49929816116121e-01,4.50000000000000e-01
1.15704000000000e-07,0.00000000000000e+00,4.50000000000000e-01,4.37494827843458e-01,4.50000000000000e-01
1.16216000000000e-07,0.00000000000000e+00,4.50000000000000e-01,4.40667809989295e-01,4.50000000000000e-01
1.17240000000000e-07,0.00000000000000e+00,4.50000000000000e-01,4.53476015812124e-01,4.50000000000000e-01
1.18874498062743e-07,0.00000000000000e+00,4.50000000000000e-01,4.46236956570122e-01,4.50000000000000e-01
