Time,v(clk),v(data),v(out)
1.00000000000000e-08,7.50000000000000e-01,0.00000000000000e+00,2.91651224021807e-05
1.00100000000000e-08,7.50000000000000e-01,7.49999999999982e-02,2.49419725804612e-05
1.00300000000000e-08,7.50000000000000e-01,2.24999999999995e-01,1.97764777217224e-05
1.00700000000000e-08,7.50000000000000e-01,5.24999999999987e-01,1.55407814064895e-05
1.01000000000000e-08,7.50000000000000e-01,7.49999999999994e-01,1.60769706078617e-05
1.01080000000000e-08,7.50000000000000e-01,7.50000000000000e-01,1.55082353382463e-05
1.01240000000000e-08,7.50000000000000e-01,7.50000000000000e-01,1.76214130085256e-05
1.01560000000000e-08,7.50000000000000e-01,7.50000000000000e-01,2.30102255923681e-05
1.02200000000000e-08,7.50000000000000e-01,7.50000000000000e-01,2.37754869849977e-05
1.03480000000000e-08,7.50000000000000e-01,7.50000000000000e-01,1.68801499500701e-05
1.06040000000000e-08,7.50000000000000e-01,7.50000000000000e-01,2.10512800966137e-05
1.11160000000000e-08,7.50000000000000e-01,7.50000000000000e-01,1.80628195867727e-05
1.21400000000000e-08,7.50000000000000e-01,7.50000000000000e-01,2.09543330946405e-05
1.41880000000000e-08,7.50000000000000e-01,7.50000000000000e-01,1.74868939713576e-05
1.51000000000000e-08,7.50000000000000e-01,7.50000000000000e-01,1.96323252210241e-05
1.51100000000000e-08,6.74999999999989e-01,7.50000000000000e-01,-1.01376658920127e-04
1.51300000000000e-08,5.24999999999993e-01,7.50000000000000e-01,-2.33988866992343e-04
1.51700000000000e-08,2.25000000000000e-01,7.50000000000000e-01,1.39043179423509e-04
1.52000000000000e-08,0.00000000000000e+00,7.50000000000000e-01,7.38499911552129e-04
1.52080000000000e-08,0.00000000000000e+00,7.50000000000000e-01,8.63426444878052e-04
1.52240000000000e-08,0.00000000000000e+00,7.50000000000000e-01,7.47758009915320e-04
1.52560000000000e-08,0.00000000000000e+00,7.50000000000000e-01,-3.28961593830959e-04
1.53200000000000e-08,0.00000000000000e+00,7.50000000000000e-01,-6.86887348292003e-04
1.54480000000000e-08,0.00000000000000e+00,7.50000000000000e-01,2.07041307452527e-04
1.56294130146408e-08,0.00000000000000e+00,7.50000000000000e-01,-3.12022242347526e-04
1.59198602226367e-08,0.00000000000000e+00,7.50000000000000e-01,4.15312317548194e-04
1.63954337555166e-08,0.00000000000000e+00,7.50000000000000e-01,-3.09270989126257e-04
1.68907268076015e-08,0.00000000000000e+00,7.50000000000000e-01,2.82886587051338e-04
1.78813129117713e-08,0.00000000000000e+00,7.50000000000000e-01,-2.20364235009934e-04
1.98624851201110e-08,0.00000000000000e+00,7.50000000000000e-01,2.42195511501477e-04
2.28774094224706e-08,0.00000000000000e+00,7.50000000000000e-01,-1.99137040865033e-04
2.50000000000000e-08,0.00000000000000e+00,7.50000000000000e-01,2.22515412531771e-04
2.50100000000000e-08,7.49999999999858e-02,7.50000000000000e-01,4.02467235263951e-04
2.50300000000000e-08,2.25000000000007e-01,7.50000000000000e-01,5.85350144889404e-04
2.50700000000000e-08,5.25000000000000e-01,7.50000000000000e-01,5.32157774811914e-04
2.51000000000000e-08,7.50000000000000e-01,7.50000000000000e-01,-1.24583202519238e-03
2.51080000000000e-08,7.50000000000000e-01,7.50000000000000e-01,-2.29036618533532e-03
2.51240000000000e-08,7.50000000000000e-01,7.50000000000000e-01,-4.20217189946676e-03
2.51560000000000e-08,7.50000000000000e-01,7.50000000000000e-01,-6.46178651037824e-03
2.52200000000000e-08,7.50000000000000e-01,7.50000000000000e-01,1.36338755946099e-02
2.53480000000000e-08,7.50000000000000e-01,7.50000000000000e-01,4.48691302738147e-01
2.56040000000000e-08,7.50000000000000e-01,7.50000000000000e-01,7.70009448032223e-01
2.58812958717615e-08,7.50000000000000e-01,7.50000000000000e-01,7.34217383818163e-01
2.64358876152844e-08,7.50000000000000e-01,7.50000000000000e-01,7.65073057708152e-01
2.70570741185885e-08,7.50000000000000e-01,7.50000000000000e-01,7.35359315224465e-01
2.81421614006773e-08,7.50000000000000e-01,7.50000000000000e-01,7.64034519205167e-01
3.03123359648548e-08,7.50000000000000e-01,7.50000000000000e-01,7.35884340721005e-01
3.41123359648548e-08,7.50000000000000e-01,7.50000000000000e-01,7.63765138750112e-01
3.51000000000000e-08,7.49999999999963e-01,7.50000000000000e-01,7.36350843878370e-01
3.51100000000000e-08,6.74999999999977e-01,7.50000000000000e-01,7.44155406202716e-01
3.51300000000000e-08,5.24999999999956e-01,7.50000000000000e-01,7.50805425342964e-01
3.51700000000000e-08,2.24999999999963e-01,7.50000000000000e-01,7.51343456936723e-01
3.52000000000000e-08,0.00000000000000e+00,7.50000000000000e-01,7.54912457615476e-01
3.52080000000000e-08,0.00000000000000e+00,7.50000000000000e-01,7.54121220454752e-01
3.52240000000000e-08,0.00000000000000e+00,7.50000000000000e-01,7.48967081311333e-01
3.52560000000000e-08,0.00000000000000e+00,7.50000000000000e-01,7.34591102649780e-01
3.53200000000000e-08,0.00000000000000e+00,7.50000000000000e-01,7.37553732789779e-01
3.54480000000000e-08,0.00000000000000e+00,7.50000000000000e-01,7.52325874417133e-01
3.56350919395495e-08,0.00000000000000e+00,7.50000000000000e-01,7.47175047487227e-01
3.59408564913726e-08,0.00000000000000e+00,7.50000000000000e-01,7.51657944967834e-01
3.65523855950188e-08,0.00000000000000e+00,7.50000000000000e-01,7.48057097310262e-01
3.77754438023112e-08,0.00000000000000e+00,7.50000000000000e-01,7.51593713745751e-01
4.02215602168961e-08,0.00000000000000e+00,7.50000000000000e-01,7.48264595689082e-01
4.40215602168961e-08,0.00000000000000e+00,7.50000000000000e-01,7.51566009329578e-01
4.50000000000000e-08,0.00000000000000e+00,7.50000000000000e-01,7.48381247918585e-01
4.50100000000000e-08,7.49999999999858e-02,7.50000000000000e-01,7.49161498452915e-01
4.50300000000000e-08,2.25000000000007e-01,7.50000000000000e-01,7.49990788204420e-01
4.50700000000000e-08,5.25000000000000e-01,7.50000000000000e-01,7.50051484834928e-01
4.51000000000000e-08,7.50000000000000e-01,7.50000000000000e-01,7.49238575476235e-01
4.51080000000000e-08,7.50000000000000e-01,6.90000000000031e-01,7.48828595733138e-01
4.51240000000000e-08,7.50000000000000e-01,5.69999999999994e-01,7.48210128232923e-01
4.51560000000000e-08,7.50000000000000e-01,3.30000000000020e-01,7.47741214591106e-01
4.52000000000000e-08,7.50000000000000e-01,4.29656310529936e-14,7.47557590544599e-01
4.52064000000000e-08,7.50000000000000e-01,0.00000000000000e+00,7.47558645229927e-01
4.52192000000000e-08,7.50000000000000e-01,0.00000000000000e+00,7.47565395819240e-01
4.52448000000000e-08,7.50000000000000e-01,0.00000000000000e+00,7.47767883223519e-01
4.52960000000000e-08,7.50000000000000e-01,0.00000000000000e+00,7.48417303867462e-01
4.53984000000000e-08,7.50000000000000e-01,0.00000000000000e+00,7.49185707885700e-01
4.55623495849206e-08,7.50000000000000e-01,0.00000000000000e+00,7.49724074304230e-01
4.57974351338285e-08,7.50000000000000e-01,0.00000000000000e+00,7.50023309776216e-01
4.62676062316441e-08,7.50000000000000e-01,0.00000000000000e+00,7.49977275651133e-01
4.71490167771682e-08,7.50000000000000e-01,0.00000000000000e+00,7.50021785721036e-01
4.89118378682165e-08,7.50000000000000e-01,0.00000000000000e+00,7.49978770965757e-01
5.24374800503132e-08,7.50000000000000e-01,0.00000000000000e+00,7.50020979983427e-01
5.51000000000000e-08,7.50000000000000e-01,0.00000000000000e+00,7.49979381889503e-01
5.51100000000000e-08,6.75000000000027e-01,0.00000000000000e+00,7.49900878215452e-01
5.51300000000000e-08,5.25000000000005e-01,0.00000000000000e+00,7.49876102198825e-01
5.51700000000000e-08,2.25000000000013e-01,0.00000000000000e+00,7.51872566966492e-01
5.52000000000000e-08,0.00000000000000e+00,0.00000000000000e+00,7.55844474971107e-01
5.52080000000000e-08,0.00000000000000e+00,0.00000000000000e+00,7.56797294909750e-01
5.52240000000000e-08,0.00000000000000e+00,0.00000000000000e+00,7.57935599643761e-01
5.52560000000000e-08,0.00000000000000e+00,0.00000000000000e+00,7.55295327727150e-01
5.53200000000000e-08,0.00000000000000e+00,0.00000000000000e+00,7.48750789592759e-01
5.54480000000000e-08,0.00000000000000e+00,0.00000000000000e+00,7.49447596740690e-01
5.56188092987012e-08,0.00000000000000e+00,0.00000000000000e+00,7.49569047906448e-01
5.59457765418426e-08,0.00000000000000e+00,0.00000000000000e+00,7.49705883997166e-01
5.63676230666791e-08,0.00000000000000e+00,0.00000000000000e+00,7.49873998557085e-01
5.72113161163520e-08,0.00000000000000e+00,0.00000000000000e+00,7.49820666188019e-01
5.88987022156979e-08,0.00000000000000e+00,0.00000000000000e+00,7.49981602234029e-01
6.22734744143898e-08,0.00000000000000e+00,0.00000000000000e+00,7.49864507471711e-01
6.50000000000000e-08,0.00000000000000e+00,0.00000000000000e+00,7.50000584568475e-01
6.50100000000000e-08,7.49999999999858e-02,0.00000000000000e+00,7.50028960929412e-01
6.50300000000000e-08,2.24999999999957e-01,0.00000000000000e+00,7.50016462530065e-01
6.50700000000000e-08,5.24999999999900e-01,0.00000000000000e+00,7.49926319156051e-01
6.51000000000000e-08,7.49999999999957e-01,0.00000000000000e+00,7.49759568112338e-01
6.51080000000000e-08,7.50000000000000e-01,0.00000000000000e+00,7.49674751307899e-01
6.51240000000000e-08,7.50000000000000e-01,0.00000000000000e+00,7.49633630397100e-01
6.51560000000000e-08,7.50000000000000e-01,0.00000000000000e+00,7.49756718972715e-01
6.52200000000000e-08,7.50000000000000e-01,0.00000000000000e+00,7.51462398039031e-01
6.53480000000000e-08,7.50000000000000e-01,0.00000000000000e+00,7.44328112182685e-01
6.56040000000000e-08,7.50000000000000e-01,0.00000000000000e+00,1.60558045235095e-01
6.58452542453314e-08,7.50000000000000e-01,0.00000000000000e+00,-5.56169408417489e-02
6.63277627359943e-08,7.50000000000000e-01,0.00000000000000e+00,4.24467934855120e-02
6.68785638464863e-08,7.50000000000000e-01,0.00000000000000e+00,-3.02526087016049e-02
6.78121658556482e-08,7.50000000000000e-01,0.00000000000000e+00,2.68436439013714e-02
6.96709158937009e-08,7.50000000000000e-01,0.00000000000000e+00,-2.38976115428452e-02
7.26178507877627e-08,7.50000000000000e-01,0.00000000000000e+00,2.35733120312474e-02
7.51000000000000e-08,7.50000000000000e-01,0.00000000000000e+00,-2.15042274301469e-02
7.51100000000000e-08,6.75000000000076e-01,0.00000000000000e+00,-1.54049157495899e-02
7.51300000000000e-08,5.25000000000105e-01,0.00000000000000e+00,-8.16669518335889e-03
7.51700000000000e-08,2.25000000000162e-01,0.00000000000000e+00,-3.11425899021817e-03
7.52000000000000e-08,1.05027098129540e-13,0.00000000000000e+00,-7.34251975141126e-04
7.52080000000000e-08,0.00000000000000e+00,0.00000000000000e+00,-5.91194498414160e-04
7.52240000000000e-08,0.00000000000000e+00,0.00000000000000e+00,-8.29437069342839e-04
7.52560000000000e-08,0.00000000000000e+00,0.00000000000000e+00,-2.41369183549867e-03
7.53200000000000e-08,0.00000000000000e+00,0.00000000000000e+00,-2.04888704335442e-03
7.54480000000000e-08,0.00000000000000e+00,0.00000000000000e+00,4.54382994113323e-04
7.56290555763949e-08,0.00000000000000e+00,0.00000000000000e+00,-1.29780863417972e-04
7.59354836030081e-08,0.00000000000000e+00,0.00000000000000e+00,1.16829499932566e-04
7.65483396562343e-08,0.00000000000000e+00,0.00000000000000e+00,-6.74208071089442e-05
7.77740517626867e-08,0.00000000000000e+00,0.00000000000000e+00,9.62880092667479e-05
8.02254759755915e-08,0.00000000000000e+00,0.00000000000000e+00,-5.86953660587190e-05
8.40254759755915e-08,0.00000000000000e+00,0.00000000000000e+00,9.19220765449114e-05
8.50000000000000e-08,0.00000000000000e+00,0.00000000000000e+00,-5.12359421611115e-05
8.50100000000000e-08,7.49999999999858e-02,0.00000000000000e+00,1.41873864409212e-04
8.50300000000000e-08,2.24999999999957e-01,0.00000000000000e+00,2.86247735333492e-04
8.50700000000000e-08,5.24999999999900e-01,0.00000000000000e+00,1.37685311091040e-04
8.51000000000000e-08,7.49999999999957e-01,0.00000000000000e+00,-1.48453696295278e-04
8.51080000000000e-08,7.50000000000000e-01,0.00000000000000e+00,-2.95786429497624e-04
8.51240000000000e-08,7.50000000000000e-01,0.00000000000000e+00,-4.40337371817645e-04
8.51560000000000e-08,7.50000000000000e-01,0.00000000000000e+00,-3.36496665517327e-04
8.52200000000000e-08,7.50000000000000e-01,0.00000000000000e+00,-6.54506020630607e-05
8.53480000000000e-08,7.50000000000000e-01,0.00000000000000e+00,1.33204143841610e-04
8.56040000000000e-08,7.50000000000000e-01,0.00000000000000e+00,3.91575886421539e-05
8.61159999999999e-08,7.50000000000000e-01,0.00000000000000e+00,1.68026781645625e-05
8.68955403249625e-08,7.50000000000000e-01,0.00000000000000e+00,3.31082693186685e-05
8.80477403657821e-08,7.50000000000000e-01,0.00000000000000e+00,1.23401722247176e-05
9.00000000000000e-08,7.50000000000000e-01,0.00000000000000e+00,2.90243356398153e-05
9.00100000000000e-08,7.50000000000000e-01,7.49999999999858e-02,2.48172312543732e-05
9.00300000000000e-08,7.50000000000000e-01,2.24999999999957e-01,1.96984557538915e-05
9.00700000000000e-08,7.50000000000000e-01,5.24999999999900e-01,1.55293617624674e-05
9.01000000000000e-08,7.50000000000000e-01,7.49999999999957e-01,1.61031066291117e-05
9.01080000000000e-08,7.50000000000000e-01,7.50000000000000e-01,1.55336997721411e-05
9.01240000000000e-08,7.50000000000000e-01,7.50000000000000e-01,1.76192479732218e-05
9.01560000000000e-08,7.50000000000000e-01,7.50000000000000e-01,2.30070567113910e-05
9.02200000000000e-08,7.50000000000000e-01,7.50000000000000e-01,2.37371529274166e-05
9.03480000000000e-08,7.50000000000000e-01,7.50000000000000e-01,1.69073058189154e-05
9.06040000000000e-08,7.50000000000000e-01,7.50000000000000e-01,2.10452182868026e-05
9.11159999999999e-08,7.50000000000000e-01,7.50000000000000e-01,1.80652087495917e-05
9.21399999999999e-08,7.50000000000000e-01,7.50000000000000e-01,2.04056943794943e-05
9.41879999999998e-08,7.50000000000000e-01,7.50000000000000e-01,1.73373850992937e-05
9.51000000000000e-08,7.50000000000000e-01,7.50000000000000e-01,1.97649731065938e-05
9.51100000000000e-08,6.75000000000076e-01,7.50000000000000e-01,-9.85796822600693e-05
9.51300000000000e-08,5.25000000000105e-01,7.50000000000000e-01,-2.32453037481928e-04
9.51700000000000e-08,2.25000000000162e-01,7.50000000000000e-01,1.39681094642116e-04
9.52000000000000e-08,1.05027098129540e-13,7.50000000000000e-01,7.38762397963749e-04
9.52080000000000e-08,0.00000000000000e+00,7.50000000000000e-01,8.63655919487699e-04
9.52240000000000e-08,0.00000000000000e+00,7.50000000000000e-01,7.47918780013984e-04
9.52560000000000e-08,0.00000000000000e+00,7.50000000000000e-01,-3.28895027377013e-04
9.53200000000000e-08,0.00000000000000e+00,7.50000000000000e-01,-6.86882703277630e-04
9.54480000000000e-08,0.00000000000000e+00,7.50000000000000e-01,2.07040341156553e-04
9.56294127837021e-08,0.00000000000000e+00,7.50000000000000e-01,-3.12021935394646e-04
9.59198604683604e-08,0.00000000000000e+00,7.50000000000000e-01,4.15311362859584e-04
9.63954339477590e-08,0.00000000000000e+00,7.50000000000000e-01,-3.09268878500964e-04
9.68907271532219e-08,0.00000000000000e+00,7.50000000000000e-01,2.82884359523373e-04
9.78813135641478e-08,0.00000000000000e+00,7.50000000000000e-01,-2.20362003744513e-04
9.98624863859995e-08,0.00000000000000e+00,7.50000000000000e-01,2.42193296796575e-04
1.02877421920233e-07,0.00000000000000e+00,7.50000000000000e-01,-1.99134857149871e-04
1.05000000000000e-07,0.00000000000000e+00,7.50000000000000e-01,2.22513186956233e-04
1.05010000000000e-07,7.49999999999858e-02,7.50000000000000e-01,4.02465961420337e-04
1.05030000000000e-07,2.24999999999957e-01,7.50000000000000e-01,5.85349915084438e-04
1.05070000000000e-07,5.24999999999900e-01,7.50000000000000e-01,5.32157841985362e-04
1.05100000000000e-07,7.49999999999957e-01,7.50000000000000e-01,-1.24583194573240e-03
1.05108000000000e-07,7.50000000000000e-01,7.50000000000000e-01,-2.29036613972505e-03
1.05124000000000e-07,7.50000000000000e-01,7.50000000000000e-01,-4.20217188137514e-03
1.05156000000000e-07,7.50000000000000e-01,7.50000000000000e-01,-6.46178644844242e-03
1.05220000000000e-07,7.50000000000000e-01,7.50000000000000e-01,1.36338771063214e-02
1.05348000000000e-07,7.50000000000000e-01,7.50000000000000e-01,4.48691309846064e-01
1.05604000000000e-07,7.50000000000000e-01,7.50000000000000e-01,7.70009448580392e-01
1.05881295869326e-07,7.50000000000000e-01,7.50000000000000e-01,7.34217383317207e-01
1.06435887607977e-07,7.50000000000000e-01,7.50000000000000e-01,7.65073058144572e-01
1.07057074112112e-07,7.50000000000000e-01,7.50000000000000e-01,7.35359314771336e-01
1.08142161393380e-07,7.50000000000000e-01,7.50000000000000e-01,7.64034519622318e-01
1.10312335955914e-07,7.50000000000000e-01,7.50000000000000e-01,7.35884340299017e-01
1.14112335955914e-07,7.50000000000000e-01,7.50000000000000e-01,7.63765139148675e-01
1.15100000000000e-07,7.50000000000000e-01,7.50000000000000e-01,7.36350843470443e-01
1.15110000000000e-07,6.75000000000076e-01,7.50000000000000e-01,7.44155406023743e-01
1.15130000000000e-07,5.25000000000105e-01,7.50000000000000e-01,7.50805425365195e-01
1.15170000000000e-07,2.25000000000162e-01,7.50000000000000e-01,7.51343456924551e-01
1.15200000000000e-07,1.05027098129540e-13,7.50000000000000e-01,7.54912457618094e-01
1.15208000000000e-07,0.00000000000000e+00,7.50000000000000e-01,7.54121220451208e-01
1.15224000000000e-07,0.00000000000000e+00,7.50000000000000e-01,7.48967081302115e-01
1.15256000000000e-07,0.00000000000000e+00,7.50000000000000e-01,7.34591102644015e-01
1.15320000000000e-07,0.00000000000000e+00,7.50000000000000e-01,7.37553732790294e-01
1.15448000000000e-07,0.00000000000000e+00,7.50000000000000e-01,7.52325874416770e-01
1.15635091939556e-07,0.00000000000000e+00,7.50000000000000e-01,7.47175047487410e-01
1.15940856491374e-07,0.00000000000000e+00,7.50000000000000e-01,7.51657944967562e-01
1.16552385595009e-07,0.00000000000000e+00,7.50000000000000e-01,7.48057097310449e-01
1.17775443802280e-07,0.00000000000000e+00,7.50000000000000e-01,7.51593713747712e-01
1.20221560216821e-07,0.00000000000000e+00,7.50000000000000e-01,7.48264595689280e-01
1.24021560216821e-07,0.00000000000000e+00,7.50000000000000e-01,7.51566009329290e-01
1.25000000000000e-07,0.00000000000000e+00,7.50000000000000e-01,7.48381247918718e-01
1.25010000000000e-07,7.49999999998865e-02,7.50000000000000e-01,7.49161498453046e-01
1.25030000000000e-07,2.24999999999858e-01,7.50000000000000e-01,7.49990788204479e-01
1.25070000000000e-07,5.24999999999801e-01,7.50000000000000e-01,7.50051484834874e-01
1.25100000000000e-07,7.49999999999858e-01,7.50000000000000e-01,7.49238575476777e-01
1.25108000000000e-07,7.50000000000000e-01,6.89999999999932e-01,7.48828595733427e-01
1.25124000000000e-07,7.50000000000000e-01,5.69999999999994e-01,7.48210128233072e-01
1.25156000000000e-07,7.50000000000000e-01,3.29999999999921e-01,7.47741214592343e-01
1.25200000000000e-07,7.50000000000000e-01,0.00000000000000e+00,7.47557590545856e-01
1.25206400000000e-07,7.50000000000000e-01,0.00000000000000e+00,7.47558645230213e-01
1.25219200000000e-07,7.50000000000000e-01,0.00000000000000e+00,7.47565395820184e-01
1.25244800000000e-07,7.50000000000000e-01,0.00000000000000e+00,7.47767883221404e-01
1.25296000000000e-07,7.50000000000000e-01,0.00000000000000e+00,7.48417303864797e-01
1.25398400000000e-07,7.50000000000000e-01,0.00000000000000e+00,7.49185707885886e-01
1.25562349584937e-07,7.50000000000000e-01,0.00000000000000e+00,7.49724074303583e-01
1.25797435133865e-07,7.50000000000000e-01,0.00000000000000e+00,7.50023309776861e-01
1.26267606231722e-07,7.50000000000000e-01,0.00000000000000e+00,7.49977275650596e-01
1.27149016777119e-07,7.50000000000000e-01,0.00000000000000e+00,7.50021785721528e-01
1.28911837867913e-07,7.50000000000000e-01,0.00000000000000e+00,7.49978770965288e-01
1.32437480049501e-07,7.50000000000000e-01,0.00000000000000e+00,7.50020979983889e-01
1.35100000000000e-07,7.49999999999864e-01,0.00000000000000e+00,7.49979381889087e-01
1.35110000000000e-07,6.74999999999778e-01,0.00000000000000e+00,7.49900878215305e-01
1.35130000000000e-07,5.24999999999807e-01,0.00000000000000e+00,7.49876102198892e-01
1.35170000000000e-07,2.24999999999864e-01,0.00000000000000e+00,7.51872566957022e-01
1.35200000000000e-07,0.00000000000000e+00,0.00000000000000e+00,7.55844474961681e-01
1.35208000000000e-07,0.00000000000000e+00,0.00000000000000e+00,7.56797294875701e-01
