Time,v(clk),v(data),v(out)
1.00000000000000e-08,7.50000000000000e-01,0.00000000000000e+00,2.91687284980479e-05
1.00100000000000e-08,7.50000000000000e-01,7.49999999999982e-02,2.49437255617074e-05
1.00300000000000e-08,7.50000000000000e-01,2.24999999999995e-01,1.97761739055002e-05
1.00700000000000e-08,7.50000000000000e-01,5.24999999999987e-01,1.55400673842870e-05
1.01000000000000e-08,7.50000000000000e-01,7.49999999999994e-01,1.60754862548879e-05
1.01080000000000e-08,7.50000000000000e-01,7.50000000000000e-01,1.55067987192836e-05
1.01240000000000e-08,7.50000000000000e-01,7.50000000000000e-01,1.76208987356652e-05
1.01560000000000e-08,7.50000000000000e-01,7.50000000000000e-01,2.30109460025579e-05
1.02200000000000e-08,7.50000000000000e-01,7.50000000000000e-01,2.37773591840185e-05
1.03480000000000e-08,7.50000000000000e-01,7.50000000000000e-01,1.68788435022660e-05
1.06040000000000e-08,7.50000000000000e-01,7.50000000000000e-01,2.10518091301563e-05
1.11160000000000e-08,7.50000000000000e-01,7.50000000000000e-01,1.80622240907001e-05
1.21400000000000e-08,7.50000000000000e-01,7.50000000000000e-01,2.09551720570331e-05
1.41880000000000e-08,7.50000000000000e-01,7.50000000000000e-01,1.74864293298717e-05
1.51000000000000e-08,7.50000000000000e-01,7.50000000000000e-01,1.96327469569029e-05
1.51100000000000e-08,6.74999999999989e-01,7.50000000000000e-01,-1.01377872959704e-04
1.51300000000000e-08,5.24999999999993e-01,7.50000000000000e-01,-2.33989882549135e-04
1.51700000000000e-08,2.25000000000000e-01,7.50000000000000e-01,1.39042718511520e-04
1.52000000000000e-08,0.00000000000000e+00,7.50000000000000e-01,7.38499470275711e-04
1.52080000000000e-08,0.00000000000000e+00,7.50000000000000e-01,8.63425784657146e-04
1.52240000000000e-08,0.00000000000000e+00,7.50000000000000e-01,7.47756903924160e-04
1.52560000000000e-08,0.00000000000000e+00,7.50000000000000e-01,-3.28962951367140e-04
1.53200000000000e-08,0.00000000000000e+00,7.50000000000000e-01,-6.86887881432133e-04
1.54480000000000e-08,0.00000000000000e+00,7.50000000000000e-01,2.07041424369336e-04
1.56294130156263e-08,0.00000000000000e+00,7.50000000000000e-01,-3.12022284039704e-04
1.59198602225600e-08,0.00000000000000e+00,7.50000000000000e-01,4.15312340150971e-04
1.63954337561300e-08,0.00000000000000e+00,7.50000000000000e-01,-3.09271006769734e-04
1.68907268083423e-08,0.00000000000000e+00,7.50000000000000e-01,2.82886599525314e-04
1.78813129127670e-08,0.00000000000000e+00,7.50000000000000e-01,-2.20364245105202e-04
1.98624851216162e-08,0.00000000000000e+00,7.50000000000000e-01,2.42195520807498e-04
2.28774094017811e-08,0.00000000000000e+00,7.50000000000000e-01,-1.99137049496913e-04
2.50000000000000e-08,0.00000000000000e+00,7.50000000000000e-01,2.22515420519962e-04
2.50100000000000e-08,7.49999999999858e-02,7.50000000000000e-01,4.02467246106056e-04
2.50300000000000e-08,2.25000000000007e-01,7.50000000000000e-01,5.85350151983938e-04
2.50700000000000e-08,5.25000000000000e-01,7.50000000000000e-01,5.32157775064171e-04
2.51000000000000e-08,7.50000000000000e-01,7.50000000000000e-01,-1.24583202419919e-03
2.51080000000000e-08,7.50000000000000e-01,7.50000000000000e-01,-2.29036618474671e-03
2.51240000000000e-08,7.50000000000000e-01,7.50000000000000e-01,-4.20217189923228e-03
2.51560000000000e-08,7.50000000000000e-01,7.50000000000000e-01,-6.46178651031414e-03
2.52200000000000e-08,7.50000000000000e-01,7.50000000000000e-01,1.36338754308221e-02
2.53480000000000e-08,7.50000000000000e-01,7.50000000000000e-01,4.48691302457748e-01
2.56040000000000e-08,7.50000000000000e-01,7.50000000000000e-01,7.70009448031835e-01
2.58812958717515e-08,7.50000000000000e-01,7.50000000000000e-01,7.34217383822603e-01
2.64358876152546e-08,7.50000000000000e-01,7.50000000000000e-01,7.65073057704171e-01
2.70570741183964e-08,7.50000000000000e-01,7.50000000000000e-01,7.35359315217847e-01
2.81421614007470e-08,7.50000000000000e-01,7.50000000000000e-01,7.64034519210778e-01
3.01000000000000e-08,7.50000000000000e-01,7.50000000000000e-01,7.35899256765259e-01
3.01100000000000e-08,7.50000000000000e-01,6.75000000000039e-01,7.44047819775774e-01
3.01300000000000e-08,7.50000000000000e-01,5.25000000000018e-01,7.50958838233958e-01
3.01700000000000e-08,7.50000000000000e-01,2.25000000000025e-01,7.49535884196136e-01
3.02000000000000e-08,7.50000000000000e-01,1.80966353013901e-14,7.50191394806443e-01
3.02080000000000e-08,7.50000000000000e-01,0.00000000000000e+00,7.50081172100866e-01
3.02240000000000e-08,7.50000000000000e-01,0.00000000000000e+00,7.49969742070402e-01
3.02560000000000e-08,7.50000000000000e-01,0.00000000000000e+00,7.49945346686554e-01
3.03200000000000e-08,7.50000000000000e-01,0.00000000000000e+00,7.50022870324376e-01
3.04480000000000e-08,7.50000000000000e-01,0.00000000000000e+00,7.49969579721995e-01
3.06279273089158e-08,7.50000000000000e-01,0.00000000000000e+00,7.49993049263594e-01
3.09227003037979e-08,7.50000000000000e-01,0.00000000000000e+00,7.49976069018294e-01
3.15122462935622e-08,7.50000000000000e-01,0.00000000000000e+00,7.49992649115555e-01
3.26913382730907e-08,7.50000000000000e-01,0.00000000000000e+00,7.49980258833417e-01
3.50495222321478e-08,7.50000000000000e-01,0.00000000000000e+00,7.49995477755250e-01
3.51000000000000e-08,7.49999999999963e-01,0.00000000000000e+00,7.49989059256322e-01
3.51100000000000e-08,6.74999999999977e-01,0.00000000000000e+00,7.49894566913289e-01
3.51300000000000e-08,5.24999999999956e-01,0.00000000000000e+00,7.49867627993326e-01
3.51700000000000e-08,2.24999999999963e-01,0.00000000000000e+00,7.51831468494102e-01
3.52000000000000e-08,0.00000000000000e+00,0.00000000000000e+00,7.54653337736572e-01
3.52080000000000e-08,0.00000000000000e+00,0.00000000000000e+00,7.53975007475686e-01
3.52240000000000e-08,0.00000000000000e+00,0.00000000000000e+00,7.48974446740884e-01
3.52560000000000e-08,0.00000000000000e+00,0.00000000000000e+00,7.34674549261791e-01
3.53200000000000e-08,0.00000000000000e+00,0.00000000000000e+00,7.37662191969391e-01
3.54480000000000e-08,0.00000000000000e+00,0.00000000000000e+00,7.52388439244258e-01
3.56189568719920e-08,0.00000000000000e+00,0.00000000000000e+00,7.47063722661093e-01
3.59419294270310e-08,0.00000000000000e+00,0.00000000000000e+00,7.51722701527356e-01
3.63649256959483e-08,0.00000000000000e+00,0.00000000000000e+00,7.48040287994771e-01
3.72109182337828e-08,0.00000000000000e+00,0.00000000000000e+00,7.51530479815283e-01
3.89029033094520e-08,0.00000000000000e+00,0.00000000000000e+00,7.48314139240330e-01
3.91000000000000e-08,0.00000000000000e+00,0.00000000000000e+00,7.51128037691150e-01
3.94383970151338e-08,0.00000000000000e+00,0.00000000000000e+00,7.49964671877552e-01
4.01151910454015e-08,0.00000000000000e+00,0.00000000000000e+00,7.49882395128898e-01
4.14687791059368e-08,0.00000000000000e+00,0.00000000000000e+00,7.49967905532998e-01
4.41759552270074e-08,0.00000000000000e+00,0.00000000000000e+00,7.49892751857328e-01
4.50000000000000e-08,0.00000000000000e+00,0.00000000000000e+00,7.49968649909306e-01
4.50100000000000e-08,7.49999999999858e-02,0.00000000000000e+00,7.50043546399874e-01
4.50300000000000e-08,2.25000000000007e-01,0.00000000000000e+00,7.50048094933518e-01
4.50700000000000e-08,5.25000000000000e-01,0.00000000000000e+00,7.49916278609280e-01
4.51000000000000e-08,7.50000000000000e-01,0.00000000000000e+00,7.49760382983174e-01
4.51080000000000e-08,7.50000000000000e-01,0.00000000000000e+00,7.49676051807671e-01
4.51240000000000e-08,7.50000000000000e-01,0.00000000000000e+00,7.49636216373555e-01
4.51560000000000e-08,7.50000000000000e-01,0.00000000000000e+00,7.49757563559789e-01
4.52200000000000e-08,7.50000000000000e-01,0.00000000000000e+00,7.51460902281261e-01
4.53480000000000e-08,7.50000000000000e-01,0.00000000000000e+00,7.44354321751868e-01
4.56040000000000e-08,7.50000000000000e-01,0.00000000000000e+00,1.60644164668118e-01
4.58452755896077e-08,7.50000000000000e-01,0.00000000000000e+00,-5.56344637319927e-02
4.63278267688230e-08,7.50000000000000e-01,0.00000000000000e+00,4.24599831591448e-02
4.68785849485556e-08,7.50000000000000e-01,0.00000000000000e+00,-3.02598682731043e-02
4.78120154910182e-08,7.50000000000000e-01,0.00000000000000e+00,2.68481855974713e-02
4.96702149895188e-08,7.50000000000000e-01,0.00000000000000e+00,-2.39009281839169e-02
5.00000000000000e-08,7.50000000000000e-01,0.00000000000000e+00,1.60926181514015e-02
5.00100000000000e-08,7.50000000000000e-01,7.49999999999858e-02,1.10884761380871e-02
5.00300000000000e-08,7.50000000000000e-01,2.24999999999957e-01,5.48590610148234e-03
5.00700000000000e-08,7.50000000000000e-01,5.25000000000000e-01,2.38312852682648e-03
5.01000000000000e-08,7.50000000000000e-01,7.50000000000000e-01,9.50871575786327e-04
5.01080000000000e-08,7.50000000000000e-01,7.50000000000000e-01,8.52781412302661e-04
5.01240000000000e-08,7.50000000000000e-01,7.50000000000000e-01,6.32605055609664e-04
5.01560000000000e-08,7.50000000000000e-01,7.50000000000000e-01,2.92550066045005e-04
5.02200000000000e-08,7.50000000000000e-01,7.50000000000000e-01,5.82698878224541e-05
5.03480000000000e-08,7.50000000000000e-01,7.50000000000000e-01,-1.34119011380024e-05
5.06040000000000e-08,7.50000000000000e-01,7.50000000000000e-01,2.53888155267515e-05
5.11160000000001e-08,7.50000000000000e-01,7.50000000000000e-01,8.66358352599739e-07
5.21400000000002e-08,7.50000000000000e-01,7.50000000000000e-01,2.14225068931283e-05
5.41880000000003e-08,7.50000000000000e-01,7.50000000000000e-01,3.41189216807557e-06
5.51000000000000e-08,7.50000000000000e-01,7.50000000000000e-01,2.04887780816537e-05
5.51100000000000e-08,6.75000000000027e-01,7.50000000000000e-01,-1.00122410591735e-04
5.51300000000000e-08,5.25000000000005e-01,7.50000000000000e-01,-2.32490250994311e-04
5.51700000000000e-08,2.25000000000013e-01,7.50000000000000e-01,1.37460837518075e-04
5.52000000000000e-08,0.00000000000000e+00,7.50000000000000e-01,5.84907311607402e-04
5.52080000000000e-08,0.00000000000000e+00,7.50000000000000e-01,5.69502858169063e-04
5.52240000000000e-08,0.00000000000000e+00,7.50000000000000e-01,1.54621714100606e-05
5.52560000000000e-08,0.00000000000000e+00,7.50000000000000e-01,-2.02289824367098e-03
5.53200000000000e-08,0.00000000000000e+00,7.50000000000000e-01,-1.98840698446560e-03
5.54480000000000e-08,0.00000000000000e+00,7.50000000000000e-01,4.35842716179184e-04
5.56288281807512e-08,0.00000000000000e+00,7.50000000000000e-01,-4.03479914619753e-04
5.59198757106059e-08,0.00000000000000e+00,7.50000000000000e-01,4.76556671552004e-04
5.63950714958111e-08,0.00000000000000e+00,7.50000000000000e-01,-3.60514830068666e-04
5.68903025632821e-08,0.00000000000000e+00,7.50000000000000e-01,3.28683432776720e-04
5.78807646982241e-08,0.00000000000000e+00,7.50000000000000e-01,-2.64384207916194e-04
5.98616889681080e-08,0.00000000000000e+00,7.50000000000000e-01,2.85294614687510e-04
6.28917154628428e-08,0.00000000000000e+00,7.50000000000000e-01,-2.42004039754926e-04
6.50000000000000e-08,0.00000000000000e+00,7.50000000000000e-01,2.64689918582795e-04
6.50100000000000e-08,7.49999999999858e-02,7.50000000000000e-01,4.12193812466363e-04
6.50300000000000e-08,2.24999999999957e-01,7.50000000000000e-01,5.79192927598934e-04
6.50700000000000e-08,5.24999999999900e-01,7.50000000000000e-01,5.39167497103296e-04
6.51000000000000e-08,7.49999999999957e-01,7.50000000000000e-01,-1.24692887048565e-03
6.51080000000000e-08,7.50000000000000e-01,7.50000000000000e-01,-2.28985214799922e-03
6.51240000000000e-08,7.50000000000000e-01,7.50000000000000e-01,-4.20092003838468e-03
6.51560000000000e-08,7.50000000000000e-01,7.50000000000000e-01,-6.46149296108332e-03
6.52200000000000e-08,7.50000000000000e-01,7.50000000000000e-01,1.36351370703641e-02
6.53480000000000e-08,7.50000000000000e-01,7.50000000000000e-01,4.48695210433620e-01
6.56040000000000e-08,7.50000000000000e-01,7.50000000000000e-01,7.70009821980232e-01
6.58812943577087e-08,7.50000000000000e-01,7.50000000000000e-01,7.34217056107494e-01
6.64358830731263e-08,7.50000000000000e-01,7.50000000000000e-01,7.65073359191483e-01
6.70570692884858e-08,7.50000000000000e-01,7.50000000000000e-01,7.35359015517665e-01
6.81421366733473e-08,7.50000000000000e-01,7.50000000000000e-01,7.64034810251844e-01
7.01000000000000e-08,7.50000000000000e-01,7.50000000000000e-01,7.35898971735498e-01
7.01100000000000e-08,7.50000000000000e-01,6.75000000000014e-01,7.44047715782446e-01
7.01300000000000e-08,7.50000000000000e-01,5.25000000000043e-01,7.50958873583256e-01
7.01700000000000e-08,7.50000000000000e-01,2.25000000000100e-01,7.49535865142450e-01
7.02000000000000e-08,7.50000000000000e-01,4.29656310529936e-14,7.50191398702065e-01
7.02080000000000e-08,7.50000000000000e-01,0.00000000000000e+00,7.50081175888549e-01
7.02240000000000e-08,7.50000000000000e-01,0.00000000000000e+00,7.49969743492079e-01
7.02560000000000e-08,7.50000000000000e-01,0.00000000000000e+00,7.49945346197556e-01
7.03200000000000e-08,7.50000000000000e-01,0.00000000000000e+00,7.50022870360082e-01
7.04480000000000e-08,7.50000000000000e-01,0.00000000000000e+00,7.49969578306527e-01
7.06279273325345e-08,7.50000000000000e-01,0.00000000000000e+00,7.49993050278436e-01
7.09227002744569e-08,7.50000000000000e-01,0.00000000000000e+00,7.49976067995163e-01
7.15122461583017e-08,7.50000000000000e-01,0.00000000000000e+00,7.49992650027153e-01
7.26913379259912e-08,7.50000000000000e-01,0.00000000000000e+00,7.49980257887447e-01
7.50495214613703e-08,7.50000000000000e-01,0.00000000000000e+00,7.49995478652289e-01
7.51000000000000e-08,7.50000000000000e-01,0.00000000000000e+00,7.49989058560936e-01
7.51100000000000e-08,6.75000000000076e-01,0.00000000000000e+00,7.49894566576289e-01
7.51300000000000e-08,5.25000000000105e-01,0.00000000000000e+00,7.49867627886930e-01
7.51700000000000e-08,2.25000000000162e-01,0.00000000000000e+00,7.51831468425799e-01
7.52000000000000e-08,1.05027098129540e-13,0.00000000000000e+00,7.54653336742217e-01
7.52080000000000e-08,0.00000000000000e+00,0.00000000000000e+00,7.53975005550931e-01
7.52240000000000e-08,0.00000000000000e+00,0.00000000000000e+00,7.48974443599358e-01
7.52560000000000e-08,0.00000000000000e+00,0.00000000000000e+00,7.34674546640115e-01
7.53200000000000e-08,0.00000000000000e+00,0.00000000000000e+00,7.37662192779767e-01
7.54480000000000e-08,0.00000000000000e+00,0.00000000000000e+00,7.52388438965638e-01
7.56189568719446e-08,0.00000000000000e+00,0.00000000000000e+00,7.47063722881510e-01
7.59419294264865e-08,0.00000000000000e+00,0.00000000000000e+00,7.51722701337790e-01
7.63649256956187e-08,0.00000000000000e+00,0.00000000000000e+00,7.48040288165080e-01
7.72109182338832e-08,0.00000000000000e+00,0.00000000000000e+00,7.51530479654992e-01
7.81000000000000e-08,0.00000000000000e+00,0.00000000000000e+00,7.48346664104678e-01
7.82691985076529e-08,0.00000000000000e+00,0.00000000000000e+00,7.49787360810297e-01
7.86075955229587e-08,0.00000000000000e+00,0.00000000000000e+00,7.50011681600448e-01
7.92843895535703e-08,0.00000000000000e+00,0.00000000000000e+00,7.49824810459588e-01
8.06379776147934e-08,0.00000000000000e+00,0.00000000000000e+00,7.50014792093195e-01
8.33451537372397e-08,0.00000000000000e+00,0.00000000000000e+00,7.49843471204837e-01
8.50000000000000e-08,0.00000000000000e+00,0.00000000000000e+00,7.50016956810954e-01
8.50100000000000e-08,7.49999999999858e-02,0.00000000000000e+00,7.50074462137743e-01
8.50300000000000e-08,2.24999999999957e-01,0.00000000000000e+00,7.50055119207151e-01
8.50700000000000e-08,5.24999999999900e-01,0.00000000000000e+00,7.49915658985264e-01
8.51000000000000e-08,7.49999999999957e-01,0.00000000000000e+00,7.49760366718348e-01
8.51080000000000e-08,7.50000000000000e-01,0.00000000000000e+00,7.49675135020781e-01
8.51240000000000e-08,7.50000000000000e-01,0.00000000000000e+00,7.49633728303986e-01
8.51560000000000e-08,7.50000000000000e-01,0.00000000000000e+00,7.49756429597771e-01
8.52200000000000e-08,7.50000000000000e-01,0.00000000000000e+00,7.51460338682383e-01
8.53480000000000e-08,7.50000000000000e-01,0.00000000000000e+00,7.44342062126494e-01
8.56040000000000e-08,7.50000000000000e-01,0.00000000000000e+00,1.60629897122481e-01
8.58452715342492e-08,7.50000000000000e-01,0.00000000000000e+00,-5.56308540680004e-02
8.63278146027476e-08,7.50000000000000e-01,0.00000000000000e+00,4.24568488785367e-02
8.68785800581706e-08,7.50000000000000e-01,0.00000000000000e+00,-3.02579073109813e-02
8.78120251070613e-08,7.50000000000000e-01,0.00000000000000e+00,2.68464744861189e-02
8.96702856533882e-08,7.50000000000000e-01,0.00000000000000e+00,-2.38995471093446e-02
9.00000000000000e-08,7.50000000000000e-01,0.00000000000000e+00,1.60902684727040e-02
9.00100000000000e-08,7.50000000000000e-01,7.49999999999858e-02,1.10866446399182e-02
9.00300000000000e-08,7.50000000000000e-01,2.24999999999957e-01,5.48480798727782e-03
9.00700000000000e-08,7.50000000000000e-01,5.24999999999900e-01,2.38270246744884e-03
9.01000000000000e-08,7.50000000000000e-01,7.49999999999957e-01,9.50675249635574e-04
9.01080000000000e-08,7.50000000000000e-01,7.50000000000000e-01,8.52612878652986e-04
9.01240000000000e-08,7.50000000000000e-01,7.50000000000000e-01,6.32486203536606e-04
9.01560000000000e-08,7.50000000000000e-01,7.50000000000000e-01,2.92496473586881e-04
9.02200000000000e-08,7.50000000000000e-01,7.50000000000000e-01,5.82617756609838e-05
9.03480000000000e-08,7.50000000000000e-01,7.50000000000000e-01,-1.34080690881444e-05
9.06040000000000e-08,7.50000000000000e-01,7.50000000000000e-01,2.53870465491864e-05
9.11159999999999e-08,7.50000000000000e-01,7.50000000000000e-01,8.67965742393922e-07
9.21399999999999e-08,7.50000000000000e-01,7.50000000000000e-01,2.14214058037992e-05
9.41879999999998e-08,7.50000000000000e-01,7.50000000000000e-01,3.41318153770313e-06
9.51000000000000e-08,7.50000000000000e-01,7.50000000000000e-01,2.04878957656193e-05
9.51100000000000e-08,6.75000000000076e-01,7.50000000000000e-01,-1.00123013836370e-04
9.51300000000000e-08,5.25000000000105e-01,7.50000000000000e-01,-2.32490527912119e-04
9.51700000000000e-08,2.25000000000162e-01,7.50000000000000e-01,1.37460883850249e-04
9.52000000000000e-08,1.05027098129540e-13,7.50000000000000e-01,5.84909779947740e-04
9.52080000000000e-08,0.00000000000000e+00,7.50000000000000e-01,5.69506779045742e-04
9.52240000000000e-08,0.00000000000000e+00,7.50000000000000e-01,1.54689720175266e-05
9.52560000000000e-08,0.00000000000000e+00,7.50000000000000e-01,-2.02288044022193e-03
9.53200000000000e-08,0.00000000000000e+00,7.50000000000000e-01,-1.98838968895812e-03
9.54480000000000e-08,0.00000000000000e+00,7.50000000000000e-01,4.35842609438679e-04
9.56288281929322e-08,0.00000000000000e+00,7.50000000000000e-01,-4.03480875588717e-04
9.59198757128997e-08,0.00000000000000e+00,7.50000000000000e-01,4.76557507596655e-04
9.63950715076497e-08,0.00000000000000e+00,7.50000000000000e-01,-3.60515543538095e-04
9.68903025789220e-08,0.00000000000000e+00,7.50000000000000e-01,3.28684000168049e-04
9.78807647214666e-08,0.00000000000000e+00,7.50000000000000e-01,-2.64384701899675e-04
9.98616890065557e-08,0.00000000000000e+00,7.50000000000000e-01,2.85295072331829e-04
1.02891715294853e-07,0.00000000000000e+00,7.50000000000000e-01,-2.42004474034097e-04
1.05000000000000e-07,0.00000000000000e+00,7.50000000000000e-01,2.64690320641517e-04
1.05010000000000e-07,7.49999999999858e-02,7.50000000000000e-01,4.12194335352334e-04
1.05030000000000e-07,2.24999999999957e-01,7.50000000000000e-01,5.79193259808763e-04
1.05070000000000e-07,5.24999999999900e-01,7.50000000000000e-01,5.39167417052205e-04
1.05100000000000e-07,7.49999999999957e-01,7.50000000000000e-01,-1.24692886124583e-03
1.05108000000000e-07,7.50000000000000e-01,7.50000000000000e-01,-2.28985215965290e-03
1.05124000000000e-07,7.50000000000000e-01,7.50000000000000e-01,-4.20092005927952e-03
1.05156000000000e-07,7.50000000000000e-01,7.50000000000000e-01,-6.46149296789048e-03
1.05220000000000e-07,7.50000000000000e-01,7.50000000000000e-01,1.36351370497144e-02
1.05348000000000e-07,7.50000000000000e-01,7.50000000000000e-01,4.48695211771216e-01
1.05604000000000e-07,7.50000000000000e-01,7.50000000000000e-01,7.70009822061776e-01
1.05881294356983e-07,7.50000000000000e-01,7.50000000000000e-01,7.34217056046233e-01
