Time,v(clk),v(data),v(out),v(reset)
1.00000000000000e-08,7.50000000000000e-01,0.00000000000000e+00,8.17996708513802e-03,0.00000000000000e+00
1.00100000000000e-08,7.50000000000000e-01,7.49999999999982e-02,6.30520759741272e-03,0.00000000000000e+00
1.00300000000000e-08,7.50000000000000e-01,2.24999999999995e-01,3.25701167766174e-03,0.00000000000000e+00
1.00700000000000e-08,7.50000000000000e-01,5.24999999999987e-01,7.62427198562399e-04,0.00000000000000e+00
1.01000000000000e-08,7.50000000000000e-01,7.49999999999994e-01,3.20167328768176e-04,0.00000000000000e+00
1.01080000000000e-08,7.50000000000000e-01,7.50000000000000e-01,2.49943668398325e-04,0.00000000000000e+00
1.01240000000000e-08,7.50000000000000e-01,7.50000000000000e-01,1.47240601425638e-04,0.00000000000000e+00
1.01560000000000e-08,7.50000000000000e-01,7.50000000000000e-01,4.90102270176707e-05,0.00000000000000e+00
1.02200000000000e-08,7.50000000000000e-01,7.50000000000000e-01,1.55076837216050e-06,0.00000000000000e+00
1.03480000000000e-08,7.50000000000000e-01,7.50000000000000e-01,6.43150299477896e-06,0.00000000000000e+00
1.06040000000000e-08,7.50000000000000e-01,7.50000000000000e-01,-2.24255610142832e-06,0.00000000000000e+00
1.11160000000000e-08,7.50000000000000e-01,7.50000000000000e-01,4.10234211318389e-06,0.00000000000000e+00
1.21400000000000e-08,7.50000000000000e-01,7.50000000000000e-01,-2.44360256423937e-06,0.00000000000000e+00
1.41880000000000e-08,7.50000000000000e-01,7.50000000000000e-01,4.60682843457863e-06,0.00000000000000e+00
1.51000000000000e-08,7.50000000000000e-01,7.50000000000000e-01,-2.11144572842548e-06,0.00000000000000e+00
1.51100000000000e-08,6.74999999999989e-01,7.50000000000000e-01,3.76662202682565e-04,7.50000000000106e-02
1.51300000000000e-08,5.24999999999993e-01,7.50000000000000e-01,6.20187964086069e-04,2.25000000000007e-01
1.51700000000000e-08,2.25000000000000e-01,7.50000000000000e-01,3.41419619070929e-04,5.25000000000000e-01
1.52000000000000e-08,0.00000000000000e+00,7.50000000000000e-01,3.30296082484971e-04,7.50000000000000e-01
1.52080000000000e-08,0.00000000000000e+00,7.50000000000000e-01,2.35921722282664e-04,7.50000000000000e-01
1.52240000000000e-08,0.00000000000000e+00,7.50000000000000e-01,4.54016565286652e-05,7.50000000000000e-01
1.52560000000000e-08,0.00000000000000e+00,7.50000000000000e-01,-5.90779702270089e-04,7.50000000000000e-01
1.53200000000000e-08,0.00000000000000e+00,7.50000000000000e-01,-1.43431579801570e-03,7.50000000000000e-01
1.54480000000000e-08,0.00000000000000e+00,7.50000000000000e-01,-7.98736715243858e-05,7.50000000000000e-01
1.56911730777628e-08,0.00000000000000e+00,7.50000000000000e-01,-1.03508275577389e-04,7.50000000000000e-01
1.60100820226813e-08,0.00000000000000e+00,7.50000000000000e-01,4.62000803586118e-05,7.50000000000000e-01
1.65622144246423e-08,0.00000000000000e+00,7.50000000000000e-01,1.41418870899045e-04,7.50000000000000e-01
1.72117846383098e-08,0.00000000000000e+00,7.50000000000000e-01,-2.29612873299236e-04,7.50000000000000e-01
1.85109250656449e-08,0.00000000000000e+00,7.50000000000000e-01,2.58981613105986e-04,7.50000000000000e-01
2.11092059203151e-08,0.00000000000000e+00,7.50000000000000e-01,-2.68681849228050e-04,7.50000000000000e-01
2.49092059203151e-08,0.00000000000000e+00,7.50000000000000e-01,2.76091665878709e-04,7.50000000000000e-01
2.50000000000000e-08,0.00000000000000e+00,7.50000000000000e-01,-2.45071977135115e-04,7.50000000000000e-01
2.50100000000000e-08,7.49999999999858e-02,7.50000000000000e-01,6.01461783560908e-05,7.50000000000000e-01
2.50300000000000e-08,2.25000000000007e-01,7.50000000000000e-01,4.58725798735460e-04,7.50000000000000e-01
2.50700000000000e-08,5.25000000000000e-01,7.50000000000000e-01,5.00691220546551e-04,7.50000000000000e-01
2.51000000000000e-08,7.50000000000000e-01,7.50000000000000e-01,-1.98330034446756e-03,7.50000000000000e-01
2.51080000000000e-08,7.50000000000000e-01,7.50000000000000e-01,-3.24459277295792e-03,7.50000000000000e-01
2.51240000000000e-08,7.50000000000000e-01,7.50000000000000e-01,-5.42095180933413e-03,7.50000000000000e-01
2.51560000000000e-08,7.50000000000000e-01,7.50000000000000e-01,-7.70695762562931e-03,7.50000000000000e-01
2.52200000000000e-08,7.50000000000000e-01,7.50000000000000e-01,1.80155536301158e-02,7.50000000000000e-01
2.53480000000000e-08,7.50000000000000e-01,7.50000000000000e-01,4.15963054489537e-01,7.50000000000000e-01
2.56040000000000e-08,7.50000000000000e-01,7.50000000000000e-01,7.72522012538988e-01,7.50000000000000e-01
2.59075808066526e-08,7.50000000000000e-01,7.50000000000000e-01,7.31738591461385e-01,7.50000000000000e-01
2.64830322710534e-08,7.50000000000000e-01,7.50000000000000e-01,7.67602975294696e-01,7.50000000000000e-01
2.71159767323833e-08,7.50000000000000e-01,7.50000000000000e-01,7.33609598201851e-01,7.50000000000000e-01
2.82481570991860e-08,7.50000000000000e-01,7.50000000000000e-01,7.65743301684669e-01,7.50000000000000e-01
3.05125178327914e-08,7.50000000000000e-01,7.50000000000000e-01,7.34489109370269e-01,7.50000000000000e-01
3.43125178327914e-08,7.50000000000000e-01,7.50000000000000e-01,7.65255188926742e-01,7.50000000000000e-01
3.51000000000000e-08,7.49999999999963e-01,7.50000000000000e-01,7.35494469965013e-01,7.50000000000000e-01
3.51100000000000e-08,6.74999999999977e-01,7.50000000000000e-01,7.41759886805363e-01,7.50000000000000e-01
3.51300000000000e-08,5.24999999999956e-01,7.50000000000000e-01,7.48805321223676e-01,7.50000000000000e-01
3.51700000000000e-08,2.24999999999963e-01,7.50000000000000e-01,7.51516756419145e-01,7.50000000000000e-01
3.52000000000000e-08,0.00000000000000e+00,7.50000000000000e-01,7.54391203787232e-01,7.50000000000000e-01
3.52080000000000e-08,0.00000000000000e+00,7.50000000000000e-01,7.55007638023823e-01,7.50000000000000e-01
3.52240000000000e-08,0.00000000000000e+00,7.50000000000000e-01,7.54783317044456e-01,7.50000000000000e-01
3.52560000000000e-08,0.00000000000000e+00,7.50000000000000e-01,7.46521443133848e-01,7.50000000000000e-01
3.53200000000000e-08,0.00000000000000e+00,7.50000000000000e-01,7.28147502368940e-01,7.50000000000000e-01
3.54480000000000e-08,0.00000000000000e+00,7.50000000000000e-01,7.38706120544987e-01,7.50000000000000e-01
3.57040000000000e-08,0.00000000000000e+00,7.50000000000000e-01,7.54102424969283e-01,7.50000000000000e-01
3.60315056209654e-08,0.00000000000000e+00,7.50000000000000e-01,7.46182479716717e-01,7.50000000000000e-01
3.66219776559915e-08,0.00000000000000e+00,7.50000000000000e-01,7.52604385201186e-01,7.50000000000000e-01
3.78029217260437e-08,0.00000000000000e+00,7.50000000000000e-01,7.47234573820630e-01,7.50000000000000e-01
4.01648098661481e-08,0.00000000000000e+00,7.50000000000000e-01,7.52396207087638e-01,7.50000000000000e-01
4.39648098661481e-08,0.00000000000000e+00,7.50000000000000e-01,7.47480840512142e-01,7.50000000000000e-01
4.50000000000000e-08,0.00000000000000e+00,7.50000000000000e-01,7.52126992831200e-01,7.50000000000000e-01
4.50100000000000e-08,7.49999999999858e-02,7.50000000000000e-01,7.51210401082966e-01,6.75000000000014e-01
4.50300000000000e-08,2.25000000000007e-01,7.50000000000000e-01,7.50001834195653e-01,5.24999999999993e-01
4.50700000000000e-08,5.25000000000000e-01,7.50000000000000e-01,7.53688229535018e-01,2.25000000000000e-01
4.51000000000000e-08,7.50000000000000e-01,7.50000000000000e-01,7.64581028759912e-01,0.00000000000000e+00
4.51080000000000e-08,7.50000000000000e-01,7.50000000000000e-01,7.68397433247838e-01,0.00000000000000e+00
4.51240000000000e-08,7.50000000000000e-01,7.50000000000000e-01,7.75594936029845e-01,0.00000000000000e+00
4.51560000000000e-08,7.50000000000000e-01,7.50000000000000e-01,7.84297498744858e-01,0.00000000000000e+00
4.52200000000000e-08,7.50000000000000e-01,7.50000000000000e-01,5.78186509869147e-01,0.00000000000000e+00
4.53480000000000e-08,7.50000000000000e-01,7.50000000000000e-01,6.11516939898898e-02,0.00000000000000e+00
4.55397425317878e-08,7.50000000000000e-01,7.50000000000000e-01,-2.53098659497098e-02,0.00000000000000e+00
4.58589049490475e-08,7.50000000000000e-01,7.50000000000000e-01,1.70665498182145e-02,0.00000000000000e+00
4.62681032326645e-08,7.50000000000000e-01,7.50000000000000e-01,-1.20114139572182e-02,0.00000000000000e+00
4.70862231018091e-08,7.50000000000000e-01,7.50000000000000e-01,1.03542439957371e-02,0.00000000000000e+00
4.85356398828075e-08,7.50000000000000e-01,7.50000000000000e-01,-9.33867323161743e-03,0.00000000000000e+00
5.01000000000000e-08,7.50000000000000e-01,7.49999999999957e-01,8.66964837980839e-03,0.00000000000000e+00
5.03898833561997e-08,7.50000000000000e-01,7.50000000000000e-01,8.80765383216844e-04,0.00000000000000e+00
5.09696500685991e-08,7.50000000000000e-01,7.50000000000000e-01,-6.99362232547461e-04,0.00000000000000e+00
5.21291834933978e-08,7.50000000000000e-01,7.50000000000000e-01,6.28009442899848e-04,0.00000000000000e+00
5.44482503429953e-08,7.50000000000000e-01,7.50000000000000e-01,-5.90660304866950e-04,0.00000000000000e+00
5.51000000000000e-08,7.50000000000000e-01,7.50000000000000e-01,4.85191773615607e-04,0.00000000000000e+00
5.51100000000000e-08,6.75000000000027e-01,7.50000000000000e-01,7.49048652008658e-04,7.49999999999734e-02
5.51300000000000e-08,5.25000000000005e-01,7.50000000000000e-01,8.18165953597919e-04,2.24999999999995e-01
5.51700000000000e-08,2.25000000000013e-01,7.50000000000000e-01,3.86257248345720e-04,5.24999999999987e-01
5.52000000000000e-08,0.00000000000000e+00,7.50000000000000e-01,3.52869062952343e-04,7.50000000000000e-01
5.52080000000000e-08,0.00000000000000e+00,7.50000000000000e-01,2.57337739688945e-04,7.50000000000000e-01
5.52240000000000e-08,0.00000000000000e+00,7.50000000000000e-01,7.69933949704565e-05,7.50000000000000e-01
5.52560000000000e-08,0.00000000000000e+00,7.50000000000000e-01,-5.12252673516136e-04,7.50000000000000e-01
5.53200000000000e-08,0.00000000000000e+00,7.50000000000000e-01,-1.23558098949746e-03,7.50000000000000e-01
5.54480000000000e-08,0.00000000000000e+00,7.50000000000000e-01,-2.65647137039915e-05,7.50000000000000e-01
5.56549215799724e-08,0.00000000000000e+00,7.50000000000000e-01,8.39445134166728e-05,7.50000000000000e-01
5.59886306314614e-08,0.00000000000000e+00,7.50000000000000e-01,-2.17278939546168e-04,7.50000000000000e-01
5.64585988522434e-08,0.00000000000000e+00,7.50000000000000e-01,2.79927074221536e-04,7.50000000000000e-01
5.71125202217303e-08,0.00000000000000e+00,7.50000000000000e-01,-2.83109687842210e-04,7.50000000000000e-01
5.84203629607040e-08,0.00000000000000e+00,7.50000000000000e-01,2.81198856162488e-04,7.50000000000000e-01
6.06763218134696e-08,0.00000000000000e+00,7.50000000000000e-01,-2.75437757414015e-04,7.50000000000000e-01
6.44763218134696e-08,0.00000000000000e+00,7.50000000000000e-01,2.74688206211689e-04,7.50000000000000e-01
6.50000000000000e-08,0.00000000000000e+00,7.50000000000000e-01,-2.46746157818327e-04,7.50000000000000e-01
6.50100000000000e-08,7.49999999999858e-02,7.50000000000000e-01,5.36880846746107e-05,7.50000000000000e-01
6.50300000000000e-08,2.24999999999957e-01,7.50000000000000e-01,4.60940344660363e-04,7.50000000000000e-01
6.50700000000000e-08,5.24999999999900e-01,7.50000000000000e-01,3.43180761521192e-04,7.50000000000000e-01
6.51000000000000e-08,7.49999999999957e-01,7.50000000000000e-01,-2.27969688967126e-03,7.50000000000000e-01
6.51080000000000e-08,7.50000000000000e-01,7.50000000000000e-01,-3.51746605175141e-03,7.50000000000000e-01
6.51240000000000e-08,7.50000000000000e-01,7.50000000000000e-01,-5.62873730931839e-03,7.50000000000000e-01
6.51560000000000e-08,7.50000000000000e-01,7.50000000000000e-01,-7.70711285865139e-03,7.50000000000000e-01
6.52200000000000e-08,7.50000000000000e-01,7.50000000000000e-01,2.12593571679772e-02,7.50000000000000e-01
6.53480000000000e-08,7.50000000000000e-01,7.50000000000000e-01,4.27211021084797e-01,7.50000000000000e-01
6.56040000000000e-08,7.50000000000000e-01,7.50000000000000e-01,7.73592996739861e-01,7.50000000000000e-01
6.59036655133733e-08,7.50000000000000e-01,7.50000000000000e-01,7.30835245814905e-01,7.50000000000000e-01
6.64867757520357e-08,7.50000000000000e-01,7.50000000000000e-01,7.68358418769431e-01,7.50000000000000e-01
6.71170190889395e-08,7.50000000000000e-01,7.50000000000000e-01,7.32874045260988e-01,7.50000000000000e-01
6.82737611159204e-08,7.50000000000000e-01,7.50000000000000e-01,7.66398583729488e-01,7.50000000000000e-01
7.05872451698821e-08,7.50000000000000e-01,7.50000000000000e-01,7.33794862998239e-01,7.50000000000000e-01
7.43872451698821e-08,7.50000000000000e-01,7.50000000000000e-01,7.65891627247163e-01,7.50000000000000e-01
7.51000000000000e-08,7.50000000000000e-01,7.50000000000000e-01,7.34950568351801e-01,7.50000000000000e-01
7.51100000000000e-08,6.75000000000076e-01,7.50000000000000e-01,7.41432990133350e-01,7.50000000000000e-01
7.51300000000000e-08,5.25000000000105e-01,7.50000000000000e-01,7.48738025284230e-01,7.50000000000000e-01
7.51700000000000e-08,2.25000000000162e-01,7.50000000000000e-01,7.51521291691969e-01,7.50000000000000e-01
7.52000000000000e-08,1.05027098129540e-13,7.50000000000000e-01,7.54383393442179e-01,7.50000000000000e-01
7.52080000000000e-08,0.00000000000000e+00,7.50000000000000e-01,7.54999854323939e-01,7.50000000000000e-01
7.52240000000000e-08,0.00000000000000e+00,7.50000000000000e-01,7.54772739487575e-01,7.50000000000000e-01
7.52560000000000e-08,0.00000000000000e+00,7.50000000000000e-01,7.46505087143057e-01,7.50000000000000e-01
7.53200000000000e-08,0.00000000000000e+00,7.50000000000000e-01,7.28136584110870e-01,7.50000000000000e-01
7.54480000000000e-08,0.00000000000000e+00,7.50000000000000e-01,7.38710189045333e-01,7.50000000000000e-01
7.57040000000000e-08,0.00000000000000e+00,7.50000000000000e-01,7.54098528432721e-01,7.50000000000000e-01
7.60315230260574e-08,0.00000000000000e+00,7.50000000000000e-01,7.46185633609551e-01,7.50000000000000e-01
7.66219299931617e-08,0.00000000000000e+00,7.50000000000000e-01,7.52601771315929e-01,7.50000000000000e-01
7.78027439273703e-08,0.00000000000000e+00,7.50000000000000e-01,7.47237051059528e-01,7.50000000000000e-01
8.01643717957877e-08,0.00000000000000e+00,7.50000000000000e-01,7.52393848563763e-01,7.50000000000000e-01
8.39643717957876e-08,0.00000000000000e+00,7.50000000000000e-01,7.47483170081169e-01,7.50000000000000e-01
8.50000000000000e-08,0.00000000000000e+00,7.50000000000000e-01,7.52125000079677e-01,7.50000000000000e-01
8.50100000000000e-08,7.49999999999858e-02,7.50000000000000e-01,7.51208985022491e-01,6.75000000000014e-01
8.50300000000000e-08,2.24999999999957e-01,7.50000000000000e-01,7.50001119480173e-01,5.25000000000043e-01
8.50700000000000e-08,5.24999999999900e-01,7.50000000000000e-01,7.53688282004413e-01,2.25000000000100e-01
8.51000000000000e-08,7.49999999999957e-01,7.50000000000000e-01,7.64580760686332e-01,4.29656310529936e-14
8.51080000000000e-08,7.50000000000000e-01,7.50000000000000e-01,7.68397179127162e-01,0.00000000000000e+00
8.51240000000000e-08,7.50000000000000e-01,7.50000000000000e-01,7.75594735562353e-01,0.00000000000000e+00
8.51560000000000e-08,7.50000000000000e-01,7.50000000000000e-01,7.84298096530557e-01,0.00000000000000e+00
8.52200000000000e-08,7.50000000000000e-01,7.50000000000000e-01,5.78190705026266e-01,0.00000000000000e+00
8.53480000000000e-08,7.50000000000000e-01,7.50000000000000e-01,6.11558702270012e-02,0.00000000000000e+00
8.55403316573630e-08,7.50000000000000e-01,7.50000000000000e-01,-2.53783846425157e-02,0.00000000000000e+00
8.58592531258594e-08,7.50000000000000e-01,7.50000000000000e-01,1.71891357938967e-02,0.00000000000000e+00
8.62687877715419e-08,7.50000000000000e-01,7.50000000000000e-01,-1.20977129355365e-02,0.00000000000000e+00
8.70860338294294e-08,7.50000000000000e-01,7.50000000000000e-01,1.04284059254830e-02,0.00000000000000e+00
8.85419677217936e-08,7.50000000000000e-01,7.50000000000000e-01,-9.40796867283720e-03,0.00000000000000e+00
9.01000000000000e-08,7.50000000000000e-01,7.49999999999957e-01,8.73216016771426e-03,0.00000000000000e+00
9.03911867784728e-08,7.50000000000000e-01,7.50000000000000e-01,8.83509159825109e-04,0.00000000000000e+00
9.09735603354185e-08,7.50000000000000e-01,7.50000000000000e-01,-7.02261845640872e-04,0.00000000000000e+00
9.21383074493099e-08,7.50000000000000e-01,7.50000000000000e-01,6.30917674124726e-04,0.00000000000000e+00
9.44678016770926e-08,7.50000000000000e-01,7.50000000000000e-01,-5.93549958256176e-04,0.00000000000000e+00
9.51000000000000e-08,7.50000000000000e-01,7.50000000000000e-01,4.84497729824286e-04,0.00000000000000e+00
9.51100000000000e-08,6.75000000000076e-01,7.50000000000000e-01,7.48526783646314e-04,7.49999999999237e-02
9.51300000000000e-08,5.25000000000105e-01,7.50000000000000e-01,8.17909965481242e-04,2.24999999999895e-01
9.51700000000000e-08,2.25000000000162e-01,7.50000000000000e-01,3.86194993599959e-04,5.24999999999838e-01
9.52000000000000e-08,1.05027098129540e-13,7.50000000000000e-01,3.52844043163228e-04,7.49999999999895e-01
9.52080000000000e-08,0.00000000000000e+00,7.50000000000000e-01,2.57317431590118e-04,7.50000000000000e-01
9.52240000000000e-08,0.00000000000000e+00,7.50000000000000e-01,7.69688416628056e-05,7.50000000000000e-01
9.52560000000000e-08,0.00000000000000e+00,7.50000000000000e-01,-5.12303417466664e-04,7.50000000000000e-01
9.53200000000000e-08,0.00000000000000e+00,7.50000000000000e-01,-1.23572007476087e-03,7.50000000000000e-01
9.54480000000000e-08,0.00000000000000e+00,7.50000000000000e-01,-2.65690776483293e-05,7.50000000000000e-01
9.56549970692811e-08,0.00000000000000e+00,7.50000000000000e-01,8.38472245722095e-05,7.50000000000000e-01
9.59886699789451e-08,0.00000000000000e+00,7.50000000000000e-01,-2.17141484868538e-04,7.50000000000000e-01
9.64588026638518e-08,0.00000000000000e+00,7.50000000000000e-01,2.79802172075880e-04,7.50000000000000e-01
9.71127034452129e-08,0.00000000000000e+00,7.50000000000000e-01,-2.83022858033612e-04,7.50000000000000e-01
9.84205050079350e-08,0.00000000000000e+00,7.50000000000000e-01,2.81128247548900e-04,7.50000000000000e-01
1.00677836331216e-07,0.00000000000000e+00,7.50000000000000e-01,-2.75378399852356e-04,7.50000000000000e-01
1.04477836331216e-07,0.00000000000000e+00,7.50000000000000e-01,2.74634170359372e-04,7.50000000000000e-01
1.05000000000000e-07,0.00000000000000e+00,7.50000000000000e-01,-2.46641118383071e-04,7.50000000000000e-01
1.05010000000000e-07,7.49999999999858e-02,7.50000000000000e-01,5.37832890327578e-05,7.50000000000000e-01
1.05030000000000e-07,2.24999999999957e-01,7.50000000000000e-01,4.60999866383094e-04,7.50000000000000e-01
1.05070000000000e-07,5.24999999999900e-01,7.50000000000000e-01,3.43179262388027e-04,7.50000000000000e-01
1.05100000000000e-07,7.49999999999957e-01,7.50000000000000e-01,-2.27971024948641e-03,7.50000000000000e-01
1.05108000000000e-07,7.50000000000000e-01,7.50000000000000e-01,-3.51747899933372e-03,7.50000000000000e-01
1.05124000000000e-07,7.50000000000000e-01,7.50000000000000e-01,-5.62874783211244e-03,7.50000000000000e-01
1.05156000000000e-07,7.50000000000000e-01,7.50000000000000e-01,-7.70712334779847e-03,7.50000000000000e-01
1.05220000000000e-07,7.50000000000000e-01,7.50000000000000e-01,2.12591469213629e-02,7.50000000000000e-01
1.05348000000000e-07,7.50000000000000e-01,7.50000000000000e-01,4.27210306928713e-01,7.50000000000000e-01
1.05604000000000e-07,7.50000000000000e-01,7.50000000000000e-01,7.73592931867460e-01,7.50000000000000e-01
1.05903665760264e-07,7.50000000000000e-01,7.50000000000000e-01,7.30835300704717e-01,7.50000000000000e-01
1.06486775498562e-07,7.50000000000000e-01,7.50000000000000e-01,7.68358373128844e-01,7.50000000000000e-01
1.07117019011845e-07,7.50000000000000e-01,7.50000000000000e-01,7.32874089737472e-01,7.50000000000000e-01
1.08273759470835e-07,7.50000000000000e-01,7.50000000000000e-01,7.66398543509794e-01,7.50000000000000e-01
1.10587240388815e-07,7.50000000000000e-01,7.50000000000000e-01,7.33794905213814e-01,7.50000000000000e-01
1.14387240388815e-07,7.50000000000000e-01,7.50000000000000e-01,7.65891587955278e-01,7.50000000000000e-01
1.15100000000000e-07,7.50000000000000e-01,7.50000000000000e-01,7.34950600308515e-01,7.50000000000000e-01
