Time,v(clk),v(data),v(out)
1.00000000000000e-08,7.50000000000000e-01,0.00000000000000e+00,2.93745640791649e-05
1.00100000000000e-08,7.50000000000000e-01,7.49999999999982e-02,2.11362656665492e-05
1.00300000000000e-08,7.50000000000000e-01,2.24999999999995e-01,1.05175216649905e-05
1.00700000000000e-08,7.50000000000000e-01,5.24999999999987e-01,3.49247560961496e-06
1.01000000000000e-08,7.50000000000000e-01,7.49999999999994e-01,-2.17271110658501e-07
1.01080000000000e-08,7.50000000000000e-01,7.50000000000000e-01,-1.71086740580195e-07
1.01240000000000e-08,7.50000000000000e-01,7.50000000000000e-01,3.32289833260280e-06
1.01560000000000e-08,7.50000000000000e-01,7.50000000000000e-01,9.69605595328715e-06
1.02200000000000e-08,7.50000000000000e-01,7.50000000000000e-01,1.02352136208544e-05
1.03480000000000e-08,7.50000000000000e-01,7.50000000000000e-01,2.97790433176348e-06
1.06040000000000e-08,7.50000000000000e-01,7.50000000000000e-01,6.61053380406756e-06
1.11160000000000e-08,7.50000000000000e-01,7.50000000000000e-01,4.13303048666866e-06
1.21400000000000e-08,7.50000000000000e-01,7.50000000000000e-01,5.95056773053208e-06
1.41880000000000e-08,7.50000000000000e-01,7.50000000000000e-01,3.71515272745617e-06
1.51000000000000e-08,7.50000000000000e-01,7.50000000000000e-01,5.40344989480128e-06
1.51100000000000e-08,6.74999999999989e-01,7.50000000000000e-01,-1.25070128573740e-04
1.51300000000000e-08,5.24999999999993e-01,7.50000000000000e-01,-2.85027308284364e-04
1.51700000000000e-08,2.25000000000000e-01,7.50000000000000e-01,2.87403048421786e-05
1.52000000000000e-08,0.00000000000000e+00,7.50000000000000e-01,7.24983498759380e-04
1.52080000000000e-08,0.00000000000000e+00,7.50000000000000e-01,9.36415906054519e-04
1.52240000000000e-08,0.00000000000000e+00,7.50000000000000e-01,1.02741203185833e-03
1.52560000000000e-08,0.00000000000000e+00,7.50000000000000e-01,2.24616657953605e-04
1.53200000000000e-08,0.00000000000000e+00,7.50000000000000e-01,-7.95395432126977e-04
1.54480000000000e-08,0.00000000000000e+00,7.50000000000000e-01,1.27295697260284e-04
1.56482883530036e-08,0.00000000000000e+00,7.50000000000000e-01,-3.32103730670830e-04
1.59516296375580e-08,0.00000000000000e+00,7.50000000000000e-01,2.37590189275612e-04
1.64109558230256e-08,0.00000000000000e+00,7.50000000000000e-01,7.87761804092735e-06
1.70198173634099e-08,0.00000000000000e+00,7.50000000000000e-01,-9.94842970388019e-05
1.81650785515581e-08,0.00000000000000e+00,7.50000000000000e-01,1.38683378253344e-04
2.04556009278544e-08,0.00000000000000e+00,7.50000000000000e-01,-1.44858833811628e-04
2.42556009278544e-08,0.00000000000000e+00,7.50000000000000e-01,1.57796951312303e-04
2.50000000000000e-08,0.00000000000000e+00,7.50000000000000e-01,-1.74914499204525e-04
2.50100000000000e-08,7.49999999999858e-02,7.50000000000000e-01,1.24182089774993e-04
2.50300000000000e-08,2.25000000000007e-01,7.50000000000000e-01,5.35054470983454e-04
2.50700000000000e-08,5.25000000000000e-01,7.50000000000000e-01,8.98676171530749e-04
2.51000000000000e-08,7.50000000000000e-01,7.50000000000000e-01,-2.06818654432908e-04
2.51080000000000e-08,7.50000000000000e-01,7.50000000000000e-01,-1.08667532844937e-03
2.51240000000000e-08,7.50000000000000e-01,7.50000000000000e-01,-2.86898043336163e-03
2.51560000000000e-08,7.50000000000000e-01,7.50000000000000e-01,-5.76446635807359e-03
2.52200000000000e-08,7.50000000000000e-01,7.50000000000000e-01,-4.93886333305806e-03
2.53480000000000e-08,7.50000000000000e-01,7.50000000000000e-01,2.31766873572489e-01
2.56040000000000e-08,7.50000000000000e-01,7.50000000000000e-01,7.38773452345457e-01
2.60188503636165e-08,7.50000000000000e-01,7.50000000000000e-01,7.52424827473943e-01
2.65639204363916e-08,7.50000000000000e-01,7.50000000000000e-01,7.47787446123073e-01
2.73184271395607e-08,7.50000000000000e-01,7.50000000000000e-01,7.51886545128852e-01
2.84846985628099e-08,7.50000000000000e-01,7.50000000000000e-01,7.48126488988857e-01
3.01000000000000e-08,7.50000000000000e-01,7.50000000000000e-01,7.51734953854274e-01
3.01100000000000e-08,7.50000000000000e-01,6.75000000000039e-01,7.50920816802145e-01
3.01300000000000e-08,7.50000000000000e-01,5.25000000000018e-01,7.50059652856185e-01
3.01700000000000e-08,7.50000000000000e-01,2.25000000000025e-01,7.50018474854314e-01
3.02000000000000e-08,7.50000000000000e-01,1.80966353013901e-14,7.50038337235454e-01
3.02080000000000e-08,7.50000000000000e-01,0.00000000000000e+00,7.50025232918263e-01
3.02240000000000e-08,7.50000000000000e-01,0.00000000000000e+00,7.49996769736687e-01
3.02560000000000e-08,7.50000000000000e-01,0.00000000000000e+00,7.49951550861320e-01
3.03200000000000e-08,7.50000000000000e-01,0.00000000000000e+00,7.50011405150927e-01
3.04480000000000e-08,7.50000000000000e-01,0.00000000000000e+00,7.49990364773768e-01
3.06469882961143e-08,7.50000000000000e-01,0.00000000000000e+00,7.49984627123283e-01
3.09444064250664e-08,7.50000000000000e-01,0.00000000000000e+00,7.49989130787687e-01
3.15392426829704e-08,7.50000000000000e-01,0.00000000000000e+00,7.49986452365494e-01
3.27289151987786e-08,7.50000000000000e-01,0.00000000000000e+00,7.49992137689927e-01
3.51000000000000e-08,7.49999999999963e-01,0.00000000000000e+00,7.49988935064036e-01
3.51100000000000e-08,6.74999999999977e-01,0.00000000000000e+00,7.49882758103398e-01
3.51300000000000e-08,5.24999999999956e-01,0.00000000000000e+00,7.49816828683494e-01
3.51700000000000e-08,2.24999999999963e-01,0.00000000000000e+00,7.51599725381728e-01
3.52000000000000e-08,0.00000000000000e+00,0.00000000000000e+00,7.54834400408053e-01
3.52080000000000e-08,0.00000000000000e+00,0.00000000000000e+00,7.54865039978195e-01
3.52240000000000e-08,0.00000000000000e+00,0.00000000000000e+00,7.52038842816689e-01
3.52560000000000e-08,0.00000000000000e+00,0.00000000000000e+00,7.38470364681918e-01
3.53200000000000e-08,0.00000000000000e+00,0.00000000000000e+00,7.31717425930937e-01
3.54480000000000e-08,0.00000000000000e+00,0.00000000000000e+00,7.50532767577287e-01
3.56542774490334e-08,0.00000000000000e+00,0.00000000000000e+00,7.48462451086660e-01
3.59434995293094e-08,0.00000000000000e+00,0.00000000000000e+00,7.50560806236798e-01
3.64431666464374e-08,0.00000000000000e+00,0.00000000000000e+00,7.49064410100812e-01
3.72412658195493e-08,0.00000000000000e+00,0.00000000000000e+00,7.50596705821049e-01
3.88374641657731e-08,0.00000000000000e+00,0.00000000000000e+00,7.49250074696450e-01
3.91000000000000e-08,0.00000000000000e+00,0.00000000000000e+00,7.50485757148464e-01
3.94192396692448e-08,0.00000000000000e+00,0.00000000000000e+00,7.49962407783004e-01
4.00577190077343e-08,0.00000000000000e+00,0.00000000000000e+00,7.49925378813855e-01
4.13346776847133e-08,0.00000000000000e+00,0.00000000000000e+00,7.49972654397078e-01
4.38885950386713e-08,0.00000000000000e+00,0.00000000000000e+00,7.49942309907949e-01
4.50000000000000e-08,0.00000000000000e+00,0.00000000000000e+00,7.49981133872580e-01
4.50100000000000e-08,7.49999999999858e-02,0.00000000000000e+00,7.50085923530096e-01
4.50300000000000e-08,2.25000000000007e-01,0.00000000000000e+00,7.50126333398575e-01
4.50700000000000e-08,5.25000000000000e-01,0.00000000000000e+00,7.49985534856040e-01
4.51000000000000e-08,7.50000000000000e-01,0.00000000000000e+00,7.49786309830862e-01
4.51080000000000e-08,7.50000000000000e-01,0.00000000000000e+00,7.49699754442801e-01
4.51240000000000e-08,7.50000000000000e-01,0.00000000000000e+00,7.49604372069277e-01
4.51560000000000e-08,7.50000000000000e-01,0.00000000000000e+00,7.49694597617335e-01
4.52200000000000e-08,7.50000000000000e-01,0.00000000000000e+00,7.50311543670268e-01
4.53480000000000e-08,7.50000000000000e-01,0.00000000000000e+00,7.62554445940410e-01
4.56040000000000e-08,7.50000000000000e-01,0.00000000000000e+00,2.95317081572109e-01
4.59247862798382e-08,7.50000000000000e-01,0.00000000000000e+00,-7.20406262245812e-02
4.63802470107274e-08,7.50000000000000e-01,0.00000000000000e+00,5.09187644859590e-02
4.70288495259294e-08,7.50000000000000e-01,0.00000000000000e+00,-3.37452362360871e-02
4.78326055955978e-08,7.50000000000000e-01,0.00000000000000e+00,2.77094245359020e-02
4.94401177349345e-08,7.50000000000000e-01,0.00000000000000e+00,-2.31606801343808e-02
5.00000000000000e-08,7.50000000000000e-01,0.00000000000000e+00,1.66385200774173e-02
5.00100000000000e-08,7.50000000000000e-01,7.49999999999858e-02,1.42418710208198e-02
5.00300000000000e-08,7.50000000000000e-01,2.24999999999957e-01,9.76015609914622e-03
5.00700000000000e-08,7.50000000000000e-01,5.25000000000000e-01,4.05822612559059e-03
5.01000000000000e-08,7.50000000000000e-01,7.50000000000000e-01,2.19731118399615e-03
5.01080000000000e-08,7.50000000000000e-01,7.50000000000000e-01,1.88523143221186e-03
5.01240000000000e-08,7.50000000000000e-01,7.50000000000000e-01,1.34538114927944e-03
5.01560000000000e-08,7.50000000000000e-01,7.50000000000000e-01,6.91028380832737e-04
5.02200000000000e-08,7.50000000000000e-01,7.50000000000000e-01,1.46330348383100e-04
5.03480000000000e-08,7.50000000000000e-01,7.50000000000000e-01,-1.84249877491910e-05
5.06040000000000e-08,7.50000000000000e-01,7.50000000000000e-01,1.06489265900428e-05
5.11160000000001e-08,7.50000000000000e-01,7.50000000000000e-01,-7.54679780050685e-06
5.21400000000002e-08,7.50000000000000e-01,7.50000000000000e-01,9.77192853106150e-06
5.41880000000003e-08,7.50000000000000e-01,7.50000000000000e-01,-5.11856459409297e-06
5.51000000000000e-08,7.50000000000000e-01,7.50000000000000e-01,7.93494130539585e-06
5.51100000000000e-08,6.75000000000027e-01,7.50000000000000e-01,-1.25552916212593e-04
5.51300000000000e-08,5.25000000000005e-01,7.50000000000000e-01,-2.80315315999730e-04
5.51700000000000e-08,2.25000000000013e-01,7.50000000000000e-01,3.85492241239405e-05
5.52000000000000e-08,0.00000000000000e+00,7.50000000000000e-01,6.77328366447377e-04
5.52080000000000e-08,0.00000000000000e+00,7.50000000000000e-01,8.24462740990059e-04
5.52240000000000e-08,0.00000000000000e+00,7.50000000000000e-01,6.79580055800030e-04
5.52560000000000e-08,0.00000000000000e+00,7.50000000000000e-01,-1.05161283131457e-03
5.53200000000000e-08,0.00000000000000e+00,7.50000000000000e-01,-2.19547821780751e-03
5.54480000000000e-08,0.00000000000000e+00,7.50000000000000e-01,1.25196959914663e-04
5.56473104857050e-08,0.00000000000000e+00,7.50000000000000e-01,-2.85591153171179e-04
5.59533992267633e-08,0.00000000000000e+00,7.50000000000000e-01,1.99891945105727e-04
5.64099182121898e-08,0.00000000000000e+00,7.50000000000000e-01,3.85478160789300e-05
5.70210157830829e-08,0.00000000000000e+00,7.50000000000000e-01,-1.23119185130117e-04
5.81622703962549e-08,0.00000000000000e+00,7.50000000000000e-01,1.58855388866379e-04
6.04447796225991e-08,0.00000000000000e+00,7.50000000000000e-01,-1.63336733090451e-04
6.42447796225991e-08,0.00000000000000e+00,7.50000000000000e-01,1.75054575835577e-04
6.50000000000000e-08,0.00000000000000e+00,7.50000000000000e-01,-1.86997086509133e-04
6.50100000000000e-08,7.49999999999858e-02,7.50000000000000e-01,1.02214563335534e-04
6.50300000000000e-08,2.24999999999957e-01,7.50000000000000e-01,5.17668349540840e-04
6.50700000000000e-08,5.24999999999900e-01,7.50000000000000e-01,9.02786951608059e-04
6.51000000000000e-08,7.49999999999957e-01,7.50000000000000e-01,-1.90168215900441e-04
6.51080000000000e-08,7.50000000000000e-01,7.50000000000000e-01,-1.06519399358024e-03
6.51240000000000e-08,7.50000000000000e-01,7.50000000000000e-01,-2.84325381066039e-03
6.51560000000000e-08,7.50000000000000e-01,7.50000000000000e-01,-5.74702750049418e-03
6.52200000000000e-08,7.50000000000000e-01,7.50000000000000e-01,-4.98653984783214e-03
6.53480000000000e-08,7.50000000000000e-01,7.50000000000000e-01,2.30952519889691e-01
6.56040000000000e-08,7.50000000000000e-01,7.50000000000000e-01,7.38580392068667e-01
6.60197761679643e-08,7.50000000000000e-01,7.50000000000000e-01,7.52506086302532e-01
6.65642205960849e-08,7.50000000000000e-01,7.50000000000000e-01,7.47706510584995e-01
6.73198647798689e-08,7.50000000000000e-01,7.50000000000000e-01,7.51959897001607e-01
6.84859654349627e-08,7.50000000000000e-01,7.50000000000000e-01,7.48052867418612e-01
7.01000000000000e-08,7.50000000000000e-01,7.50000000000000e-01,7.51804727275580e-01
7.01100000000000e-08,7.50000000000000e-01,6.75000000000014e-01,7.50951567382176e-01
7.01300000000000e-08,7.50000000000000e-01,5.25000000000043e-01,7.50056260688396e-01
7.01700000000000e-08,7.50000000000000e-01,2.25000000000100e-01,7.50020381683253e-01
7.02000000000000e-08,7.50000000000000e-01,4.29656310529936e-14,7.50037857807720e-01
7.02080000000000e-08,7.50000000000000e-01,0.00000000000000e+00,7.50025072739509e-01
7.02240000000000e-08,7.50000000000000e-01,0.00000000000000e+00,7.49996897802974e-01
7.02560000000000e-08,7.50000000000000e-01,0.00000000000000e+00,7.49951636297699e-01
7.03200000000000e-08,7.50000000000000e-01,0.00000000000000e+00,7.50011428965953e-01
7.04480000000000e-08,7.50000000000000e-01,0.00000000000000e+00,7.49990296244759e-01
7.06469884189246e-08,7.50000000000000e-01,0.00000000000000e+00,7.49984644393515e-01
7.09444066050209e-08,7.50000000000000e-01,0.00000000000000e+00,7.49989070957213e-01
7.15392429772134e-08,7.50000000000000e-01,0.00000000000000e+00,7.49986470636415e-01
7.27289157215983e-08,7.50000000000000e-01,0.00000000000000e+00,7.49992084921224e-01
7.51000000000000e-08,7.50000000000000e-01,0.00000000000000e+00,7.49988962563320e-01
7.51100000000000e-08,6.75000000000076e-01,0.00000000000000e+00,7.49882764079381e-01
7.51300000000000e-08,5.25000000000105e-01,0.00000000000000e+00,7.49816817588073e-01
7.51700000000000e-08,2.25000000000162e-01,0.00000000000000e+00,7.51599700688060e-01
7.52000000000000e-08,1.05027098129540e-13,0.00000000000000e+00,7.54833898730073e-01
7.52080000000000e-08,0.00000000000000e+00,0.00000000000000e+00,7.54863992845583e-01
7.52240000000000e-08,0.00000000000000e+00,0.00000000000000e+00,7.52036470938377e-01
7.52560000000000e-08,0.00000000000000e+00,0.00000000000000e+00,7.38467435755334e-01
7.53200000000000e-08,0.00000000000000e+00,0.00000000000000e+00,7.31717174613306e-01
7.54480000000000e-08,0.00000000000000e+00,0.00000000000000e+00,7.50533045215038e-01
7.56542773958306e-08,0.00000000000000e+00,0.00000000000000e+00,7.48462221480626e-01
7.59434992985572e-08,0.00000000000000e+00,0.00000000000000e+00,7.50560985476083e-01
7.64431664293261e-08,0.00000000000000e+00,0.00000000000000e+00,7.49064247753164e-01
7.72412652990883e-08,0.00000000000000e+00,0.00000000000000e+00,7.50596855287856e-01
7.81000000000000e-08,0.00000000000000e+00,0.00000000000000e+00,7.49255727189819e-01
7.82596197739525e-08,0.00000000000000e+00,0.00000000000000e+00,7.49866572982572e-01
7.85788593218574e-08,0.00000000000000e+00,0.00000000000000e+00,7.49973770492663e-01
7.92173384176672e-08,0.00000000000000e+00,0.00000000000000e+00,7.49894927755014e-01
8.04942966092869e-08,0.00000000000000e+00,0.00000000000000e+00,7.49987931093088e-01
8.30482129925262e-08,0.00000000000000e+00,0.00000000000000e+00,7.49920401551859e-01
8.50000000000000e-08,0.00000000000000e+00,0.00000000000000e+00,7.50000483506291e-01
8.50100000000000e-08,7.49999999999858e-02,0.00000000000000e+00,7.50092052642595e-01
8.50300000000000e-08,2.24999999999957e-01,0.00000000000000e+00,7.50118559904309e-01
8.50700000000000e-08,5.24999999999900e-01,0.00000000000000e+00,7.49983891815838e-01
8.51000000000000e-08,7.49999999999957e-01,0.00000000000000e+00,7.49802242072006e-01
8.51080000000000e-08,7.50000000000000e-01,0.00000000000000e+00,7.49699993497880e-01
8.51240000000000e-08,7.50000000000000e-01,0.00000000000000e+00,7.49624330973062e-01
8.51560000000000e-08,7.50000000000000e-01,0.00000000000000e+00,7.49690844788327e-01
8.52200000000000e-08,7.50000000000000e-01,0.00000000000000e+00,7.50318479372544e-01
8.53480000000000e-08,7.50000000000000e-01,0.00000000000000e+00,7.62545510092714e-01
8.56040000000000e-08,7.50000000000000e-01,0.00000000000000e+00,2.95303340264511e-01
8.59248727659529e-08,7.50000000000000e-01,0.00000000000000e+00,-7.20694245335247e-02
8.63803496981312e-08,7.50000000000000e-01,0.00000000000000e+00,5.09420881879995e-02
8.70292131479580e-08,7.50000000000000e-01,0.00000000000000e+00,-3.37654024083771e-02
8.78330049082289e-08,7.50000000000000e-01,0.00000000000000e+00,2.77272780721352e-02
8.94405884287706e-08,7.50000000000000e-01,0.00000000000000e+00,-2.31759294448624e-02
9.00000000000000e-08,7.50000000000000e-01,0.00000000000000e+00,1.66450628292246e-02
9.00100000000000e-08,7.50000000000000e-01,7.49999999999858e-02,1.42460274465257e-02
9.00300000000000e-08,7.50000000000000e-01,2.24999999999957e-01,9.76184824110245e-03
9.00700000000000e-08,7.50000000000000e-01,5.24999999999900e-01,4.05910059436429e-03
9.01000000000000e-08,7.50000000000000e-01,7.49999999999957e-01,2.19769154832684e-03
9.01080000000000e-08,7.50000000000000e-01,7.50000000000000e-01,1.88557888354383e-03
9.01240000000000e-08,7.50000000000000e-01,7.50000000000000e-01,1.34564403441115e-03
9.01560000000000e-08,7.50000000000000e-01,7.50000000000000e-01,6.91158447642892e-04
9.02200000000000e-08,7.50000000000000e-01,7.50000000000000e-01,1.46366809802262e-04
9.03480000000000e-08,7.50000000000000e-01,7.50000000000000e-01,-1.84282866412602e-05
9.06040000000000e-08,7.50000000000000e-01,7.50000000000000e-01,1.06536618412131e-05
9.11159999999999e-08,7.50000000000000e-01,7.50000000000000e-01,-7.54808753920463e-06
9.21399999999999e-08,7.50000000000000e-01,7.50000000000000e-01,9.77645128637065e-06
9.41879999999998e-08,7.50000000000000e-01,7.50000000000000e-01,-5.11938920835005e-06
9.51000000000000e-08,7.50000000000000e-01,7.50000000000000e-01,7.93869293702273e-06
9.51100000000000e-08,6.75000000000076e-01,7.50000000000000e-01,-1.25552169029791e-04
9.51300000000000e-08,5.25000000000105e-01,7.50000000000000e-01,-2.80314983517965e-04
9.51700000000000e-08,2.25000000000162e-01,7.50000000000000e-01,3.85530892741959e-05
9.52000000000000e-08,1.05027098129540e-13,7.50000000000000e-01,6.77377808737153e-04
9.52080000000000e-08,0.00000000000000e+00,7.50000000000000e-01,8.24557487777725e-04
9.52240000000000e-08,0.00000000000000e+00,7.50000000000000e-01,6.79786030806914e-04
9.52560000000000e-08,0.00000000000000e+00,7.50000000000000e-01,-1.05101317850757e-03
9.53200000000000e-08,0.00000000000000e+00,7.50000000000000e-01,-2.19448198542810e-03
9.54480000000000e-08,0.00000000000000e+00,7.50000000000000e-01,1.25426097661911e-04
9.56473107075097e-08,0.00000000000000e+00,7.50000000000000e-01,-2.85791212934212e-04
9.59533992199606e-08,0.00000000000000e+00,7.50000000000000e-01,2.00049908046233e-04
9.64099188450141e-08,0.00000000000000e+00,7.50000000000000e-01,3.84155461263802e-05
9.70210161073361e-08,0.00000000000000e+00,7.50000000000000e-01,-1.23002579816164e-04
9.81622721096786e-08,0.00000000000000e+00,7.50000000000000e-01,1.58747040227322e-04
1.00444784114364e-07,0.00000000000000e+00,7.50000000000000e-01,-1.63232069727357e-04
1.04244784114364e-07,0.00000000000000e+00,7.50000000000000e-01,1.74952638357593e-04
1.05000000000000e-07,0.00000000000000e+00,7.50000000000000e-01,-1.86905625604755e-04
1.05010000000000e-07,7.49999999999858e-02,7.50000000000000e-01,1.02272279248056e-04
1.05030000000000e-07,2.24999999999957e-01,7.50000000000000e-01,5.17688833496094e-04
1.05070000000000e-07,5.24999999999900e-01,7.50000000000000e-01,9.02790549498517e-04
1.05100000000000e-07,7.49999999999957e-01,7.50000000000000e-01,-1.90171074698264e-04
1.05108000000000e-07,7.50000000000000e-01,7.50000000000000e-01,-1.06519696829170e-03
1.05124000000000e-07,7.50000000000000e-01,7.50000000000000e-01,-2.84325710545380e-03
1.05156000000000e-07,7.50000000000000e-01,7.50000000000000e-01,-5.74703003631218e-03
1.05220000000000e-07,7.50000000000000e-01,7.50000000000000e-01,-4.98653392571267e-03
1.05348000000000e-07,7.50000000000000e-01,7.50000000000000e-01,2.30952623526957e-01
1.05604000000000e-07,7.50000000000000e-01,7.50000000000000e-01,7.38580416689389e-01
1.06019776049866e-07,7.50000000000000e-01,7.50000000000000e-01,7.52506075924084e-01
1.06564220559654e-07,7.50000000000000e-01,7.50000000000000e-01,7.47706520927671e-01
1.07319864596895e-07,7.50000000000000e-01,7.50000000000000e-01,7.51959887630205e-01
