Time,v(clk),v(data),v(out)
1.00000000000000e-08,4.75000000000000e-01,0.00000000000000e+00,-4.38521873816905e-07
1.00100000000000e-08,4.75000000000000e-01,4.74999999999989e-02,-2.40145848186268e-06
1.00300000000000e-08,4.75000000000000e-01,1.42499999999997e-01,-4.50136008656871e-06
1.00700000000000e-08,4.75000000000000e-01,3.32499999999992e-01,-8.06794708609060e-06
1.01000000000000e-08,4.75000000000000e-01,4.74999999999996e-01,-1.08357173472171e-05
1.01080000000000e-08,4.75000000000000e-01,4.75000000000000e-01,-1.18934254969283e-05
1.01240000000000e-08,4.75000000000000e-01,4.75000000000000e-01,-1.18803220670455e-05
1.01560000000000e-08,4.75000000000000e-01,4.75000000000000e-01,-7.15540648110052e-06
1.02200000000000e-08,4.75000000000000e-01,4.75000000000000e-01,8.74561372175842e-07
1.03480000000000e-08,4.75000000000000e-01,4.75000000000000e-01,4.68193146849899e-06
1.06040000000000e-08,4.75000000000000e-01,4.75000000000000e-01,6.01020705568583e-07
1.11160000000000e-08,4.75000000000000e-01,4.75000000000000e-01,2.20022485541461e-06
1.21400000000000e-08,4.75000000000000e-01,4.75000000000000e-01,8.37982349969658e-07
1.41880000000000e-08,4.75000000000000e-01,4.75000000000000e-01,2.46587925713596e-06
1.51000000000000e-08,4.75000000000000e-01,4.75000000000000e-01,1.13057273458568e-06
1.51100000000000e-08,4.27499999999993e-01,4.75000000000000e-01,-7.93405128903107e-05
1.51300000000000e-08,3.32499999999996e-01,4.75000000000000e-01,-2.08036836578912e-04
1.51700000000000e-08,1.42500000000000e-01,4.75000000000000e-01,-3.14156388811188e-04
1.52000000000000e-08,0.00000000000000e+00,4.75000000000000e-01,-1.06569755509635e-04
1.52080000000000e-08,0.00000000000000e+00,4.75000000000000e-01,7.76858041032849e-05
1.52240000000000e-08,0.00000000000000e+00,4.75000000000000e-01,3.43121865403404e-04
1.52560000000000e-08,0.00000000000000e+00,4.75000000000000e-01,5.04634267261446e-04
1.53200000000000e-08,0.00000000000000e+00,4.75000000000000e-01,3.67379039346138e-04
1.54480000000000e-08,0.00000000000000e+00,4.75000000000000e-01,-7.39484954341355e-05
1.57040000000000e-08,0.00000000000000e+00,4.75000000000000e-01,-2.07130230906599e-04
1.62160000000000e-08,0.00000000000000e+00,4.75000000000000e-01,9.44961584946266e-05
1.70754890591427e-08,0.00000000000000e+00,4.75000000000000e-01,-1.13668966901100e-04
1.82606247080491e-08,0.00000000000000e+00,4.75000000000000e-01,1.61642095604962e-04
2.06308960058619e-08,0.00000000000000e+00,4.75000000000000e-01,-1.69212089313026e-04
2.35018720065391e-08,0.00000000000000e+00,4.75000000000000e-01,1.70521307466435e-04
2.50000000000000e-08,0.00000000000000e+00,4.75000000000000e-01,-1.65239741446326e-04
2.50100000000000e-08,4.74999999999910e-02,4.75000000000000e-01,-8.01332127858129e-06
2.50300000000000e-08,1.42500000000004e-01,4.75000000000000e-01,2.64334497021596e-04
2.50700000000000e-08,3.32500000000000e-01,4.75000000000000e-01,5.55063013501784e-04
2.51000000000000e-08,4.75000000000000e-01,4.75000000000000e-01,5.49350728492756e-04
2.51080000000000e-08,4.75000000000000e-01,4.75000000000000e-01,4.30771390147973e-04
2.51240000000000e-08,4.75000000000000e-01,4.75000000000000e-01,1.44046165878944e-04
2.51560000000000e-08,4.75000000000000e-01,4.75000000000000e-01,-7.16112073728827e-04
2.52200000000000e-08,4.75000000000000e-01,4.75000000000000e-01,-2.58235907233373e-03
2.53480000000000e-08,4.75000000000000e-01,4.75000000000000e-01,-4.97746421074018e-03
2.56040000000000e-08,4.75000000000000e-01,4.75000000000000e-01,2.25591380984896e-02
2.61160000000000e-08,4.75000000000000e-01,4.75000000000000e-01,3.97214768720622e-01
2.71400000000000e-08,4.75000000000000e-01,4.75000000000000e-01,4.92356695118020e-01
2.82754798949661e-08,4.75000000000000e-01,4.75000000000000e-01,4.56577712797849e-01
3.01000000000000e-08,4.75000000000000e-01,4.75000000000000e-01,4.90446097602939e-01
3.01100000000000e-08,4.75000000000000e-01,4.27500000000025e-01,4.85535578881055e-01
3.01300000000000e-08,4.75000000000000e-01,3.32500000000011e-01,4.78857628811953e-01
3.01700000000000e-08,4.75000000000000e-01,1.42500000000016e-01,4.75175742012730e-01
3.02000000000000e-08,4.75000000000000e-01,1.14352971536391e-14,4.75075126986755e-01
3.02080000000000e-08,4.75000000000000e-01,0.00000000000000e+00,4.75045039300066e-01
3.02240000000000e-08,4.75000000000000e-01,0.00000000000000e+00,4.74996792996000e-01
3.02560000000000e-08,4.75000000000000e-01,0.00000000000000e+00,4.74986043715441e-01
3.03200000000000e-08,4.75000000000000e-01,0.00000000000000e+00,4.74980471720490e-01
3.04480000000000e-08,4.75000000000000e-01,0.00000000000000e+00,4.74969214046308e-01
3.07040000000000e-08,4.75000000000000e-01,0.00000000000000e+00,4.75002671045338e-01
3.12160000000000e-08,4.75000000000000e-01,0.00000000000000e+00,4.74978430658190e-01
3.20741328223783e-08,4.75000000000000e-01,0.00000000000000e+00,4.74987395885633e-01
3.33134266929375e-08,4.75000000000000e-01,0.00000000000000e+00,4.74987007358459e-01
3.51000000000000e-08,4.74999999999976e-01,0.00000000000000e+00,4.74986129839125e-01
3.51100000000000e-08,4.27499999999985e-01,0.00000000000000e+00,4.74906771666896e-01
3.51300000000000e-08,3.32499999999972e-01,0.00000000000000e+00,4.74796478415551e-01
3.51700000000000e-08,1.42499999999977e-01,0.00000000000000e+00,4.74944565311861e-01
3.52000000000000e-08,0.00000000000000e+00,0.00000000000000e+00,4.76211300208583e-01
3.52080000000000e-08,0.00000000000000e+00,0.00000000000000e+00,4.76694512086150e-01
3.52240000000000e-08,0.00000000000000e+00,0.00000000000000e+00,4.77396046835493e-01
3.52560000000000e-08,0.00000000000000e+00,0.00000000000000e+00,4.77989439814031e-01
3.53200000000000e-08,0.00000000000000e+00,0.00000000000000e+00,4.77576137714667e-01
3.54480000000000e-08,0.00000000000000e+00,0.00000000000000e+00,4.68291607241898e-01
3.57040000000000e-08,0.00000000000000e+00,0.00000000000000e+00,4.63851632213242e-01
3.62160000000000e-08,0.00000000000000e+00,0.00000000000000e+00,4.76669141301562e-01
3.69139395919454e-08,0.00000000000000e+00,0.00000000000000e+00,4.72993738059485e-01
3.83098187758362e-08,0.00000000000000e+00,0.00000000000000e+00,4.76298312719539e-01
3.91000000000000e-08,0.00000000000000e+00,0.00000000000000e+00,4.73660917490469e-01
3.92607106543460e-08,0.00000000000000e+00,0.00000000000000e+00,4.74590183477598e-01
3.95821319630379e-08,0.00000000000000e+00,0.00000000000000e+00,4.75013930460339e-01
4.02249745804218e-08,0.00000000000000e+00,0.00000000000000e+00,4.74769032533303e-01
4.15106598151896e-08,0.00000000000000e+00,0.00000000000000e+00,4.74997335765005e-01
4.40820302847253e-08,0.00000000000000e+00,0.00000000000000e+00,4.74837593773755e-01
4.50000000000000e-08,0.00000000000000e+00,0.00000000000000e+00,4.75004344651071e-01
4.50100000000000e-08,4.74999999999910e-02,0.00000000000000e+00,4.75090784428054e-01
4.50300000000000e-08,1.42500000000004e-01,0.00000000000000e+00,4.75192842513544e-01
4.50700000000000e-08,3.32500000000000e-01,0.00000000000000e+00,4.75146157028148e-01
4.51000000000000e-08,4.75000000000000e-01,0.00000000000000e+00,4.75000170174277e-01
4.51080000000000e-08,4.75000000000000e-01,0.00000000000000e+00,4.74917190067604e-01
4.51240000000000e-08,4.75000000000000e-01,0.00000000000000e+00,4.74791077737067e-01
4.51560000000000e-08,4.75000000000000e-01,0.00000000000000e+00,4.74694489913958e-01
4.52200000000000e-08,4.75000000000000e-01,0.00000000000000e+00,4.74689610776357e-01
4.53480000000000e-08,4.75000000000000e-01,0.00000000000000e+00,4.74821883100484e-01
4.56040000000000e-08,4.75000000000000e-01,0.00000000000000e+00,4.76298338278362e-01
4.61160000000000e-08,4.75000000000000e-01,0.00000000000000e+00,3.13025121036912e-01
4.71400000000000e-08,4.75000000000000e-01,0.00000000000000e+00,-1.70087554864100e-02
4.83200434011408e-08,4.75000000000000e-01,0.00000000000000e+00,1.54028953379896e-02
5.00000000000000e-08,4.75000000000000e-01,0.00000000000000e+00,-9.53961115481080e-03
5.00100000000000e-08,4.75000000000000e-01,4.74999999999910e-02,-9.44680398222918e-03
5.00300000000000e-08,4.75000000000000e-01,1.42499999999973e-01,-8.43323561595540e-03
5.00700000000000e-08,4.75000000000000e-01,3.32500000000000e-01,-5.36611971627204e-03
5.01000000000000e-08,4.75000000000000e-01,4.75000000000000e-01,-3.72068199577813e-03
5.01080000000000e-08,4.75000000000000e-01,4.75000000000000e-01,-3.38601741499622e-03
5.01240000000000e-08,4.75000000000000e-01,4.75000000000000e-01,-2.76716682213792e-03
5.01560000000000e-08,4.75000000000000e-01,4.75000000000000e-01,-1.83746150768319e-03
5.02200000000000e-08,4.75000000000000e-01,4.75000000000000e-01,-7.72444074403376e-04
5.03480000000000e-08,4.75000000000000e-01,4.75000000000000e-01,-7.91769101176412e-05
5.06040000000000e-08,4.75000000000000e-01,4.75000000000000e-01,1.71986358749807e-05
5.11160000000001e-08,4.75000000000000e-01,4.75000000000000e-01,-1.00793630586227e-05
5.21400000000002e-08,4.75000000000000e-01,4.75000000000000e-01,9.68936006568496e-06
5.41880000000003e-08,4.75000000000000e-01,4.75000000000000e-01,-1.13656031957843e-05
5.51000000000000e-08,4.75000000000000e-01,4.75000000000000e-01,8.29429869588817e-06
5.51100000000000e-08,4.27500000000017e-01,4.75000000000000e-01,-7.42196938481599e-05
5.51300000000000e-08,3.32500000000003e-01,4.75000000000000e-01,-2.01613743142058e-04
5.51700000000000e-08,1.42500000000008e-01,4.75000000000000e-01,-3.02176625871398e-04
5.52000000000000e-08,0.00000000000000e+00,4.75000000000000e-01,-1.02257635367593e-04
5.52080000000000e-08,0.00000000000000e+00,4.75000000000000e-01,8.08721988220171e-05
5.52240000000000e-08,0.00000000000000e+00,4.75000000000000e-01,3.36816094800130e-04
5.52560000000000e-08,0.00000000000000e+00,4.75000000000000e-01,5.00375462503991e-04
5.53200000000000e-08,0.00000000000000e+00,4.75000000000000e-01,3.38279371007132e-04
5.54480000000000e-08,0.00000000000000e+00,4.75000000000000e-01,-5.03030122560644e-04
5.57040000000000e-08,0.00000000000000e+00,4.75000000000000e-01,-4.39851076699700e-04
5.62160000000000e-08,0.00000000000000e+00,4.75000000000000e-01,2.47884202459083e-04
5.70743093140708e-08,0.00000000000000e+00,4.75000000000000e-01,-2.37415541706022e-04
5.82605345172872e-08,0.00000000000000e+00,4.75000000000000e-01,2.65934977026062e-04
6.06329849237201e-08,0.00000000000000e+00,4.75000000000000e-01,-2.66692891118195e-04
6.35028077516678e-08,0.00000000000000e+00,4.75000000000000e-01,2.61306614004791e-04
6.50000000000000e-08,0.00000000000000e+00,4.75000000000000e-01,-2.46306048653158e-04
6.50100000000000e-08,4.74999999999910e-02,4.75000000000000e-01,-6.72449766864827e-05
6.50300000000000e-08,1.42499999999973e-01,4.75000000000000e-01,2.31414156085179e-04
6.50700000000000e-08,3.32499999999937e-01,4.75000000000000e-01,5.38557574690686e-04
6.51000000000000e-08,4.74999999999973e-01,4.75000000000000e-01,5.40429098919826e-04
6.51080000000000e-08,4.75000000000000e-01,4.75000000000000e-01,4.22757233031479e-04
6.51240000000000e-08,4.75000000000000e-01,4.75000000000000e-01,1.38156793911201e-04
6.51560000000000e-08,4.75000000000000e-01,4.75000000000000e-01,-7.19754833937818e-04
6.52200000000000e-08,4.75000000000000e-01,4.75000000000000e-01,-2.58373344992614e-03
6.53480000000000e-08,4.75000000000000e-01,4.75000000000000e-01,-4.97763255605616e-03
6.56040000000000e-08,4.75000000000000e-01,4.75000000000000e-01,2.25580757889234e-02
6.61159999999999e-08,4.75000000000000e-01,4.75000000000000e-01,3.97213712094898e-01
6.71399999999999e-08,4.75000000000000e-01,4.75000000000000e-01,4.92356800604144e-01
6.82754790658488e-08,4.75000000000000e-01,4.75000000000000e-01,4.56577639158635e-01
7.01000000000000e-08,4.75000000000000e-01,4.75000000000000e-01,4.90446186144434e-01
7.01100000000000e-08,4.75000000000000e-01,4.27500000000009e-01,4.85535521082188e-01
7.01300000000000e-08,4.75000000000000e-01,3.32500000000027e-01,4.78857712677330e-01
7.01700000000000e-08,4.75000000000000e-01,1.42500000000063e-01,4.75175766132096e-01
7.02000000000000e-08,4.75000000000000e-01,2.72004641033163e-14,4.75075125982595e-01
7.02080000000000e-08,4.75000000000000e-01,0.00000000000000e+00,4.75045042145246e-01
7.02240000000000e-08,4.75000000000000e-01,0.00000000000000e+00,4.74996799096822e-01
7.02560000000000e-08,4.75000000000000e-01,0.00000000000000e+00,4.74986043906768e-01
7.03200000000000e-08,4.75000000000000e-01,0.00000000000000e+00,4.74980475126921e-01
7.04480000000000e-08,4.75000000000000e-01,0.00000000000000e+00,4.74969210919598e-01
7.07040000000000e-08,4.75000000000000e-01,0.00000000000000e+00,4.75002661150374e-01
7.12159999999999e-08,4.75000000000000e-01,0.00000000000000e+00,4.74978441842416e-01
7.20741144678427e-08,4.75000000000000e-01,0.00000000000000e+00,4.74987381043661e-01
7.33135218922555e-08,4.75000000000000e-01,0.00000000000000e+00,4.74987021666875e-01
7.51000000000000e-08,4.75000000000000e-01,0.00000000000000e+00,4.74986116164955e-01
7.51100000000000e-08,4.27500000000048e-01,0.00000000000000e+00,4.74906765683220e-01
7.51300000000000e-08,3.32500000000066e-01,0.00000000000000e+00,4.74796474625631e-01
7.51700000000000e-08,1.42500000000102e-01,0.00000000000000e+00,4.74944562242154e-01
7.52000000000000e-08,6.65023591750469e-14,0.00000000000000e+00,4.76211297720621e-01
7.52080000000000e-08,0.00000000000000e+00,0.00000000000000e+00,4.76694509088118e-01
7.52240000000000e-08,0.00000000000000e+00,0.00000000000000e+00,4.77396043159105e-01
7.52560000000000e-08,0.00000000000000e+00,0.00000000000000e+00,4.77989436001137e-01
7.53200000000000e-08,0.00000000000000e+00,0.00000000000000e+00,4.77576129536123e-01
7.54480000000000e-08,0.00000000000000e+00,0.00000000000000e+00,4.68291586547274e-01
7.57040000000000e-08,0.00000000000000e+00,0.00000000000000e+00,4.63851631947996e-01
7.62159999999999e-08,0.00000000000000e+00,0.00000000000000e+00,4.76669144784618e-01
7.69139396876523e-08,0.00000000000000e+00,0.00000000000000e+00,4.72993734285869e-01
7.81000000000000e-08,0.00000000000000e+00,0.00000000000000e+00,4.76252903757897e-01
7.82395879375305e-08,0.00000000000000e+00,0.00000000000000e+00,4.75154889799822e-01
7.85187638125914e-08,0.00000000000000e+00,0.00000000000000e+00,4.74646758176130e-01
7.90771155627133e-08,0.00000000000000e+00,0.00000000000000e+00,4.74975657100087e-01
8.01938190629570e-08,0.00000000000000e+00,0.00000000000000e+00,4.74772168580587e-01
8.24272260634444e-08,0.00000000000000e+00,0.00000000000000e+00,4.75010924778823e-01
8.50000000000000e-08,0.00000000000000e+00,0.00000000000000e+00,4.74840825740660e-01
8.50100000000000e-08,4.74999999999910e-02,0.00000000000000e+00,4.74947947867647e-01
8.50300000000000e-08,1.42499999999973e-01,0.00000000000000e+00,4.75094237199696e-01
8.50700000000000e-08,3.32499999999937e-01,0.00000000000000e+00,4.75106057837762e-01
8.51000000000000e-08,4.74999999999973e-01,0.00000000000000e+00,4.74980852974188e-01
8.51080000000000e-08,4.75000000000000e-01,0.00000000000000e+00,4.74899357011610e-01
8.51240000000000e-08,4.75000000000000e-01,0.00000000000000e+00,4.74776717394230e-01
8.51560000000000e-08,4.75000000000000e-01,0.00000000000000e+00,4.74687271811535e-01
8.52200000000000e-08,4.75000000000000e-01,0.00000000000000e+00,4.74692998616353e-01
8.53480000000000e-08,4.75000000000000e-01,0.00000000000000e+00,4.74814490601553e-01
8.56040000000000e-08,4.75000000000000e-01,0.00000000000000e+00,4.76301648065700e-01
8.61159999999999e-08,4.75000000000000e-01,0.00000000000000e+00,3.13154221347204e-01
8.71399999999999e-08,4.75000000000000e-01,0.00000000000000e+00,-1.69685625911219e-02
8.83198509556744e-08,4.75000000000000e-01,0.00000000000000e+00,1.53633042586234e-02
9.00000000000000e-08,4.75000000000000e-01,0.00000000000000e+00,-9.51292903233832e-03
9.00100000000000e-08,4.75000000000000e-01,4.74999999999910e-02,-9.42380366797253e-03
9.00300000000000e-08,4.75000000000000e-01,1.42499999999973e-01,-8.41635230275765e-03
9.00700000000000e-08,4.75000000000000e-01,3.32499999999937e-01,-5.35653915723835e-03
9.01000000000000e-08,4.75000000000000e-01,4.74999999999973e-01,-3.71425761943554e-03
9.01080000000000e-08,4.75000000000000e-01,4.75000000000000e-01,-3.38018951336016e-03
9.01240000000000e-08,4.75000000000000e-01,4.75000000000000e-01,-2.76243580582639e-03
9.01560000000000e-08,4.75000000000000e-01,4.75000000000000e-01,-1.83433291577609e-03
9.02200000000000e-08,4.75000000000000e-01,4.75000000000000e-01,-7.71124498606050e-04
9.03480000000000e-08,4.75000000000000e-01,4.75000000000000e-01,-7.90364827983892e-05
9.06040000000000e-08,4.75000000000000e-01,4.75000000000000e-01,1.71666947028429e-05
9.11159999999999e-08,4.75000000000000e-01,4.75000000000000e-01,-1.00591195884847e-05
9.21399999999999e-08,4.75000000000000e-01,4.75000000000000e-01,9.67062798350096e-06
9.41879999999998e-08,4.75000000000000e-01,4.75000000000000e-01,-1.13439555353406e-05
9.51000000000000e-08,4.75000000000000e-01,4.75000000000000e-01,8.27859183207685e-06
9.51100000000000e-08,4.27500000000048e-01,4.75000000000000e-01,-7.42324160664526e-05
9.51300000000000e-08,3.32500000000066e-01,4.75000000000000e-01,-2.01621228163612e-04
9.51700000000000e-08,1.42500000000102e-01,4.75000000000000e-01,-3.02178694030111e-04
9.52000000000000e-08,6.65023591750469e-14,4.75000000000000e-01,-1.02259209498537e-04
9.52080000000000e-08,0.00000000000000e+00,4.75000000000000e-01,8.08707385416829e-05
9.52240000000000e-08,0.00000000000000e+00,4.75000000000000e-01,3.36814747278980e-04
9.52560000000000e-08,0.00000000000000e+00,4.75000000000000e-01,5.00373657384201e-04
9.53200000000000e-08,0.00000000000000e+00,4.75000000000000e-01,3.38268055136794e-04
9.54480000000000e-08,0.00000000000000e+00,4.75000000000000e-01,-5.03219936757532e-04
9.57040000000000e-08,0.00000000000000e+00,4.75000000000000e-01,-4.40028495229512e-04
9.62159999999999e-08,0.00000000000000e+00,4.75000000000000e-01,2.47970291637273e-04
9.70743089191189e-08,0.00000000000000e+00,4.75000000000000e-01,-2.37471786357543e-04
9.82605346035906e-08,0.00000000000000e+00,4.75000000000000e-01,2.65975394483945e-04
1.00632985972534e-07,0.00000000000000e+00,4.75000000000000e-01,-2.66727839451728e-04
1.03502808480320e-07,0.00000000000000e+00,4.75000000000000e-01,2.61337055368038e-04
1.05000000000000e-07,0.00000000000000e+00,4.75000000000000e-01,-2.46329952267100e-04
1.05010000000000e-07,4.74999999999910e-02,4.75000000000000e-01,-6.72648724064154e-05
1.05030000000000e-07,1.42499999999973e-01,4.75000000000000e-01,2.31398855142839e-04
1.05070000000000e-07,3.32499999999937e-01,4.75000000000000e-01,5.38545885038724e-04
1.05100000000000e-07,4.74999999999973e-01,4.75000000000000e-01,5.40420620294718e-04
1.05108000000000e-07,4.75000000000000e-01,4.75000000000000e-01,4.22749377584443e-04
1.05124000000000e-07,4.75000000000000e-01,4.75000000000000e-01,1.38150134816162e-04
1.05156000000000e-07,4.75000000000000e-01,4.75000000000000e-01,-7.19759620657651e-04
1.05220000000000e-07,4.75000000000000e-01,4.75000000000000e-01,-2.58373581099187e-03
1.05348000000000e-07,4.75000000000000e-01,4.75000000000000e-01,-4.97763304085425e-03
1.05604000000000e-07,4.75000000000000e-01,4.75000000000000e-01,2.25580758237136e-02
1.06116000000000e-07,4.75000000000000e-01,4.75000000000000e-01,3.97213712158909e-01
1.07140000000000e-07,4.75000000000000e-01,4.75000000000000e-01,4.92356800601706e-01
1.08275479066836e-07,4.75000000000000e-01,4.75000000000000e-01,4.56577639115049e-01
1.10100000000000e-07,4.75000000000000e-01,4.75000000000000e-01,4.90446186140905e-01
1.10110000000000e-07,4.75000000000000e-01,4.27500000000072e-01,4.85535521075136e-01
1.10130000000000e-07,4.75000000000000e-01,3.32500000000090e-01,4.78857712673078e-01
1.10170000000000e-07,4.75000000000000e-01,1.42500000000126e-01,4.75175766134135e-01
1.10200000000000e-07,4.75000000000000e-01,9.00390872971002e-14,4.75075125983571e-01
1.10208000000000e-07,4.75000000000000e-01,0.00000000000000e+00,4.75045042146259e-01
1.10224000000000e-07,4.75000000000000e-01,0.00000000000000e+00,4.74996799097883e-01
1.10256000000000e-07,4.75000000000000e-01,0.00000000000000e+00,4.74986043907194e-01
1.10320000000000e-07,4.75000000000000e-01,0.00000000000000e+00,4.74980475127068e-01
