Time,v(clk),v(data),v(out),v(reset)
1.00000000000000e-08,6.00000000000000e-01,0.00000000000000e+00,8.82965245249793e-03,0.00000000000000e+00
1.00100000000000e-08,6.00000000000000e-01,5.99999999999986e-02,5.93017289815850e-03,0.00000000000000e+00
1.00300000000000e-08,6.00000000000000e-01,1.79999999999996e-01,2.94690435485200e-03,0.00000000000000e+00
1.00700000000000e-08,6.00000000000000e-01,4.19999999999990e-01,1.32556278142025e-03,0.00000000000000e+00
1.01000000000000e-08,6.00000000000000e-01,5.99999999999995e-01,4.66888459800918e-04,0.00000000000000e+00
1.01080000000000e-08,6.00000000000000e-01,6.00000000000000e-01,4.44092209240063e-04,0.00000000000000e+00
1.01240000000000e-08,6.00000000000000e-01,6.00000000000000e-01,3.45145699640628e-04,0.00000000000000e+00
1.01560000000000e-08,6.00000000000000e-01,6.00000000000000e-01,1.58310501323686e-04,0.00000000000000e+00
1.02200000000000e-08,6.00000000000000e-01,6.00000000000000e-01,3.64118318458284e-05,0.00000000000000e+00
1.03480000000000e-08,6.00000000000000e-01,6.00000000000000e-01,-1.67901396466580e-05,0.00000000000000e+00
1.06040000000000e-08,6.00000000000000e-01,6.00000000000000e-01,1.21632214000224e-05,0.00000000000000e+00
1.11160000000000e-08,6.00000000000000e-01,6.00000000000000e-01,-7.20180020085878e-06,0.00000000000000e+00
1.21400000000000e-08,6.00000000000000e-01,6.00000000000000e-01,9.61707596509008e-06,0.00000000000000e+00
1.41880000000000e-08,6.00000000000000e-01,6.00000000000000e-01,-5.97311218536803e-06,0.00000000000000e+00
1.51000000000000e-08,6.00000000000000e-01,6.00000000000000e-01,9.17919811072553e-06,0.00000000000000e+00
1.51100000000000e-08,5.39999999999992e-01,6.00000000000000e-01,7.89708964915592e-04,6.00000000000085e-02
1.51300000000000e-08,4.19999999999994e-01,6.00000000000000e-01,1.53020617523039e-03,1.80000000000006e-01
1.51700000000000e-08,1.80000000000000e-01,6.00000000000000e-01,9.13525912016669e-04,4.20000000000000e-01
1.52000000000000e-08,0.00000000000000e+00,6.00000000000000e-01,-2.85290495329465e-05,6.00000000000000e-01
1.52080000000000e-08,0.00000000000000e+00,6.00000000000000e-01,-9.13671990043774e-05,6.00000000000000e-01
1.52240000000000e-08,0.00000000000000e+00,6.00000000000000e-01,-1.36641786999306e-04,6.00000000000000e-01
1.52560000000000e-08,0.00000000000000e+00,6.00000000000000e-01,-3.69077494270786e-05,6.00000000000000e-01
1.53200000000000e-08,0.00000000000000e+00,6.00000000000000e-01,-4.73766621511607e-04,6.00000000000000e-01
1.54480000000000e-08,0.00000000000000e+00,6.00000000000000e-01,-1.34984701687074e-03,6.00000000000000e-01
1.57040000000000e-08,0.00000000000000e+00,6.00000000000000e-01,6.13866686284631e-04,6.00000000000000e-01
1.60946861946113e-08,0.00000000000000e+00,6.00000000000000e-01,-5.44903088168517e-04,6.00000000000000e-01
1.65385462522276e-08,0.00000000000000e+00,6.00000000000000e-01,4.78775231702446e-04,6.00000000000000e-01
1.73224777298630e-08,0.00000000000000e+00,6.00000000000000e-01,-3.99013861282504e-04,6.00000000000000e-01
1.81227813676916e-08,0.00000000000000e+00,6.00000000000000e-01,3.31931991309603e-04,6.00000000000000e-01
1.97233886433487e-08,0.00000000000000e+00,6.00000000000000e-01,-2.97291543254435e-04,6.00000000000000e-01
2.20419419135707e-08,0.00000000000000e+00,6.00000000000000e-01,2.79042993845831e-04,6.00000000000000e-01
2.50000000000000e-08,0.00000000000000e+00,6.00000000000000e-01,-2.60507910795453e-04,6.00000000000000e-01
2.50100000000000e-08,5.99999999999886e-02,6.00000000000000e-01,9.55023960860085e-05,6.00000000000000e-01
2.50300000000000e-08,1.80000000000006e-01,6.00000000000000e-01,6.13367103484377e-04,6.00000000000000e-01
2.50700000000000e-08,4.20000000000000e-01,6.00000000000000e-01,1.06671005498386e-03,6.00000000000000e-01
2.51000000000000e-08,6.00000000000000e-01,6.00000000000000e-01,-1.34140078471387e-04,6.00000000000000e-01
2.51080000000000e-08,6.00000000000000e-01,6.00000000000000e-01,-9.06486603090784e-04,6.00000000000000e-01
2.51240000000000e-08,6.00000000000000e-01,6.00000000000000e-01,-2.36051167823237e-03,6.00000000000000e-01
2.51560000000000e-08,6.00000000000000e-01,6.00000000000000e-01,-4.45349931837312e-03,6.00000000000000e-01
2.52200000000000e-08,6.00000000000000e-01,6.00000000000000e-01,-5.57880367361192e-03,6.00000000000000e-01
2.53480000000000e-08,6.00000000000000e-01,6.00000000000000e-01,5.90653243351303e-02,6.00000000000000e-01
2.56040000000000e-08,6.00000000000000e-01,6.00000000000000e-01,4.96222979926409e-01,6.00000000000000e-01
2.60598345983064e-08,6.00000000000000e-01,6.00000000000000e-01,6.19933577446997e-01,6.00000000000000e-01
2.65220071707001e-08,6.00000000000000e-01,6.00000000000000e-01,5.82398766417160e-01,6.00000000000000e-01
2.74463523154875e-08,6.00000000000000e-01,6.00000000000000e-01,6.15349307291533e-01,6.00000000000000e-01
2.85051670025334e-08,6.00000000000000e-01,6.00000000000000e-01,5.85217337073551e-01,6.00000000000000e-01
3.06227963766253e-08,6.00000000000000e-01,6.00000000000000e-01,6.13683160134712e-01,6.00000000000000e-01
3.43917035450199e-08,6.00000000000000e-01,6.00000000000000e-01,5.86120954875470e-01,6.00000000000000e-01
3.51000000000000e-08,5.99999999999970e-01,6.00000000000000e-01,6.11926099640078e-01,6.00000000000000e-01
3.51100000000000e-08,5.39999999999982e-01,6.00000000000000e-01,6.07626464295278e-01,6.00000000000000e-01
3.51300000000000e-08,4.19999999999965e-01,6.00000000000000e-01,6.02017532453852e-01,6.00000000000000e-01
3.51700000000000e-08,1.79999999999970e-01,6.00000000000000e-01,6.00496609796361e-01,6.00000000000000e-01
3.52000000000000e-08,0.00000000000000e+00,6.00000000000000e-01,6.03473254385086e-01,6.00000000000000e-01
3.52080000000000e-08,0.00000000000000e+00,6.00000000000000e-01,6.04382066495119e-01,6.00000000000000e-01
3.52240000000000e-08,0.00000000000000e+00,6.00000000000000e-01,6.05660517427520e-01,6.00000000000000e-01
3.52560000000000e-08,0.00000000000000e+00,6.00000000000000e-01,6.06334214644879e-01,6.00000000000000e-01
3.53200000000000e-08,0.00000000000000e+00,6.00000000000000e-01,6.01781050802481e-01,6.00000000000000e-01
3.54480000000000e-08,0.00000000000000e+00,6.00000000000000e-01,5.87045815639829e-01,6.00000000000000e-01
3.57040000000000e-08,0.00000000000000e+00,6.00000000000000e-01,5.95899483155457e-01,6.00000000000000e-01
3.61440399631300e-08,0.00000000000000e+00,6.00000000000000e-01,6.02264872699887e-01,6.00000000000000e-01
3.67770843202571e-08,0.00000000000000e+00,6.00000000000000e-01,5.97962650098572e-01,6.00000000000000e-01
3.78694250357056e-08,0.00000000000000e+00,6.00000000000000e-01,6.01504456870828e-01,6.00000000000000e-01
4.00541064666025e-08,0.00000000000000e+00,6.00000000000000e-01,5.98435094049831e-01,6.00000000000000e-01
4.38541064666025e-08,0.00000000000000e+00,6.00000000000000e-01,6.01373702733789e-01,6.00000000000000e-01
4.50000000000000e-08,0.00000000000000e+00,6.00000000000000e-01,5.98710150482901e-01,6.00000000000000e-01
4.50100000000000e-08,5.99999999999886e-02,6.00000000000000e-01,5.98829995481930e-01,5.40000000000011e-01
4.50300000000000e-08,1.80000000000006e-01,6.00000000000000e-01,5.98980162744128e-01,4.19999999999994e-01
4.50700000000000e-08,4.20000000000000e-01,6.00000000000000e-01,6.01711066871651e-01,1.80000000000000e-01
4.51000000000000e-08,6.00000000000000e-01,6.00000000000000e-01,6.09983711656979e-01,0.00000000000000e+00
4.51080000000000e-08,6.00000000000000e-01,6.00000000000000e-01,6.13126818716730e-01,0.00000000000000e+00
4.51240000000000e-08,6.00000000000000e-01,6.00000000000000e-01,6.18591377081150e-01,0.00000000000000e+00
4.51560000000000e-08,6.00000000000000e-01,6.00000000000000e-01,6.28557207103240e-01,0.00000000000000e+00
4.52200000000000e-08,6.00000000000000e-01,6.00000000000000e-01,6.30627529253438e-01,0.00000000000000e+00
4.53480000000000e-08,6.00000000000000e-01,6.00000000000000e-01,2.99709976625307e-01,0.00000000000000e+00
4.55793228813799e-08,6.00000000000000e-01,6.00000000000000e-01,-2.50760380161684e-02,0.00000000000000e+00
4.58814636975536e-08,6.00000000000000e-01,6.00000000000000e-01,1.56556148738820e-02,0.00000000000000e+00
4.64207364044533e-08,6.00000000000000e-01,6.00000000000000e-01,-1.17214779987246e-02,0.00000000000000e+00
4.70186974361224e-08,6.00000000000000e-01,6.00000000000000e-01,9.46456854006209e-03,0.00000000000000e+00
4.82146194994607e-08,6.00000000000000e-01,6.00000000000000e-01,-8.41952472738878e-03,0.00000000000000e+00
5.01000000000000e-08,6.00000000000000e-01,5.99999999999966e-01,7.94094285324484e-03,0.00000000000000e+00
5.03391844126677e-08,6.00000000000000e-01,6.00000000000000e-01,8.61769724886812e-04,0.00000000000000e+00
5.08175532380030e-08,6.00000000000000e-01,6.00000000000000e-01,-6.12181568902734e-04,0.00000000000000e+00
5.17742908886736e-08,6.00000000000000e-01,6.00000000000000e-01,5.22962538015662e-04,0.00000000000000e+00
5.36877661900148e-08,6.00000000000000e-01,6.00000000000000e-01,-4.79326953595918e-04,0.00000000000000e+00
5.51000000000000e-08,6.00000000000000e-01,6.00000000000000e-01,4.33100824579253e-04,0.00000000000000e+00
5.51100000000000e-08,5.40000000000021e-01,6.00000000000000e-01,1.11302877965780e-03,5.99999999999787e-02
5.51300000000000e-08,4.20000000000004e-01,6.00000000000000e-01,1.71319258600053e-03,1.79999999999996e-01
5.51700000000000e-08,1.80000000000010e-01,6.00000000000000e-01,9.80038254631110e-04,4.19999999999990e-01
5.52000000000000e-08,0.00000000000000e+00,6.00000000000000e-01,-1.29677590118837e-06,6.00000000000000e-01
5.52080000000000e-08,0.00000000000000e+00,6.00000000000000e-01,-6.76505657245391e-05,6.00000000000000e-01
5.52240000000000e-08,0.00000000000000e+00,6.00000000000000e-01,-1.17936844814773e-04,6.00000000000000e-01
5.52560000000000e-08,0.00000000000000e+00,6.00000000000000e-01,-1.62988666075059e-05,6.00000000000000e-01
5.53200000000000e-08,0.00000000000000e+00,6.00000000000000e-01,-4.11163857129915e-04,6.00000000000000e-01
5.54480000000000e-08,0.00000000000000e+00,6.00000000000000e-01,-1.23889287711210e-03,6.00000000000000e-01
5.56805904457421e-08,0.00000000000000e+00,6.00000000000000e-01,6.25195714041682e-04,6.00000000000000e-01
5.60839550763057e-08,0.00000000000000e+00,6.00000000000000e-01,-5.76603115030983e-04,6.00000000000000e-01
5.65215649539734e-08,0.00000000000000e+00,6.00000000000000e-01,4.31852758099503e-04,6.00000000000000e-01
5.73967847093088e-08,0.00000000000000e+00,6.00000000000000e-01,-3.42777332432693e-04,6.00000000000000e-01
5.82027126700685e-08,0.00000000000000e+00,6.00000000000000e-01,2.71113925941193e-04,6.00000000000000e-01
5.98145685915880e-08,0.00000000000000e+00,6.00000000000000e-01,-2.35077218995812e-04,6.00000000000000e-01
6.25465066912888e-08,0.00000000000000e+00,6.00000000000000e-01,2.20567917170327e-04,6.00000000000000e-01
6.50000000000000e-08,0.00000000000000e+00,6.00000000000000e-01,-1.98797854765912e-04,6.00000000000000e-01
6.50100000000000e-08,5.99999999999886e-02,6.00000000000000e-01,1.46235404475323e-04,6.00000000000000e-01
6.50300000000000e-08,1.79999999999966e-01,6.00000000000000e-01,6.41624956927281e-04,6.00000000000000e-01
6.50700000000000e-08,4.19999999999920e-01,6.00000000000000e-01,1.07328503645603e-03,6.00000000000000e-01
6.51000000000000e-08,5.99999999999966e-01,6.00000000000000e-01,-1.36965350609267e-04,6.00000000000000e-01
6.51080000000000e-08,6.00000000000000e-01,6.00000000000000e-01,-9.11871690964974e-04,6.00000000000000e-01
6.51240000000000e-08,6.00000000000000e-01,6.00000000000000e-01,-2.36745395793868e-03,6.00000000000000e-01
6.51560000000000e-08,6.00000000000000e-01,6.00000000000000e-01,-4.45758672589265e-03,6.00000000000000e-01
6.52200000000000e-08,6.00000000000000e-01,6.00000000000000e-01,-5.58624930572321e-03,6.00000000000000e-01
6.53480000000000e-08,6.00000000000000e-01,6.00000000000000e-01,5.88556887653693e-02,6.00000000000000e-01
6.56040000000000e-08,6.00000000000000e-01,6.00000000000000e-01,4.96022807335598e-01,6.00000000000000e-01
6.60595959472832e-08,6.00000000000000e-01,6.00000000000000e-01,6.19952090314284e-01,6.00000000000000e-01
6.65215647089043e-08,6.00000000000000e-01,6.00000000000000e-01,5.82384954312713e-01,6.00000000000000e-01
6.74455022321467e-08,6.00000000000000e-01,6.00000000000000e-01,6.15363472157280e-01,6.00000000000000e-01
6.85042157071997e-08,6.00000000000000e-01,6.00000000000000e-01,5.85204375863158e-01,6.00000000000000e-01
7.06216426573056e-08,6.00000000000000e-01,6.00000000000000e-01,6.13696100828633e-01,6.00000000000000e-01
7.43880662814102e-08,6.00000000000000e-01,6.00000000000000e-01,5.86108593560888e-01,6.00000000000000e-01
7.51000000000000e-08,6.00000000000000e-01,6.00000000000000e-01,6.11944771871916e-01,6.00000000000000e-01
7.51100000000000e-08,5.40000000000061e-01,6.00000000000000e-01,6.07637929574386e-01,6.00000000000000e-01
7.51300000000000e-08,4.20000000000084e-01,6.00000000000000e-01,6.02020429302869e-01,6.00000000000000e-01
7.51700000000000e-08,1.80000000000129e-01,6.00000000000000e-01,6.00496261144060e-01,6.00000000000000e-01
7.52000000000000e-08,8.40438829641244e-14,6.00000000000000e-01,6.03473048020943e-01,6.00000000000000e-01
7.52080000000000e-08,0.00000000000000e+00,6.00000000000000e-01,6.04381786323063e-01,6.00000000000000e-01
7.52240000000000e-08,0.00000000000000e+00,6.00000000000000e-01,6.05660357149943e-01,6.00000000000000e-01
7.52560000000000e-08,0.00000000000000e+00,6.00000000000000e-01,6.06333696907228e-01,6.00000000000000e-01
7.53200000000000e-08,0.00000000000000e+00,6.00000000000000e-01,6.01779339507897e-01,6.00000000000000e-01
7.54480000000000e-08,0.00000000000000e+00,6.00000000000000e-01,5.87045222626959e-01,6.00000000000000e-01
7.57040000000000e-08,0.00000000000000e+00,6.00000000000000e-01,5.95900199581059e-01,6.00000000000000e-01
7.61440405013988e-08,0.00000000000000e+00,6.00000000000000e-01,6.02264277593121e-01,6.00000000000000e-01
7.67770908255895e-08,0.00000000000000e+00,6.00000000000000e-01,5.97963114272702e-01,6.00000000000000e-01
7.78694175551748e-08,0.00000000000000e+00,6.00000000000000e-01,6.01504027450502e-01,6.00000000000000e-01
8.00540710143454e-08,0.00000000000000e+00,6.00000000000000e-01,5.98435497678423e-01,6.00000000000000e-01
8.38540710143453e-08,0.00000000000000e+00,6.00000000000000e-01,6.01373312180320e-01,6.00000000000000e-01
8.50000000000000e-08,0.00000000000000e+00,6.00000000000000e-01,5.98710496428151e-01,6.00000000000000e-01
8.50100000000000e-08,5.99999999999886e-02,6.00000000000000e-01,5.98830257505471e-01,5.40000000000011e-01
8.50300000000000e-08,1.79999999999966e-01,6.00000000000000e-01,5.98980307093483e-01,4.20000000000034e-01
8.50700000000000e-08,4.19999999999920e-01,6.00000000000000e-01,6.01711106261155e-01,1.80000000000080e-01
8.51000000000000e-08,5.99999999999966e-01,6.00000000000000e-01,6.09983719509551e-01,3.44169137633799e-14
8.51080000000000e-08,6.00000000000000e-01,6.00000000000000e-01,6.13126822879659e-01,0.00000000000000e+00
8.51240000000000e-08,6.00000000000000e-01,6.00000000000000e-01,6.18591376586085e-01,0.00000000000000e+00
8.51560000000000e-08,6.00000000000000e-01,6.00000000000000e-01,6.28557205992729e-01,0.00000000000000e+00
8.52200000000000e-08,6.00000000000000e-01,6.00000000000000e-01,6.30627557844669e-01,0.00000000000000e+00
8.53480000000000e-08,6.00000000000000e-01,6.00000000000000e-01,2.99710050295512e-01,0.00000000000000e+00
8.55793228720455e-08,6.00000000000000e-01,6.00000000000000e-01,-2.50759996357715e-02,0.00000000000000e+00
8.58814636385780e-08,6.00000000000000e-01,6.00000000000000e-01,1.56556020985491e-02,0.00000000000000e+00
8.64207372967384e-08,6.00000000000000e-01,6.00000000000000e-01,-1.17214815997900e-02,0.00000000000000e+00
8.70186981254084e-08,6.00000000000000e-01,6.00000000000000e-01,9.46458154669967e-03,0.00000000000000e+00
8.82146197827484e-08,6.00000000000000e-01,6.00000000000000e-01,-8.41953498087015e-03,0.00000000000000e+00
9.01000000000000e-08,6.00000000000000e-01,5.99999999999966e-01,7.94095864522018e-03,0.00000000000000e+00
9.03391843314680e-08,6.00000000000000e-01,6.00000000000000e-01,8.61768692101725e-04,0.00000000000000e+00
9.08175529944040e-08,6.00000000000000e-01,6.00000000000000e-01,-6.12181044955213e-04,0.00000000000000e+00
9.17742903202760e-08,6.00000000000000e-01,6.00000000000000e-01,5.22962183156620e-04,0.00000000000000e+00
9.36877649720200e-08,6.00000000000000e-01,6.00000000000000e-01,-4.79326671387227e-04,0.00000000000000e+00
9.51000000000000e-08,6.00000000000000e-01,6.00000000000000e-01,4.33100685122118e-04,0.00000000000000e+00
9.51100000000000e-08,5.40000000000061e-01,6.00000000000000e-01,1.11302837341873e-03,5.99999999999390e-02
9.51300000000000e-08,4.20000000000084e-01,6.00000000000000e-01,1.71319211503154e-03,1.79999999999916e-01
9.51700000000000e-08,1.80000000000129e-01,6.00000000000000e-01,9.80038086016641e-04,4.19999999999871e-01
9.52000000000000e-08,8.40438829641244e-14,6.00000000000000e-01,-1.29675670580698e-06,5.99999999999916e-01
9.52080000000000e-08,0.00000000000000e+00,6.00000000000000e-01,-6.76504830750824e-05,6.00000000000000e-01
9.52240000000000e-08,0.00000000000000e+00,6.00000000000000e-01,-1.17936801359519e-04,6.00000000000000e-01
9.52560000000000e-08,0.00000000000000e+00,6.00000000000000e-01,-1.62991566917264e-05,6.00000000000000e-01
9.53200000000000e-08,0.00000000000000e+00,6.00000000000000e-01,-4.11165518159395e-04,6.00000000000000e-01
9.54480000000000e-08,0.00000000000000e+00,6.00000000000000e-01,-1.23889592444014e-03,6.00000000000000e-01
9.56805931004964e-08,0.00000000000000e+00,6.00000000000000e-01,6.25204581222803e-04,6.00000000000000e-01
9.60839562241320e-08,0.00000000000000e+00,6.00000000000000e-01,-5.76612562503048e-04,6.00000000000000e-01
9.65215663149594e-08,0.00000000000000e+00,6.00000000000000e-01,4.31861111382638e-04,6.00000000000000e-01
9.73967864966142e-08,0.00000000000000e+00,6.00000000000000e-01,-3.42784545255534e-04,6.00000000000000e-01
9.82027110338628e-08,0.00000000000000e+00,6.00000000000000e-01,2.71119569927250e-04,6.00000000000000e-01
9.98145601083602e-08,0.00000000000000e+00,6.00000000000000e-01,-2.35082155993597e-04,6.00000000000000e-01
1.02546449102293e-07,0.00000000000000e+00,6.00000000000000e-01,2.20572214895766e-04,6.00000000000000e-01
1.05000000000000e-07,0.00000000000000e+00,6.00000000000000e-01,-1.98802248788991e-04,6.00000000000000e-01
1.05010000000000e-07,5.99999999999886e-02,6.00000000000000e-01,1.46231265509819e-04,6.00000000000000e-01
1.05030000000000e-07,1.79999999999966e-01,6.00000000000000e-01,6.41621724063304e-04,6.00000000000000e-01
1.05070000000000e-07,4.19999999999920e-01,6.00000000000000e-01,1.07328341852966e-03,6.00000000000000e-01
1.05100000000000e-07,5.99999999999966e-01,6.00000000000000e-01,-1.36966665770094e-04,6.00000000000000e-01
1.05108000000000e-07,6.00000000000000e-01,6.00000000000000e-01,-9.11872919598836e-04,6.00000000000000e-01
1.05124000000000e-07,6.00000000000000e-01,6.00000000000000e-01,-2.36745500188133e-03,6.00000000000000e-01
1.05156000000000e-07,6.00000000000000e-01,6.00000000000000e-01,-4.45758730627378e-03,6.00000000000000e-01
1.05220000000000e-07,6.00000000000000e-01,6.00000000000000e-01,-5.58624869025516e-03,6.00000000000000e-01
1.05348000000000e-07,6.00000000000000e-01,6.00000000000000e-01,5.88557116443926e-02,6.00000000000000e-01
1.05604000000000e-07,6.00000000000000e-01,6.00000000000000e-01,4.96022828788173e-01,6.00000000000000e-01
1.06059595972809e-07,6.00000000000000e-01,6.00000000000000e-01,6.19952088376142e-01,6.00000000000000e-01
1.06521564756220e-07,6.00000000000000e-01,6.00000000000000e-01,5.82384955772288e-01,6.00000000000000e-01
1.07445502323042e-07,6.00000000000000e-01,6.00000000000000e-01,6.15363470670809e-01,6.00000000000000e-01
1.08504215808987e-07,6.00000000000000e-01,6.00000000000000e-01,5.85204377215828e-01,6.00000000000000e-01
1.10621642780877e-07,6.00000000000000e-01,6.00000000000000e-01,6.13696099479438e-01,6.00000000000000e-01
1.14388066670683e-07,6.00000000000000e-01,6.00000000000000e-01,5.86108594863790e-01,6.00000000000000e-01
1.15100000000000e-07,6.00000000000000e-01,6.00000000000000e-01,6.11944769895722e-01,6.00000000000000e-01
