Time,v(clk),v(data),v(out)
1.00000000000000e-08,6.00000000000000e-01,0.00000000000000e+00,-1.43329561251604e-04
1.00100000000000e-08,6.00000000000000e-01,5.99999999999986e-02,-1.02055278819332e-04
1.00300000000000e-08,6.00000000000000e-01,1.79999999999996e-01,-4.15446650136875e-05
1.00700000000000e-08,6.00000000000000e-01,4.19999999999990e-01,-8.54610694464575e-06
1.01000000000000e-08,6.00000000000000e-01,5.99999999999995e-01,-4.81732250164207e-05
1.01080000000000e-08,6.00000000000000e-01,6.00000000000000e-01,-6.13894586369013e-05
1.01240000000000e-08,6.00000000000000e-01,6.00000000000000e-01,-6.95385786347313e-05
1.01560000000000e-08,6.00000000000000e-01,6.00000000000000e-01,-4.92337650645491e-05
1.02200000000000e-08,6.00000000000000e-01,6.00000000000000e-01,7.59406250233630e-06
1.03480000000000e-08,6.00000000000000e-01,6.00000000000000e-01,2.81884984508068e-05
1.06040000000000e-08,6.00000000000000e-01,6.00000000000000e-01,8.71833852944537e-07
1.11160000000000e-08,6.00000000000000e-01,6.00000000000000e-01,3.85234790517205e-06
1.21400000000000e-08,6.00000000000000e-01,6.00000000000000e-01,4.89902476574593e-06
1.41880000000000e-08,6.00000000000000e-01,6.00000000000000e-01,3.60259216136086e-06
1.51000000000000e-08,6.00000000000000e-01,6.00000000000000e-01,4.73603278581224e-06
1.51100000000000e-08,5.39999999999992e-01,6.00000000000000e-01,-1.57524057078959e-04
1.51300000000000e-08,4.19999999999994e-01,6.00000000000000e-01,-5.99112107663946e-04
1.51700000000000e-08,1.80000000000000e-01,6.00000000000000e-01,-1.40564050614005e-03
1.52000000000000e-08,0.00000000000000e+00,6.00000000000000e-01,-1.21588332694103e-03
1.52080000000000e-08,0.00000000000000e+00,6.00000000000000e-01,-7.49335643054752e-04
1.52240000000000e-08,0.00000000000000e+00,6.00000000000000e-01,3.48532285577019e-05
1.52560000000000e-08,0.00000000000000e+00,6.00000000000000e-01,8.65422054419168e-04
1.53200000000000e-08,0.00000000000000e+00,6.00000000000000e-01,1.12022909104080e-03
1.54480000000000e-08,0.00000000000000e+00,6.00000000000000e-01,5.45836842571076e-04
1.57040000000000e-08,0.00000000000000e+00,6.00000000000000e-01,-8.21266581690211e-05
1.62160000000000e-08,0.00000000000000e+00,6.00000000000000e-01,-2.51797191060762e-04
1.71468757941648e-08,0.00000000000000e+00,6.00000000000000e-01,3.88712613032770e-06
1.81878087798836e-08,0.00000000000000e+00,6.00000000000000e-01,5.78483366585857e-05
2.00431575660881e-08,0.00000000000000e+00,6.00000000000000e-01,2.88863907076404e-05
2.21710087386672e-08,0.00000000000000e+00,6.00000000000000e-01,-6.30668588200017e-05
2.50000000000000e-08,0.00000000000000e+00,6.00000000000000e-01,8.74971908562559e-05
2.50100000000000e-08,5.99999999999886e-02,6.00000000000000e-01,5.90069451036387e-04
2.50300000000000e-08,1.80000000000006e-01,6.00000000000000e-01,1.43969930726812e-03
2.50700000000000e-08,4.20000000000000e-01,6.00000000000000e-01,2.37794273153023e-03
2.51000000000000e-08,6.00000000000000e-01,6.00000000000000e-01,1.55214018529801e-03
2.51080000000000e-08,6.00000000000000e-01,6.00000000000000e-01,7.43539427929957e-04
2.51240000000000e-08,6.00000000000000e-01,6.00000000000000e-01,-1.04387654089338e-03
2.51560000000000e-08,6.00000000000000e-01,6.00000000000000e-01,-4.64919967434166e-03
2.52200000000000e-08,6.00000000000000e-01,6.00000000000000e-01,-9.04001988964410e-03
2.53480000000000e-08,6.00000000000000e-01,6.00000000000000e-01,-6.23558842511002e-03
2.56040000000000e-08,6.00000000000000e-01,6.00000000000000e-01,1.37576366150439e-01
2.61160000000000e-08,6.00000000000000e-01,6.00000000000000e-01,5.37681159830475e-01
2.70859639150936e-08,6.00000000000000e-01,6.00000000000000e-01,6.19069391345633e-01
2.80155658364726e-08,6.00000000000000e-01,6.00000000000000e-01,5.87474001406875e-01
2.98747696792306e-08,6.00000000000000e-01,6.00000000000000e-01,6.08435070597455e-01
3.01000000000000e-08,6.00000000000000e-01,6.00000000000000e-01,6.00676944411165e-01
3.01100000000000e-08,6.00000000000000e-01,5.40000000000031e-01,6.00533339227648e-01
3.01300000000000e-08,6.00000000000000e-01,4.20000000000014e-01,6.00298055047466e-01
3.01700000000000e-08,6.00000000000000e-01,1.80000000000020e-01,6.00102468744867e-01
3.02000000000000e-08,6.00000000000000e-01,1.44328993201270e-14,6.00104953722559e-01
3.02080000000000e-08,6.00000000000000e-01,0.00000000000000e+00,6.00102238790668e-01
3.02240000000000e-08,6.00000000000000e-01,0.00000000000000e+00,6.00085681746473e-01
3.02560000000000e-08,6.00000000000000e-01,0.00000000000000e+00,6.00074831745913e-01
3.03200000000000e-08,6.00000000000000e-01,0.00000000000000e+00,6.00050205539621e-01
3.04480000000000e-08,6.00000000000000e-01,0.00000000000000e+00,5.99975000577744e-01
3.07040000000000e-08,6.00000000000000e-01,0.00000000000000e+00,5.99912700352282e-01
3.12160000000000e-08,6.00000000000000e-01,0.00000000000000e+00,6.00039815561304e-01
3.18273078415745e-08,6.00000000000000e-01,0.00000000000000e+00,6.00025214962579e-01
3.30499235247234e-08,6.00000000000000e-01,0.00000000000000e+00,5.99953532683169e-01
3.46435009433476e-08,6.00000000000000e-01,0.00000000000000e+00,6.00051043621253e-01
3.51000000000000e-08,5.99999999999970e-01,0.00000000000000e+00,5.99946381287534e-01
3.51100000000000e-08,5.39999999999982e-01,0.00000000000000e+00,5.99750307307466e-01
3.51300000000000e-08,4.19999999999965e-01,0.00000000000000e+00,5.99328570326187e-01
3.51700000000000e-08,1.79999999999970e-01,0.00000000000000e+00,5.99106631623456e-01
3.52000000000000e-08,0.00000000000000e+00,0.00000000000000e+00,6.00314781561944e-01
3.52080000000000e-08,0.00000000000000e+00,0.00000000000000e+00,6.00998331448887e-01
3.52240000000000e-08,0.00000000000000e+00,0.00000000000000e+00,6.02204317684785e-01
3.52560000000000e-08,0.00000000000000e+00,0.00000000000000e+00,6.03994631568157e-01
3.53200000000000e-08,0.00000000000000e+00,0.00000000000000e+00,6.05699421148684e-01
3.54480000000000e-08,0.00000000000000e+00,0.00000000000000e+00,6.06732118219362e-01
3.57040000000000e-08,0.00000000000000e+00,0.00000000000000e+00,6.03032819180173e-01
3.62160000000000e-08,0.00000000000000e+00,0.00000000000000e+00,5.87801009562481e-01
3.70859665121462e-08,0.00000000000000e+00,0.00000000000000e+00,5.94961424468981e-01
3.79753463623822e-08,0.00000000000000e+00,0.00000000000000e+00,6.02234909358490e-01
3.91000000000000e-08,0.00000000000000e+00,0.00000000000000e+00,5.98502276765559e-01
3.92778759700472e-08,0.00000000000000e+00,0.00000000000000e+00,5.99273739198721e-01
3.96336279101416e-08,0.00000000000000e+00,0.00000000000000e+00,5.99935446626721e-01
4.03451317903305e-08,0.00000000000000e+00,0.00000000000000e+00,5.99885413437876e-01
4.17681395507081e-08,0.00000000000000e+00,0.00000000000000e+00,5.99927624336592e-01
4.46141550714634e-08,0.00000000000000e+00,0.00000000000000e+00,5.99916993209331e-01
4.50000000000000e-08,0.00000000000000e+00,0.00000000000000e+00,5.99940744281965e-01
4.50100000000000e-08,5.99999999999886e-02,0.00000000000000e+00,6.00198641290589e-01
4.50300000000000e-08,1.80000000000006e-01,0.00000000000000e+00,6.00633330275285e-01
4.50700000000000e-08,4.20000000000000e-01,0.00000000000000e+00,6.01119600251309e-01
4.51000000000000e-08,6.00000000000000e-01,0.00000000000000e+00,6.00605461129380e-01
4.51080000000000e-08,6.00000000000000e-01,0.00000000000000e+00,6.00246212137793e-01
4.51240000000000e-08,6.00000000000000e-01,0.00000000000000e+00,5.99644393875264e-01
4.51560000000000e-08,6.00000000000000e-01,0.00000000000000e+00,5.98724396957709e-01
4.52200000000000e-08,6.00000000000000e-01,0.00000000000000e+00,5.98035252720840e-01
4.53480000000000e-08,6.00000000000000e-01,0.00000000000000e+00,6.00604281694358e-01
4.56040000000000e-08,6.00000000000000e-01,0.00000000000000e+00,6.21385825097683e-01
4.61160000000000e-08,6.00000000000000e-01,0.00000000000000e+00,1.62716237396952e-01
4.69471702619527e-08,6.00000000000000e-01,0.00000000000000e+00,-6.12619653018209e-02
4.77590695017451e-08,6.00000000000000e-01,0.00000000000000e+00,5.65216434226214e-02
4.93828679813300e-08,6.00000000000000e-01,0.00000000000000e+00,-4.10110387681521e-02
5.00000000000000e-08,6.00000000000000e-01,0.00000000000000e+00,3.16813564033044e-02
5.00100000000000e-08,6.00000000000000e-01,5.99999999999886e-02,2.70462527109495e-02
5.00300000000000e-08,6.00000000000000e-01,1.79999999999966e-01,1.90587618009269e-02
5.00700000000000e-08,6.00000000000000e-01,4.20000000000000e-01,9.12561310208826e-03
5.01000000000000e-08,6.00000000000000e-01,6.00000000000000e-01,5.30708251433093e-03
5.01080000000000e-08,6.00000000000000e-01,6.00000000000000e-01,4.64967325564528e-03
5.01240000000000e-08,6.00000000000000e-01,6.00000000000000e-01,3.51384276332523e-03
5.01560000000000e-08,6.00000000000000e-01,6.00000000000000e-01,2.00502866429589e-03
5.02200000000000e-08,6.00000000000000e-01,6.00000000000000e-01,6.66926988111355e-04
5.03480000000000e-08,6.00000000000000e-01,6.00000000000000e-01,5.77753355362545e-05
5.06040000000000e-08,6.00000000000000e-01,6.00000000000000e-01,5.46701046767045e-06
5.11160000000001e-08,6.00000000000000e-01,6.00000000000000e-01,-3.28325399458207e-06
5.21400000000002e-08,6.00000000000000e-01,6.00000000000000e-01,9.04192221830129e-06
5.41880000000003e-08,6.00000000000000e-01,6.00000000000000e-01,-2.32414057875149e-06
5.51000000000000e-08,6.00000000000000e-01,6.00000000000000e-01,8.13330384591589e-06
5.51100000000000e-08,5.40000000000021e-01,6.00000000000000e-01,-1.55644991652965e-04
5.51300000000000e-08,4.20000000000004e-01,6.00000000000000e-01,-5.86996222552857e-04
5.51700000000000e-08,1.80000000000010e-01,6.00000000000000e-01,-1.40379159421293e-03
5.52000000000000e-08,0.00000000000000e+00,6.00000000000000e-01,-1.21768798388332e-03
5.52080000000000e-08,0.00000000000000e+00,6.00000000000000e-01,-7.51926491940030e-04
5.52240000000000e-08,0.00000000000000e+00,6.00000000000000e-01,-6.23621352149883e-06
5.52560000000000e-08,0.00000000000000e+00,6.00000000000000e-01,8.42182897218491e-04
5.53200000000000e-08,0.00000000000000e+00,6.00000000000000e-01,1.09625200170194e-03
5.54480000000000e-08,0.00000000000000e+00,6.00000000000000e-01,4.13766677857190e-04
5.57040000000000e-08,0.00000000000000e+00,6.00000000000000e-01,-1.06113171372885e-03
5.62160000000000e-08,0.00000000000000e+00,6.00000000000000e-01,1.95324396021490e-04
5.69585162528094e-08,0.00000000000000e+00,6.00000000000000e-01,-3.15970488303776e-04
5.80480360594279e-08,0.00000000000000e+00,6.00000000000000e-01,2.35465085179172e-04
5.96019314488220e-08,0.00000000000000e+00,6.00000000000000e-01,-4.67754167588121e-05
6.17737626719135e-08,0.00000000000000e+00,6.00000000000000e-01,-2.30948508098891e-05
6.50000000000000e-08,0.00000000000000e+00,6.00000000000000e-01,6.70114762104049e-05
6.50100000000000e-08,5.99999999999886e-02,6.00000000000000e-01,5.22387037009506e-04
6.50300000000000e-08,1.79999999999966e-01,6.00000000000000e-01,1.32566394610473e-03
6.50700000000000e-08,4.19999999999920e-01,6.00000000000000e-01,2.29193592825867e-03
6.51000000000000e-08,5.99999999999966e-01,6.00000000000000e-01,1.65650267887228e-03
6.51080000000000e-08,6.00000000000000e-01,6.00000000000000e-01,9.44950274901990e-04
6.51240000000000e-08,6.00000000000000e-01,6.00000000000000e-01,-6.96058093481972e-04
6.51560000000000e-08,6.00000000000000e-01,6.00000000000000e-01,-4.24634997979971e-03
6.52200000000000e-08,6.00000000000000e-01,6.00000000000000e-01,-8.89274981266648e-03
6.53480000000000e-08,6.00000000000000e-01,6.00000000000000e-01,-6.75984815675794e-03
6.56040000000000e-08,6.00000000000000e-01,6.00000000000000e-01,1.33349234209795e-01
6.61159999999999e-08,6.00000000000000e-01,6.00000000000000e-01,5.35491865502833e-01
6.71087368902855e-08,6.00000000000000e-01,6.00000000000000e-01,6.20034751486731e-01
6.80317802697385e-08,6.00000000000000e-01,6.00000000000000e-01,5.86701013523804e-01
6.98778670286444e-08,6.00000000000000e-01,6.00000000000000e-01,6.08982491651062e-01
7.01000000000000e-08,6.00000000000000e-01,6.00000000000000e-01,6.00599457011744e-01
7.01100000000000e-08,6.00000000000000e-01,5.40000000000011e-01,6.00503302380816e-01
7.01300000000000e-08,6.00000000000000e-01,4.20000000000034e-01,6.00285460597422e-01
7.01700000000000e-08,6.00000000000000e-01,1.80000000000080e-01,5.99959672713559e-01
7.02000000000000e-08,6.00000000000000e-01,3.44169137633799e-14,6.00015464330143e-01
7.02080000000000e-08,6.00000000000000e-01,0.00000000000000e+00,6.00023771569493e-01
7.02240000000000e-08,6.00000000000000e-01,0.00000000000000e+00,6.00028430446025e-01
7.02560000000000e-08,6.00000000000000e-01,0.00000000000000e+00,6.00049007410093e-01
7.03200000000000e-08,6.00000000000000e-01,0.00000000000000e+00,6.00057607042945e-01
7.04480000000000e-08,6.00000000000000e-01,0.00000000000000e+00,5.99977189799524e-01
7.07040000000000e-08,6.00000000000000e-01,0.00000000000000e+00,5.99913086386590e-01
7.12159999999999e-08,6.00000000000000e-01,0.00000000000000e+00,6.00039160054476e-01
7.18257807576351e-08,6.00000000000000e-01,0.00000000000000e+00,6.00026216355172e-01
7.30453422729054e-08,6.00000000000000e-01,0.00000000000000e+00,5.99952762535125e-01
7.46386085748089e-08,6.00000000000000e-01,0.00000000000000e+00,6.00051818824005e-01
7.51000000000000e-08,6.00000000000000e-01,0.00000000000000e+00,5.99945964855398e-01
7.51100000000000e-08,5.40000000000061e-01,0.00000000000000e+00,5.99750043194090e-01
7.51300000000000e-08,4.20000000000084e-01,0.00000000000000e+00,5.99328511805564e-01
7.51700000000000e-08,1.80000000000129e-01,0.00000000000000e+00,5.99106698914476e-01
7.52000000000000e-08,8.40438829641244e-14,0.00000000000000e+00,6.00314834835858e-01
7.52080000000000e-08,0.00000000000000e+00,0.00000000000000e+00,6.00998390710172e-01
7.52240000000000e-08,0.00000000000000e+00,0.00000000000000e+00,6.02204396280006e-01
7.52560000000000e-08,0.00000000000000e+00,0.00000000000000e+00,6.03994806676857e-01
7.53200000000000e-08,0.00000000000000e+00,0.00000000000000e+00,6.05700255398320e-01
7.54480000000000e-08,0.00000000000000e+00,0.00000000000000e+00,6.06745472301355e-01
7.57040000000000e-08,0.00000000000000e+00,0.00000000000000e+00,6.03175029105784e-01
7.62159999999999e-08,0.00000000000000e+00,0.00000000000000e+00,5.87874599244936e-01
7.70859747517807e-08,0.00000000000000e+00,0.00000000000000e+00,5.94861201952392e-01
7.79753555300574e-08,0.00000000000000e+00,0.00000000000000e+00,6.02295940159478e-01
7.81000000000000e-08,0.00000000000000e+00,0.00000000000000e+00,6.00751670539480e-01
7.82778761556553e-08,0.00000000000000e+00,0.00000000000000e+00,6.00309918013152e-01
7.86336284669660e-08,0.00000000000000e+00,0.00000000000000e+00,5.99865191705836e-01
7.93451330895874e-08,0.00000000000000e+00,0.00000000000000e+00,5.99903825104003e-01
8.07681423348300e-08,0.00000000000000e+00,0.00000000000000e+00,5.99905347754427e-01
8.36141608253154e-08,0.00000000000000e+00,0.00000000000000e+00,5.99928860352093e-01
8.50000000000000e-08,0.00000000000000e+00,0.00000000000000e+00,5.99931958812352e-01
8.50100000000000e-08,5.99999999999886e-02,0.00000000000000e+00,6.00191960775047e-01
8.50300000000000e-08,1.79999999999966e-01,0.00000000000000e+00,6.00631218213421e-01
8.50700000000000e-08,4.19999999999920e-01,0.00000000000000e+00,6.01119756349764e-01
8.51000000000000e-08,5.99999999999966e-01,0.00000000000000e+00,6.00605022790743e-01
8.51080000000000e-08,6.00000000000000e-01,0.00000000000000e+00,6.00245998459099e-01
8.51240000000000e-08,6.00000000000000e-01,0.00000000000000e+00,5.99644824412020e-01
8.51560000000000e-08,6.00000000000000e-01,0.00000000000000e+00,5.98724949252569e-01
8.52200000000000e-08,6.00000000000000e-01,0.00000000000000e+00,5.98035384877522e-01
8.53480000000000e-08,6.00000000000000e-01,0.00000000000000e+00,6.00605248545183e-01
8.56040000000000e-08,6.00000000000000e-01,0.00000000000000e+00,6.21388053174747e-01
8.61159999999999e-08,6.00000000000000e-01,0.00000000000000e+00,1.62738242577921e-01
8.69471546540070e-08,6.00000000000000e-01,0.00000000000000e+00,-6.12645780708332e-02
8.77589088815036e-08,6.00000000000000e-01,0.00000000000000e+00,5.65209640297548e-02
8.93824173364970e-08,6.00000000000000e-01,0.00000000000000e+00,-4.10097502719853e-02
9.00000000000000e-08,6.00000000000000e-01,0.00000000000000e+00,3.16890902798475e-02
9.00100000000000e-08,6.00000000000000e-01,5.99999999999886e-02,2.70533008051068e-02
9.00300000000000e-08,6.00000000000000e-01,1.79999999999966e-01,1.90641843093858e-02
9.00700000000000e-08,6.00000000000000e-01,4.19999999999920e-01,9.12821945955902e-03
9.01000000000000e-08,6.00000000000000e-01,5.99999999999966e-01,5.30863897327667e-03
9.01080000000000e-08,6.00000000000000e-01,6.00000000000000e-01,4.65103822494395e-03
9.01240000000000e-08,6.00000000000000e-01,6.00000000000000e-01,3.51488220556812e-03
9.01560000000000e-08,6.00000000000000e-01,6.00000000000000e-01,2.00563467169755e-03
9.02200000000000e-08,6.00000000000000e-01,6.00000000000000e-01,6.67142364518494e-04
9.03480000000000e-08,6.00000000000000e-01,6.00000000000000e-01,5.77942833299289e-05
9.06040000000000e-08,6.00000000000000e-01,6.00000000000000e-01,5.46449343449829e-06
9.11159999999999e-08,6.00000000000000e-01,6.00000000000000e-01,-3.28473406788210e-06
9.21399999999999e-08,6.00000000000000e-01,6.00000000000000e-01,9.04443065197560e-06
9.41879999999998e-08,6.00000000000000e-01,6.00000000000000e-01,-2.32654533429896e-06
9.51000000000000e-08,6.00000000000000e-01,6.00000000000000e-01,8.13635147081312e-06
9.51100000000000e-08,5.40000000000061e-01,6.00000000000000e-01,-1.55642746934220e-04
9.51300000000000e-08,4.20000000000084e-01,6.00000000000000e-01,-5.86996063997605e-04
9.51700000000000e-08,1.80000000000129e-01,6.00000000000000e-01,-1.40379256398604e-03
9.52000000000000e-08,8.40438829641244e-14,6.00000000000000e-01,-1.21768887434838e-03
9.52080000000000e-08,0.00000000000000e+00,6.00000000000000e-01,-7.51927410006750e-04
9.52240000000000e-08,0.00000000000000e+00,6.00000000000000e-01,-6.23710840255698e-06
9.52560000000000e-08,0.00000000000000e+00,6.00000000000000e-01,8.42182120983900e-04
9.53200000000000e-08,0.00000000000000e+00,6.00000000000000e-01,1.09625142061809e-03
9.54480000000000e-08,0.00000000000000e+00,6.00000000000000e-01,4.13765126807568e-04
9.57040000000000e-08,0.00000000000000e+00,6.00000000000000e-01,-1.06115951114344e-03
9.62159999999999e-08,0.00000000000000e+00,6.00000000000000e-01,1.95336189994410e-04
9.69585082554397e-08,0.00000000000000e+00,6.00000000000000e-01,-3.15978051751611e-04
9.80480306648602e-08,0.00000000000000e+00,6.00000000000000e-01,2.35468428065396e-04
9.96019137595239e-08,0.00000000000000e+00,6.00000000000000e-01,-4.67746703099736e-05
1.01773748041531e-07,0.00000000000000e+00,6.00000000000000e-01,-2.30963667640551e-05
1.05000000000000e-07,0.00000000000000e+00,6.00000000000000e-01,6.70133073669681e-05
1.05010000000000e-07,5.99999999999886e-02,6.00000000000000e-01,5.22387345771716e-04
1.05030000000000e-07,1.79999999999966e-01,6.00000000000000e-01,1.32566241390002e-03
1.05070000000000e-07,4.19999999999920e-01,6.00000000000000e-01,2.29193428140588e-03
1.05100000000000e-07,5.99999999999966e-01,6.00000000000000e-01,1.65650888257884e-03
1.05108000000000e-07,6.00000000000000e-01,6.00000000000000e-01,9.44961314711959e-04
1.05124000000000e-07,6.00000000000000e-01,6.00000000000000e-01,-6.96039425647887e-04
1.05156000000000e-07,6.00000000000000e-01,6.00000000000000e-01,-4.24632815878614e-03
1.05220000000000e-07,6.00000000000000e-01,6.00000000000000e-01,-8.89274146754516e-03
1.05348000000000e-07,6.00000000000000e-01,6.00000000000000e-01,-6.75987281233567e-03
1.05604000000000e-07,6.00000000000000e-01,6.00000000000000e-01,1.33349024457604e-01
1.06116000000000e-07,6.00000000000000e-01,6.00000000000000e-01,5.35491754558568e-01
1.07108738076271e-07,6.00000000000000e-01,6.00000000000000e-01,6.20034801418577e-01
1.08031781130814e-07,6.00000000000000e-01,6.00000000000000e-01,5.86700976172507e-01
1.09877867239900e-07,6.00000000000000e-01,6.00000000000000e-01,6.08982515095087e-01
1.10100000000000e-07,6.00000000000000e-01,6.00000000000000e-01,6.00599458769256e-01
1.10110000000000e-07,6.00000000000000e-01,5.40000000000091e-01,6.00503304390420e-01
