Time,v(clk),v(data),v(out)
1.00000000000000e-08,6.00000000000000e-01,0.00000000000000e+00,1.03465442417978e-04
1.00100000000000e-08,6.00000000000000e-01,5.99999999999986e-02,9.20322664785256e-05
1.00300000000000e-08,6.00000000000000e-01,1.79999999999996e-01,6.01754626562284e-05
1.00700000000000e-08,6.00000000000000e-01,4.19999999999990e-01,1.24272399588260e-05
1.01000000000000e-08,6.00000000000000e-01,5.99999999999995e-01,-9.89926289357568e-06
1.01080000000000e-08,6.00000000000000e-01,6.00000000000000e-01,-1.15517105089280e-05
1.01240000000000e-08,6.00000000000000e-01,6.00000000000000e-01,-8.85880684911577e-06
1.01560000000000e-08,6.00000000000000e-01,6.00000000000000e-01,8.58863570656065e-06
1.02200000000000e-08,6.00000000000000e-01,6.00000000000000e-01,1.69823159100052e-05
1.03480000000000e-08,6.00000000000000e-01,6.00000000000000e-01,-2.74215267874467e-07
1.06040000000000e-08,6.00000000000000e-01,6.00000000000000e-01,2.45189039774565e-06
1.11160000000000e-08,6.00000000000000e-01,6.00000000000000e-01,2.75728950371867e-06
1.21400000000000e-08,6.00000000000000e-01,6.00000000000000e-01,1.95042202555049e-06
1.41880000000000e-08,6.00000000000000e-01,6.00000000000000e-01,2.55562753110998e-06
1.51000000000000e-08,6.00000000000000e-01,6.00000000000000e-01,1.70842235067657e-06
1.51100000000000e-08,5.39999999999992e-01,6.00000000000000e-01,-1.02986898274648e-04
1.51300000000000e-08,4.19999999999994e-01,6.00000000000000e-01,-2.79640693152991e-04
1.51700000000000e-08,1.80000000000000e-01,6.00000000000000e-01,-3.24404887174098e-04
1.52000000000000e-08,0.00000000000000e+00,6.00000000000000e-01,3.14094400571813e-04
1.52080000000000e-08,0.00000000000000e+00,6.00000000000000e-01,6.55603700012025e-04
1.52240000000000e-08,0.00000000000000e+00,6.00000000000000e-01,1.06001338159012e-03
1.52560000000000e-08,0.00000000000000e+00,6.00000000000000e-01,1.02263462416312e-03
1.53200000000000e-08,0.00000000000000e+00,6.00000000000000e-01,3.45806517777922e-04
1.54480000000000e-08,0.00000000000000e+00,6.00000000000000e-01,-8.82226353809579e-04
1.57040000000000e-08,0.00000000000000e+00,6.00000000000000e-01,3.89274048772807e-04
1.60980632000431e-08,0.00000000000000e+00,6.00000000000000e-01,-3.94202252882180e-04
1.65375225739466e-08,0.00000000000000e+00,6.00000000000000e-01,4.02421233157580e-04
1.73184880041484e-08,0.00000000000000e+00,6.00000000000000e-01,-3.57125384366119e-04
1.81146780579156e-08,0.00000000000000e+00,6.00000000000000e-01,3.12860189946723e-04
1.97070581654500e-08,0.00000000000000e+00,6.00000000000000e-01,-2.86902924557689e-04
2.19745205634594e-08,0.00000000000000e+00,6.00000000000000e-01,2.72731121016783e-04
2.50000000000000e-08,0.00000000000000e+00,6.00000000000000e-01,-2.58100016678163e-04
2.50100000000000e-08,5.99999999999886e-02,6.00000000000000e-01,1.01148412327751e-04
2.50300000000000e-08,1.80000000000006e-01,6.00000000000000e-01,6.29510413788156e-04
2.50700000000000e-08,4.20000000000000e-01,6.00000000000000e-01,1.07841391788173e-03
2.51000000000000e-08,6.00000000000000e-01,6.00000000000000e-01,-1.34304340009536e-04
2.51080000000000e-08,6.00000000000000e-01,6.00000000000000e-01,-9.07596211387460e-04
2.51240000000000e-08,6.00000000000000e-01,6.00000000000000e-01,-2.36299429134039e-03
2.51560000000000e-08,6.00000000000000e-01,6.00000000000000e-01,-4.45545592045553e-03
2.52200000000000e-08,6.00000000000000e-01,6.00000000000000e-01,-5.57068084389037e-03
2.53480000000000e-08,6.00000000000000e-01,6.00000000000000e-01,5.93569881347426e-02
2.56040000000000e-08,6.00000000000000e-01,6.00000000000000e-01,4.96483355632853e-01
2.60601561830447e-08,6.00000000000000e-01,6.00000000000000e-01,6.19909517156408e-01
2.65226039620604e-08,6.00000000000000e-01,6.00000000000000e-01,5.82416638939494e-01
2.74474995200918e-08,6.00000000000000e-01,6.00000000000000e-01,6.15330959996593e-01
2.85064605239387e-08,6.00000000000000e-01,6.00000000000000e-01,5.85234097514956e-01
3.01000000000000e-08,6.00000000000000e-01,6.00000000000000e-01,6.13491835870458e-01
3.01100000000000e-08,6.00000000000000e-01,5.40000000000031e-01,6.08799842026275e-01
3.01300000000000e-08,6.00000000000000e-01,4.20000000000014e-01,6.02653414368711e-01
3.01700000000000e-08,6.00000000000000e-01,1.80000000000020e-01,5.99895403149277e-01
3.02000000000000e-08,6.00000000000000e-01,1.44328993201270e-14,6.00025602947715e-01
3.02080000000000e-08,6.00000000000000e-01,0.00000000000000e+00,6.00033952578329e-01
3.02240000000000e-08,6.00000000000000e-01,0.00000000000000e+00,6.00035582558723e-01
3.02560000000000e-08,6.00000000000000e-01,0.00000000000000e+00,5.99994940608953e-01
3.03200000000000e-08,6.00000000000000e-01,0.00000000000000e+00,5.99928660591180e-01
3.04480000000000e-08,6.00000000000000e-01,0.00000000000000e+00,5.99940355087276e-01
3.07040000000000e-08,6.00000000000000e-01,0.00000000000000e+00,6.00057539395882e-01
3.10850536522663e-08,6.00000000000000e-01,0.00000000000000e+00,5.99917942677853e-01
3.15994774100015e-08,6.00000000000000e-01,0.00000000000000e+00,6.00041854769974e-01
3.26283249254720e-08,6.00000000000000e-01,0.00000000000000e+00,5.99934266343640e-01
3.46860199564129e-08,6.00000000000000e-01,0.00000000000000e+00,6.00038335406376e-01
3.51000000000000e-08,5.99999999999970e-01,0.00000000000000e+00,5.99948100963207e-01
3.51100000000000e-08,5.39999999999982e-01,0.00000000000000e+00,5.99833223384313e-01
3.51300000000000e-08,4.19999999999965e-01,0.00000000000000e+00,5.99666110802272e-01
3.51700000000000e-08,1.79999999999970e-01,0.00000000000000e+00,6.00583175513386e-01
3.52000000000000e-08,0.00000000000000e+00,0.00000000000000e+00,6.03503455057670e-01
3.52080000000000e-08,0.00000000000000e+00,0.00000000000000e+00,6.04421340191729e-01
3.52240000000000e-08,0.00000000000000e+00,0.00000000000000e+00,6.05697712059896e-01
3.52560000000000e-08,0.00000000000000e+00,0.00000000000000e+00,6.06362269253615e-01
3.53200000000000e-08,0.00000000000000e+00,0.00000000000000e+00,6.01679774437805e-01
3.54480000000000e-08,0.00000000000000e+00,0.00000000000000e+00,5.87318121521133e-01
3.57040000000000e-08,0.00000000000000e+00,0.00000000000000e+00,5.96167794701213e-01
3.60483401724008e-08,0.00000000000000e+00,0.00000000000000e+00,6.01875190169049e-01
3.66085105219569e-08,0.00000000000000e+00,0.00000000000000e+00,5.98132670115979e-01
3.72478142458811e-08,0.00000000000000e+00,0.00000000000000e+00,6.01191583711553e-01
3.85264216937296e-08,0.00000000000000e+00,0.00000000000000e+00,5.98700148549496e-01
3.91000000000000e-08,0.00000000000000e+00,0.00000000000000e+00,6.00855434650767e-01
3.93557214895697e-08,0.00000000000000e+00,0.00000000000000e+00,6.00020633512191e-01
3.98671644687091e-08,0.00000000000000e+00,0.00000000000000e+00,5.99845666167351e-01
4.08900504269879e-08,0.00000000000000e+00,0.00000000000000e+00,5.99999260692121e-01
4.29358223435455e-08,0.00000000000000e+00,0.00000000000000e+00,5.99883437907946e-01
4.50000000000000e-08,0.00000000000000e+00,0.00000000000000e+00,6.00008456120424e-01
4.50100000000000e-08,5.99999999999886e-02,0.00000000000000e+00,6.00193599359588e-01
4.50300000000000e-08,1.80000000000006e-01,0.00000000000000e+00,6.00381963051683e-01
4.50700000000000e-08,4.20000000000000e-01,0.00000000000000e+00,6.00313426218133e-01
4.51000000000000e-08,6.00000000000000e-01,0.00000000000000e+00,5.99786717193860e-01
4.51080000000000e-08,6.00000000000000e-01,0.00000000000000e+00,5.99605924780747e-01
4.51240000000000e-08,6.00000000000000e-01,0.00000000000000e+00,5.99370692071674e-01
4.51560000000000e-08,6.00000000000000e-01,0.00000000000000e+00,5.99255946041221e-01
4.52200000000000e-08,6.00000000000000e-01,0.00000000000000e+00,5.99717159861086e-01
4.53480000000000e-08,6.00000000000000e-01,0.00000000000000e+00,6.06349936457554e-01
4.56040000000000e-08,6.00000000000000e-01,0.00000000000000e+00,3.17020313647095e-01
4.61160000000000e-08,6.00000000000000e-01,0.00000000000000e+00,-4.90456773718063e-02
4.65807469468210e-08,6.00000000000000e-01,0.00000000000000e+00,3.79834918859068e-02
4.75102408404629e-08,6.00000000000000e-01,0.00000000000000e+00,-2.58026771647807e-02
4.84584762839617e-08,6.00000000000000e-01,0.00000000000000e+00,2.34360008108952e-02
5.00000000000000e-08,6.00000000000000e-01,0.00000000000000e+00,-1.82315715433508e-02
5.00100000000000e-08,6.00000000000000e-01,5.99999999999886e-02,-1.58934072492311e-02
5.00300000000000e-08,6.00000000000000e-01,1.79999999999966e-01,-1.10044279781562e-02
5.00700000000000e-08,6.00000000000000e-01,4.20000000000000e-01,-4.32879243034558e-03
5.01000000000000e-08,6.00000000000000e-01,6.00000000000000e-01,-2.25486395074649e-03
5.01080000000000e-08,6.00000000000000e-01,6.00000000000000e-01,-1.89080472933931e-03
5.01240000000000e-08,6.00000000000000e-01,6.00000000000000e-01,-1.29661584932947e-03
5.01560000000000e-08,6.00000000000000e-01,6.00000000000000e-01,-5.97754373633727e-04
5.02200000000000e-08,6.00000000000000e-01,6.00000000000000e-01,-8.11920625924389e-05
5.03480000000000e-08,6.00000000000000e-01,6.00000000000000e-01,1.23881430642708e-05
5.06040000000000e-08,6.00000000000000e-01,6.00000000000000e-01,-5.06504110568684e-06
5.11160000000001e-08,6.00000000000000e-01,6.00000000000000e-01,6.89735920021695e-06
5.21400000000002e-08,6.00000000000000e-01,6.00000000000000e-01,-3.46407973220685e-06
5.41880000000003e-08,6.00000000000000e-01,6.00000000000000e-01,5.22338073452675e-06
5.51000000000000e-08,6.00000000000000e-01,6.00000000000000e-01,-2.00753682217183e-06
5.51100000000000e-08,5.40000000000021e-01,6.00000000000000e-01,-1.07647077267278e-04
5.51300000000000e-08,4.20000000000004e-01,6.00000000000000e-01,-2.80199463602443e-04
5.51700000000000e-08,1.80000000000010e-01,6.00000000000000e-01,-3.13453231372621e-04
5.52000000000000e-08,0.00000000000000e+00,6.00000000000000e-01,3.08172666075829e-04
5.52080000000000e-08,0.00000000000000e+00,6.00000000000000e-01,6.49524567456775e-04
5.52240000000000e-08,0.00000000000000e+00,6.00000000000000e-01,1.04251970324688e-03
5.52560000000000e-08,0.00000000000000e+00,6.00000000000000e-01,9.86248973085052e-04
5.53200000000000e-08,0.00000000000000e+00,6.00000000000000e-01,2.63623845027927e-05
5.54480000000000e-08,0.00000000000000e+00,6.00000000000000e-01,-1.09233552634335e-03
5.57040000000000e-08,0.00000000000000e+00,6.00000000000000e-01,5.16333737085432e-04
5.60976198506101e-08,0.00000000000000e+00,6.00000000000000e-01,-4.88648435539790e-04
5.65373056756572e-08,0.00000000000000e+00,6.00000000000000e-01,4.75594452193740e-04
5.73181778732934e-08,0.00000000000000e+00,6.00000000000000e-01,-4.22578088236302e-04
5.81143728116983e-08,0.00000000000000e+00,6.00000000000000e-01,3.70389334234033e-04
5.97067626885082e-08,0.00000000000000e+00,6.00000000000000e-01,-3.41248431279894e-04
6.19765188105201e-08,0.00000000000000e+00,6.00000000000000e-01,3.24943424541828e-04
6.50000000000000e-08,0.00000000000000e+00,6.00000000000000e-01,-3.08810103634209e-04
6.50100000000000e-08,5.99999999999886e-02,6.00000000000000e-01,7.11120592791353e-05
6.50300000000000e-08,1.79999999999966e-01,6.00000000000000e-01,6.19112667972696e-04
6.50700000000000e-08,4.19999999999920e-01,6.00000000000000e-01,1.07515859711174e-03
6.51000000000000e-08,5.99999999999966e-01,6.00000000000000e-01,-1.34658454460798e-04
6.51080000000000e-08,6.00000000000000e-01,6.00000000000000e-01,-9.08291410824019e-04
6.51240000000000e-08,6.00000000000000e-01,6.00000000000000e-01,-2.36373879549011e-03
6.51560000000000e-08,6.00000000000000e-01,6.00000000000000e-01,-4.45572688718249e-03
6.52200000000000e-08,6.00000000000000e-01,6.00000000000000e-01,-5.57091704819154e-03
6.53480000000000e-08,6.00000000000000e-01,6.00000000000000e-01,5.93551089088669e-02
6.56040000000000e-08,6.00000000000000e-01,6.00000000000000e-01,4.96481422561541e-01
6.60601537266044e-08,6.00000000000000e-01,6.00000000000000e-01,6.19909756964624e-01
6.65225993830764e-08,6.00000000000000e-01,6.00000000000000e-01,5.82416441528740e-01
6.74474906960204e-08,6.00000000000000e-01,6.00000000000000e-01,6.15331150097317e-01
6.85064528534956e-08,6.00000000000000e-01,6.00000000000000e-01,5.85233917501444e-01
7.01000000000000e-08,6.00000000000000e-01,6.00000000000000e-01,6.13492018095253e-01
7.01100000000000e-08,6.00000000000000e-01,5.40000000000011e-01,6.08799945676633e-01
7.01300000000000e-08,6.00000000000000e-01,4.20000000000034e-01,6.02653409193117e-01
7.01700000000000e-08,6.00000000000000e-01,1.80000000000080e-01,5.99895398709461e-01
7.02000000000000e-08,6.00000000000000e-01,3.44169137633799e-14,6.00025600189340e-01
7.02080000000000e-08,6.00000000000000e-01,0.00000000000000e+00,6.00033950158152e-01
7.02240000000000e-08,6.00000000000000e-01,0.00000000000000e+00,6.00035581525921e-01
7.02560000000000e-08,6.00000000000000e-01,0.00000000000000e+00,5.99994940081445e-01
7.03200000000000e-08,6.00000000000000e-01,0.00000000000000e+00,5.99928658477191e-01
7.04480000000000e-08,6.00000000000000e-01,0.00000000000000e+00,5.99940354935966e-01
7.07040000000000e-08,6.00000000000000e-01,0.00000000000000e+00,6.00057538112331e-01
7.10850525358057e-08,6.00000000000000e-01,0.00000000000000e+00,5.99917943274356e-01
7.15994750220090e-08,6.00000000000000e-01,0.00000000000000e+00,6.00041853833322e-01
7.26283199944155e-08,6.00000000000000e-01,0.00000000000000e+00,5.99934266386777e-01
7.46860099392286e-08,6.00000000000000e-01,0.00000000000000e+00,6.00038334968962e-01
7.51000000000000e-08,6.00000000000000e-01,0.00000000000000e+00,5.99948100471026e-01
7.51100000000000e-08,5.40000000000061e-01,0.00000000000000e+00,5.99833227097369e-01
7.51300000000000e-08,4.20000000000084e-01,0.00000000000000e+00,5.99666110789393e-01
7.51700000000000e-08,1.80000000000129e-01,0.00000000000000e+00,6.00583174777249e-01
7.52000000000000e-08,8.40438829641244e-14,0.00000000000000e+00,6.03503454495308e-01
7.52080000000000e-08,0.00000000000000e+00,0.00000000000000e+00,6.04421339278099e-01
7.52240000000000e-08,0.00000000000000e+00,0.00000000000000e+00,6.05697709992521e-01
7.52560000000000e-08,0.00000000000000e+00,0.00000000000000e+00,6.06362259801949e-01
7.53200000000000e-08,0.00000000000000e+00,0.00000000000000e+00,6.01679735866050e-01
7.54480000000000e-08,0.00000000000000e+00,0.00000000000000e+00,5.87318105425399e-01
7.57040000000000e-08,0.00000000000000e+00,0.00000000000000e+00,5.96167815540074e-01
7.60483401264485e-08,0.00000000000000e+00,0.00000000000000e+00,6.01875174346650e-01
7.66085105687071e-08,0.00000000000000e+00,0.00000000000000e+00,5.98132681781125e-01
7.72478142207555e-08,0.00000000000000e+00,0.00000000000000e+00,6.01191573738890e-01
7.81000000000000e-08,0.00000000000000e+00,0.00000000000000e+00,5.98750857022397e-01
7.82278607304097e-08,0.00000000000000e+00,0.00000000000000e+00,5.99646048000629e-01
7.84835821912291e-08,0.00000000000000e+00,0.00000000000000e+00,6.00038175622504e-01
7.89950251128678e-08,0.00000000000000e+00,0.00000000000000e+00,5.99806986815364e-01
8.00179109561452e-08,0.00000000000000e+00,0.00000000000000e+00,6.00014044761883e-01
8.20636826427000e-08,0.00000000000000e+00,0.00000000000000e+00,5.99857484334436e-01
8.50000000000000e-08,0.00000000000000e+00,0.00000000000000e+00,6.00030913593000e-01
8.50100000000000e-08,5.99999999999886e-02,0.00000000000000e+00,6.00218097485613e-01
8.50300000000000e-08,1.79999999999966e-01,0.00000000000000e+00,6.00405425259715e-01
8.50700000000000e-08,4.19999999999920e-01,0.00000000000000e+00,6.00288779720012e-01
8.51000000000000e-08,5.99999999999966e-01,0.00000000000000e+00,5.99784828057803e-01
8.51080000000000e-08,6.00000000000000e-01,0.00000000000000e+00,5.99604925893987e-01
8.51240000000000e-08,6.00000000000000e-01,0.00000000000000e+00,5.99371822375748e-01
8.51560000000000e-08,6.00000000000000e-01,0.00000000000000e+00,5.99258109237816e-01
8.52200000000000e-08,6.00000000000000e-01,0.00000000000000e+00,5.99718667064704e-01
8.53480000000000e-08,6.00000000000000e-01,0.00000000000000e+00,6.06349556742104e-01
8.56040000000000e-08,6.00000000000000e-01,0.00000000000000e+00,3.17046500903473e-01
8.61159999999999e-08,6.00000000000000e-01,0.00000000000000e+00,-4.90392012310467e-02
8.65807625521091e-08,6.00000000000000e-01,0.00000000000000e+00,3.79784467045288e-02
8.75102876563275e-08,6.00000000000000e-01,0.00000000000000e+00,-2.57994573297244e-02
8.84585389882374e-08,6.00000000000000e-01,0.00000000000000e+00,2.34329767692824e-02
9.00000000000000e-08,6.00000000000000e-01,0.00000000000000e+00,-1.82289797585825e-02
9.00100000000000e-08,6.00000000000000e-01,5.99999999999886e-02,-1.58915259634773e-02
9.00300000000000e-08,6.00000000000000e-01,1.79999999999966e-01,-1.10034119510290e-02
9.00700000000000e-08,6.00000000000000e-01,4.19999999999920e-01,-4.32838952349797e-03
9.01000000000000e-08,6.00000000000000e-01,5.99999999999966e-01,-2.25469452904595e-03
9.01080000000000e-08,6.00000000000000e-01,6.00000000000000e-01,-1.89065270104304e-03
9.01240000000000e-08,6.00000000000000e-01,6.00000000000000e-01,-1.29650565524518e-03
9.01560000000000e-08,6.00000000000000e-01,6.00000000000000e-01,-5.97706156519745e-04
9.02200000000000e-08,6.00000000000000e-01,6.00000000000000e-01,-8.11850904534478e-05
9.03480000000000e-08,6.00000000000000e-01,6.00000000000000e-01,1.23872255604340e-05
9.06040000000000e-08,6.00000000000000e-01,6.00000000000000e-01,-5.06412513029408e-06
9.11159999999999e-08,6.00000000000000e-01,6.00000000000000e-01,6.89642478563304e-06
9.21399999999999e-08,6.00000000000000e-01,6.00000000000000e-01,-3.46327467984006e-06
9.41879999999998e-08,6.00000000000000e-01,6.00000000000000e-01,5.22262707027335e-06
9.51000000000000e-08,6.00000000000000e-01,6.00000000000000e-01,-2.00686092259074e-06
9.51100000000000e-08,5.40000000000061e-01,6.00000000000000e-01,-1.07646734998648e-04
9.51300000000000e-08,4.20000000000084e-01,6.00000000000000e-01,-2.80199200510714e-04
9.51700000000000e-08,1.80000000000129e-01,6.00000000000000e-01,-3.13452681747844e-04
9.52000000000000e-08,8.40438829641244e-14,6.00000000000000e-01,3.08173190525313e-04
9.52080000000000e-08,0.00000000000000e+00,6.00000000000000e-01,6.49525041359164e-04
9.52240000000000e-08,0.00000000000000e+00,6.00000000000000e-01,1.04252006093535e-03
9.52560000000000e-08,0.00000000000000e+00,6.00000000000000e-01,9.86249058011202e-04
9.53200000000000e-08,0.00000000000000e+00,6.00000000000000e-01,2.63608192709736e-05
9.54480000000000e-08,0.00000000000000e+00,6.00000000000000e-01,-1.09233703619072e-03
9.57040000000000e-08,0.00000000000000e+00,6.00000000000000e-01,5.16334450209852e-04
9.60976198499190e-08,0.00000000000000e+00,6.00000000000000e-01,-4.88648885081492e-04
9.65373056753394e-08,0.00000000000000e+00,6.00000000000000e-01,4.75594741771283e-04
9.73181778729597e-08,0.00000000000000e+00,6.00000000000000e-01,-4.22578318208725e-04
9.81143728114834e-08,0.00000000000000e+00,6.00000000000000e-01,3.70389516552235e-04
9.97067626885307e-08,0.00000000000000e+00,6.00000000000000e-01,-3.41248594339509e-04
1.01976518813362e-07,0.00000000000000e+00,6.00000000000000e-01,3.24943575040599e-04
1.05000000000000e-07,0.00000000000000e+00,6.00000000000000e-01,-3.08810245612655e-04
1.05010000000000e-07,5.99999999999886e-02,6.00000000000000e-01,7.11119553381961e-05
1.05030000000000e-07,1.79999999999966e-01,6.00000000000000e-01,6.19112599462124e-04
1.05070000000000e-07,4.19999999999920e-01,6.00000000000000e-01,1.07515856244690e-03
1.05100000000000e-07,5.99999999999966e-01,6.00000000000000e-01,-1.34658467322746e-04
1.05108000000000e-07,6.00000000000000e-01,6.00000000000000e-01,-9.08291422848373e-04
1.05124000000000e-07,6.00000000000000e-01,6.00000000000000e-01,-2.36373880451238e-03
1.05156000000000e-07,6.00000000000000e-01,6.00000000000000e-01,-4.45572689121962e-03
1.05220000000000e-07,6.00000000000000e-01,6.00000000000000e-01,-5.57091704941923e-03
1.05348000000000e-07,6.00000000000000e-01,6.00000000000000e-01,5.93551089097662e-02
1.05604000000000e-07,6.00000000000000e-01,6.00000000000000e-01,4.96481422563708e-01
1.06060153726610e-07,6.00000000000000e-01,6.00000000000000e-01,6.19909756963898e-01
1.06522599383086e-07,6.00000000000000e-01,6.00000000000000e-01,5.82416441513063e-01
