Time,v(clk),v(data),v(out),v(reset)
1.00000000000000e-08,6.00000000000000e-01,0.00000000000000e+00,2.53386790084980e-05,0.00000000000000e+00
1.00100000000000e-08,6.00000000000000e-01,5.99999999999986e-02,1.86204046397909e-05,0.00000000000000e+00
1.00300000000000e-08,6.00000000000000e-01,1.79999999999996e-01,1.00483556213782e-05,0.00000000000000e+00
1.00700000000000e-08,6.00000000000000e-01,4.19999999999990e-01,4.11389628478948e-06,0.00000000000000e+00
1.01000000000000e-08,6.00000000000000e-01,5.99999999999995e-01,3.07358121395818e-06,0.00000000000000e+00
1.01080000000000e-08,6.00000000000000e-01,6.00000000000000e-01,3.34812017255270e-06,0.00000000000000e+00
1.01240000000000e-08,6.00000000000000e-01,6.00000000000000e-01,4.07887525517153e-06,0.00000000000000e+00
1.01560000000000e-08,6.00000000000000e-01,6.00000000000000e-01,4.58132607301237e-06,0.00000000000000e+00
1.02200000000000e-08,6.00000000000000e-01,6.00000000000000e-01,4.03260005093706e-06,0.00000000000000e+00
1.03480000000000e-08,6.00000000000000e-01,6.00000000000000e-01,3.51109118687520e-06,0.00000000000000e+00
1.06040000000000e-08,6.00000000000000e-01,6.00000000000000e-01,3.37436738852802e-06,0.00000000000000e+00
1.11160000000000e-08,6.00000000000000e-01,6.00000000000000e-01,3.48587938046787e-06,0.00000000000000e+00
1.21400000000000e-08,6.00000000000000e-01,6.00000000000000e-01,2.94608059490682e-06,0.00000000000000e+00
1.41880000000000e-08,6.00000000000000e-01,6.00000000000000e-01,2.89872489507180e-06,0.00000000000000e+00
1.51000000000000e-08,6.00000000000000e-01,6.00000000000000e-01,2.50069308932455e-06,0.00000000000000e+00
1.51100000000000e-08,5.39999999999992e-01,6.00000000000000e-01,1.47177979321220e-04,6.00000000000085e-02
1.51300000000000e-08,4.19999999999994e-01,6.00000000000000e-01,2.58981198051823e-04,1.80000000000006e-01
1.51700000000000e-08,1.80000000000000e-01,6.00000000000000e-01,1.14521557120877e-04,4.20000000000000e-01
1.52000000000000e-08,0.00000000000000e+00,6.00000000000000e-01,9.69635687207288e-05,6.00000000000000e-01
1.52080000000000e-08,0.00000000000000e+00,6.00000000000000e-01,9.22779926212577e-05,6.00000000000000e-01
1.52240000000000e-08,0.00000000000000e+00,6.00000000000000e-01,8.29638551138809e-05,6.00000000000000e-01
1.52560000000000e-08,0.00000000000000e+00,6.00000000000000e-01,3.75628282345830e-05,6.00000000000000e-01
1.53200000000000e-08,0.00000000000000e+00,6.00000000000000e-01,-1.44495322026615e-04,6.00000000000000e-01
1.54480000000000e-08,0.00000000000000e+00,6.00000000000000e-01,-1.70914840307835e-04,6.00000000000000e-01
1.56904675042742e-08,0.00000000000000e+00,6.00000000000000e-01,-2.54137274932637e-05,6.00000000000000e-01
1.61140010163115e-08,0.00000000000000e+00,6.00000000000000e-01,6.06048013381509e-06,6.00000000000000e-01
1.66259021417978e-08,0.00000000000000e+00,6.00000000000000e-01,1.16715409205135e-04,6.00000000000000e-01
1.76497043927704e-08,0.00000000000000e+00,6.00000000000000e-01,-1.55265899553596e-04,6.00000000000000e-01
1.88890058877207e-08,0.00000000000000e+00,6.00000000000000e-01,1.69225821387567e-04,6.00000000000000e-01
2.12500774562948e-08,0.00000000000000e+00,6.00000000000000e-01,-1.70182953147590e-04,6.00000000000000e-01
2.48892384423582e-08,0.00000000000000e+00,6.00000000000000e-01,1.73597421086518e-04,6.00000000000000e-01
2.50000000000000e-08,0.00000000000000e+00,6.00000000000000e-01,-9.91834443363725e-05,6.00000000000000e-01
2.50100000000000e-08,5.99999999999886e-02,6.00000000000000e-01,1.16581653995182e-05,6.00000000000000e-01
2.50300000000000e-08,1.80000000000006e-01,6.00000000000000e-01,1.75590970369580e-04,6.00000000000000e-01
2.50700000000000e-08,4.20000000000000e-01,6.00000000000000e-01,2.80239664110254e-04,6.00000000000000e-01
2.51000000000000e-08,6.00000000000000e-01,6.00000000000000e-01,-5.57921419916625e-04,6.00000000000000e-01
2.51080000000000e-08,6.00000000000000e-01,6.00000000000000e-01,-1.13948533968420e-03,6.00000000000000e-01
2.51240000000000e-08,6.00000000000000e-01,6.00000000000000e-01,-2.34819179628259e-03,6.00000000000000e-01
2.51560000000000e-08,6.00000000000000e-01,6.00000000000000e-01,-4.31811139578644e-03,6.00000000000000e-01
2.52200000000000e-08,6.00000000000000e-01,6.00000000000000e-01,-3.48317275219499e-03,6.00000000000000e-01
2.53480000000000e-08,6.00000000000000e-01,6.00000000000000e-01,1.69945724938863e-01,6.00000000000000e-01
2.56040000000000e-08,6.00000000000000e-01,6.00000000000000e-01,5.81748232380313e-01,6.00000000000000e-01
2.61160000000000e-08,6.00000000000000e-01,6.00000000000000e-01,6.06040370768032e-01,6.00000000000000e-01
2.67063676443895e-08,6.00000000000000e-01,6.00000000000000e-01,5.93951925795329e-01,6.00000000000000e-01
2.77100581536956e-08,6.00000000000000e-01,6.00000000000000e-01,6.04829359246234e-01,6.00000000000000e-01
2.90166136027372e-08,6.00000000000000e-01,6.00000000000000e-01,5.94978640208502e-01,6.00000000000000e-01
3.16297245008203e-08,6.00000000000000e-01,6.00000000000000e-01,6.04440904188968e-01,6.00000000000000e-01
3.51000000000000e-08,5.99999999999970e-01,6.00000000000000e-01,5.95282784804489e-01,6.00000000000000e-01
3.51100000000000e-08,5.39999999999982e-01,6.00000000000000e-01,5.96977812012285e-01,6.00000000000000e-01
3.51300000000000e-08,4.19999999999965e-01,6.00000000000000e-01,5.99073991583251e-01,6.00000000000000e-01
3.51700000000000e-08,1.79999999999970e-01,6.00000000000000e-01,6.00360265181349e-01,6.00000000000000e-01
3.52000000000000e-08,0.00000000000000e+00,6.00000000000000e-01,6.01899687364547e-01,6.00000000000000e-01
3.52080000000000e-08,0.00000000000000e+00,6.00000000000000e-01,6.02301622079164e-01,6.00000000000000e-01
3.52240000000000e-08,0.00000000000000e+00,6.00000000000000e-01,6.02691809414012e-01,6.00000000000000e-01
3.52560000000000e-08,0.00000000000000e+00,6.00000000000000e-01,6.00796655656211e-01,6.00000000000000e-01
3.53200000000000e-08,0.00000000000000e+00,6.00000000000000e-01,5.86486772267538e-01,6.00000000000000e-01
3.54480000000000e-08,0.00000000000000e+00,6.00000000000000e-01,5.81646766930499e-01,6.00000000000000e-01
3.57040000000000e-08,0.00000000000000e+00,6.00000000000000e-01,6.02583758162792e-01,6.00000000000000e-01
3.61558467354246e-08,0.00000000000000e+00,6.00000000000000e-01,5.97008459934502e-01,6.00000000000000e-01
3.67984211121725e-08,0.00000000000000e+00,6.00000000000000e-01,6.01960089565405e-01,6.00000000000000e-01
3.80835698656682e-08,0.00000000000000e+00,6.00000000000000e-01,5.97777086917519e-01,6.00000000000000e-01
4.06538673726598e-08,0.00000000000000e+00,6.00000000000000e-01,6.01875087706464e-01,6.00000000000000e-01
4.44538673726598e-08,0.00000000000000e+00,6.00000000000000e-01,5.97987109203499e-01,6.00000000000000e-01
4.50000000000000e-08,0.00000000000000e+00,6.00000000000000e-01,6.01526135454785e-01,6.00000000000000e-01
4.50100000000000e-08,5.99999999999886e-02,6.00000000000000e-01,6.00979355018420e-01,5.40000000000011e-01
4.50300000000000e-08,1.80000000000006e-01,6.00000000000000e-01,6.00196851250667e-01,4.19999999999994e-01
4.50700000000000e-08,4.20000000000000e-01,6.00000000000000e-01,6.01254551379522e-01,1.80000000000000e-01
4.51000000000000e-08,6.00000000000000e-01,6.00000000000000e-01,6.06146454391022e-01,0.00000000000000e+00
4.51080000000000e-08,6.00000000000000e-01,6.00000000000000e-01,6.07889867778628e-01,0.00000000000000e+00
4.51240000000000e-08,6.00000000000000e-01,6.00000000000000e-01,6.11004076169431e-01,0.00000000000000e+00
4.51560000000000e-08,6.00000000000000e-01,6.00000000000000e-01,6.17379318260541e-01,0.00000000000000e+00
4.52200000000000e-08,6.00000000000000e-01,6.00000000000000e-01,5.95957006139938e-01,0.00000000000000e+00
4.53480000000000e-08,6.00000000000000e-01,6.00000000000000e-01,2.25593753524134e-01,0.00000000000000e+00
4.55800348872800e-08,6.00000000000000e-01,6.00000000000000e-01,-4.96966728097750e-02,0.00000000000000e+00
4.58888304257067e-08,6.00000000000000e-01,6.00000000000000e-01,3.47532348782213e-02,0.00000000000000e+00
4.65064215025600e-08,6.00000000000000e-01,6.00000000000000e-01,-2.56372403245983e-02,0.00000000000000e+00
4.71891982684884e-08,6.00000000000000e-01,6.00000000000000e-01,2.24690886911485e-02,0.00000000000000e+00
4.85547518003452e-08,6.00000000000000e-01,6.00000000000000e-01,-1.93878851921840e-02,0.00000000000000e+00
5.01000000000000e-08,6.00000000000000e-01,5.99999999999966e-01,1.87181267113788e-02,0.00000000000000e+00
5.03731107063714e-08,6.00000000000000e-01,6.00000000000000e-01,1.86867274001163e-03,0.00000000000000e+00
5.09193321191141e-08,6.00000000000000e-01,6.00000000000000e-01,-1.41573106079837e-03,0.00000000000000e+00
5.20117749445995e-08,6.00000000000000e-01,6.00000000000000e-01,1.24853614262624e-03,0.00000000000000e+00
5.41966605955704e-08,6.00000000000000e-01,6.00000000000000e-01,-1.16437911640970e-03,0.00000000000000e+00
5.51000000000000e-08,6.00000000000000e-01,6.00000000000000e-01,9.92716982031572e-04,0.00000000000000e+00
5.51100000000000e-08,5.40000000000021e-01,6.00000000000000e-01,8.99474065226766e-04,5.99999999999787e-02
5.51300000000000e-08,4.20000000000004e-01,6.00000000000000e-01,6.79051998309116e-04,1.79999999999996e-01
5.51700000000000e-08,1.80000000000010e-01,6.00000000000000e-01,2.47468759657955e-04,4.19999999999990e-01
5.52000000000000e-08,0.00000000000000e+00,6.00000000000000e-01,1.46575625641694e-04,6.00000000000000e-01
5.52080000000000e-08,0.00000000000000e+00,6.00000000000000e-01,1.32007018681740e-04,6.00000000000000e-01
5.52240000000000e-08,0.00000000000000e+00,6.00000000000000e-01,1.00744293226748e-04,6.00000000000000e-01
5.52560000000000e-08,0.00000000000000e+00,6.00000000000000e-01,-4.77177664998246e-05,6.00000000000000e-01
5.53200000000000e-08,0.00000000000000e+00,6.00000000000000e-01,-8.54995482852450e-04,6.00000000000000e-01
5.54480000000000e-08,0.00000000000000e+00,6.00000000000000e-01,-4.95463923102030e-04,6.00000000000000e-01
5.56694819115491e-08,0.00000000000000e+00,6.00000000000000e-01,3.89408803019348e-04,6.00000000000000e-01
5.61051500268720e-08,0.00000000000000e+00,6.00000000000000e-01,-4.23536615468156e-04,6.00000000000000e-01
5.65853246032468e-08,0.00000000000000e+00,6.00000000000000e-01,4.00518869215522e-04,6.00000000000000e-01
5.75456737559965e-08,0.00000000000000e+00,6.00000000000000e-01,-3.54404375659078e-04,6.00000000000000e-01
5.87242784371976e-08,0.00000000000000e+00,6.00000000000000e-01,3.24530513902974e-04,6.00000000000000e-01
6.09066654599762e-08,0.00000000000000e+00,6.00000000000000e-01,-3.03552451966187e-04,6.00000000000000e-01
6.43282689107140e-08,0.00000000000000e+00,6.00000000000000e-01,2.96118352509274e-04,6.00000000000000e-01
6.50000000000000e-08,0.00000000000000e+00,6.00000000000000e-01,-2.40912478449847e-04,6.00000000000000e-01
6.50100000000000e-08,5.99999999999886e-02,6.00000000000000e-01,-8.75426526252346e-05,6.00000000000000e-01
6.50300000000000e-08,1.79999999999966e-01,6.00000000000000e-01,1.23262112239397e-04,6.00000000000000e-01
6.50700000000000e-08,4.19999999999920e-01,6.00000000000000e-01,2.57435126324805e-04,6.00000000000000e-01
6.51000000000000e-08,5.99999999999966e-01,6.00000000000000e-01,-5.73517039414363e-04,6.00000000000000e-01
6.51080000000000e-08,6.00000000000000e-01,6.00000000000000e-01,-1.15703793208028e-03,6.00000000000000e-01
6.51240000000000e-08,6.00000000000000e-01,6.00000000000000e-01,-2.36532642339601e-03,6.00000000000000e-01
6.51560000000000e-08,6.00000000000000e-01,6.00000000000000e-01,-4.32809415781379e-03,6.00000000000000e-01
6.52200000000000e-08,6.00000000000000e-01,6.00000000000000e-01,-3.41381747556314e-03,6.00000000000000e-01
6.53480000000000e-08,6.00000000000000e-01,6.00000000000000e-01,1.70810565888726e-01,6.00000000000000e-01
6.56040000000000e-08,6.00000000000000e-01,6.00000000000000e-01,5.82064896405884e-01,6.00000000000000e-01
6.61159999999999e-08,6.00000000000000e-01,6.00000000000000e-01,6.05920851121026e-01,6.00000000000000e-01
6.67065042206210e-08,6.00000000000000e-01,6.00000000000000e-01,5.94081828811474e-01,6.00000000000000e-01
6.77098392102973e-08,6.00000000000000e-01,6.00000000000000e-01,6.04721478274645e-01,6.00000000000000e-01
6.90163148450650e-08,6.00000000000000e-01,6.00000000000000e-01,5.95093589807104e-01,6.00000000000000e-01
7.16292661146004e-08,6.00000000000000e-01,6.00000000000000e-01,6.04338226069908e-01,6.00000000000000e-01
7.51000000000000e-08,6.00000000000000e-01,6.00000000000000e-01,5.95392842985041e-01,6.00000000000000e-01
7.51100000000000e-08,5.40000000000061e-01,6.00000000000000e-01,5.97042723104879e-01,6.00000000000000e-01
7.51300000000000e-08,4.20000000000084e-01,6.00000000000000e-01,5.99085760933320e-01,6.00000000000000e-01
7.51700000000000e-08,1.80000000000129e-01,6.00000000000000e-01,6.00358144540974e-01,6.00000000000000e-01
7.52000000000000e-08,8.40438829641244e-14,6.00000000000000e-01,6.01899682873730e-01,6.00000000000000e-01
7.52080000000000e-08,0.00000000000000e+00,6.00000000000000e-01,6.02301579630294e-01,6.00000000000000e-01
7.52240000000000e-08,0.00000000000000e+00,6.00000000000000e-01,6.02691816648665e-01,6.00000000000000e-01
7.52560000000000e-08,0.00000000000000e+00,6.00000000000000e-01,6.00797323396075e-01,6.00000000000000e-01
7.53200000000000e-08,0.00000000000000e+00,6.00000000000000e-01,5.86488257047500e-01,6.00000000000000e-01
7.54480000000000e-08,0.00000000000000e+00,6.00000000000000e-01,5.81646450855940e-01,6.00000000000000e-01
7.57040000000000e-08,0.00000000000000e+00,6.00000000000000e-01,6.02583292264381e-01,6.00000000000000e-01
7.61558541828475e-08,0.00000000000000e+00,6.00000000000000e-01,5.97008898118714e-01,6.00000000000000e-01
7.67984210219836e-08,0.00000000000000e+00,6.00000000000000e-01,6.01959768786174e-01,6.00000000000000e-01
7.80835547002557e-08,0.00000000000000e+00,6.00000000000000e-01,5.97777396847816e-01,6.00000000000000e-01
8.06538220568001e-08,0.00000000000000e+00,6.00000000000000e-01,6.01874799076184e-01,6.00000000000000e-01
8.44538220568001e-08,0.00000000000000e+00,6.00000000000000e-01,5.97987393943173e-01,6.00000000000000e-01
8.50000000000000e-08,0.00000000000000e+00,6.00000000000000e-01,6.01525932430643e-01,6.00000000000000e-01
8.50100000000000e-08,5.99999999999886e-02,6.00000000000000e-01,6.00979174805556e-01,5.40000000000011e-01
8.50300000000000e-08,1.79999999999966e-01,6.00000000000000e-01,6.00196817273772e-01,4.20000000000034e-01
8.50700000000000e-08,4.19999999999920e-01,6.00000000000000e-01,6.01254601705450e-01,1.80000000000080e-01
8.51000000000000e-08,5.99999999999966e-01,6.00000000000000e-01,6.06146396064473e-01,3.44169137633799e-14
8.51080000000000e-08,6.00000000000000e-01,6.00000000000000e-01,6.07889814661921e-01,0.00000000000000e+00
8.51240000000000e-08,6.00000000000000e-01,6.00000000000000e-01,6.11004036593886e-01,0.00000000000000e+00
8.51560000000000e-08,6.00000000000000e-01,6.00000000000000e-01,6.17379317433652e-01,0.00000000000000e+00
8.52200000000000e-08,6.00000000000000e-01,6.00000000000000e-01,5.95957175660490e-01,0.00000000000000e+00
8.53480000000000e-08,6.00000000000000e-01,6.00000000000000e-01,2.25593441705856e-01,0.00000000000000e+00
8.55800347151690e-08,6.00000000000000e-01,6.00000000000000e-01,-4.96968760663620e-02,0.00000000000000e+00
8.58888297243443e-08,6.00000000000000e-01,6.00000000000000e-01,3.47534592827849e-02,0.00000000000000e+00
8.65064197426949e-08,6.00000000000000e-01,6.00000000000000e-01,-2.56373079367365e-02,0.00000000000000e+00
8.71891950364077e-08,6.00000000000000e-01,6.00000000000000e-01,2.24691977746333e-02,0.00000000000000e+00
8.85547456238334e-08,6.00000000000000e-01,6.00000000000000e-01,-1.93879193614813e-02,0.00000000000000e+00
9.01000000000000e-08,6.00000000000000e-01,5.99999999999966e-01,1.87182204732155e-02,0.00000000000000e+00
9.03731101174851e-08,6.00000000000000e-01,6.00000000000000e-01,1.86868664499183e-03,0.00000000000000e+00
9.09193303524554e-08,6.00000000000000e-01,6.00000000000000e-01,-1.41573978733099e-03,0.00000000000000e+00
9.20117708223960e-08,6.00000000000000e-01,6.00000000000000e-01,1.24854367977659e-03,0.00000000000000e+00
9.41966517622771e-08,6.00000000000000e-01,6.00000000000000e-01,-1.16438589267896e-03,0.00000000000000e+00
9.51000000000000e-08,6.00000000000000e-01,6.00000000000000e-01,9.92724031552852e-04,0.00000000000000e+00
9.51100000000000e-08,5.40000000000061e-01,6.00000000000000e-01,8.99479448518217e-04,5.99999999999390e-02
9.51300000000000e-08,4.20000000000084e-01,6.00000000000000e-01,6.79055631264060e-04,1.79999999999916e-01
9.51700000000000e-08,1.80000000000129e-01,6.00000000000000e-01,2.47470364330087e-04,4.19999999999871e-01
9.52000000000000e-08,8.40438829641244e-14,6.00000000000000e-01,1.46576270243358e-04,5.99999999999916e-01
9.52080000000000e-08,0.00000000000000e+00,6.00000000000000e-01,1.32007556060604e-04,6.00000000000000e-01
9.52240000000000e-08,0.00000000000000e+00,6.00000000000000e-01,1.00744535982841e-04,6.00000000000000e-01
9.52560000000000e-08,0.00000000000000e+00,6.00000000000000e-01,-4.77184398241792e-05,6.00000000000000e-01
9.53200000000000e-08,0.00000000000000e+00,6.00000000000000e-01,-8.55001045379521e-04,6.00000000000000e-01
9.54480000000000e-08,0.00000000000000e+00,6.00000000000000e-01,-4.95467489106168e-04,6.00000000000000e-01
9.56694845893277e-08,0.00000000000000e+00,6.00000000000000e-01,3.89406941352654e-04,6.00000000000000e-01
9.61051507332705e-08,0.00000000000000e+00,6.00000000000000e-01,-4.23534477194794e-04,6.00000000000000e-01
9.65853292388185e-08,0.00000000000000e+00,6.00000000000000e-01,4.00519590195214e-04,6.00000000000000e-01
9.75456862499145e-08,0.00000000000000e+00,6.00000000000000e-01,-3.54406203646056e-04,6.00000000000000e-01
9.87242980910707e-08,0.00000000000000e+00,6.00000000000000e-01,3.24532838053142e-04,6.00000000000000e-01
1.00906707709849e-07,0.00000000000000e+00,6.00000000000000e-01,-3.03555107546274e-04,6.00000000000000e-01
1.04328338055389e-07,0.00000000000000e+00,6.00000000000000e-01,2.96121128631705e-04,6.00000000000000e-01
1.05000000000000e-07,0.00000000000000e+00,6.00000000000000e-01,-2.40910451945374e-04,6.00000000000000e-01
1.05010000000000e-07,5.99999999999886e-02,6.00000000000000e-01,-8.75404732524968e-05,6.00000000000000e-01
1.05030000000000e-07,1.79999999999966e-01,6.00000000000000e-01,1.23263948459101e-04,6.00000000000000e-01
1.05070000000000e-07,4.19999999999920e-01,6.00000000000000e-01,2.57435968291524e-04,6.00000000000000e-01
1.05100000000000e-07,5.99999999999966e-01,6.00000000000000e-01,-5.73516076254589e-04,6.00000000000000e-01
1.05108000000000e-07,6.00000000000000e-01,6.00000000000000e-01,-1.15703690867735e-03,6.00000000000000e-01
1.05124000000000e-07,6.00000000000000e-01,6.00000000000000e-01,-2.36532543851552e-03,6.00000000000000e-01
1.05156000000000e-07,6.00000000000000e-01,6.00000000000000e-01,-4.32809356127658e-03,6.00000000000000e-01
1.05220000000000e-07,6.00000000000000e-01,6.00000000000000e-01,-3.41381987842015e-03,6.00000000000000e-01
1.05348000000000e-07,6.00000000000000e-01,6.00000000000000e-01,1.70810534960227e-01,6.00000000000000e-01
1.05604000000000e-07,6.00000000000000e-01,6.00000000000000e-01,5.82064885051178e-01,6.00000000000000e-01
1.06116000000000e-07,6.00000000000000e-01,6.00000000000000e-01,6.05920855433274e-01,6.00000000000000e-01
1.06706504215356e-07,6.00000000000000e-01,6.00000000000000e-01,5.94081824127081e-01,6.00000000000000e-01
1.07709839218075e-07,6.00000000000000e-01,6.00000000000000e-01,6.04721482162728e-01,6.00000000000000e-01
1.09016314855805e-07,6.00000000000000e-01,6.00000000000000e-01,5.95093585662895e-01,6.00000000000000e-01
1.11629266131265e-07,6.00000000000000e-01,6.00000000000000e-01,6.04338229768401e-01,6.00000000000000e-01
1.15100000000000e-07,6.00000000000000e-01,6.00000000000000e-01,5.95392839021295e-01,6.00000000000000e-01
1.15110000000000e-07,5.40000000000061e-01,6.00000000000000e-01,5.97042720769376e-01,6.00000000000000e-01
1.15130000000000e-07,4.20000000000084e-01,6.00000000000000e-01,5.99085760511947e-01,6.00000000000000e-01
1.15170000000000e-07,1.80000000000129e-01,6.00000000000000e-01,6.00358144617585e-01,6.00000000000000e-01
