Time,v(clk),v(data),v(out)
1.00000000000000e-08,6.00000000000000e-01,0.00000000000000e+00,6.09608422495536e-05
1.00100000000000e-08,6.00000000000000e-01,5.99999999999986e-02,6.59394785606782e-05
1.00300000000000e-08,6.00000000000000e-01,1.79999999999996e-01,6.14017273825596e-05
1.00700000000000e-08,6.00000000000000e-01,4.19999999999990e-01,2.45864542557928e-05
1.01000000000000e-08,6.00000000000000e-01,5.99999999999995e-01,1.69251339328380e-06
1.01080000000000e-08,6.00000000000000e-01,6.00000000000000e-01,-2.46173361372060e-06
1.01240000000000e-08,6.00000000000000e-01,6.00000000000000e-01,-2.88315300574216e-06
1.01560000000000e-08,6.00000000000000e-01,6.00000000000000e-01,1.03523321074994e-05
1.02200000000000e-08,6.00000000000000e-01,6.00000000000000e-01,2.27180442590597e-05
1.03480000000000e-08,6.00000000000000e-01,6.00000000000000e-01,7.57917294633148e-06
1.06040000000000e-08,6.00000000000000e-01,6.00000000000000e-01,3.34651568995037e-06
1.11160000000000e-08,6.00000000000000e-01,6.00000000000000e-01,7.96556877201773e-06
1.21400000000000e-08,6.00000000000000e-01,6.00000000000000e-01,3.73947792608326e-06
1.41880000000000e-08,6.00000000000000e-01,6.00000000000000e-01,7.17329260106585e-06
1.51000000000000e-08,6.00000000000000e-01,6.00000000000000e-01,3.70146075171635e-06
1.51100000000000e-08,5.39999999999992e-01,6.00000000000000e-01,-1.06881338791789e-04
1.51300000000000e-08,4.19999999999994e-01,6.00000000000000e-01,-3.07075579504795e-04
1.51700000000000e-08,1.80000000000000e-01,6.00000000000000e-01,-3.77113893223535e-04
1.52000000000000e-08,0.00000000000000e+00,6.00000000000000e-01,2.44693856622263e-04
1.52080000000000e-08,0.00000000000000e+00,6.00000000000000e-01,6.00086153785623e-04
1.52240000000000e-08,0.00000000000000e+00,6.00000000000000e-01,1.05409724220652e-03
1.52560000000000e-08,0.00000000000000e+00,6.00000000000000e-01,1.12291098180024e-03
1.53200000000000e-08,0.00000000000000e+00,6.00000000000000e-01,5.16295788574553e-04
1.54480000000000e-08,0.00000000000000e+00,6.00000000000000e-01,-8.43646111838223e-04
1.57040000000000e-08,0.00000000000000e+00,6.00000000000000e-01,1.94807708752874e-04
1.61435818301520e-08,0.00000000000000e+00,6.00000000000000e-01,-2.19980526311375e-04
1.66549183005861e-08,0.00000000000000e+00,6.00000000000000e-01,2.20230523560412e-04
1.76775912414545e-08,0.00000000000000e+00,6.00000000000000e-01,-1.57993890390461e-04
1.86109903851836e-08,0.00000000000000e+00,6.00000000000000e-01,1.20255947734349e-04
2.04777886726419e-08,0.00000000000000e+00,6.00000000000000e-01,-9.23587335918017e-05
2.42113852475583e-08,0.00000000000000e+00,6.00000000000000e-01,9.26316041661292e-05
2.50000000000000e-08,0.00000000000000e+00,6.00000000000000e-01,-5.00961508702324e-05
2.50100000000000e-08,5.99999999999886e-02,6.00000000000000e-01,2.72132804212011e-04
2.50300000000000e-08,1.80000000000006e-01,6.00000000000000e-01,7.54307542443655e-04
2.50700000000000e-08,4.20000000000000e-01,6.00000000000000e-01,1.21638668192929e-03
2.51000000000000e-08,6.00000000000000e-01,6.00000000000000e-01,3.23493171010547e-04
2.51080000000000e-08,6.00000000000000e-01,6.00000000000000e-01,-3.49947518516844e-04
2.51240000000000e-08,6.00000000000000e-01,6.00000000000000e-01,-1.67240260863064e-03
2.51560000000000e-08,6.00000000000000e-01,6.00000000000000e-01,-3.78548740191105e-03
2.52200000000000e-08,6.00000000000000e-01,6.00000000000000e-01,-5.51682323158476e-03
2.53480000000000e-08,6.00000000000000e-01,6.00000000000000e-01,2.44796084065214e-02
2.56040000000000e-08,6.00000000000000e-01,6.00000000000000e-01,4.26353391346010e-01
2.60428689095972e-08,6.00000000000000e-01,6.00000000000000e-01,6.21145430325812e-01
2.64922174703743e-08,6.00000000000000e-01,6.00000000000000e-01,5.82433522525830e-01
2.73909145919284e-08,6.00000000000000e-01,6.00000000000000e-01,6.16049893270593e-01
2.83955107828672e-08,6.00000000000000e-01,6.00000000000000e-01,5.84972073505644e-01
3.01000000000000e-08,6.00000000000000e-01,6.00000000000000e-01,6.14089714047905e-01
3.01100000000000e-08,6.00000000000000e-01,5.40000000000031e-01,6.09360828369866e-01
3.01300000000000e-08,6.00000000000000e-01,4.20000000000014e-01,6.03077899355840e-01
3.01700000000000e-08,6.00000000000000e-01,1.80000000000020e-01,5.99906362627112e-01
3.02000000000000e-08,6.00000000000000e-01,1.44328993201270e-14,5.99935317020912e-01
3.02080000000000e-08,6.00000000000000e-01,0.00000000000000e+00,5.99944701866029e-01
3.02240000000000e-08,6.00000000000000e-01,0.00000000000000e+00,5.99944423479455e-01
3.02560000000000e-08,6.00000000000000e-01,0.00000000000000e+00,5.99921729865543e-01
3.03200000000000e-08,6.00000000000000e-01,0.00000000000000e+00,5.99880661402030e-01
3.04480000000000e-08,6.00000000000000e-01,0.00000000000000e+00,5.99914282129090e-01
3.07040000000000e-08,6.00000000000000e-01,0.00000000000000e+00,6.00046533289641e-01
3.10831600074658e-08,6.00000000000000e-01,0.00000000000000e+00,5.99917102242130e-01
3.16481612560031e-08,6.00000000000000e-01,0.00000000000000e+00,6.00016261264213e-01
3.27781637530779e-08,6.00000000000000e-01,0.00000000000000e+00,5.99942903482933e-01
3.49088119607221e-08,6.00000000000000e-01,0.00000000000000e+00,6.00013744784576e-01
3.51000000000000e-08,5.99999999999970e-01,0.00000000000000e+00,5.99970913502954e-01
3.51100000000000e-08,5.39999999999982e-01,0.00000000000000e+00,5.99832305397726e-01
3.51300000000000e-08,4.19999999999965e-01,0.00000000000000e+00,5.99654632121317e-01
3.51700000000000e-08,1.79999999999970e-01,0.00000000000000e+00,6.00577680669892e-01
3.52000000000000e-08,0.00000000000000e+00,0.00000000000000e+00,6.03449331119461e-01
3.52080000000000e-08,0.00000000000000e+00,0.00000000000000e+00,6.04367758630571e-01
3.52240000000000e-08,0.00000000000000e+00,0.00000000000000e+00,6.05669934732477e-01
3.52560000000000e-08,0.00000000000000e+00,0.00000000000000e+00,6.06480398215076e-01
3.53200000000000e-08,0.00000000000000e+00,0.00000000000000e+00,6.02958548505248e-01
3.54480000000000e-08,0.00000000000000e+00,0.00000000000000e+00,5.88488903307941e-01
3.57040000000000e-08,0.00000000000000e+00,0.00000000000000e+00,5.93654421887692e-01
3.60716881956784e-08,0.00000000000000e+00,0.00000000000000e+00,6.03040554238506e-01
3.65883133057072e-08,0.00000000000000e+00,0.00000000000000e+00,5.97109408463541e-01
3.73123192731627e-08,0.00000000000000e+00,0.00000000000000e+00,6.01880551993424e-01
3.87603312080739e-08,0.00000000000000e+00,0.00000000000000e+00,5.97990784585016e-01
3.91000000000000e-08,0.00000000000000e+00,0.00000000000000e+00,6.01057824285877e-01
3.93896023869822e-08,0.00000000000000e+00,0.00000000000000e+00,6.00012940022509e-01
3.99688071609467e-08,0.00000000000000e+00,0.00000000000000e+00,5.99793791251079e-01
4.11272167088756e-08,0.00000000000000e+00,0.00000000000000e+00,5.99991819161349e-01
4.34440358047334e-08,0.00000000000000e+00,0.00000000000000e+00,5.99841569121107e-01
4.50000000000000e-08,0.00000000000000e+00,0.00000000000000e+00,5.99997633423389e-01
4.50100000000000e-08,5.99999999999886e-02,0.00000000000000e+00,6.00193467912900e-01
4.50300000000000e-08,1.80000000000006e-01,0.00000000000000e+00,6.00405315528419e-01
4.50700000000000e-08,4.20000000000000e-01,0.00000000000000e+00,6.00327041081497e-01
4.51000000000000e-08,6.00000000000000e-01,0.00000000000000e+00,5.99867705071579e-01
4.51080000000000e-08,6.00000000000000e-01,0.00000000000000e+00,5.99679042320525e-01
4.51240000000000e-08,6.00000000000000e-01,0.00000000000000e+00,5.99419610778324e-01
4.51560000000000e-08,6.00000000000000e-01,0.00000000000000e+00,5.99233211251564e-01
4.52200000000000e-08,6.00000000000000e-01,0.00000000000000e+00,5.99528478299250e-01
4.53480000000000e-08,6.00000000000000e-01,0.00000000000000e+00,6.03550971940313e-01
4.56040000000000e-08,6.00000000000000e-01,0.00000000000000e+00,4.72506760279465e-01
4.60639272214928e-08,6.00000000000000e-01,0.00000000000000e+00,1.53489220625113e-02
4.65313583225619e-08,6.00000000000000e-01,0.00000000000000e+00,-1.12505938298075e-02
4.74168021095722e-08,6.00000000000000e-01,0.00000000000000e+00,1.01321704170578e-02
4.84481472720763e-08,6.00000000000000e-01,0.00000000000000e+00,-8.74479093427637e-03
5.00000000000000e-08,6.00000000000000e-01,0.00000000000000e+00,8.39827107755314e-03
5.00100000000000e-08,6.00000000000000e-01,5.99999999999886e-02,5.72246447052570e-03
5.00300000000000e-08,6.00000000000000e-01,1.79999999999966e-01,2.49428454270401e-03
5.00700000000000e-08,6.00000000000000e-01,4.20000000000000e-01,7.49538123429330e-04
5.01000000000000e-08,6.00000000000000e-01,6.00000000000000e-01,2.70421557204553e-04
5.01080000000000e-08,6.00000000000000e-01,6.00000000000000e-01,2.50830869121629e-04
5.01240000000000e-08,6.00000000000000e-01,6.00000000000000e-01,1.91015121744201e-04
5.01560000000000e-08,6.00000000000000e-01,6.00000000000000e-01,9.13386564807134e-05
5.02200000000000e-08,6.00000000000000e-01,6.00000000000000e-01,4.64702942524764e-05
5.03480000000000e-08,6.00000000000000e-01,6.00000000000000e-01,-5.23627518948799e-07
5.06040000000000e-08,6.00000000000000e-01,6.00000000000000e-01,1.89240533073065e-06
5.11160000000001e-08,6.00000000000000e-01,6.00000000000000e-01,3.19453508902320e-06
5.21400000000002e-08,6.00000000000000e-01,6.00000000000000e-01,3.60866058764925e-06
5.41880000000003e-08,6.00000000000000e-01,6.00000000000000e-01,2.69172260528722e-06
5.51000000000000e-08,6.00000000000000e-01,6.00000000000000e-01,4.29276881742935e-06
5.51100000000000e-08,5.40000000000021e-01,6.00000000000000e-01,-1.07490730693424e-04
5.51300000000000e-08,4.20000000000004e-01,6.00000000000000e-01,-3.04757603903347e-04
5.51700000000000e-08,1.80000000000010e-01,6.00000000000000e-01,-3.61360258528329e-04
5.52000000000000e-08,0.00000000000000e+00,6.00000000000000e-01,2.43590835221810e-04
5.52080000000000e-08,0.00000000000000e+00,6.00000000000000e-01,5.97434638476849e-04
5.52240000000000e-08,0.00000000000000e+00,6.00000000000000e-01,1.03562367405240e-03
5.52560000000000e-08,0.00000000000000e+00,6.00000000000000e-01,1.08552661700641e-03
5.53200000000000e-08,0.00000000000000e+00,6.00000000000000e-01,1.21581168378043e-04
5.54480000000000e-08,0.00000000000000e+00,6.00000000000000e-01,-1.46625023761589e-03
5.57040000000000e-08,0.00000000000000e+00,6.00000000000000e-01,3.72837974387412e-04
5.61428860154815e-08,0.00000000000000e+00,6.00000000000000e-01,-2.94537645404973e-04
5.66549237381325e-08,0.00000000000000e+00,6.00000000000000e-01,2.41737530753936e-04
5.76789991834346e-08,0.00000000000000e+00,6.00000000000000e-01,-1.62076098122972e-04
5.86126286643939e-08,0.00000000000000e+00,6.00000000000000e-01,1.10900288830269e-04
6.04798876263126e-08,0.00000000000000e+00,6.00000000000000e-01,-7.78197104911978e-05
6.42144055501500e-08,0.00000000000000e+00,6.00000000000000e-01,7.58360022556064e-05
6.50000000000000e-08,0.00000000000000e+00,6.00000000000000e-01,-2.50045917831246e-05
6.50100000000000e-08,5.99999999999886e-02,6.00000000000000e-01,2.81108492403426e-04
6.50300000000000e-08,1.79999999999966e-01,6.00000000000000e-01,7.43677739343085e-04
6.50700000000000e-08,4.19999999999920e-01,6.00000000000000e-01,1.20298180157520e-03
6.51000000000000e-08,5.99999999999966e-01,6.00000000000000e-01,3.15978539934286e-04
6.51080000000000e-08,6.00000000000000e-01,6.00000000000000e-01,-3.56398258793578e-04
6.51240000000000e-08,6.00000000000000e-01,6.00000000000000e-01,-1.67701417717821e-03
6.51560000000000e-08,6.00000000000000e-01,6.00000000000000e-01,-3.78790930216497e-03
6.52200000000000e-08,6.00000000000000e-01,6.00000000000000e-01,-5.51776951593552e-03
6.53480000000000e-08,6.00000000000000e-01,6.00000000000000e-01,2.44712197245224e-02
6.56040000000000e-08,6.00000000000000e-01,6.00000000000000e-01,4.26335117695190e-01
6.60428675969581e-08,6.00000000000000e-01,6.00000000000000e-01,6.21145134551060e-01
6.64922155603713e-08,6.00000000000000e-01,6.00000000000000e-01,5.82433887353575e-01
6.73909114871977e-08,6.00000000000000e-01,6.00000000000000e-01,6.16049706124098e-01
6.83954893357340e-08,6.00000000000000e-01,6.00000000000000e-01,5.84972308302940e-01
7.01000000000000e-08,6.00000000000000e-01,6.00000000000000e-01,6.14089547710357e-01
7.01100000000000e-08,6.00000000000000e-01,5.40000000000011e-01,6.09360704773180e-01
7.01300000000000e-08,6.00000000000000e-01,4.20000000000034e-01,6.03077829076045e-01
7.01700000000000e-08,6.00000000000000e-01,1.80000000000080e-01,5.99906312819361e-01
7.02000000000000e-08,6.00000000000000e-01,3.44169137633799e-14,5.99935304294825e-01
7.02080000000000e-08,6.00000000000000e-01,0.00000000000000e+00,5.99944691214822e-01
7.02240000000000e-08,6.00000000000000e-01,0.00000000000000e+00,5.99944416742723e-01
7.02560000000000e-08,6.00000000000000e-01,0.00000000000000e+00,5.99921727316094e-01
7.03200000000000e-08,6.00000000000000e-01,0.00000000000000e+00,5.99880660195089e-01
7.04480000000000e-08,6.00000000000000e-01,0.00000000000000e+00,5.99914280322145e-01
7.07040000000000e-08,6.00000000000000e-01,0.00000000000000e+00,6.00046533250023e-01
7.10831558673323e-08,6.00000000000000e-01,0.00000000000000e+00,5.99917102087688e-01
7.16481590281850e-08,6.00000000000000e-01,0.00000000000000e+00,6.00016260634859e-01
7.27781653498905e-08,6.00000000000000e-01,0.00000000000000e+00,5.99942903454637e-01
7.49087778442385e-08,6.00000000000000e-01,0.00000000000000e+00,6.00013744266888e-01
7.51000000000000e-08,6.00000000000000e-01,0.00000000000000e+00,5.99970912739190e-01
7.51100000000000e-08,5.40000000000061e-01,0.00000000000000e+00,5.99832315382009e-01
7.51300000000000e-08,4.20000000000084e-01,0.00000000000000e+00,5.99654652418295e-01
7.51700000000000e-08,1.80000000000129e-01,0.00000000000000e+00,6.00577690814408e-01
7.52000000000000e-08,8.40438829641244e-14,0.00000000000000e+00,6.03449333042106e-01
7.52080000000000e-08,0.00000000000000e+00,0.00000000000000e+00,6.04367765449869e-01
7.52240000000000e-08,0.00000000000000e+00,0.00000000000000e+00,6.05669946492784e-01
7.52560000000000e-08,0.00000000000000e+00,0.00000000000000e+00,6.06480382408551e-01
7.53200000000000e-08,0.00000000000000e+00,0.00000000000000e+00,6.02958515737441e-01
7.54480000000000e-08,0.00000000000000e+00,0.00000000000000e+00,5.88488883321859e-01
7.57040000000000e-08,0.00000000000000e+00,0.00000000000000e+00,5.93654431288212e-01
7.60716882000565e-08,0.00000000000000e+00,0.00000000000000e+00,6.03040549564360e-01
7.65883133148154e-08,0.00000000000000e+00,0.00000000000000e+00,5.97109411477699e-01
7.73123192793640e-08,0.00000000000000e+00,0.00000000000000e+00,6.01880549663977e-01
7.81000000000000e-08,0.00000000000000e+00,0.00000000000000e+00,5.98123683866500e-01
7.82448011929098e-08,0.00000000000000e+00,0.00000000000000e+00,5.99478890115795e-01
7.85344035787292e-08,0.00000000000000e+00,0.00000000000000e+00,6.00072338188971e-01
7.91136083503682e-08,0.00000000000000e+00,0.00000000000000e+00,5.99716182067009e-01
8.02720178936461e-08,0.00000000000000e+00,0.00000000000000e+00,6.00035207879921e-01
8.25888369802019e-08,0.00000000000000e+00,0.00000000000000e+00,5.99787439723365e-01
8.50000000000000e-08,0.00000000000000e+00,0.00000000000000e+00,6.00047536145995e-01
8.50100000000000e-08,5.99999999999886e-02,0.00000000000000e+00,6.00227558892670e-01
8.50300000000000e-08,1.79999999999966e-01,0.00000000000000e+00,6.00417277610852e-01
8.50700000000000e-08,4.19999999999920e-01,0.00000000000000e+00,6.00363480705884e-01
8.51000000000000e-08,5.99999999999966e-01,0.00000000000000e+00,5.99872308614171e-01
8.51080000000000e-08,6.00000000000000e-01,0.00000000000000e+00,5.99681740181941e-01
8.51240000000000e-08,6.00000000000000e-01,0.00000000000000e+00,5.99418450606482e-01
8.51560000000000e-08,6.00000000000000e-01,0.00000000000000e+00,5.99229555845724e-01
8.52200000000000e-08,6.00000000000000e-01,0.00000000000000e+00,5.99525008006861e-01
8.53480000000000e-08,6.00000000000000e-01,0.00000000000000e+00,6.03550036762572e-01
8.56040000000000e-08,6.00000000000000e-01,0.00000000000000e+00,4.72504236881282e-01
8.60639129047970e-08,6.00000000000000e-01,0.00000000000000e+00,1.53513468175389e-02
8.65313322704007e-08,6.00000000000000e-01,0.00000000000000e+00,-1.12519371199511e-02
8.74167552568748e-08,6.00000000000000e-01,0.00000000000000e+00,1.01331384267484e-02
8.84480832740975e-08,6.00000000000000e-01,0.00000000000000e+00,-8.74553324673760e-03
9.00000000000000e-08,6.00000000000000e-01,0.00000000000000e+00,8.39890668497314e-03
9.00100000000000e-08,6.00000000000000e-01,5.99999999999886e-02,5.72306469700272e-03
9.00300000000000e-08,6.00000000000000e-01,1.79999999999966e-01,2.49475758666898e-03
9.00700000000000e-08,6.00000000000000e-01,4.19999999999920e-01,7.49765794711227e-04
9.01000000000000e-08,6.00000000000000e-01,5.99999999999966e-01,2.70558269685653e-04
9.01080000000000e-08,6.00000000000000e-01,6.00000000000000e-01,2.50947502316579e-04
9.01240000000000e-08,6.00000000000000e-01,6.00000000000000e-01,1.91100364345290e-04
9.01560000000000e-08,6.00000000000000e-01,6.00000000000000e-01,9.13831011177396e-05
9.02200000000000e-08,6.00000000000000e-01,6.00000000000000e-01,4.64791305085505e-05
9.03480000000000e-08,6.00000000000000e-01,6.00000000000000e-01,-5.23927721492179e-07
9.06040000000000e-08,6.00000000000000e-01,6.00000000000000e-01,1.89195540976211e-06
9.11159999999999e-08,6.00000000000000e-01,6.00000000000000e-01,3.19507153302701e-06
9.21399999999999e-08,6.00000000000000e-01,6.00000000000000e-01,3.60819544220105e-06
9.41879999999998e-08,6.00000000000000e-01,6.00000000000000e-01,2.69226646862093e-06
9.51000000000000e-08,6.00000000000000e-01,6.00000000000000e-01,4.29227902091697e-06
9.51100000000000e-08,5.40000000000061e-01,6.00000000000000e-01,-1.07489600008157e-04
9.51300000000000e-08,4.20000000000084e-01,6.00000000000000e-01,-3.04757204614967e-04
9.51700000000000e-08,1.80000000000129e-01,6.00000000000000e-01,-3.61360184659806e-04
9.52000000000000e-08,8.40438829641244e-14,6.00000000000000e-01,2.43590170659724e-04
9.52080000000000e-08,0.00000000000000e+00,6.00000000000000e-01,5.97434083778256e-04
9.52240000000000e-08,0.00000000000000e+00,6.00000000000000e-01,1.03562337889261e-03
9.52560000000000e-08,0.00000000000000e+00,6.00000000000000e-01,1.08552754019231e-03
9.53200000000000e-08,0.00000000000000e+00,6.00000000000000e-01,1.21587780457177e-04
9.54480000000000e-08,0.00000000000000e+00,6.00000000000000e-01,-1.46623129486013e-03
9.57040000000000e-08,0.00000000000000e+00,6.00000000000000e-01,3.72835335635480e-04
9.61428859515792e-08,0.00000000000000e+00,6.00000000000000e-01,-2.94538487737150e-04
9.66549236295576e-08,0.00000000000000e+00,6.00000000000000e-01,2.41739855862181e-04
9.76789989855143e-08,0.00000000000000e+00,6.00000000000000e-01,-1.62078835914181e-04
9.86126283321835e-08,0.00000000000000e+00,6.00000000000000e-01,1.10903304897896e-04
1.00479887025522e-07,0.00000000000000e+00,6.00000000000000e-01,-7.78228111134784e-05
1.04214404412198e-07,0.00000000000000e+00,6.00000000000000e-01,7.58391399138473e-05
1.05000000000000e-07,0.00000000000000e+00,6.00000000000000e-01,-2.50078605984541e-05
1.05010000000000e-07,5.99999999999886e-02,6.00000000000000e-01,2.81106724521057e-04
1.05030000000000e-07,1.79999999999966e-01,6.00000000000000e-01,7.43677655394084e-04
1.05070000000000e-07,4.19999999999920e-01,6.00000000000000e-01,1.20298219111903e-03
1.05100000000000e-07,5.99999999999966e-01,6.00000000000000e-01,3.15978826540886e-04
1.05108000000000e-07,6.00000000000000e-01,6.00000000000000e-01,-3.56398028217034e-04
1.05124000000000e-07,6.00000000000000e-01,6.00000000000000e-01,-1.67701402251370e-03
1.05156000000000e-07,6.00000000000000e-01,6.00000000000000e-01,-3.78790921683433e-03
1.05220000000000e-07,6.00000000000000e-01,6.00000000000000e-01,-5.51776948199839e-03
1.05348000000000e-07,6.00000000000000e-01,6.00000000000000e-01,2.44712204148137e-02
1.05604000000000e-07,6.00000000000000e-01,6.00000000000000e-01,4.26335118995146e-01
1.06042867597200e-07,6.00000000000000e-01,6.00000000000000e-01,6.21145134565144e-01
1.06492215560781e-07,6.00000000000000e-01,6.00000000000000e-01,5.82433887364736e-01
1.07390911487943e-07,6.00000000000000e-01,6.00000000000000e-01,6.16049706106634e-01
