Time,v(clk),v(data),v(out)
1.00000000000000e-08,6.00000000000000e-01,0.00000000000000e+00,-1.37739465066448e-04
1.00100000000000e-08,6.00000000000000e-01,5.99999999999986e-02,-1.06195455625277e-04
1.00300000000000e-08,6.00000000000000e-01,1.79999999999996e-01,-5.82065582971081e-05
1.00700000000000e-08,6.00000000000000e-01,4.19999999999990e-01,-2.94189222838914e-05
1.01000000000000e-08,6.00000000000000e-01,5.99999999999995e-01,-6.14420792958842e-05
1.01080000000000e-08,6.00000000000000e-01,6.00000000000000e-01,-7.56271238334105e-05
1.01240000000000e-08,6.00000000000000e-01,6.00000000000000e-01,-8.73612863264567e-05
1.01560000000000e-08,6.00000000000000e-01,6.00000000000000e-01,-7.31339637524003e-05
1.02200000000000e-08,6.00000000000000e-01,6.00000000000000e-01,-1.63066713789461e-05
1.03480000000000e-08,6.00000000000000e-01,6.00000000000000e-01,2.88051046090781e-05
1.06040000000000e-08,6.00000000000000e-01,6.00000000000000e-01,1.28299603169915e-05
1.11138127617914e-08,6.00000000000000e-01,6.00000000000000e-01,6.16436041780272e-06
1.21334382853744e-08,6.00000000000000e-01,6.00000000000000e-01,1.30396050714420e-05
1.41726893325402e-08,6.00000000000000e-01,6.00000000000000e-01,7.20626206685351e-06
1.51000000000000e-08,6.00000000000000e-01,6.00000000000000e-01,1.17181690235009e-05
1.51100000000000e-08,5.39999999999992e-01,6.00000000000000e-01,-1.61805876197740e-04
1.51300000000000e-08,4.19999999999994e-01,6.00000000000000e-01,-6.38146289086899e-04
1.51700000000000e-08,1.80000000000000e-01,6.00000000000000e-01,-1.50417340043296e-03
1.52000000000000e-08,0.00000000000000e+00,6.00000000000000e-01,-1.41916899320600e-03
1.52080000000000e-08,0.00000000000000e+00,6.00000000000000e-01,-9.75388300581317e-04
1.52240000000000e-08,0.00000000000000e+00,6.00000000000000e-01,-2.05110107455345e-04
1.52560000000000e-08,0.00000000000000e+00,6.00000000000000e-01,7.14721101808521e-04
1.53200000000000e-08,0.00000000000000e+00,6.00000000000000e-01,1.18166196744546e-03
1.54480000000000e-08,0.00000000000000e+00,6.00000000000000e-01,7.38940431365270e-04
1.57040000000000e-08,0.00000000000000e+00,6.00000000000000e-01,-2.82369982453831e-05
1.62160000000000e-08,0.00000000000000e+00,6.00000000000000e-01,-2.82411342554936e-04
1.72400000000000e-08,0.00000000000000e+00,6.00000000000000e-01,-1.88463763023221e-06
1.83371010877817e-08,0.00000000000000e+00,6.00000000000000e-01,2.14902519532871e-05
2.03354168748119e-08,0.00000000000000e+00,6.00000000000000e-01,1.14528998355071e-04
2.29204149618739e-08,0.00000000000000e+00,6.00000000000000e-01,-1.46298144723506e-04
2.50000000000000e-08,0.00000000000000e+00,6.00000000000000e-01,1.88055428674376e-04
2.50100000000000e-08,5.99999999999886e-02,6.00000000000000e-01,6.78910140529287e-04
2.50300000000000e-08,1.80000000000006e-01,6.00000000000000e-01,1.53351256618700e-03
2.50700000000000e-08,4.20000000000000e-01,6.00000000000000e-01,2.57276093842386e-03
2.51000000000000e-08,6.00000000000000e-01,6.00000000000000e-01,2.14277393158226e-03
2.51080000000000e-08,6.00000000000000e-01,6.00000000000000e-01,1.49965258427208e-03
2.51240000000000e-08,6.00000000000000e-01,6.00000000000000e-01,3.82696124024001e-05
2.51560000000000e-08,6.00000000000000e-01,6.00000000000000e-01,-3.15514110587367e-03
2.52200000000000e-08,6.00000000000000e-01,6.00000000000000e-01,-7.91463125722827e-03
2.53480000000000e-08,6.00000000000000e-01,6.00000000000000e-01,-8.51161578785219e-03
2.56040000000000e-08,6.00000000000000e-01,6.00000000000000e-01,8.43533177472507e-02
2.61160000000000e-08,6.00000000000000e-01,6.00000000000000e-01,4.80174274213747e-01
2.71400000000000e-08,6.00000000000000e-01,6.00000000000000e-01,6.23559415102475e-01
2.80858513154962e-08,6.00000000000000e-01,6.00000000000000e-01,5.83686473161497e-01
2.99775539464886e-08,6.00000000000000e-01,6.00000000000000e-01,6.12050902242565e-01
3.01000000000000e-08,6.00000000000000e-01,6.00000000000000e-01,6.02565226412705e-01
3.01100000000000e-08,6.00000000000000e-01,5.40000000000031e-01,6.02353083134408e-01
3.01300000000000e-08,6.00000000000000e-01,4.20000000000014e-01,6.01915572726555e-01
3.01700000000000e-08,6.00000000000000e-01,1.80000000000020e-01,6.01307462885043e-01
3.02000000000000e-08,6.00000000000000e-01,1.44328993201270e-14,6.01080707814724e-01
3.02080000000000e-08,6.00000000000000e-01,0.00000000000000e+00,6.01035585660649e-01
3.02240000000000e-08,6.00000000000000e-01,0.00000000000000e+00,6.00937808527393e-01
3.02560000000000e-08,6.00000000000000e-01,0.00000000000000e+00,6.00775639909505e-01
3.03200000000000e-08,6.00000000000000e-01,0.00000000000000e+00,6.00490937061997e-01
3.04480000000000e-08,6.00000000000000e-01,0.00000000000000e+00,6.00106633232423e-01
3.07040000000000e-08,6.00000000000000e-01,0.00000000000000e+00,5.99900987930321e-01
3.12160000000000e-08,6.00000000000000e-01,0.00000000000000e+00,6.00019587556559e-01
3.18857517780474e-08,6.00000000000000e-01,0.00000000000000e+00,6.00043151318398e-01
3.32252553341422e-08,6.00000000000000e-01,0.00000000000000e+00,5.99938215275840e-01
3.49306935657041e-08,6.00000000000000e-01,0.00000000000000e+00,6.00055384595013e-01
3.51000000000000e-08,5.99999999999970e-01,0.00000000000000e+00,5.99969506903494e-01
3.51100000000000e-08,5.39999999999982e-01,0.00000000000000e+00,5.99772570492460e-01
3.51300000000000e-08,4.19999999999965e-01,0.00000000000000e+00,5.99329147147634e-01
3.51700000000000e-08,1.79999999999970e-01,0.00000000000000e+00,5.99047695178249e-01
3.52000000000000e-08,0.00000000000000e+00,0.00000000000000e+00,6.00106184069704e-01
3.52080000000000e-08,0.00000000000000e+00,0.00000000000000e+00,6.00744680728085e-01
3.52240000000000e-08,0.00000000000000e+00,0.00000000000000e+00,6.01921863648773e-01
3.52560000000000e-08,0.00000000000000e+00,0.00000000000000e+00,6.03640967982972e-01
3.53200000000000e-08,0.00000000000000e+00,0.00000000000000e+00,6.05512685067462e-01
3.54480000000000e-08,0.00000000000000e+00,0.00000000000000e+00,6.06658867733562e-01
3.57040000000000e-08,0.00000000000000e+00,0.00000000000000e+00,6.03240147689878e-01
3.62160000000000e-08,0.00000000000000e+00,0.00000000000000e+00,5.88270667306964e-01
3.71226346046406e-08,0.00000000000000e+00,0.00000000000000e+00,5.92776242704784e-01
3.80493722990960e-08,0.00000000000000e+00,0.00000000000000e+00,6.02970047243468e-01
3.91000000000000e-08,0.00000000000000e+00,0.00000000000000e+00,5.98124251546072e-01
3.92853475388911e-08,0.00000000000000e+00,0.00000000000000e+00,5.99060160087229e-01
3.96560426166732e-08,0.00000000000000e+00,0.00000000000000e+00,5.99865817009962e-01
4.03974327722375e-08,0.00000000000000e+00,0.00000000000000e+00,5.99826490363471e-01
4.18802130833661e-08,0.00000000000000e+00,0.00000000000000e+00,5.99886238120999e-01
4.48457737056232e-08,0.00000000000000e+00,0.00000000000000e+00,5.99876573047827e-01
4.50000000000000e-08,0.00000000000000e+00,0.00000000000000e+00,5.99902995574315e-01
4.50100000000000e-08,5.99999999999886e-02,0.00000000000000e+00,6.00163781203459e-01
4.50300000000000e-08,1.80000000000006e-01,0.00000000000000e+00,6.00616808904370e-01
4.50700000000000e-08,4.20000000000000e-01,0.00000000000000e+00,6.01161151728364e-01
4.51000000000000e-08,6.00000000000000e-01,0.00000000000000e+00,6.00789097289788e-01
4.51080000000000e-08,6.00000000000000e-01,0.00000000000000e+00,6.00459681460366e-01
4.51240000000000e-08,6.00000000000000e-01,0.00000000000000e+00,5.99880413536726e-01
4.51560000000000e-08,6.00000000000000e-01,0.00000000000000e+00,5.99005933794336e-01
4.52200000000000e-08,6.00000000000000e-01,0.00000000000000e+00,5.98140068310981e-01
4.53480000000000e-08,6.00000000000000e-01,0.00000000000000e+00,5.99436745997864e-01
4.56040000000000e-08,6.00000000000000e-01,0.00000000000000e+00,6.15068345815362e-01
4.61160000000000e-08,6.00000000000000e-01,0.00000000000000e+00,2.26691467574120e-01
4.70482096181343e-08,6.00000000000000e-01,0.00000000000000e+00,-5.78807083316345e-02
4.79049497359208e-08,6.00000000000000e-01,0.00000000000000e+00,5.08110721357272e-02
4.96184299714937e-08,6.00000000000000e-01,0.00000000000000e+00,-3.66389900184341e-02
5.00000000000000e-08,6.00000000000000e-01,0.00000000000000e+00,1.93862268504750e-02
5.00100000000000e-08,6.00000000000000e-01,5.99999999999886e-02,1.69549789699171e-02
5.00300000000000e-08,6.00000000000000e-01,1.79999999999966e-01,1.26163213422793e-02
5.00700000000000e-08,6.00000000000000e-01,4.20000000000000e-01,6.74914592664762e-03
5.01000000000000e-08,6.00000000000000e-01,6.00000000000000e-01,4.23876904323736e-03
5.01080000000000e-08,6.00000000000000e-01,6.00000000000000e-01,3.77120046265011e-03
5.01240000000000e-08,6.00000000000000e-01,6.00000000000000e-01,2.95001725106714e-03
5.01560000000000e-08,6.00000000000000e-01,6.00000000000000e-01,1.80718403281874e-03
5.02200000000000e-08,6.00000000000000e-01,6.00000000000000e-01,6.89148234900835e-04
5.03480000000000e-08,6.00000000000000e-01,6.00000000000000e-01,9.19772652479833e-05
5.06040000000000e-08,6.00000000000000e-01,6.00000000000000e-01,5.79138663329287e-06
5.11160000000001e-08,6.00000000000000e-01,6.00000000000000e-01,5.06315297361601e-06
5.21400000000002e-08,6.00000000000000e-01,6.00000000000000e-01,9.73294421671538e-06
5.41880000000003e-08,6.00000000000000e-01,6.00000000000000e-01,5.93761786979539e-06
5.51000000000000e-08,6.00000000000000e-01,6.00000000000000e-01,9.33885323450151e-06
5.51100000000000e-08,5.40000000000021e-01,6.00000000000000e-01,-1.64751783807468e-04
5.51300000000000e-08,4.20000000000004e-01,6.00000000000000e-01,-6.27818305806271e-04
5.51700000000000e-08,1.80000000000010e-01,6.00000000000000e-01,-1.50396888129019e-03
5.52000000000000e-08,0.00000000000000e+00,6.00000000000000e-01,-1.42257646124785e-03
5.52080000000000e-08,0.00000000000000e+00,6.00000000000000e-01,-9.79597902368456e-04
5.52240000000000e-08,0.00000000000000e+00,6.00000000000000e-01,-2.10709462164921e-04
5.52560000000000e-08,0.00000000000000e+00,6.00000000000000e-01,7.18408081976291e-04
5.53200000000000e-08,0.00000000000000e+00,6.00000000000000e-01,1.15804030270125e-03
5.54480000000000e-08,0.00000000000000e+00,6.00000000000000e-01,6.32530514822136e-04
5.57040000000000e-08,0.00000000000000e+00,6.00000000000000e-01,-7.33930815970132e-04
5.62160000000000e-08,0.00000000000000e+00,6.00000000000000e-01,-6.65795594893479e-05
5.71298723863380e-08,0.00000000000000e+00,6.00000000000000e-01,-1.40190143973706e-04
5.82544797312019e-08,0.00000000000000e+00,6.00000000000000e-01,7.00566736375439e-05
6.00857353637101e-08,0.00000000000000e+00,6.00000000000000e-01,1.20568166779470e-04
6.26375444352674e-08,0.00000000000000e+00,6.00000000000000e-01,-1.70594118902952e-04
6.50000000000000e-08,0.00000000000000e+00,6.00000000000000e-01,2.25722836974997e-04
6.50100000000000e-08,5.99999999999886e-02,6.00000000000000e-01,6.77563224723635e-04
6.50300000000000e-08,1.79999999999966e-01,6.00000000000000e-01,1.48524911109534e-03
6.50700000000000e-08,4.19999999999920e-01,6.00000000000000e-01,2.51826358993242e-03
6.51000000000000e-08,5.99999999999966e-01,6.00000000000000e-01,2.14325075014696e-03
6.51080000000000e-08,6.00000000000000e-01,6.00000000000000e-01,1.53689249270646e-03
6.51240000000000e-08,6.00000000000000e-01,6.00000000000000e-01,1.42760564587618e-04
6.51560000000000e-08,6.00000000000000e-01,6.00000000000000e-01,-3.00089658436627e-03
6.52200000000000e-08,6.00000000000000e-01,6.00000000000000e-01,-7.80818459944509e-03
6.53480000000000e-08,6.00000000000000e-01,6.00000000000000e-01,-8.63435834808922e-03
6.56040000000000e-08,6.00000000000000e-01,6.00000000000000e-01,8.26037970180994e-02
6.61159999999999e-08,6.00000000000000e-01,6.00000000000000e-01,4.78219955197472e-01
6.71399999999999e-08,6.00000000000000e-01,6.00000000000000e-01,6.23693178714676e-01
6.80866232332023e-08,6.00000000000000e-01,6.00000000000000e-01,5.83585561178440e-01
6.99798696996071e-08,6.00000000000000e-01,6.00000000000000e-01,6.12163763293138e-01
7.01000000000000e-08,6.00000000000000e-01,6.00000000000000e-01,6.02644897702036e-01
7.01100000000000e-08,6.00000000000000e-01,5.40000000000011e-01,6.02423648393999e-01
7.01300000000000e-08,6.00000000000000e-01,4.20000000000034e-01,6.01970046438120e-01
7.01700000000000e-08,6.00000000000000e-01,1.80000000000080e-01,6.01339236190026e-01
7.02000000000000e-08,6.00000000000000e-01,3.44169137633799e-14,6.01101787867482e-01
7.02080000000000e-08,6.00000000000000e-01,0.00000000000000e+00,6.01054803184355e-01
7.02240000000000e-08,6.00000000000000e-01,0.00000000000000e+00,6.00953378076139e-01
7.02560000000000e-08,6.00000000000000e-01,0.00000000000000e+00,6.00784547969408e-01
7.03200000000000e-08,6.00000000000000e-01,0.00000000000000e+00,6.00494262297657e-01
7.04480000000000e-08,6.00000000000000e-01,0.00000000000000e+00,6.00106833477645e-01
7.07040000000000e-08,6.00000000000000e-01,0.00000000000000e+00,5.99900811865767e-01
7.12159999999999e-08,6.00000000000000e-01,0.00000000000000e+00,6.00019401784270e-01
7.18857839495725e-08,6.00000000000000e-01,0.00000000000000e+00,6.00042990181336e-01
7.32253518487175e-08,6.00000000000000e-01,0.00000000000000e+00,5.99938027138941e-01
7.49309677966695e-08,6.00000000000000e-01,0.00000000000000e+00,6.00055221732593e-01
7.51000000000000e-08,6.00000000000000e-01,0.00000000000000e+00,5.99969345509193e-01
7.51100000000000e-08,5.40000000000061e-01,0.00000000000000e+00,5.99772299262568e-01
7.51300000000000e-08,4.20000000000084e-01,0.00000000000000e+00,5.99328742992818e-01
7.51700000000000e-08,1.80000000000129e-01,0.00000000000000e+00,5.99047307162074e-01
7.52000000000000e-08,8.40438829641244e-14,0.00000000000000e+00,6.00105917761608e-01
7.52080000000000e-08,0.00000000000000e+00,0.00000000000000e+00,6.00744476504314e-01
7.52240000000000e-08,0.00000000000000e+00,0.00000000000000e+00,6.01921672232733e-01
7.52560000000000e-08,0.00000000000000e+00,0.00000000000000e+00,6.03640704317462e-01
7.53200000000000e-08,0.00000000000000e+00,0.00000000000000e+00,6.05511709288049e-01
7.54480000000000e-08,0.00000000000000e+00,0.00000000000000e+00,6.06648634645163e-01
7.57040000000000e-08,0.00000000000000e+00,0.00000000000000e+00,6.03158555798123e-01
7.62159999999999e-08,0.00000000000000e+00,0.00000000000000e+00,5.88220649465988e-01
7.71226347938965e-08,0.00000000000000e+00,0.00000000000000e+00,5.92829486527376e-01
7.80493730987320e-08,0.00000000000000e+00,0.00000000000000e+00,6.03952315008439e-01
7.81000000000000e-08,0.00000000000000e+00,0.00000000000000e+00,6.04458314151605e-01
7.81367496719616e-08,0.00000000000000e+00,0.00000000000000e+00,6.02537710614163e-01
7.82102490158846e-08,0.00000000000000e+00,0.00000000000000e+00,5.99769997034789e-01
7.83572477037308e-08,0.00000000000000e+00,0.00000000000000e+00,5.98681206983180e-01
7.86512450794231e-08,0.00000000000000e+00,0.00000000000000e+00,5.99553821734214e-01
7.92392398308078e-08,0.00000000000000e+00,0.00000000000000e+00,5.99899837690104e-01
8.04152293335771e-08,0.00000000000000e+00,0.00000000000000e+00,5.99807089831595e-01
8.27672083391158e-08,0.00000000000000e+00,0.00000000000000e+00,5.99904172093314e-01
8.50000000000000e-08,0.00000000000000e+00,0.00000000000000e+00,5.99878191532341e-01
8.50100000000000e-08,5.99999999999886e-02,0.00000000000000e+00,6.00133825877594e-01
8.50300000000000e-08,1.79999999999966e-01,0.00000000000000e+00,6.00583849727810e-01
8.50700000000000e-08,4.19999999999920e-01,0.00000000000000e+00,6.01138291195055e-01
8.51000000000000e-08,5.99999999999966e-01,0.00000000000000e+00,6.00765558117869e-01
8.51080000000000e-08,6.00000000000000e-01,0.00000000000000e+00,6.00438101031547e-01
8.51240000000000e-08,6.00000000000000e-01,0.00000000000000e+00,5.99865294416035e-01
8.51560000000000e-08,6.00000000000000e-01,0.00000000000000e+00,5.98994494456708e-01
8.52200000000000e-08,6.00000000000000e-01,0.00000000000000e+00,5.98131708785335e-01
8.53480000000000e-08,6.00000000000000e-01,0.00000000000000e+00,5.99434168219692e-01
8.56040000000000e-08,6.00000000000000e-01,0.00000000000000e+00,6.15065503127381e-01
8.61159999999999e-08,6.00000000000000e-01,0.00000000000000e+00,2.26697066725905e-01
8.70482791387642e-08,6.00000000000000e-01,0.00000000000000e+00,-5.78801775900121e-02
8.79049948980933e-08,6.00000000000000e-01,0.00000000000000e+00,5.08102752360996e-02
8.96184264167515e-08,6.00000000000000e-01,0.00000000000000e+00,-3.66381313672869e-02
9.00000000000000e-08,6.00000000000000e-01,0.00000000000000e+00,1.93867055827153e-02
9.00100000000000e-08,6.00000000000000e-01,5.99999999999886e-02,1.69553224598688e-02
9.00300000000000e-08,6.00000000000000e-01,1.79999999999966e-01,1.26165242509429e-02
9.00700000000000e-08,6.00000000000000e-01,4.19999999999920e-01,6.74930261646980e-03
9.01000000000000e-08,6.00000000000000e-01,5.99999999999966e-01,4.23888885658527e-03
9.01080000000000e-08,6.00000000000000e-01,6.00000000000000e-01,3.77131350786956e-03
9.01240000000000e-08,6.00000000000000e-01,6.00000000000000e-01,2.95011546110638e-03
9.01560000000000e-08,6.00000000000000e-01,6.00000000000000e-01,1.80725509476121e-03
9.02200000000000e-08,6.00000000000000e-01,6.00000000000000e-01,6.89179739504400e-04
9.03480000000000e-08,6.00000000000000e-01,6.00000000000000e-01,9.19772418650489e-05
9.06040000000000e-08,6.00000000000000e-01,6.00000000000000e-01,5.79221390097778e-06
9.11159999999999e-08,6.00000000000000e-01,6.00000000000000e-01,5.06270255177382e-06
9.21399999999999e-08,6.00000000000000e-01,6.00000000000000e-01,9.73317713316539e-06
9.41879999999998e-08,6.00000000000000e-01,6.00000000000000e-01,5.93762484889584e-06
9.51000000000000e-08,6.00000000000000e-01,6.00000000000000e-01,9.33868511556087e-06
9.51100000000000e-08,5.40000000000061e-01,6.00000000000000e-01,-1.64752546876312e-04
9.51300000000000e-08,4.20000000000084e-01,6.00000000000000e-01,-6.27818261295668e-04
9.51700000000000e-08,1.80000000000129e-01,6.00000000000000e-01,-1.50396844250805e-03
9.52000000000000e-08,8.40438829641244e-14,6.00000000000000e-01,-1.42257609133881e-03
9.52080000000000e-08,0.00000000000000e+00,6.00000000000000e-01,-9.79597590855974e-04
9.52240000000000e-08,0.00000000000000e+00,6.00000000000000e-01,-2.10709221992122e-04
9.52560000000000e-08,0.00000000000000e+00,6.00000000000000e-01,7.18408437536996e-04
9.53200000000000e-08,0.00000000000000e+00,6.00000000000000e-01,1.15804132621609e-03
9.54480000000000e-08,0.00000000000000e+00,6.00000000000000e-01,6.32539731326626e-04
9.57040000000000e-08,0.00000000000000e+00,6.00000000000000e-01,-7.33676871079003e-04
9.62159999999999e-08,0.00000000000000e+00,6.00000000000000e-01,-6.66427336906833e-05
9.71299911078401e-08,0.00000000000000e+00,6.00000000000000e-01,-1.40145871390851e-04
9.82545658144905e-08,0.00000000000000e+00,6.00000000000000e-01,7.00610459103516e-05
1.00085998592371e-07,0.00000000000000e+00,6.00000000000000e-01,1.20524868768623e-04
1.02637840054189e-07,0.00000000000000e+00,6.00000000000000e-01,-1.70545058375230e-04
1.05000000000000e-07,0.00000000000000e+00,6.00000000000000e-01,2.25675093948307e-04
1.05010000000000e-07,5.99999999999886e-02,6.00000000000000e-01,6.77533232206082e-04
1.05030000000000e-07,1.79999999999966e-01,6.00000000000000e-01,1.48524298747509e-03
1.05070000000000e-07,4.19999999999920e-01,6.00000000000000e-01,2.51827261121927e-03
1.05100000000000e-07,5.99999999999966e-01,6.00000000000000e-01,2.14321349100934e-03
1.05108000000000e-07,6.00000000000000e-01,6.00000000000000e-01,1.53681651224231e-03
1.05124000000000e-07,6.00000000000000e-01,6.00000000000000e-01,1.42611819316241e-04
1.05156000000000e-07,6.00000000000000e-01,6.00000000000000e-01,-3.00109677611188e-03
1.05220000000000e-07,6.00000000000000e-01,6.00000000000000e-01,-7.80832096823442e-03
1.05348000000000e-07,6.00000000000000e-01,6.00000000000000e-01,-8.63422104538322e-03
1.05604000000000e-07,6.00000000000000e-01,6.00000000000000e-01,8.26057925520542e-02
1.06116000000000e-07,6.00000000000000e-01,6.00000000000000e-01,4.78222217489381e-01
1.07140000000000e-07,6.00000000000000e-01,6.00000000000000e-01,6.23693076813766e-01
1.08086622296448e-07,6.00000000000000e-01,6.00000000000000e-01,5.83585686815368e-01
1.09979866889344e-07,6.00000000000000e-01,6.00000000000000e-01,6.12163625550399e-01
