Time,v(clk),v(data),v(out),v(reset)
1.00000000000000e-08,6.00000000000000e-01,0.00000000000000e+00,2.38475887293522e-05,0.00000000000000e+00
1.00100000000000e-08,6.00000000000000e-01,5.99999999999986e-02,2.27193097858541e-05,0.00000000000000e+00
1.00300000000000e-08,6.00000000000000e-01,1.79999999999996e-01,1.92391426753966e-05,0.00000000000000e+00
1.00700000000000e-08,6.00000000000000e-01,4.19999999999990e-01,1.37927608537258e-05,0.00000000000000e+00
1.01000000000000e-08,6.00000000000000e-01,5.99999999999995e-01,1.22461799006990e-05,0.00000000000000e+00
1.01080000000000e-08,6.00000000000000e-01,6.00000000000000e-01,1.22145819303754e-05,0.00000000000000e+00
1.01240000000000e-08,6.00000000000000e-01,6.00000000000000e-01,1.23144311819298e-05,0.00000000000000e+00
1.01560000000000e-08,6.00000000000000e-01,6.00000000000000e-01,1.31038961871666e-05,0.00000000000000e+00
1.02200000000000e-08,6.00000000000000e-01,6.00000000000000e-01,1.23074724626138e-05,0.00000000000000e+00
1.03480000000000e-08,6.00000000000000e-01,6.00000000000000e-01,1.15085618805078e-05,0.00000000000000e+00
1.06040000000000e-08,6.00000000000000e-01,6.00000000000000e-01,1.05868373450283e-05,0.00000000000000e+00
1.11160000000000e-08,6.00000000000000e-01,6.00000000000000e-01,1.03821304300433e-05,0.00000000000000e+00
1.21400000000000e-08,6.00000000000000e-01,6.00000000000000e-01,1.04407123367282e-05,0.00000000000000e+00
1.41880000000000e-08,6.00000000000000e-01,6.00000000000000e-01,9.43678884847941e-06,0.00000000000000e+00
1.51000000000000e-08,6.00000000000000e-01,6.00000000000000e-01,9.66700542704736e-06,0.00000000000000e+00
1.51100000000000e-08,5.39999999999992e-01,6.00000000000000e-01,1.57980620827204e-04,6.00000000000085e-02
1.51300000000000e-08,4.19999999999994e-01,6.00000000000000e-01,2.87994852678636e-04,1.80000000000006e-01
1.51700000000000e-08,1.80000000000000e-01,6.00000000000000e-01,1.86783155032060e-04,4.20000000000000e-01
1.52000000000000e-08,0.00000000000000e+00,6.00000000000000e-01,1.57747498708047e-04,6.00000000000000e-01
1.52080000000000e-08,0.00000000000000e+00,6.00000000000000e-01,1.37729120388570e-04,6.00000000000000e-01
1.52240000000000e-08,0.00000000000000e+00,6.00000000000000e-01,1.06986291840402e-04,6.00000000000000e-01
1.52560000000000e-08,0.00000000000000e+00,6.00000000000000e-01,4.42080120313035e-05,6.00000000000000e-01
1.53200000000000e-08,0.00000000000000e+00,6.00000000000000e-01,-1.72687426314648e-04,6.00000000000000e-01
1.54480000000000e-08,0.00000000000000e+00,6.00000000000000e-01,-2.61840113119811e-04,6.00000000000000e-01
1.57040000000000e-08,0.00000000000000e+00,6.00000000000000e-01,2.20229263111146e-05,6.00000000000000e-01
1.61516979342806e-08,0.00000000000000e+00,6.00000000000000e-01,-4.27375590359332e-05,6.00000000000000e-01
1.67037004007311e-08,0.00000000000000e+00,6.00000000000000e-01,1.56433079327957e-04,6.00000000000000e-01
1.78077053336319e-08,0.00000000000000e+00,6.00000000000000e-01,-1.64760089214933e-04,6.00000000000000e-01
1.90363798441708e-08,0.00000000000000e+00,6.00000000000000e-01,1.78334883234383e-04,6.00000000000000e-01
2.14937288652487e-08,0.00000000000000e+00,6.00000000000000e-01,-1.59695608771597e-04,6.00000000000000e-01
2.50000000000000e-08,0.00000000000000e+00,6.00000000000000e-01,1.72017945009781e-04,6.00000000000000e-01
2.50100000000000e-08,5.99999999999886e-02,6.00000000000000e-01,2.46900393486751e-04,6.00000000000000e-01
2.50300000000000e-08,1.80000000000006e-01,6.00000000000000e-01,3.56811572844021e-04,6.00000000000000e-01
2.50700000000000e-08,4.20000000000000e-01,6.00000000000000e-01,4.14608303156309e-04,6.00000000000000e-01
2.51000000000000e-08,6.00000000000000e-01,6.00000000000000e-01,-1.28946957471780e-04,6.00000000000000e-01
2.51080000000000e-08,6.00000000000000e-01,6.00000000000000e-01,-5.56661666146423e-04,6.00000000000000e-01
2.51240000000000e-08,6.00000000000000e-01,6.00000000000000e-01,-1.51951578828979e-03,6.00000000000000e-01
2.51560000000000e-08,6.00000000000000e-01,6.00000000000000e-01,-3.36920544057660e-03,6.00000000000000e-01
2.52200000000000e-08,6.00000000000000e-01,6.00000000000000e-01,-4.83206465274719e-03,6.00000000000000e-01
2.53480000000000e-08,6.00000000000000e-01,6.00000000000000e-01,7.53293223460832e-02,6.00000000000000e-01
2.56040000000000e-08,6.00000000000000e-01,6.00000000000000e-01,5.17750683197079e-01,6.00000000000000e-01
2.61160000000000e-08,6.00000000000000e-01,6.00000000000000e-01,6.20898932825959e-01,6.00000000000000e-01
2.66866142339721e-08,6.00000000000000e-01,6.00000000000000e-01,5.79118842808895e-01,6.00000000000000e-01
2.78175889231555e-08,6.00000000000000e-01,6.00000000000000e-01,6.17903032111397e-01,6.00000000000000e-01
2.93120212272706e-08,6.00000000000000e-01,6.00000000000000e-01,5.81379820181332e-01,6.00000000000000e-01
3.23008858355009e-08,6.00000000000000e-01,6.00000000000000e-01,6.16855141173692e-01,6.00000000000000e-01
3.51000000000000e-08,5.99999999999970e-01,6.00000000000000e-01,5.82276480038436e-01,6.00000000000000e-01
3.51100000000000e-08,5.39999999999982e-01,6.00000000000000e-01,5.88875871794088e-01,6.00000000000000e-01
3.51300000000000e-08,4.19999999999965e-01,6.00000000000000e-01,5.97100640533645e-01,6.00000000000000e-01
3.51700000000000e-08,1.79999999999970e-01,6.00000000000000e-01,6.00668911143909e-01,6.00000000000000e-01
3.52000000000000e-08,0.00000000000000e+00,6.00000000000000e-01,6.01982265777446e-01,6.00000000000000e-01
3.52080000000000e-08,0.00000000000000e+00,6.00000000000000e-01,6.02369418112453e-01,6.00000000000000e-01
3.52240000000000e-08,0.00000000000000e+00,6.00000000000000e-01,6.02773674346287e-01,6.00000000000000e-01
3.52560000000000e-08,0.00000000000000e+00,6.00000000000000e-01,6.01518838905121e-01,6.00000000000000e-01
3.53200000000000e-08,0.00000000000000e+00,6.00000000000000e-01,5.89691702477444e-01,6.00000000000000e-01
3.54480000000000e-08,0.00000000000000e+00,6.00000000000000e-01,5.79942196551736e-01,6.00000000000000e-01
3.57040000000000e-08,0.00000000000000e+00,6.00000000000000e-01,5.99496262067785e-01,6.00000000000000e-01
3.61960288630771e-08,0.00000000000000e+00,6.00000000000000e-01,5.99060714956437e-01,6.00000000000000e-01
3.68426421620977e-08,0.00000000000000e+00,6.00000000000000e-01,6.00048441944237e-01,6.00000000000000e-01
3.81358687601389e-08,0.00000000000000e+00,6.00000000000000e-01,5.99383332722381e-01,6.00000000000000e-01
4.07223219562213e-08,0.00000000000000e+00,6.00000000000000e-01,6.00217749371895e-01,6.00000000000000e-01
4.45223219562213e-08,0.00000000000000e+00,6.00000000000000e-01,5.99488082798592e-01,6.00000000000000e-01
4.50000000000000e-08,0.00000000000000e+00,6.00000000000000e-01,6.00176072896992e-01,6.00000000000000e-01
4.50100000000000e-08,5.99999999999886e-02,6.00000000000000e-01,5.99997145341328e-01,5.40000000000011e-01
4.50300000000000e-08,1.80000000000006e-01,6.00000000000000e-01,5.99758159426766e-01,4.19999999999994e-01
4.50700000000000e-08,4.20000000000000e-01,6.00000000000000e-01,6.01212803161121e-01,1.80000000000000e-01
4.51000000000000e-08,6.00000000000000e-01,6.00000000000000e-01,6.05977283751189e-01,0.00000000000000e+00
4.51080000000000e-08,6.00000000000000e-01,6.00000000000000e-01,6.07641382587241e-01,0.00000000000000e+00
4.51240000000000e-08,6.00000000000000e-01,6.00000000000000e-01,6.10566848974163e-01,0.00000000000000e+00
4.51560000000000e-08,6.00000000000000e-01,6.00000000000000e-01,6.16055158530256e-01,0.00000000000000e+00
4.52200000000000e-08,6.00000000000000e-01,6.00000000000000e-01,6.12453155214662e-01,0.00000000000000e+00
4.53480000000000e-08,6.00000000000000e-01,6.00000000000000e-01,3.25277599526653e-01,0.00000000000000e+00
4.56001386562820e-08,6.00000000000000e-01,6.00000000000000e-01,-3.06604639525762e-02,0.00000000000000e+00
4.59384020313771e-08,6.00000000000000e-01,6.00000000000000e-01,1.94027640390380e-02,0.00000000000000e+00
4.66070115907028e-08,6.00000000000000e-01,6.00000000000000e-01,-1.45684073785390e-02,0.00000000000000e+00
4.73247071179052e-08,6.00000000000000e-01,6.00000000000000e-01,1.20993956553928e-02,0.00000000000000e+00
4.87600981723100e-08,6.00000000000000e-01,6.00000000000000e-01,-1.06576286313421e-02,0.00000000000000e+00
5.01000000000000e-08,6.00000000000000e-01,5.99999999999966e-01,9.77746356873644e-03,0.00000000000000e+00
5.03870782108810e-08,6.00000000000000e-01,6.00000000000000e-01,1.03842131339867e-03,0.00000000000000e+00
5.09612346326429e-08,6.00000000000000e-01,6.00000000000000e-01,-7.35673260553531e-04,0.00000000000000e+00
5.21095474761668e-08,6.00000000000000e-01,6.00000000000000e-01,6.45930510141329e-04,0.00000000000000e+00
5.44061731632145e-08,6.00000000000000e-01,6.00000000000000e-01,-5.82218115202506e-04,0.00000000000000e+00
5.51000000000000e-08,6.00000000000000e-01,6.00000000000000e-01,4.64878462430313e-04,0.00000000000000e+00
5.51100000000000e-08,5.40000000000021e-01,6.00000000000000e-01,5.10217049223369e-04,5.99999999999787e-02
5.51300000000000e-08,4.20000000000004e-01,6.00000000000000e-01,5.01412590434243e-04,1.79999999999996e-01
5.51700000000000e-08,1.80000000000010e-01,6.00000000000000e-01,2.78815579337136e-04,4.19999999999990e-01
5.52000000000000e-08,0.00000000000000e+00,6.00000000000000e-01,1.99047556386625e-04,6.00000000000000e-01
5.52080000000000e-08,0.00000000000000e+00,6.00000000000000e-01,1.71630992992833e-04,6.00000000000000e-01
5.52240000000000e-08,0.00000000000000e+00,6.00000000000000e-01,1.24547391594419e-04,6.00000000000000e-01
5.52560000000000e-08,0.00000000000000e+00,6.00000000000000e-01,-6.82648167984329e-06,6.00000000000000e-01
5.53200000000000e-08,0.00000000000000e+00,6.00000000000000e-01,-7.39317499765510e-04,6.00000000000000e-01
5.54480000000000e-08,0.00000000000000e+00,6.00000000000000e-01,-7.89273020456303e-04,6.00000000000000e-01
5.56885933028195e-08,0.00000000000000e+00,6.00000000000000e-01,4.00642338232678e-04,6.00000000000000e-01
5.61449921315894e-08,0.00000000000000e+00,6.00000000000000e-01,-3.83109246632592e-04,6.00000000000000e-01
5.66812648344821e-08,0.00000000000000e+00,6.00000000000000e-01,3.36913732769681e-04,6.00000000000000e-01
5.68153330102053e-08,0.00000000000000e+00,6.00000000000000e-01,1.07785261978867e-04,6.00000000000000e-01
5.70834693616516e-08,0.00000000000000e+00,6.00000000000000e-01,-4.19421823635718e-05,6.00000000000000e-01
5.76197420645444e-08,0.00000000000000e+00,6.00000000000000e-01,4.14099862658876e-05,6.00000000000000e-01
5.86922874703298e-08,0.00000000000000e+00,6.00000000000000e-01,-1.91107984662715e-05,6.00000000000000e-01
6.08373782819007e-08,0.00000000000000e+00,6.00000000000000e-01,3.18685523659655e-05,6.00000000000000e-01
6.46373782819007e-08,0.00000000000000e+00,6.00000000000000e-01,-1.46532744953983e-05,6.00000000000000e-01
6.50000000000000e-08,0.00000000000000e+00,6.00000000000000e-01,1.77646357817068e-05,6.00000000000000e-01
6.50100000000000e-08,5.99999999999886e-02,6.00000000000000e-01,1.17890733815788e-04,6.00000000000000e-01
6.50300000000000e-08,1.79999999999966e-01,6.00000000000000e-01,2.69361840611729e-04,6.00000000000000e-01
6.50700000000000e-08,4.19999999999920e-01,6.00000000000000e-01,3.65817984582351e-04,6.00000000000000e-01
6.51000000000000e-08,5.99999999999966e-01,6.00000000000000e-01,-1.84149632142208e-04,6.00000000000000e-01
6.51080000000000e-08,6.00000000000000e-01,6.00000000000000e-01,-6.13248636461887e-04,6.00000000000000e-01
6.51240000000000e-08,6.00000000000000e-01,6.00000000000000e-01,-1.58060836362333e-03,6.00000000000000e-01
6.51560000000000e-08,6.00000000000000e-01,6.00000000000000e-01,-3.41210515450569e-03,6.00000000000000e-01
6.52200000000000e-08,6.00000000000000e-01,6.00000000000000e-01,-4.77037918278987e-03,6.00000000000000e-01
6.53480000000000e-08,6.00000000000000e-01,6.00000000000000e-01,7.80274283136980e-02,6.00000000000000e-01
6.56040000000000e-08,6.00000000000000e-01,6.00000000000000e-01,5.19876384517402e-01,6.00000000000000e-01
6.61159999999999e-08,6.00000000000000e-01,6.00000000000000e-01,6.20522876247649e-01,6.00000000000000e-01
6.66891311241949e-08,6.00000000000000e-01,6.00000000000000e-01,5.79476917308313e-01,6.00000000000000e-01
6.78161202585675e-08,6.00000000000000e-01,6.00000000000000e-01,6.17585014218002e-01,6.00000000000000e-01
6.93074934976792e-08,6.00000000000000e-01,6.00000000000000e-01,5.81713769660244e-01,6.00000000000000e-01
7.22902399759026e-08,6.00000000000000e-01,6.00000000000000e-01,6.16553300592710e-01,6.00000000000000e-01
7.51000000000000e-08,6.00000000000000e-01,6.00000000000000e-01,5.82595903161100e-01,6.00000000000000e-01
7.51100000000000e-08,5.40000000000061e-01,6.00000000000000e-01,5.89072180870217e-01,6.00000000000000e-01
7.51300000000000e-08,4.20000000000084e-01,6.00000000000000e-01,5.97146025816949e-01,6.00000000000000e-01
7.51700000000000e-08,1.80000000000129e-01,6.00000000000000e-01,6.00662361210462e-01,6.00000000000000e-01
7.52000000000000e-08,8.40438829641244e-14,6.00000000000000e-01,6.01981148796297e-01,6.00000000000000e-01
7.52080000000000e-08,0.00000000000000e+00,6.00000000000000e-01,6.02368354217472e-01,6.00000000000000e-01
7.52240000000000e-08,0.00000000000000e+00,6.00000000000000e-01,6.02773010079345e-01,6.00000000000000e-01
7.52560000000000e-08,0.00000000000000e+00,6.00000000000000e-01,6.01521614331305e-01,6.00000000000000e-01
7.53200000000000e-08,0.00000000000000e+00,6.00000000000000e-01,5.89701872590890e-01,6.00000000000000e-01
7.54480000000000e-08,0.00000000000000e+00,6.00000000000000e-01,5.79945282257906e-01,6.00000000000000e-01
7.57040000000000e-08,0.00000000000000e+00,6.00000000000000e-01,5.99493576397931e-01,6.00000000000000e-01
7.61960529756728e-08,0.00000000000000e+00,6.00000000000000e-01,5.99063276319973e-01,6.00000000000000e-01
7.68426535714870e-08,0.00000000000000e+00,6.00000000000000e-01,6.00046285438476e-01,6.00000000000000e-01
7.81358547631153e-08,0.00000000000000e+00,6.00000000000000e-01,5.99385384404187e-01,6.00000000000000e-01
8.07222571463720e-08,0.00000000000000e+00,6.00000000000000e-01,6.00216324111957e-01,6.00000000000000e-01
8.45222571463720e-08,0.00000000000000e+00,6.00000000000000e-01,5.99489861154740e-01,6.00000000000000e-01
8.50000000000000e-08,0.00000000000000e+00,6.00000000000000e-01,6.00174396407941e-01,6.00000000000000e-01
8.50100000000000e-08,5.99999999999886e-02,6.00000000000000e-01,5.99995925709923e-01,5.40000000000011e-01
8.50300000000000e-08,1.79999999999966e-01,6.00000000000000e-01,5.99757425054352e-01,4.20000000000034e-01
8.50700000000000e-08,4.19999999999920e-01,6.00000000000000e-01,6.01212539687434e-01,1.80000000000080e-01
8.51000000000000e-08,5.99999999999966e-01,6.00000000000000e-01,6.05977036089586e-01,3.44169137633799e-14
8.51080000000000e-08,6.00000000000000e-01,6.00000000000000e-01,6.07641132588426e-01,0.00000000000000e+00
8.51240000000000e-08,6.00000000000000e-01,6.00000000000000e-01,6.10566596785918e-01,0.00000000000000e+00
8.51560000000000e-08,6.00000000000000e-01,6.00000000000000e-01,6.16054867575299e-01,0.00000000000000e+00
8.52200000000000e-08,6.00000000000000e-01,6.00000000000000e-01,6.12448435249295e-01,0.00000000000000e+00
8.53480000000000e-08,6.00000000000000e-01,6.00000000000000e-01,3.25266928020114e-01,0.00000000000000e+00
8.56001498768322e-08,6.00000000000000e-01,6.00000000000000e-01,-3.06661130853360e-02,0.00000000000000e+00
8.59384089302091e-08,6.00000000000000e-01,6.00000000000000e-01,1.94061530413943e-02,0.00000000000000e+00
8.66074734637770e-08,6.00000000000000e-01,6.00000000000000e-01,-1.45730589282778e-02,0.00000000000000e+00
8.73250719915657e-08,6.00000000000000e-01,6.00000000000000e-01,1.21028518714874e-02,0.00000000000000e+00
8.87602690471432e-08,6.00000000000000e-01,6.00000000000000e-01,-1.06525351164712e-02,0.00000000000000e+00
9.01000000000000e-08,6.00000000000000e-01,5.99999999999966e-01,9.78042116404729e-03,0.00000000000000e+00
9.03870394111155e-08,6.00000000000000e-01,6.00000000000000e-01,1.03897410720743e-03,0.00000000000000e+00
9.09611182333465e-08,6.00000000000000e-01,6.00000000000000e-01,-7.36029252599057e-04,0.00000000000000e+00
9.21092758778085e-08,6.00000000000000e-01,6.00000000000000e-01,6.46220395093646e-04,0.00000000000000e+00
9.44055911667325e-08,6.00000000000000e-01,6.00000000000000e-01,-5.82478099478478e-04,0.00000000000000e+00
9.51000000000000e-08,6.00000000000000e-01,6.00000000000000e-01,4.65172739243949e-04,0.00000000000000e+00
9.51100000000000e-08,5.40000000000061e-01,6.00000000000000e-01,5.10455847199220e-04,5.99999999999390e-02
9.51300000000000e-08,4.20000000000084e-01,6.00000000000000e-01,5.01568458221080e-04,1.79999999999916e-01
9.51700000000000e-08,1.80000000000129e-01,6.00000000000000e-01,2.78882782109136e-04,4.19999999999871e-01
9.52000000000000e-08,8.40438829641244e-14,6.00000000000000e-01,1.99083048136171e-04,5.99999999999916e-01
9.52080000000000e-08,0.00000000000000e+00,6.00000000000000e-01,1.71661552876852e-04,6.00000000000000e-01
9.52240000000000e-08,0.00000000000000e+00,6.00000000000000e-01,1.24569002739765e-04,6.00000000000000e-01
9.52560000000000e-08,0.00000000000000e+00,6.00000000000000e-01,-6.81782864021124e-06,6.00000000000000e-01
9.53200000000000e-08,0.00000000000000e+00,6.00000000000000e-01,-7.39332219117088e-04,6.00000000000000e-01
9.54480000000000e-08,0.00000000000000e+00,6.00000000000000e-01,-7.89296093775187e-04,6.00000000000000e-01
9.56886057424769e-08,0.00000000000000e+00,6.00000000000000e-01,4.00657845507003e-04,6.00000000000000e-01
9.61449950842814e-08,0.00000000000000e+00,6.00000000000000e-01,-3.83118460439019e-04,6.00000000000000e-01
9.66812788107423e-08,0.00000000000000e+00,6.00000000000000e-01,3.36925120208895e-04,6.00000000000000e-01
9.68153497423575e-08,0.00000000000000e+00,6.00000000000000e-01,1.07785657331272e-04,6.00000000000000e-01
9.70834916055879e-08,0.00000000000000e+00,6.00000000000000e-01,-4.19442562086571e-05,6.00000000000000e-01
9.76197753320488e-08,0.00000000000000e+00,6.00000000000000e-01,4.14120239022008e-05,6.00000000000000e-01
9.86923427849706e-08,0.00000000000000e+00,6.00000000000000e-01,-1.91127625039358e-05,6.00000000000000e-01
1.00837477690814e-07,0.00000000000000e+00,6.00000000000000e-01,3.18704413978920e-05,6.00000000000000e-01
1.04637477690814e-07,0.00000000000000e+00,6.00000000000000e-01,-1.46551028410743e-05,6.00000000000000e-01
1.05000000000000e-07,0.00000000000000e+00,6.00000000000000e-01,1.77631237545644e-05,6.00000000000000e-01
1.05010000000000e-07,5.99999999999886e-02,6.00000000000000e-01,1.17889426469453e-04,6.00000000000000e-01
1.05030000000000e-07,1.79999999999966e-01,6.00000000000000e-01,2.69360890349277e-04,6.00000000000000e-01
1.05070000000000e-07,4.19999999999920e-01,6.00000000000000e-01,3.65817773716547e-04,6.00000000000000e-01
1.05100000000000e-07,5.99999999999966e-01,6.00000000000000e-01,-1.84148517928570e-04,6.00000000000000e-01
1.05108000000000e-07,6.00000000000000e-01,6.00000000000000e-01,-6.13247143478178e-04,6.00000000000000e-01
1.05124000000000e-07,6.00000000000000e-01,6.00000000000000e-01,-1.58060640926248e-03,6.00000000000000e-01
1.05156000000000e-07,6.00000000000000e-01,6.00000000000000e-01,-3.41210356524285e-03,6.00000000000000e-01
1.05220000000000e-07,6.00000000000000e-01,6.00000000000000e-01,-4.77038020971546e-03,6.00000000000000e-01
1.05348000000000e-07,6.00000000000000e-01,6.00000000000000e-01,7.80273771641564e-02,6.00000000000000e-01
1.05604000000000e-07,6.00000000000000e-01,6.00000000000000e-01,5.19876345071868e-01,6.00000000000000e-01
1.06116000000000e-07,6.00000000000000e-01,6.00000000000000e-01,6.20522883293964e-01,6.00000000000000e-01
1.06689131075927e-07,6.00000000000000e-01,6.00000000000000e-01,5.79476910576948e-01,6.00000000000000e-01
1.07816120283995e-07,6.00000000000000e-01,6.00000000000000e-01,6.17585020207996e-01,6.00000000000000e-01
1.09307493577522e-07,6.00000000000000e-01,6.00000000000000e-01,5.81713763380513e-01,6.00000000000000e-01
1.12290240164575e-07,6.00000000000000e-01,6.00000000000000e-01,6.16553306256508e-01,6.00000000000000e-01
1.15100000000000e-07,6.00000000000000e-01,6.00000000000000e-01,5.82595897167006e-01,6.00000000000000e-01
