Time,v(clk),v(data),v(out)
1.00000000000000e-08,6.00000000000000e-01,0.00000000000000e+00,-7.09325235407655e-06
1.00100000000000e-08,6.00000000000000e-01,5.99999999999986e-02,1.44227000174885e-05
1.00300000000000e-08,6.00000000000000e-01,1.79999999999996e-01,3.75346589165104e-05
1.00700000000000e-08,6.00000000000000e-01,4.19999999999990e-01,3.40145062818487e-05
1.01000000000000e-08,6.00000000000000e-01,5.99999999999995e-01,1.30027490990170e-05
1.01080000000000e-08,6.00000000000000e-01,6.00000000000000e-01,7.86148887836624e-06
1.01240000000000e-08,6.00000000000000e-01,6.00000000000000e-01,6.14771092023736e-06
1.01560000000000e-08,6.00000000000000e-01,6.00000000000000e-01,1.73315298028498e-05
1.02200000000000e-08,6.00000000000000e-01,6.00000000000000e-01,2.84609643383671e-05
1.03480000000000e-08,6.00000000000000e-01,6.00000000000000e-01,2.68524711972001e-05
1.06040000000000e-08,6.00000000000000e-01,6.00000000000000e-01,1.52542820417781e-05
1.11160000000000e-08,6.00000000000000e-01,6.00000000000000e-01,2.40384371080551e-05
1.21400000000000e-08,6.00000000000000e-01,6.00000000000000e-01,1.82560332602569e-05
1.41880000000000e-08,6.00000000000000e-01,6.00000000000000e-01,2.20150962601459e-05
1.51000000000000e-08,6.00000000000000e-01,6.00000000000000e-01,1.84447209944372e-05
1.51100000000000e-08,5.39999999999992e-01,6.00000000000000e-01,-1.00639973303299e-04
1.51300000000000e-08,4.19999999999994e-01,6.00000000000000e-01,-3.31653874970916e-04
1.51700000000000e-08,1.80000000000000e-01,6.00000000000000e-01,-4.41682068423419e-04
1.52000000000000e-08,0.00000000000000e+00,6.00000000000000e-01,1.45556513984971e-04
1.52080000000000e-08,0.00000000000000e+00,6.00000000000000e-01,5.09913702659709e-04
1.52240000000000e-08,0.00000000000000e+00,6.00000000000000e-01,1.01642903694030e-03
1.52560000000000e-08,0.00000000000000e+00,6.00000000000000e-01,1.23961220838165e-03
1.53200000000000e-08,0.00000000000000e+00,6.00000000000000e-01,7.58213754250447e-04
1.54480000000000e-08,0.00000000000000e+00,6.00000000000000e-01,-6.81011041830035e-04
1.57040000000000e-08,0.00000000000000e+00,6.00000000000000e-01,-1.70302858774098e-04
1.61930962914779e-08,0.00000000000000e+00,6.00000000000000e-01,9.45829413307245e-05
1.67948110345700e-08,0.00000000000000e+00,6.00000000000000e-01,-7.15741735070156e-05
1.77905784553992e-08,0.00000000000000e+00,6.00000000000000e-01,1.84682094534833e-04
1.91408180529536e-08,0.00000000000000e+00,6.00000000000000e-01,-1.77443927079026e-04
2.18412972480625e-08,0.00000000000000e+00,6.00000000000000e-01,2.21662533988237e-04
2.50000000000000e-08,0.00000000000000e+00,6.00000000000000e-01,-1.88886643196831e-04
2.50100000000000e-08,5.99999999999886e-02,6.00000000000000e-01,1.60884706840739e-04
2.50300000000000e-08,1.80000000000006e-01,6.00000000000000e-01,7.40190880855321e-04
2.50700000000000e-08,4.20000000000000e-01,6.00000000000000e-01,1.36467253639173e-03
2.51000000000000e-08,6.00000000000000e-01,6.00000000000000e-01,9.14953951374448e-04
2.51080000000000e-08,6.00000000000000e-01,6.00000000000000e-01,4.07870836016136e-04
2.51240000000000e-08,6.00000000000000e-01,6.00000000000000e-01,-6.62449166427964e-04
2.51560000000000e-08,6.00000000000000e-01,6.00000000000000e-01,-2.60319028459641e-03
2.52200000000000e-08,6.00000000000000e-01,6.00000000000000e-01,-4.85565667735724e-03
2.53480000000000e-08,6.00000000000000e-01,6.00000000000000e-01,3.51996159792432e-03
2.56040000000000e-08,6.00000000000000e-01,6.00000000000000e-01,2.76480899061600e-01
2.61160000000000e-08,6.00000000000000e-01,6.00000000000000e-01,6.07192366076379e-01
2.66585682426664e-08,6.00000000000000e-01,6.00000000000000e-01,5.92511568273363e-01
2.77437047279991e-08,6.00000000000000e-01,6.00000000000000e-01,6.07393674512764e-01
2.88940803726046e-08,6.00000000000000e-01,6.00000000000000e-01,5.93082030228058e-01
3.10095191822782e-08,6.00000000000000e-01,6.00000000000000e-01,6.06699597949595e-01
3.48095191822782e-08,6.00000000000000e-01,6.00000000000000e-01,5.93449814745392e-01
3.51000000000000e-08,5.99999999999970e-01,6.00000000000000e-01,6.04784904668204e-01
3.51100000000000e-08,5.39999999999982e-01,6.00000000000000e-01,6.03125917319704e-01
3.51300000000000e-08,4.19999999999965e-01,6.00000000000000e-01,6.00874084303506e-01
3.51700000000000e-08,1.79999999999970e-01,6.00000000000000e-01,6.00663146774016e-01
3.52000000000000e-08,0.00000000000000e+00,6.00000000000000e-01,6.03372221549360e-01
3.52080000000000e-08,0.00000000000000e+00,6.00000000000000e-01,6.04279667066530e-01
3.52240000000000e-08,0.00000000000000e+00,6.00000000000000e-01,6.05615246159336e-01
3.52560000000000e-08,0.00000000000000e+00,6.00000000000000e-01,6.06642144745915e-01
3.53200000000000e-08,0.00000000000000e+00,6.00000000000000e-01,6.04790965172147e-01
3.54480000000000e-08,0.00000000000000e+00,6.00000000000000e-01,5.91193210808207e-01
3.57040000000000e-08,0.00000000000000e+00,6.00000000000000e-01,5.90189524050310e-01
3.62160000000000e-08,0.00000000000000e+00,6.00000000000000e-01,6.04368800651858e-01
3.68475895571446e-08,0.00000000000000e+00,6.00000000000000e-01,5.96026481207968e-01
3.78396637721512e-08,0.00000000000000e+00,6.00000000000000e-01,6.02705154958863e-01
3.98238122021644e-08,0.00000000000000e+00,6.00000000000000e-01,5.97132062138631e-01
4.36238122021644e-08,0.00000000000000e+00,6.00000000000000e-01,6.02415826975634e-01
4.50000000000000e-08,0.00000000000000e+00,6.00000000000000e-01,5.97625988152548e-01
4.50100000000000e-08,5.99999999999886e-02,6.00000000000000e-01,5.98255595654267e-01
4.50300000000000e-08,1.80000000000006e-01,6.00000000000000e-01,5.99232213305921e-01
4.50700000000000e-08,4.20000000000000e-01,6.00000000000000e-01,6.00244987942524e-01
4.51000000000000e-08,6.00000000000000e-01,6.00000000000000e-01,6.00021683976094e-01
4.51080000000000e-08,6.00000000000000e-01,5.52000000000025e-01,5.99692748272686e-01
4.51240000000000e-08,6.00000000000000e-01,4.55999999999996e-01,5.99003552326380e-01
4.51560000000000e-08,6.00000000000000e-01,2.64000000000016e-01,5.97896879284616e-01
4.52000000000000e-08,6.00000000000000e-01,3.44169137633799e-14,5.96922539899215e-01
4.52064000000000e-08,6.00000000000000e-01,0.00000000000000e+00,5.96833460822299e-01
4.52192000000000e-08,6.00000000000000e-01,0.00000000000000e+00,5.96641585242312e-01
4.52448000000000e-08,6.00000000000000e-01,0.00000000000000e+00,5.96264246743382e-01
4.52960000000000e-08,6.00000000000000e-01,0.00000000000000e+00,5.95647831043158e-01
4.53984000000000e-08,6.00000000000000e-01,0.00000000000000e+00,5.95525424455815e-01
4.56032000000000e-08,6.00000000000000e-01,0.00000000000000e+00,5.97449201967662e-01
4.58790922653277e-08,6.00000000000000e-01,0.00000000000000e+00,5.99349280817238e-01
4.64308767959832e-08,6.00000000000000e-01,0.00000000000000e+00,5.99939231524469e-01
4.70338725614491e-08,6.00000000000000e-01,0.00000000000000e+00,6.00116345307589e-01
4.82398640923808e-08,6.00000000000000e-01,0.00000000000000e+00,5.99886224706200e-01
5.06518471542442e-08,6.00000000000000e-01,0.00000000000000e+00,6.00110618844535e-01
5.44518471542442e-08,6.00000000000000e-01,0.00000000000000e+00,5.99891820121008e-01
5.51000000000000e-08,6.00000000000000e-01,0.00000000000000e+00,6.00092158765859e-01
5.51100000000000e-08,5.40000000000021e-01,0.00000000000000e+00,5.99888924100291e-01
5.51300000000000e-08,4.20000000000004e-01,0.00000000000000e+00,5.99670615440141e-01
5.51700000000000e-08,1.80000000000010e-01,0.00000000000000e+00,6.00576230698916e-01
5.52000000000000e-08,0.00000000000000e+00,0.00000000000000e+00,6.03408727469400e-01
5.52080000000000e-08,0.00000000000000e+00,0.00000000000000e+00,6.04338152151912e-01
5.52240000000000e-08,0.00000000000000e+00,0.00000000000000e+00,6.05767872844631e-01
5.52560000000000e-08,0.00000000000000e+00,0.00000000000000e+00,6.07153998750882e-01
5.53200000000000e-08,0.00000000000000e+00,0.00000000000000e+00,6.08646310956930e-01
5.54480000000000e-08,0.00000000000000e+00,0.00000000000000e+00,6.06010355649075e-01
5.57040000000000e-08,0.00000000000000e+00,0.00000000000000e+00,5.97802547762801e-01
5.61105822297380e-08,0.00000000000000e+00,0.00000000000000e+00,6.00163751056591e-01
5.66118697643343e-08,0.00000000000000e+00,0.00000000000000e+00,5.99133462359573e-01
5.75515051169549e-08,0.00000000000000e+00,0.00000000000000e+00,6.00089399155471e-01
5.89986286402510e-08,0.00000000000000e+00,0.00000000000000e+00,5.99516552333057e-01
6.18928756868434e-08,0.00000000000000e+00,0.00000000000000e+00,6.00118627140492e-01
6.50000000000000e-08,0.00000000000000e+00,0.00000000000000e+00,5.99626545035377e-01
6.50100000000000e-08,5.99999999999886e-02,0.00000000000000e+00,5.99839579077427e-01
6.50300000000000e-08,1.79999999999966e-01,0.00000000000000e+00,6.00142217997834e-01
6.50700000000000e-08,4.19999999999920e-01,0.00000000000000e+00,6.00289051705979e-01
6.51000000000000e-08,5.99999999999966e-01,0.00000000000000e+00,5.99941359165587e-01
6.51080000000000e-08,6.00000000000000e-01,0.00000000000000e+00,5.99747324325231e-01
6.51240000000000e-08,6.00000000000000e-01,0.00000000000000e+00,5.99451722151152e-01
6.51560000000000e-08,6.00000000000000e-01,0.00000000000000e+00,5.99195920507837e-01
6.52200000000000e-08,6.00000000000000e-01,0.00000000000000e+00,5.99303044103004e-01
6.53480000000000e-08,6.00000000000000e-01,0.00000000000000e+00,6.01142808055094e-01
6.56040000000000e-08,6.00000000000000e-01,0.00000000000000e+00,6.20760104612728e-01
6.61159999999999e-08,6.00000000000000e-01,0.00000000000000e+00,1.35150542695835e-01
6.66984123190564e-08,6.00000000000000e-01,0.00000000000000e+00,-5.87894015053512e-02
6.76686766399682e-08,6.00000000000000e-01,0.00000000000000e+00,5.09376341089313e-02
6.89168820600306e-08,6.00000000000000e-01,0.00000000000000e+00,-3.68406431740606e-02
7.07767806803945e-08,6.00000000000000e-01,0.00000000000000e+00,3.48423050860540e-02
7.40712729972296e-08,6.00000000000000e-01,0.00000000000000e+00,-2.98636364018418e-02
7.51000000000000e-08,6.00000000000000e-01,0.00000000000000e+00,2.47983944750787e-02
7.51100000000000e-08,5.40000000000061e-01,0.00000000000000e+00,2.08608519072919e-02
7.51300000000000e-08,4.20000000000084e-01,0.00000000000000e+00,1.45848192985889e-02
7.51700000000000e-08,1.80000000000129e-01,0.00000000000000e+00,7.55878162930224e-03
7.52000000000000e-08,8.40438829641244e-14,0.00000000000000e+00,5.20949937753469e-03
7.52080000000000e-08,0.00000000000000e+00,0.00000000000000e+00,5.02595257349699e-03
7.52240000000000e-08,0.00000000000000e+00,0.00000000000000e+00,4.57363688725412e-03
7.52560000000000e-08,0.00000000000000e+00,0.00000000000000e+00,3.38968423033302e-03
7.53200000000000e-08,0.00000000000000e+00,0.00000000000000e+00,1.18562442145449e-03
7.54480000000000e-08,0.00000000000000e+00,0.00000000000000e+00,-1.74023181866784e-03
7.57040000000000e-08,0.00000000000000e+00,0.00000000000000e+00,-2.68586801103178e-04
7.60901349832440e-08,0.00000000000000e+00,0.00000000000000e+00,4.39840067861238e-04
7.67517306728795e-08,0.00000000000000e+00,0.00000000000000e+00,-3.73240223171242e-04
7.78034259569121e-08,0.00000000000000e+00,0.00000000000000e+00,3.79492715287848e-04
7.99068165249774e-08,0.00000000000000e+00,0.00000000000000e+00,-3.27118150729493e-04
8.37068165249774e-08,0.00000000000000e+00,0.00000000000000e+00,3.55863092504691e-04
8.50000000000000e-08,0.00000000000000e+00,0.00000000000000e+00,-2.93196850699274e-04
8.50100000000000e-08,5.99999999999886e-02,0.00000000000000e+00,6.60518091148421e-05
8.50300000000000e-08,1.79999999999966e-01,0.00000000000000e+00,5.64007165690911e-04
8.50700000000000e-08,4.19999999999920e-01,0.00000000000000e+00,8.00111992041233e-04
8.51000000000000e-08,5.99999999999966e-01,0.00000000000000e+00,3.54965781477867e-04
8.51080000000000e-08,6.00000000000000e-01,0.00000000000000e+00,9.53846696513383e-05
8.51240000000000e-08,6.00000000000000e-01,0.00000000000000e+00,-3.12806069872232e-04
8.51560000000000e-08,6.00000000000000e-01,0.00000000000000e+00,-6.69983324575171e-04
8.52200000000000e-08,6.00000000000000e-01,0.00000000000000e+00,-6.64626377490860e-04
8.53480000000000e-08,6.00000000000000e-01,0.00000000000000e+00,-2.29882940990779e-04
8.56040000000000e-08,6.00000000000000e-01,0.00000000000000e+00,2.94212766801055e-04
8.61159999999999e-08,6.00000000000000e-01,0.00000000000000e+00,1.65241283190710e-05
8.71399999999999e-08,6.00000000000000e-01,0.00000000000000e+00,1.00552392286700e-05
8.84031345592070e-08,6.00000000000000e-01,0.00000000000000e+00,4.75975639913709e-05
9.00000000000000e-08,6.00000000000000e-01,0.00000000000000e+00,-8.17005840140356e-06
9.00100000000000e-08,6.00000000000000e-01,5.99999999999886e-02,1.35888933825851e-05
9.00300000000000e-08,6.00000000000000e-01,1.79999999999966e-01,3.70681832223829e-05
9.00700000000000e-08,6.00000000000000e-01,4.19999999999920e-01,3.39510964824652e-05
9.01000000000000e-08,6.00000000000000e-01,5.99999999999966e-01,1.31323795676680e-05
9.01080000000000e-08,6.00000000000000e-01,6.00000000000000e-01,8.01419516999191e-06
9.01240000000000e-08,6.00000000000000e-01,6.00000000000000e-01,6.24439937443877e-06
9.01560000000000e-08,6.00000000000000e-01,6.00000000000000e-01,1.73589020290854e-05
9.02200000000000e-08,6.00000000000000e-01,6.00000000000000e-01,2.83745054005941e-05
9.03480000000000e-08,6.00000000000000e-01,6.00000000000000e-01,2.67526333117968e-05
9.06040000000000e-08,6.00000000000000e-01,6.00000000000000e-01,1.53446374904220e-05
9.11159999999999e-08,6.00000000000000e-01,6.00000000000000e-01,2.39457011565261e-05
9.21399999999999e-08,6.00000000000000e-01,6.00000000000000e-01,1.83498061737987e-05
9.41879999999998e-08,6.00000000000000e-01,6.00000000000000e-01,2.19212430780640e-05
9.51000000000000e-08,6.00000000000000e-01,6.00000000000000e-01,1.85524152150670e-05
9.51100000000000e-08,5.40000000000061e-01,6.00000000000000e-01,-9.96309298555709e-05
9.51300000000000e-08,4.20000000000084e-01,6.00000000000000e-01,-3.31607484260296e-04
9.51700000000000e-08,1.80000000000129e-01,6.00000000000000e-01,-4.41686539285419e-04
9.52000000000000e-08,8.40438829641244e-14,6.00000000000000e-01,1.45230805548166e-04
9.52080000000000e-08,0.00000000000000e+00,6.00000000000000e-01,5.09614382722137e-04
9.52240000000000e-08,0.00000000000000e+00,6.00000000000000e-01,1.01617934254600e-03
9.52560000000000e-08,0.00000000000000e+00,6.00000000000000e-01,1.23944123961645e-03
9.53200000000000e-08,0.00000000000000e+00,6.00000000000000e-01,7.58042019851801e-04
9.54480000000000e-08,0.00000000000000e+00,6.00000000000000e-01,-6.81201399600179e-04
9.57040000000000e-08,0.00000000000000e+00,6.00000000000000e-01,-1.70059471213860e-04
9.61930803470480e-08,0.00000000000000e+00,6.00000000000000e-01,9.43787860214380e-05
9.67947121524907e-08,0.00000000000000e+00,6.00000000000000e-01,-7.13997807143991e-05
9.77905002518219e-08,0.00000000000000e+00,6.00000000000000e-01,1.84515423996643e-04
9.91405060518501e-08,0.00000000000000e+00,6.00000000000000e-01,-1.77294202725949e-04
1.01840517651906e-07,0.00000000000000e+00,6.00000000000000e-01,2.21520170106702e-04
1.05000000000000e-07,0.00000000000000e+00,6.00000000000000e-01,-1.88748168676880e-04
1.05010000000000e-07,5.99999999999886e-02,6.00000000000000e-01,1.61003179867891e-04
1.05030000000000e-07,1.79999999999966e-01,6.00000000000000e-01,7.40275721176339e-04
1.05070000000000e-07,4.19999999999920e-01,6.00000000000000e-01,1.36470958999999e-03
1.05100000000000e-07,5.99999999999966e-01,6.00000000000000e-01,9.14936715597267e-04
1.05108000000000e-07,6.00000000000000e-01,6.00000000000000e-01,4.07836715033263e-04
1.05124000000000e-07,6.00000000000000e-01,6.00000000000000e-01,-6.62504174363088e-04
1.05156000000000e-07,6.00000000000000e-01,6.00000000000000e-01,-2.60324452779812e-03
1.05220000000000e-07,6.00000000000000e-01,6.00000000000000e-01,-4.85567420268490e-03
1.05348000000000e-07,6.00000000000000e-01,6.00000000000000e-01,3.52015446230840e-03
1.05604000000000e-07,6.00000000000000e-01,6.00000000000000e-01,2.76482233719613e-01
1.06116000000000e-07,6.00000000000000e-01,6.00000000000000e-01,6.07192585030454e-01
1.06658566828677e-07,6.00000000000000e-01,6.00000000000000e-01,5.92511434832189e-01
1.07743700486032e-07,6.00000000000000e-01,6.00000000000000e-01,6.07393793281890e-01
1.08894074902701e-07,6.00000000000000e-01,6.00000000000000e-01,5.93081922815671e-01
1.11009513057327e-07,6.00000000000000e-01,6.00000000000000e-01,6.06699697966260e-01
1.14809513057327e-07,6.00000000000000e-01,6.00000000000000e-01,5.93449716257887e-01
1.15100000000000e-07,6.00000000000000e-01,6.00000000000000e-01,6.04785003394112e-01
1.15110000000000e-07,5.40000000000061e-01,6.00000000000000e-01,6.03125986163731e-01
1.15130000000000e-07,4.20000000000084e-01,6.00000000000000e-01,6.00874111142806e-01
1.15170000000000e-07,1.80000000000129e-01,6.00000000000000e-01,6.00663146752528e-01
1.15200000000000e-07,8.40438829641244e-14,6.00000000000000e-01,6.03372220563831e-01
1.15208000000000e-07,0.00000000000000e+00,6.00000000000000e-01,6.04279666070303e-01
1.15224000000000e-07,0.00000000000000e+00,6.00000000000000e-01,6.05615245140840e-01
1.15256000000000e-07,0.00000000000000e+00,6.00000000000000e-01,6.06642143704443e-01
1.15320000000000e-07,0.00000000000000e+00,6.00000000000000e-01,6.04790963761512e-01
1.15448000000000e-07,0.00000000000000e+00,6.00000000000000e-01,5.91193209884906e-01
1.15704000000000e-07,0.00000000000000e+00,6.00000000000000e-01,5.90189523990128e-01
1.16216000000000e-07,0.00000000000000e+00,6.00000000000000e-01,6.04368800732835e-01
1.16847589557768e-07,0.00000000000000e+00,6.00000000000000e-01,5.96026481172788e-01
1.17839663759185e-07,0.00000000000000e+00,6.00000000000000e-01,6.02705154992312e-01
1.19823812162020e-07,0.00000000000000e+00,6.00000000000000e-01,5.97132062104116e-01
1.23623812162020e-07,0.00000000000000e+00,6.00000000000000e-01,6.02415827010797e-01
1.25000000000000e-07,0.00000000000000e+00,6.00000000000000e-01,5.97625988105467e-01
1.25010000000000e-07,5.99999999999092e-02,6.00000000000000e-01,5.98255595622321e-01
1.25030000000000e-07,1.79999999999886e-01,6.00000000000000e-01,5.99232213292087e-01
1.25070000000000e-07,4.19999999999841e-01,6.00000000000000e-01,6.00244987935944e-01
1.25100000000000e-07,5.99999999999886e-01,6.00000000000000e-01,6.00021683948607e-01
1.25108000000000e-07,6.00000000000000e-01,5.51999999999946e-01,5.99692748243697e-01
1.25124000000000e-07,6.00000000000000e-01,4.55999999999996e-01,5.99003552292446e-01
1.25156000000000e-07,6.00000000000000e-01,2.63999999999937e-01,5.97896879257791e-01
1.25200000000000e-07,6.00000000000000e-01,0.00000000000000e+00,5.96922539885493e-01
1.25206400000000e-07,6.00000000000000e-01,0.00000000000000e+00,5.96833460810536e-01
1.25219200000000e-07,6.00000000000000e-01,0.00000000000000e+00,5.96641585233598e-01
1.25244800000000e-07,6.00000000000000e-01,0.00000000000000e+00,5.96264246738313e-01
1.25296000000000e-07,6.00000000000000e-01,0.00000000000000e+00,5.95647831039639e-01
1.25398400000000e-07,6.00000000000000e-01,0.00000000000000e+00,5.95525424459406e-01
1.25603200000000e-07,6.00000000000000e-01,0.00000000000000e+00,5.97449201993053e-01
1.25879092286548e-07,6.00000000000000e-01,0.00000000000000e+00,5.99349280889907e-01
1.26430876859643e-07,6.00000000000000e-01,0.00000000000000e+00,5.99939231552939e-01
1.27033872725434e-07,6.00000000000000e-01,0.00000000000000e+00,6.00116345298814e-01
1.28239864457017e-07,6.00000000000000e-01,0.00000000000000e+00,5.99886224707366e-01
1.30651847920182e-07,6.00000000000000e-01,0.00000000000000e+00,6.00110618846714e-01
1.34451847920182e-07,6.00000000000000e-01,0.00000000000000e+00,5.99891820117707e-01
1.35100000000000e-07,5.99999999999891e-01,0.00000000000000e+00,6.00092158752857e-01
1.35110000000000e-07,5.39999999999823e-01,0.00000000000000e+00,5.99888924095706e-01
1.35130000000000e-07,4.19999999999846e-01,0.00000000000000e+00,5.99670615441772e-01
1.35170000000000e-07,1.79999999999891e-01,0.00000000000000e+00,6.00576230700710e-01
1.35200000000000e-07,0.00000000000000e+00,0.00000000000000e+00,6.03408727495852e-01
1.35208000000000e-07,0.00000000000000e+00,0.00000000000000e+00,6.04338152163579e-01
