Time,v(clk),v(data),v(out),v(reset)
1.00000000000000e-08,6.00000000000000e-01,0.00000000000000e+00,-9.76850215367482e-06,0.00000000000000e+00
1.00100000000000e-08,6.00000000000000e-01,5.99999999999986e-02,2.85336667460445e-06,0.00000000000000e+00
1.00300000000000e-08,6.00000000000000e-01,1.79999999999996e-01,1.77222995603049e-05,0.00000000000000e+00
1.00700000000000e-08,6.00000000000000e-01,4.19999999999990e-01,1.82907121868137e-05,0.00000000000000e+00
1.01000000000000e-08,6.00000000000000e-01,5.99999999999995e-01,-9.68320408190060e-07,0.00000000000000e+00
1.01080000000000e-08,6.00000000000000e-01,6.00000000000000e-01,-1.05689695531347e-05,0.00000000000000e+00
1.01240000000000e-08,6.00000000000000e-01,6.00000000000000e-01,-2.19148874762293e-05,0.00000000000000e+00
1.01560000000000e-08,6.00000000000000e-01,6.00000000000000e-01,-2.04255561115640e-05,0.00000000000000e+00
1.02200000000000e-08,6.00000000000000e-01,6.00000000000000e-01,5.18799016153981e-06,0.00000000000000e+00
1.03480000000000e-08,6.00000000000000e-01,6.00000000000000e-01,4.38162564830868e-05,0.00000000000000e+00
1.06040000000000e-08,6.00000000000000e-01,6.00000000000000e-01,4.67741636874103e-05,0.00000000000000e+00
1.11160000000000e-08,6.00000000000000e-01,6.00000000000000e-01,3.50812782522400e-05,0.00000000000000e+00
1.21400000000000e-08,6.00000000000000e-01,6.00000000000000e-01,4.04138931554485e-05,0.00000000000000e+00
1.41880000000000e-08,6.00000000000000e-01,6.00000000000000e-01,3.11212850208457e-05,0.00000000000000e+00
1.51000000000000e-08,6.00000000000000e-01,6.00000000000000e-01,3.46968436487488e-05,0.00000000000000e+00
1.51100000000000e-08,5.39999999999992e-01,6.00000000000000e-01,9.49857654259312e-04,6.00000000000085e-02
1.51300000000000e-08,4.19999999999994e-01,6.00000000000000e-01,2.23692533229419e-03,1.80000000000006e-01
1.51700000000000e-08,1.80000000000000e-01,6.00000000000000e-01,3.11384587865715e-03,4.20000000000000e-01
1.52000000000000e-08,0.00000000000000e+00,6.00000000000000e-01,2.27643839332718e-03,6.00000000000000e-01
1.52080000000000e-08,0.00000000000000e+00,6.00000000000000e-01,1.85327890148704e-03,6.00000000000000e-01
1.52240000000000e-08,0.00000000000000e+00,6.00000000000000e-01,1.14138572181592e-03,6.00000000000000e-01
1.52560000000000e-08,0.00000000000000e+00,6.00000000000000e-01,2.73513951474388e-04,6.00000000000000e-01
1.53200000000000e-08,0.00000000000000e+00,6.00000000000000e-01,-3.27556780944219e-04,6.00000000000000e-01
1.54480000000000e-08,0.00000000000000e+00,6.00000000000000e-01,-1.84326547662025e-04,6.00000000000000e-01
1.57040000000000e-08,0.00000000000000e+00,6.00000000000000e-01,8.80598981355327e-05,6.00000000000000e-01
1.62160000000000e-08,0.00000000000000e+00,6.00000000000000e-01,-3.15019648084374e-04,6.00000000000000e-01
1.72400000000000e-08,0.00000000000000e+00,6.00000000000000e-01,2.64666199481008e-05,6.00000000000000e-01
1.85593584265923e-08,0.00000000000000e+00,6.00000000000000e-01,-5.42125239562218e-05,6.00000000000000e-01
2.03336781672990e-08,0.00000000000000e+00,6.00000000000000e-01,2.50508193151838e-04,6.00000000000000e-01
2.31657180235945e-08,0.00000000000000e+00,6.00000000000000e-01,-2.20826724470544e-04,6.00000000000000e-01
2.50000000000000e-08,0.00000000000000e+00,6.00000000000000e-01,2.58902082687014e-04,6.00000000000000e-01
2.50100000000000e-08,5.99999999999886e-02,6.00000000000000e-01,7.44780747418877e-04,6.00000000000000e-01
2.50300000000000e-08,1.80000000000006e-01,6.00000000000000e-01,1.61709012826745e-03,6.00000000000000e-01
2.50700000000000e-08,4.20000000000000e-01,6.00000000000000e-01,2.77572838091451e-03,6.00000000000000e-01
2.51000000000000e-08,6.00000000000000e-01,6.00000000000000e-01,2.63864117875900e-03,6.00000000000000e-01
2.51080000000000e-08,6.00000000000000e-01,6.00000000000000e-01,2.11807230163942e-03,6.00000000000000e-01
2.51240000000000e-08,6.00000000000000e-01,6.00000000000000e-01,9.56049279134868e-04,6.00000000000000e-01
2.51560000000000e-08,6.00000000000000e-01,6.00000000000000e-01,-1.65525036065589e-03,6.00000000000000e-01
2.52200000000000e-08,6.00000000000000e-01,6.00000000000000e-01,-6.10964244514260e-03,6.00000000000000e-01
2.53480000000000e-08,6.00000000000000e-01,6.00000000000000e-01,-9.13959948826559e-03,6.00000000000000e-01
2.56040000000000e-08,6.00000000000000e-01,6.00000000000000e-01,2.93622606790010e-02,6.00000000000000e-01
2.61160000000000e-08,6.00000000000000e-01,6.00000000000000e-01,3.70956705334285e-01,6.00000000000000e-01
2.71400000000000e-08,6.00000000000000e-01,6.00000000000000e-01,6.19554464714320e-01,6.00000000000000e-01
2.81202333718587e-08,6.00000000000000e-01,6.00000000000000e-01,5.84777432432894e-01,6.00000000000000e-01
3.00807001155760e-08,6.00000000000000e-01,6.00000000000000e-01,6.13026708945637e-01,6.00000000000000e-01
3.22895448092934e-08,6.00000000000000e-01,6.00000000000000e-01,5.88479343940704e-01,6.00000000000000e-01
3.51000000000000e-08,5.99999999999970e-01,6.00000000000000e-01,6.10219228033427e-01,6.00000000000000e-01
3.51100000000000e-08,5.39999999999982e-01,6.00000000000000e-01,6.08810451188541e-01,6.00000000000000e-01
3.51300000000000e-08,4.19999999999965e-01,6.00000000000000e-01,6.06251266473062e-01,6.00000000000000e-01
3.51700000000000e-08,1.79999999999970e-01,6.00000000000000e-01,6.03032790252604e-01,6.00000000000000e-01
3.52000000000000e-08,0.00000000000000e+00,6.00000000000000e-01,6.02682396682544e-01,6.00000000000000e-01
3.52080000000000e-08,0.00000000000000e+00,6.00000000000000e-01,6.02983819708568e-01,6.00000000000000e-01
3.52240000000000e-08,0.00000000000000e+00,6.00000000000000e-01,6.03527510416888e-01,6.00000000000000e-01
3.52560000000000e-08,0.00000000000000e+00,6.00000000000000e-01,6.04409004063151e-01,6.00000000000000e-01
3.53200000000000e-08,0.00000000000000e+00,6.00000000000000e-01,6.05455620019284e-01,6.00000000000000e-01
3.54480000000000e-08,0.00000000000000e+00,6.00000000000000e-01,6.05736082183179e-01,6.00000000000000e-01
3.57040000000000e-08,0.00000000000000e+00,6.00000000000000e-01,6.00728526378887e-01,6.00000000000000e-01
3.62160000000000e-08,0.00000000000000e+00,6.00000000000000e-01,5.88379160553041e-01,6.00000000000000e-01
3.72400000000000e-08,0.00000000000000e+00,6.00000000000000e-01,5.92272948061378e-01,6.00000000000000e-01
3.91678861425898e-08,0.00000000000000e+00,6.00000000000000e-01,6.03494767044774e-01,6.00000000000000e-01
4.15969540705240e-08,0.00000000000000e+00,6.00000000000000e-01,5.96955690874901e-01,6.00000000000000e-01
4.50000000000000e-08,0.00000000000000e+00,6.00000000000000e-01,6.01970272435456e-01,6.00000000000000e-01
4.50100000000000e-08,5.99999999999886e-02,6.00000000000000e-01,6.01716265426749e-01,5.40000000000011e-01
4.50300000000000e-08,1.80000000000006e-01,6.00000000000000e-01,6.01044701589710e-01,4.19999999999994e-01
4.50700000000000e-08,4.20000000000000e-01,6.00000000000000e-01,6.00718425154369e-01,1.80000000000000e-01
4.51000000000000e-08,6.00000000000000e-01,6.00000000000000e-01,6.02958569465005e-01,0.00000000000000e+00
4.51080000000000e-08,6.00000000000000e-01,6.00000000000000e-01,6.04219039099365e-01,0.00000000000000e+00
4.51240000000000e-08,6.00000000000000e-01,6.00000000000000e-01,6.06587540460498e-01,0.00000000000000e+00
4.51560000000000e-08,6.00000000000000e-01,6.00000000000000e-01,6.10588931943786e-01,0.00000000000000e+00
4.52200000000000e-08,6.00000000000000e-01,6.00000000000000e-01,6.16832568420105e-01,0.00000000000000e+00
4.53480000000000e-08,6.00000000000000e-01,6.00000000000000e-01,6.26338557653919e-01,0.00000000000000e+00
4.56040000000000e-08,6.00000000000000e-01,6.00000000000000e-01,6.15176953592602e-01,0.00000000000000e+00
4.61160000000000e-08,6.00000000000000e-01,6.00000000000000e-01,1.41425943554897e-01,0.00000000000000e+00
4.70171029716769e-08,6.00000000000000e-01,6.00000000000000e-01,-5.87929956963289e-02,0.00000000000000e+00
4.79678654800444e-08,6.00000000000000e-01,6.00000000000000e-01,4.77522625588098e-02,0.00000000000000e+00
4.98693904967794e-08,6.00000000000000e-01,6.00000000000000e-01,-3.64618062287932e-02,0.00000000000000e+00
5.01000000000000e-08,6.00000000000000e-01,5.99999999999966e-01,8.83522196344897e-03,0.00000000000000e+00
5.03158877004212e-08,6.00000000000000e-01,6.00000000000000e-01,1.99551597895296e-03,0.00000000000000e+00
5.07476631012635e-08,6.00000000000000e-01,6.00000000000000e-01,-9.54663516705569e-04,0.00000000000000e+00
5.16112139029481e-08,6.00000000000000e-01,6.00000000000000e-01,7.41259024385661e-04,0.00000000000000e+00
5.33383155063173e-08,6.00000000000000e-01,6.00000000000000e-01,-5.85136775483826e-04,0.00000000000000e+00
5.51000000000000e-08,6.00000000000000e-01,6.00000000000000e-01,5.51220691935823e-04,0.00000000000000e+00
5.51100000000000e-08,5.40000000000021e-01,6.00000000000000e-01,1.39423598639858e-03,5.99999999999787e-02
5.51300000000000e-08,4.20000000000004e-01,6.00000000000000e-01,2.58568032720158e-03,1.79999999999996e-01
5.51700000000000e-08,1.80000000000010e-01,6.00000000000000e-01,3.30130115827368e-03,4.19999999999990e-01
5.52000000000000e-08,0.00000000000000e+00,6.00000000000000e-01,2.36297035805895e-03,6.00000000000000e-01
5.52080000000000e-08,0.00000000000000e+00,6.00000000000000e-01,1.91597879500337e-03,6.00000000000000e-01
5.52240000000000e-08,0.00000000000000e+00,6.00000000000000e-01,1.17330281009521e-03,6.00000000000000e-01
5.52560000000000e-08,0.00000000000000e+00,6.00000000000000e-01,2.58735193027035e-04,6.00000000000000e-01
5.53200000000000e-08,0.00000000000000e+00,6.00000000000000e-01,-3.95603635296865e-04,6.00000000000000e-01
5.54480000000000e-08,0.00000000000000e+00,6.00000000000000e-01,-3.50232347856486e-04,6.00000000000000e-01
5.57040000000000e-08,0.00000000000000e+00,6.00000000000000e-01,-9.72690828712208e-04,6.00000000000000e-01
5.61943844216546e-08,0.00000000000000e+00,6.00000000000000e-01,-3.90681589820335e-04,6.00000000000000e-01
5.71396634600674e-08,0.00000000000000e+00,6.00000000000000e-01,3.57341243185486e-04,6.00000000000000e-01
5.85030217492126e-08,0.00000000000000e+00,6.00000000000000e-01,-4.82396685464308e-04,6.00000000000000e-01
6.01262750012955e-08,0.00000000000000e+00,6.00000000000000e-01,5.13487043426649e-04,6.00000000000000e-01
6.29752436545280e-08,0.00000000000000e+00,6.00000000000000e-01,-3.90535327047767e-04,6.00000000000000e-01
6.50000000000000e-08,0.00000000000000e+00,6.00000000000000e-01,3.62004633086541e-04,6.00000000000000e-01
6.50100000000000e-08,5.99999999999886e-02,6.00000000000000e-01,7.97868084205233e-04,6.00000000000000e-01
6.50300000000000e-08,1.79999999999966e-01,6.00000000000000e-01,1.63510368062771e-03,6.00000000000000e-01
6.50700000000000e-08,4.19999999999920e-01,6.00000000000000e-01,2.76774728828735e-03,6.00000000000000e-01
6.51000000000000e-08,5.99999999999966e-01,6.00000000000000e-01,2.60298094969640e-03,6.00000000000000e-01
6.51080000000000e-08,6.00000000000000e-01,6.00000000000000e-01,2.08076504231849e-03,6.00000000000000e-01
6.51240000000000e-08,6.00000000000000e-01,6.00000000000000e-01,9.16179818766238e-04,6.00000000000000e-01
6.51560000000000e-08,6.00000000000000e-01,6.00000000000000e-01,-1.69059165101607e-03,6.00000000000000e-01
6.52200000000000e-08,6.00000000000000e-01,6.00000000000000e-01,-6.13957744142932e-03,6.00000000000000e-01
6.53480000000000e-08,6.00000000000000e-01,6.00000000000000e-01,-9.07531760846593e-03,6.00000000000000e-01
6.56040000000000e-08,6.00000000000000e-01,6.00000000000000e-01,3.03999962561705e-02,6.00000000000000e-01
6.61159999999999e-08,6.00000000000000e-01,6.00000000000000e-01,3.72824649702840e-01,6.00000000000000e-01
6.71399999999999e-08,6.00000000000000e-01,6.00000000000000e-01,6.19595261985253e-01,6.00000000000000e-01
6.81206120803318e-08,6.00000000000000e-01,6.00000000000000e-01,5.84788998103729e-01,6.00000000000000e-01
7.00818362409955e-08,6.00000000000000e-01,6.00000000000000e-01,6.12991067745168e-01,6.00000000000000e-01
7.22946659260230e-08,6.00000000000000e-01,6.00000000000000e-01,5.88515417858916e-01,6.00000000000000e-01
7.51000000000000e-08,6.00000000000000e-01,6.00000000000000e-01,6.10175134062205e-01,6.00000000000000e-01
7.51100000000000e-08,5.40000000000061e-01,6.00000000000000e-01,6.08773661752535e-01,6.00000000000000e-01
7.51300000000000e-08,4.20000000000084e-01,6.00000000000000e-01,6.06226994355258e-01,6.00000000000000e-01
7.51700000000000e-08,1.80000000000129e-01,6.00000000000000e-01,6.03025308250091e-01,6.00000000000000e-01
7.52000000000000e-08,8.40438829641244e-14,6.00000000000000e-01,6.02680981315726e-01,6.00000000000000e-01
7.52080000000000e-08,0.00000000000000e+00,6.00000000000000e-01,6.02983498537253e-01,6.00000000000000e-01
7.52240000000000e-08,0.00000000000000e+00,6.00000000000000e-01,6.03529140656299e-01,6.00000000000000e-01
7.52560000000000e-08,0.00000000000000e+00,6.00000000000000e-01,6.04413238455051e-01,6.00000000000000e-01
7.53200000000000e-08,0.00000000000000e+00,6.00000000000000e-01,6.05462235167329e-01,6.00000000000000e-01
7.54480000000000e-08,0.00000000000000e+00,6.00000000000000e-01,6.05744459100939e-01,6.00000000000000e-01
7.57040000000000e-08,0.00000000000000e+00,6.00000000000000e-01,6.00741293641335e-01,6.00000000000000e-01
7.62159999999999e-08,0.00000000000000e+00,6.00000000000000e-01,5.88383210240773e-01,6.00000000000000e-01
7.72399999999999e-08,0.00000000000000e+00,6.00000000000000e-01,5.92268199100438e-01,6.00000000000000e-01
7.91681490732164e-08,0.00000000000000e+00,6.00000000000000e-01,6.03498595780792e-01,6.00000000000000e-01
8.15971630485794e-08,0.00000000000000e+00,6.00000000000000e-01,5.96953013397041e-01,6.00000000000000e-01
8.50000000000000e-08,0.00000000000000e+00,6.00000000000000e-01,6.01972446588136e-01,6.00000000000000e-01
8.50100000000000e-08,5.99999999999886e-02,6.00000000000000e-01,6.01718323403279e-01,5.40000000000011e-01
8.50300000000000e-08,1.79999999999966e-01,6.00000000000000e-01,6.01046496789077e-01,4.20000000000034e-01
8.50700000000000e-08,4.19999999999920e-01,6.00000000000000e-01,6.00719786828842e-01,1.80000000000080e-01
8.51000000000000e-08,5.99999999999966e-01,6.00000000000000e-01,6.02959561837558e-01,3.44169137633799e-14
8.51080000000000e-08,6.00000000000000e-01,6.00000000000000e-01,6.04219923254865e-01,0.00000000000000e+00
8.51240000000000e-08,6.00000000000000e-01,6.00000000000000e-01,6.06588223450715e-01,0.00000000000000e+00
8.51560000000000e-08,6.00000000000000e-01,6.00000000000000e-01,6.10589327996466e-01,0.00000000000000e+00
8.52200000000000e-08,6.00000000000000e-01,6.00000000000000e-01,6.16832673277751e-01,0.00000000000000e+00
8.53480000000000e-08,6.00000000000000e-01,6.00000000000000e-01,6.26338515667915e-01,0.00000000000000e+00
8.56040000000000e-08,6.00000000000000e-01,6.00000000000000e-01,6.15180321973994e-01,0.00000000000000e+00
8.61159999999999e-08,6.00000000000000e-01,6.00000000000000e-01,1.41428625407747e-01,0.00000000000000e+00
8.70170850765183e-08,6.00000000000000e-01,6.00000000000000e-01,-5.87942240232037e-02,0.00000000000000e+00
8.79678525719693e-08,6.00000000000000e-01,6.00000000000000e-01,4.77534103064417e-02,0.00000000000000e+00
8.98693875628714e-08,6.00000000000000e-01,6.00000000000000e-01,-3.64627824079105e-02,0.00000000000000e+00
9.01000000000000e-08,6.00000000000000e-01,5.99999999999966e-01,8.83575989329041e-03,0.00000000000000e+00
9.03158825585057e-08,6.00000000000000e-01,6.00000000000000e-01,1.99566545263374e-03,0.00000000000000e+00
9.07476476755172e-08,6.00000000000000e-01,6.00000000000000e-01,-9.54723079904678e-04,0.00000000000000e+00
9.16111779095400e-08,6.00000000000000e-01,6.00000000000000e-01,7.41294791169366e-04,0.00000000000000e+00
9.33382383775858e-08,6.00000000000000e-01,6.00000000000000e-01,-5.85164765680936e-04,0.00000000000000e+00
9.51000000000000e-08,6.00000000000000e-01,6.00000000000000e-01,5.51248346277637e-04,0.00000000000000e+00
9.51100000000000e-08,5.40000000000061e-01,6.00000000000000e-01,1.39425757119423e-03,5.99999999999390e-02
9.51300000000000e-08,4.20000000000084e-01,6.00000000000000e-01,2.58569523777288e-03,1.79999999999916e-01
9.51700000000000e-08,1.80000000000129e-01,6.00000000000000e-01,3.30130955504265e-03,4.19999999999871e-01
9.52000000000000e-08,8.40438829641244e-14,6.00000000000000e-01,2.36297559777057e-03,5.99999999999916e-01
9.52080000000000e-08,0.00000000000000e+00,6.00000000000000e-01,1.91598371366433e-03,6.00000000000000e-01
9.52240000000000e-08,0.00000000000000e+00,6.00000000000000e-01,1.17330732198817e-03,6.00000000000000e-01
9.52560000000000e-08,0.00000000000000e+00,6.00000000000000e-01,2.58739008369951e-04,6.00000000000000e-01
9.53200000000000e-08,0.00000000000000e+00,6.00000000000000e-01,-3.95601554944044e-04,6.00000000000000e-01
9.54480000000000e-08,0.00000000000000e+00,6.00000000000000e-01,-3.50233564286956e-04,6.00000000000000e-01
9.57040000000000e-08,0.00000000000000e+00,6.00000000000000e-01,-9.72714716605642e-04,6.00000000000000e-01
9.61944033461285e-08,0.00000000000000e+00,6.00000000000000e-01,-3.90676219419902e-04,6.00000000000000e-01
9.71396639606388e-08,0.00000000000000e+00,6.00000000000000e-01,3.57347647019831e-04,6.00000000000000e-01
9.85030329349527e-08,0.00000000000000e+00,6.00000000000000e-01,-4.82407199487349e-04,6.00000000000000e-01
1.00126280422271e-07,0.00000000000000e+00,6.00000000000000e-01,5.13498982684917e-04,6.00000000000000e-01
1.02975251690386e-07,0.00000000000000e+00,6.00000000000000e-01,-3.90547293025921e-04,6.00000000000000e-01
1.05000000000000e-07,0.00000000000000e+00,6.00000000000000e-01,3.62015868355255e-04,6.00000000000000e-01
1.05010000000000e-07,5.99999999999886e-02,6.00000000000000e-01,7.97877294045984e-04,6.00000000000000e-01
1.05030000000000e-07,1.79999999999966e-01,6.00000000000000e-01,1.63510970296434e-03,6.00000000000000e-01
1.05070000000000e-07,4.19999999999920e-01,6.00000000000000e-01,2.76774867590522e-03,6.00000000000000e-01
1.05100000000000e-07,5.99999999999966e-01,6.00000000000000e-01,2.60297788690568e-03,6.00000000000000e-01
1.05108000000000e-07,6.00000000000000e-01,6.00000000000000e-01,2.08076107468343e-03,6.00000000000000e-01
1.05124000000000e-07,6.00000000000000e-01,6.00000000000000e-01,9.16174771024666e-04,6.00000000000000e-01
1.05156000000000e-07,6.00000000000000e-01,6.00000000000000e-01,-1.69059629222504e-03,6.00000000000000e-01
1.05220000000000e-07,6.00000000000000e-01,6.00000000000000e-01,-6.13957924764930e-03,6.00000000000000e-01
1.05348000000000e-07,6.00000000000000e-01,6.00000000000000e-01,-9.07531549691198e-03,6.00000000000000e-01
1.05604000000000e-07,6.00000000000000e-01,6.00000000000000e-01,3.04000127315635e-02,6.00000000000000e-01
1.06116000000000e-07,6.00000000000000e-01,6.00000000000000e-01,3.72824678478903e-01,6.00000000000000e-01
1.07140000000000e-07,6.00000000000000e-01,6.00000000000000e-01,6.19595262354027e-01,6.00000000000000e-01
1.08120612086121e-07,6.00000000000000e-01,6.00000000000000e-01,5.84788998429659e-01,6.00000000000000e-01
1.10081836258364e-07,6.00000000000000e-01,6.00000000000000e-01,6.12991067124703e-01,6.00000000000000e-01
1.12294666010822e-07,6.00000000000000e-01,6.00000000000000e-01,5.88515418435545e-01,6.00000000000000e-01
1.15100000000000e-07,6.00000000000000e-01,6.00000000000000e-01,6.10175133391406e-01,6.00000000000000e-01
1.15110000000000e-07,5.40000000000061e-01,6.00000000000000e-01,6.08773661189633e-01,6.00000000000000e-01
1.15130000000000e-07,4.20000000000084e-01,6.00000000000000e-01,6.06226993961403e-01,6.00000000000000e-01
1.15170000000000e-07,1.80000000000129e-01,6.00000000000000e-01,6.03025308127202e-01,6.00000000000000e-01
1.15200000000000e-07,8.40438829641244e-14,6.00000000000000e-01,6.02680981297160e-01,6.00000000000000e-01
1.15208000000000e-07,0.00000000000000e+00,6.00000000000000e-01,6.02983498537378e-01,6.00000000000000e-01
1.15224000000000e-07,0.00000000000000e+00,6.00000000000000e-01,6.03529140689608e-01,6.00000000000000e-01
1.15256000000000e-07,0.00000000000000e+00,6.00000000000000e-01,6.04413238518241e-01,6.00000000000000e-01
1.15320000000000e-07,0.00000000000000e+00,6.00000000000000e-01,6.05462235254484e-01,6.00000000000000e-01
