Time,v(clk),v(data),v(out),v(reset)
1.00000000000000e-08,6.00000000000000e-01,0.00000000000000e+00,-2.16797138056363e-06,0.00000000000000e+00
1.00100000000000e-08,6.00000000000000e-01,5.99999999999986e-02,1.14560343115605e-05,0.00000000000000e+00
1.00300000000000e-08,6.00000000000000e-01,1.79999999999996e-01,2.49168942537958e-05,0.00000000000000e+00
1.00700000000000e-08,6.00000000000000e-01,4.19999999999990e-01,2.23597881462007e-05,0.00000000000000e+00
1.01000000000000e-08,6.00000000000000e-01,5.99999999999995e-01,1.21466327083625e-05,0.00000000000000e+00
1.01080000000000e-08,6.00000000000000e-01,6.00000000000000e-01,1.04771951743021e-05,0.00000000000000e+00
1.01240000000000e-08,6.00000000000000e-01,6.00000000000000e-01,1.18109909243713e-05,0.00000000000000e+00
1.01560000000000e-08,6.00000000000000e-01,6.00000000000000e-01,2.13931989202498e-05,0.00000000000000e+00
1.02200000000000e-08,6.00000000000000e-01,6.00000000000000e-01,2.82545001204088e-05,0.00000000000000e+00
1.03480000000000e-08,6.00000000000000e-01,6.00000000000000e-01,2.43516696965262e-05,0.00000000000000e+00
1.06040000000000e-08,6.00000000000000e-01,6.00000000000000e-01,1.98152995332518e-05,0.00000000000000e+00
1.11160000000000e-08,6.00000000000000e-01,6.00000000000000e-01,2.31250368271235e-05,0.00000000000000e+00
1.21400000000000e-08,6.00000000000000e-01,6.00000000000000e-01,1.94754088936669e-05,0.00000000000000e+00
1.41880000000000e-08,6.00000000000000e-01,6.00000000000000e-01,2.19320231013139e-05,0.00000000000000e+00
1.51000000000000e-08,6.00000000000000e-01,6.00000000000000e-01,1.88731399848440e-05,0.00000000000000e+00
1.51100000000000e-08,5.39999999999992e-01,6.00000000000000e-01,8.43981546522807e-04,6.00000000000085e-02
1.51300000000000e-08,4.19999999999994e-01,6.00000000000000e-01,1.76887456958491e-03,1.80000000000006e-01
1.51700000000000e-08,1.80000000000000e-01,6.00000000000000e-01,1.60852120543714e-03,4.20000000000000e-01
1.52000000000000e-08,0.00000000000000e+00,6.00000000000000e-01,7.39552579393343e-04,6.00000000000000e-01
1.52080000000000e-08,0.00000000000000e+00,6.00000000000000e-01,4.80367361603104e-04,6.00000000000000e-01
1.52240000000000e-08,0.00000000000000e+00,6.00000000000000e-01,1.23533378454665e-04,6.00000000000000e-01
1.52560000000000e-08,0.00000000000000e+00,6.00000000000000e-01,-5.05512825283022e-05,6.00000000000000e-01
1.53200000000000e-08,0.00000000000000e+00,6.00000000000000e-01,-1.73268527343673e-05,6.00000000000000e-01
1.54480000000000e-08,0.00000000000000e+00,6.00000000000000e-01,-7.02449938412258e-04,6.00000000000000e-01
1.57040000000000e-08,0.00000000000000e+00,6.00000000000000e-01,-1.54066600595359e-04,6.00000000000000e-01
1.61583558531723e-08,0.00000000000000e+00,6.00000000000000e-01,8.66249060971699e-05,6.00000000000000e-01
1.67772655404078e-08,0.00000000000000e+00,6.00000000000000e-01,-8.91593294380585e-05,6.00000000000000e-01
1.77063948169681e-08,0.00000000000000e+00,6.00000000000000e-01,2.13989865561138e-04,6.00000000000000e-01
1.90807098573705e-08,0.00000000000000e+00,6.00000000000000e-01,-2.06039466095521e-04,6.00000000000000e-01
2.16111687834421e-08,0.00000000000000e+00,6.00000000000000e-01,2.50098812131347e-04,6.00000000000000e-01
2.50000000000000e-08,0.00000000000000e+00,6.00000000000000e-01,-2.16455651426707e-04,6.00000000000000e-01
2.50100000000000e-08,5.99999999999886e-02,6.00000000000000e-01,1.35335857603419e-04,6.00000000000000e-01
2.50300000000000e-08,1.80000000000006e-01,6.00000000000000e-01,7.21279926537394e-04,6.00000000000000e-01
2.50700000000000e-08,4.20000000000000e-01,6.00000000000000e-01,1.35365888425784e-03,6.00000000000000e-01
2.51000000000000e-08,6.00000000000000e-01,6.00000000000000e-01,9.15922558461846e-04,6.00000000000000e-01
2.51080000000000e-08,6.00000000000000e-01,6.00000000000000e-01,4.13437849240986e-04,6.00000000000000e-01
2.51240000000000e-08,6.00000000000000e-01,6.00000000000000e-01,-6.51464680850158e-04,6.00000000000000e-01
2.51560000000000e-08,6.00000000000000e-01,6.00000000000000e-01,-2.59172593343940e-03,6.00000000000000e-01
2.52200000000000e-08,6.00000000000000e-01,6.00000000000000e-01,-4.85109711822194e-03,6.00000000000000e-01
2.53480000000000e-08,6.00000000000000e-01,6.00000000000000e-01,3.50121359933095e-03,6.00000000000000e-01
2.56040000000000e-08,6.00000000000000e-01,6.00000000000000e-01,2.76360369371320e-01,6.00000000000000e-01
2.61160000000000e-08,6.00000000000000e-01,6.00000000000000e-01,6.07172824283824e-01,6.00000000000000e-01
2.66586888816182e-08,6.00000000000000e-01,6.00000000000000e-01,5.92523461208858e-01,6.00000000000000e-01
2.77440666448546e-08,6.00000000000000e-01,6.00000000000000e-01,6.07383055718832e-01,6.00000000000000e-01
2.88945462094118e-08,6.00000000000000e-01,6.00000000000000e-01,5.93091631774215e-01,6.00000000000000e-01
3.10100240897001e-08,6.00000000000000e-01,6.00000000000000e-01,6.06690643427773e-01,6.00000000000000e-01
3.48100240897001e-08,6.00000000000000e-01,6.00000000000000e-01,5.93458626584221e-01,6.00000000000000e-01
3.51000000000000e-08,5.99999999999970e-01,6.00000000000000e-01,6.04776290812136e-01,6.00000000000000e-01
3.51100000000000e-08,5.39999999999982e-01,6.00000000000000e-01,6.03119897429603e-01,6.00000000000000e-01
3.51300000000000e-08,4.19999999999965e-01,6.00000000000000e-01,6.00871729154896e-01,6.00000000000000e-01
3.51700000000000e-08,1.79999999999970e-01,6.00000000000000e-01,6.00663147351318e-01,6.00000000000000e-01
3.52000000000000e-08,0.00000000000000e+00,6.00000000000000e-01,6.03372316342652e-01,6.00000000000000e-01
3.52080000000000e-08,0.00000000000000e+00,6.00000000000000e-01,6.04279760405532e-01,6.00000000000000e-01
3.52240000000000e-08,0.00000000000000e+00,6.00000000000000e-01,6.05615336917728e-01,6.00000000000000e-01
3.52560000000000e-08,0.00000000000000e+00,6.00000000000000e-01,6.06642233438450e-01,6.00000000000000e-01
3.53200000000000e-08,0.00000000000000e+00,6.00000000000000e-01,6.04791084885827e-01,6.00000000000000e-01
3.54480000000000e-08,0.00000000000000e+00,6.00000000000000e-01,5.91193302289001e-01,6.00000000000000e-01
3.57040000000000e-08,0.00000000000000e+00,6.00000000000000e-01,5.90189522289846e-01,6.00000000000000e-01
3.62160000000000e-08,0.00000000000000e+00,6.00000000000000e-01,6.04368795067789e-01,6.00000000000000e-01
3.68475896287329e-08,0.00000000000000e+00,6.00000000000000e-01,5.96026485507879e-01,6.00000000000000e-01
3.78396639514845e-08,0.00000000000000e+00,6.00000000000000e-01,6.02705151024177e-01,6.00000000000000e-01
3.98238125969877e-08,0.00000000000000e+00,6.00000000000000e-01,5.97132065731158e-01,6.00000000000000e-01
4.36238125969877e-08,0.00000000000000e+00,6.00000000000000e-01,6.02415823433185e-01,6.00000000000000e-01
4.50000000000000e-08,0.00000000000000e+00,6.00000000000000e-01,5.97625991433694e-01,6.00000000000000e-01
4.50100000000000e-08,5.99999999999886e-02,6.00000000000000e-01,5.97878854305459e-01,5.40000000000011e-01
4.50300000000000e-08,1.80000000000006e-01,6.00000000000000e-01,5.98262342832929e-01,4.19999999999994e-01
4.50700000000000e-08,4.20000000000000e-01,6.00000000000000e-01,6.01327762339203e-01,1.80000000000000e-01
4.51000000000000e-08,6.00000000000000e-01,6.00000000000000e-01,6.09163248511632e-01,0.00000000000000e+00
4.51080000000000e-08,6.00000000000000e-01,6.00000000000000e-01,6.12058981381472e-01,0.00000000000000e+00
4.51240000000000e-08,6.00000000000000e-01,6.00000000000000e-01,6.17101653746452e-01,0.00000000000000e+00
4.51560000000000e-08,6.00000000000000e-01,6.00000000000000e-01,6.25241648407005e-01,0.00000000000000e+00
4.52200000000000e-08,6.00000000000000e-01,6.00000000000000e-01,6.40483064931479e-01,0.00000000000000e+00
4.53480000000000e-08,6.00000000000000e-01,6.00000000000000e-01,4.56320074134211e-01,0.00000000000000e+00
4.56040000000000e-08,6.00000000000000e-01,6.00000000000000e-01,3.93692053724440e-02,0.00000000000000e+00
4.59625971063719e-08,6.00000000000000e-01,6.00000000000000e-01,-1.50305964207292e-02,0.00000000000000e+00
4.65060376372031e-08,6.00000000000000e-01,6.00000000000000e-01,9.26057937836052e-03,0.00000000000000e+00
4.72731585490397e-08,6.00000000000000e-01,6.00000000000000e-01,-6.26000280684108e-03,0.00000000000000e+00
4.87131213806197e-08,6.00000000000000e-01,6.00000000000000e-01,5.21740514139925e-03,0.00000000000000e+00
5.01000000000000e-08,6.00000000000000e-01,5.99999999999966e-01,-4.18114516191427e-03,0.00000000000000e+00
5.03596200964054e-08,6.00000000000000e-01,6.00000000000000e-01,-9.00934240600646e-04,0.00000000000000e+00
5.08788602892162e-08,6.00000000000000e-01,6.00000000000000e-01,5.63112871143918e-04,0.00000000000000e+00
5.19173406748377e-08,6.00000000000000e-01,6.00000000000000e-01,-4.01243263215247e-04,0.00000000000000e+00
5.39943014460808e-08,6.00000000000000e-01,6.00000000000000e-01,3.87790707333734e-04,0.00000000000000e+00
5.51000000000000e-08,6.00000000000000e-01,6.00000000000000e-01,-2.70866016040259e-04,0.00000000000000e+00
5.51100000000000e-08,5.40000000000021e-01,6.00000000000000e-01,5.91906216711291e-04,5.99999999999787e-02
5.51300000000000e-08,4.20000000000004e-01,6.00000000000000e-01,1.58657605412689e-03,1.79999999999996e-01
5.51700000000000e-08,1.80000000000010e-01,6.00000000000000e-01,1.50877953068103e-03,4.19999999999990e-01
5.52000000000000e-08,0.00000000000000e+00,6.00000000000000e-01,6.67093032644089e-04,6.00000000000000e-01
5.52080000000000e-08,0.00000000000000e+00,6.00000000000000e-01,4.12403660946956e-04,6.00000000000000e-01
5.52240000000000e-08,0.00000000000000e+00,6.00000000000000e-01,6.60688673035509e-05,6.00000000000000e-01
5.52560000000000e-08,0.00000000000000e+00,6.00000000000000e-01,-1.01738116634414e-04,6.00000000000000e-01
5.53200000000000e-08,0.00000000000000e+00,6.00000000000000e-01,-2.54420134910241e-04,6.00000000000000e-01
5.54480000000000e-08,0.00000000000000e+00,6.00000000000000e-01,-1.28148818051463e-03,6.00000000000000e-01
5.57040000000000e-08,0.00000000000000e+00,6.00000000000000e-01,-1.26360601310695e-04,6.00000000000000e-01
5.61005243661562e-08,0.00000000000000e+00,6.00000000000000e-01,2.67117318920349e-04,6.00000000000000e-01
5.67523430352964e-08,0.00000000000000e+00,6.00000000000000e-01,-3.29820988928194e-04,6.00000000000000e-01
5.75843859209921e-08,0.00000000000000e+00,6.00000000000000e-01,3.83846160147430e-04,6.00000000000000e-01
5.89082927100951e-08,0.00000000000000e+00,6.00000000000000e-01,-3.35585864180397e-04,6.00000000000000e-01
6.10115137361713e-08,0.00000000000000e+00,6.00000000000000e-01,3.59189853418636e-04,6.00000000000000e-01
6.44588041541664e-08,0.00000000000000e+00,6.00000000000000e-01,-3.13510547560888e-04,6.00000000000000e-01
6.50000000000000e-08,0.00000000000000e+00,6.00000000000000e-01,2.82136210133607e-04,6.00000000000000e-01
6.50100000000000e-08,5.99999999999886e-02,6.00000000000000e-01,5.57880364958546e-04,6.00000000000000e-01
6.50300000000000e-08,1.79999999999966e-01,6.00000000000000e-01,9.95136073898381e-04,6.00000000000000e-01
6.50700000000000e-08,4.19999999999920e-01,6.00000000000000e-01,1.46102419134725e-03,6.00000000000000e-01
6.51000000000000e-08,5.99999999999966e-01,6.00000000000000e-01,9.34603426535660e-04,6.00000000000000e-01
6.51080000000000e-08,6.00000000000000e-01,6.00000000000000e-01,4.06202656248966e-04,6.00000000000000e-01
6.51240000000000e-08,6.00000000000000e-01,6.00000000000000e-01,-6.93965126558366e-04,6.00000000000000e-01
6.51560000000000e-08,6.00000000000000e-01,6.00000000000000e-01,-2.64147535095607e-03,6.00000000000000e-01
6.52200000000000e-08,6.00000000000000e-01,6.00000000000000e-01,-4.88167102766025e-03,6.00000000000000e-01
6.53480000000000e-08,6.00000000000000e-01,6.00000000000000e-01,3.27702937911548e-03,6.00000000000000e-01
6.56040000000000e-08,6.00000000000000e-01,6.00000000000000e-01,2.74824694898584e-01,6.00000000000000e-01
6.61159999999999e-08,6.00000000000000e-01,6.00000000000000e-01,6.06920882950071e-01,6.00000000000000e-01
6.66604115727329e-08,6.00000000000000e-01,6.00000000000000e-01,5.92676975067198e-01,6.00000000000000e-01
6.77492347181989e-08,6.00000000000000e-01,6.00000000000000e-01,6.07246730759702e-01,6.00000000000000e-01
6.89011769824663e-08,6.00000000000000e-01,6.00000000000000e-01,5.93214870486473e-01,6.00000000000000e-01
7.10177396024244e-08,6.00000000000000e-01,6.00000000000000e-01,6.06576064308277e-01,6.00000000000000e-01
7.48177396024244e-08,6.00000000000000e-01,6.00000000000000e-01,5.93571483170846e-01,6.00000000000000e-01
7.51000000000000e-08,6.00000000000000e-01,6.00000000000000e-01,6.04659372846966e-01,6.00000000000000e-01
7.51100000000000e-08,5.40000000000061e-01,6.00000000000000e-01,6.03038332057192e-01,6.00000000000000e-01
7.51300000000000e-08,4.20000000000084e-01,6.00000000000000e-01,6.00839938636532e-01,6.00000000000000e-01
7.51700000000000e-08,1.80000000000129e-01,6.00000000000000e-01,6.00663377308812e-01,6.00000000000000e-01
7.52000000000000e-08,8.40438829641244e-14,6.00000000000000e-01,6.03374030655120e-01,6.00000000000000e-01
7.52080000000000e-08,0.00000000000000e+00,6.00000000000000e-01,6.04281174470111e-01,6.00000000000000e-01
7.52240000000000e-08,0.00000000000000e+00,6.00000000000000e-01,6.05617055215566e-01,6.00000000000000e-01
7.52560000000000e-08,0.00000000000000e+00,6.00000000000000e-01,6.06643857062554e-01,6.00000000000000e-01
7.53200000000000e-08,0.00000000000000e+00,6.00000000000000e-01,6.04792141068672e-01,6.00000000000000e-01
7.54480000000000e-08,0.00000000000000e+00,6.00000000000000e-01,5.91194870881162e-01,6.00000000000000e-01
7.57040000000000e-08,0.00000000000000e+00,6.00000000000000e-01,5.90189113094841e-01,6.00000000000000e-01
7.62159999999999e-08,0.00000000000000e+00,6.00000000000000e-01,6.04369219463660e-01,6.00000000000000e-01
7.68475788910228e-08,0.00000000000000e+00,6.00000000000000e-01,5.96026167907348e-01,6.00000000000000e-01
7.78396794970489e-08,0.00000000000000e+00,6.00000000000000e-01,6.02705368186461e-01,6.00000000000000e-01
7.98238807091010e-08,0.00000000000000e+00,6.00000000000000e-01,5.97131858316440e-01,6.00000000000000e-01
8.36238807091010e-08,0.00000000000000e+00,6.00000000000000e-01,6.02416009621392e-01,6.00000000000000e-01
8.50000000000000e-08,0.00000000000000e+00,6.00000000000000e-01,5.97625843392190e-01,6.00000000000000e-01
8.50100000000000e-08,5.99999999999886e-02,6.00000000000000e-01,5.97878742124618e-01,5.40000000000011e-01
8.50300000000000e-08,1.79999999999966e-01,6.00000000000000e-01,5.98262271841068e-01,4.20000000000034e-01
8.50700000000000e-08,4.19999999999920e-01,6.00000000000000e-01,6.01327729592013e-01,1.80000000000080e-01
8.51000000000000e-08,5.99999999999966e-01,6.00000000000000e-01,6.09163258695161e-01,3.44169137633799e-14
8.51080000000000e-08,6.00000000000000e-01,6.00000000000000e-01,6.12059001446040e-01,0.00000000000000e+00
8.51240000000000e-08,6.00000000000000e-01,6.00000000000000e-01,6.17101687891515e-01,0.00000000000000e+00
8.51560000000000e-08,6.00000000000000e-01,6.00000000000000e-01,6.25241687521093e-01,0.00000000000000e+00
8.52200000000000e-08,6.00000000000000e-01,6.00000000000000e-01,6.40483013357285e-01,0.00000000000000e+00
8.53480000000000e-08,6.00000000000000e-01,6.00000000000000e-01,4.56319299138050e-01,0.00000000000000e+00
8.56040000000000e-08,6.00000000000000e-01,6.00000000000000e-01,3.93686826807068e-02,0.00000000000000e+00
8.59624465941947e-08,6.00000000000000e-01,6.00000000000000e-01,-1.50243497679073e-02,0.00000000000000e+00
8.65059134328343e-08,6.00000000000000e-01,6.00000000000000e-01,9.25680287301742e-03,0.00000000000000e+00
8.72728935217558e-08,6.00000000000000e-01,6.00000000000000e-01,-6.25708717222283e-03,0.00000000000000e+00
8.87127796874699e-08,6.00000000000000e-01,6.00000000000000e-01,5.21486319797519e-03,0.00000000000000e+00
9.01000000000000e-08,6.00000000000000e-01,5.99999999999966e-01,-4.17933530874436e-03,0.00000000000000e+00
9.03594884947213e-08,6.00000000000000e-01,6.00000000000000e-01,-9.00923919457265e-04,0.00000000000000e+00
9.08784654841640e-08,6.00000000000000e-01,6.00000000000000e-01,5.62956213306081e-04,0.00000000000000e+00
9.19164194630494e-08,6.00000000000000e-01,6.00000000000000e-01,-4.01067036906125e-04,0.00000000000000e+00
9.39923274208202e-08,6.00000000000000e-01,6.00000000000000e-01,3.87611371302441e-04,0.00000000000000e+00
9.51000000000000e-08,6.00000000000000e-01,6.00000000000000e-01,-2.70852451048973e-04,0.00000000000000e+00
9.51100000000000e-08,5.40000000000061e-01,6.00000000000000e-01,5.91915157752990e-04,5.99999999999390e-02
9.51300000000000e-08,4.20000000000084e-01,6.00000000000000e-01,1.58658404366778e-03,1.79999999999916e-01
9.51700000000000e-08,1.80000000000129e-01,6.00000000000000e-01,1.50878529073172e-03,4.19999999999871e-01
9.52000000000000e-08,8.40438829641244e-14,6.00000000000000e-01,6.67096257785799e-04,5.99999999999916e-01
9.52080000000000e-08,0.00000000000000e+00,6.00000000000000e-01,4.12406379031519e-04,6.00000000000000e-01
9.52240000000000e-08,0.00000000000000e+00,6.00000000000000e-01,6.60709798350340e-05,6.00000000000000e-01
9.52560000000000e-08,0.00000000000000e+00,6.00000000000000e-01,-1.01736126329938e-04,6.00000000000000e-01
9.53200000000000e-08,0.00000000000000e+00,6.00000000000000e-01,-2.54416402721558e-04,6.00000000000000e-01
9.54480000000000e-08,0.00000000000000e+00,6.00000000000000e-01,-1.28147464426474e-03,6.00000000000000e-01
9.57040000000000e-08,0.00000000000000e+00,6.00000000000000e-01,-1.26360038305337e-04,6.00000000000000e-01
9.61005035841601e-08,0.00000000000000e+00,6.00000000000000e-01,2.67125376472169e-04,6.00000000000000e-01
9.67523344482870e-08,0.00000000000000e+00,6.00000000000000e-01,-3.29831195303242e-04,6.00000000000000e-01
9.75843438767083e-08,0.00000000000000e+00,6.00000000000000e-01,3.83863921118045e-04,6.00000000000000e-01
9.89082304993015e-08,0.00000000000000e+00,6.00000000000000e-01,-3.35599764310295e-04,6.00000000000000e-01
1.01011316054939e-07,0.00000000000000e+00,6.00000000000000e-01,3.59200665900224e-04,6.00000000000000e-01
1.04458385968085e-07,0.00000000000000e+00,6.00000000000000e-01,-3.13519461343894e-04,6.00000000000000e-01
1.05000000000000e-07,0.00000000000000e+00,6.00000000000000e-01,2.82192005674912e-04,6.00000000000000e-01
1.05010000000000e-07,5.99999999999886e-02,6.00000000000000e-01,5.57926377398904e-04,6.00000000000000e-01
1.05030000000000e-07,1.79999999999966e-01,6.00000000000000e-01,9.95163818894848e-04,6.00000000000000e-01
1.05070000000000e-07,4.19999999999920e-01,6.00000000000000e-01,1.46103563489697e-03,6.00000000000000e-01
1.05100000000000e-07,5.99999999999966e-01,6.00000000000000e-01,9.34612964018963e-04,6.00000000000000e-01
1.05108000000000e-07,6.00000000000000e-01,6.00000000000000e-01,4.06211349846156e-04,6.00000000000000e-01
1.05124000000000e-07,6.00000000000000e-01,6.00000000000000e-01,-6.93957748511623e-04,6.00000000000000e-01
1.05156000000000e-07,6.00000000000000e-01,6.00000000000000e-01,-2.64146978358781e-03,6.00000000000000e-01
1.05220000000000e-07,6.00000000000000e-01,6.00000000000000e-01,-4.88167171228963e-03,6.00000000000000e-01
1.05348000000000e-07,6.00000000000000e-01,6.00000000000000e-01,3.27693401537302e-03,6.00000000000000e-01
1.05604000000000e-07,6.00000000000000e-01,6.00000000000000e-01,2.74824030881436e-01,6.00000000000000e-01
1.06116000000000e-07,6.00000000000000e-01,6.00000000000000e-01,6.06920773193246e-01,6.00000000000000e-01
1.06660412302217e-07,6.00000000000000e-01,6.00000000000000e-01,5.92677041809030e-01,6.00000000000000e-01
1.07749236906652e-07,6.00000000000000e-01,6.00000000000000e-01,6.07246671309323e-01,6.00000000000000e-01
1.08901179797355e-07,6.00000000000000e-01,6.00000000000000e-01,5.93214924209449e-01,6.00000000000000e-01
1.11017742844753e-07,6.00000000000000e-01,6.00000000000000e-01,6.06576014279580e-01,6.00000000000000e-01
1.14817742844753e-07,6.00000000000000e-01,6.00000000000000e-01,5.93571532395220e-01,6.00000000000000e-01
1.15100000000000e-07,6.00000000000000e-01,6.00000000000000e-01,6.04659322387646e-01,6.00000000000000e-01
1.15110000000000e-07,5.40000000000061e-01,6.00000000000000e-01,6.03038297203596e-01,6.00000000000000e-01
