Time,v(clk),v(data),v(out)
1.00000000000000e-08,6.00000000000000e-01,0.00000000000000e+00,2.01780955116047e-05
1.00100000000000e-08,6.00000000000000e-01,5.99999999999986e-02,2.06367863245446e-05
1.00300000000000e-08,6.00000000000000e-01,1.79999999999996e-01,1.92181120961185e-05
1.00700000000000e-08,6.00000000000000e-01,4.19999999999990e-01,1.38368554064502e-05
1.01000000000000e-08,6.00000000000000e-01,5.99999999999995e-01,1.10205052151965e-05
1.01080000000000e-08,6.00000000000000e-01,6.00000000000000e-01,1.04678595592572e-05
1.01240000000000e-08,6.00000000000000e-01,6.00000000000000e-01,1.05732394098945e-05
1.01560000000000e-08,6.00000000000000e-01,6.00000000000000e-01,1.28474937490033e-05
1.02200000000000e-08,6.00000000000000e-01,6.00000000000000e-01,1.48543500163786e-05
1.03480000000000e-08,6.00000000000000e-01,6.00000000000000e-01,1.14650461412250e-05
1.06040000000000e-08,6.00000000000000e-01,6.00000000000000e-01,1.02024009360924e-05
1.11160000000000e-08,6.00000000000000e-01,6.00000000000000e-01,9.92441563452129e-06
1.21400000000000e-08,6.00000000000000e-01,6.00000000000000e-01,1.00570382500186e-05
1.41880000000000e-08,6.00000000000000e-01,6.00000000000000e-01,8.90369027103845e-06
1.51000000000000e-08,6.00000000000000e-01,6.00000000000000e-01,9.51706188705853e-06
1.51100000000000e-08,5.39999999999992e-01,6.00000000000000e-01,-4.64289044715405e-05
1.51300000000000e-08,4.19999999999994e-01,6.00000000000000e-01,-1.29033084059350e-04
1.51700000000000e-08,1.80000000000000e-01,6.00000000000000e-01,-1.06392049721751e-04
1.52000000000000e-08,0.00000000000000e+00,6.00000000000000e-01,1.21635351266386e-04
1.52080000000000e-08,0.00000000000000e+00,6.00000000000000e-01,2.37708050294910e-04
1.52240000000000e-08,0.00000000000000e+00,6.00000000000000e-01,3.71398074515666e-04
1.52560000000000e-08,0.00000000000000e+00,6.00000000000000e-01,3.06015822287863e-04
1.53200000000000e-08,0.00000000000000e+00,6.00000000000000e-01,-1.07839626016203e-04
1.54480000000000e-08,0.00000000000000e+00,6.00000000000000e-01,-2.82918512505607e-04
1.57040000000000e-08,0.00000000000000e+00,6.00000000000000e-01,-1.48151049179056e-05
1.61493740034342e-08,0.00000000000000e+00,6.00000000000000e-01,8.46992069610496e-06
1.66986551239213e-08,0.00000000000000e+00,6.00000000000000e-01,1.40162349583696e-04
1.77972173648954e-08,0.00000000000000e+00,6.00000000000000e-01,-1.50402891764161e-04
1.90236539341777e-08,0.00000000000000e+00,6.00000000000000e-01,1.75924014973745e-04
2.14765270727423e-08,0.00000000000000e+00,6.00000000000000e-01,-1.62277463002784e-04
2.50000000000000e-08,0.00000000000000e+00,6.00000000000000e-01,1.77268846741276e-04
2.50100000000000e-08,5.99999999999886e-02,6.00000000000000e-01,2.44095311209225e-04
2.50300000000000e-08,1.80000000000006e-01,6.00000000000000e-01,3.45070068111748e-04
2.50700000000000e-08,4.20000000000000e-01,6.00000000000000e-01,4.05219451905421e-04
2.51000000000000e-08,6.00000000000000e-01,6.00000000000000e-01,-1.33331819021351e-04
2.51080000000000e-08,6.00000000000000e-01,6.00000000000000e-01,-5.60561140355895e-04
2.51240000000000e-08,6.00000000000000e-01,6.00000000000000e-01,-1.52116910648228e-03
2.51560000000000e-08,6.00000000000000e-01,6.00000000000000e-01,-3.36965581375690e-03
2.52200000000000e-08,6.00000000000000e-01,6.00000000000000e-01,-4.84176228797051e-03
2.53480000000000e-08,6.00000000000000e-01,6.00000000000000e-01,7.49646278016950e-02
2.56040000000000e-08,6.00000000000000e-01,6.00000000000000e-01,5.17460339332553e-01
2.61160000000000e-08,6.00000000000000e-01,6.00000000000000e-01,6.20949641449526e-01
2.66862813278785e-08,6.00000000000000e-01,6.00000000000000e-01,5.79070703666988e-01
2.78178009850457e-08,6.00000000000000e-01,6.00000000000000e-01,6.17945882027883e-01
2.93126721263075e-08,6.00000000000000e-01,6.00000000000000e-01,5.81334853185543e-01
3.01000000000000e-08,6.00000000000000e-01,6.00000000000000e-01,6.15926646294544e-01
3.01100000000000e-08,6.00000000000000e-01,5.40000000000031e-01,6.09571202609867e-01
3.01300000000000e-08,6.00000000000000e-01,4.20000000000014e-01,6.01925185363855e-01
3.01700000000000e-08,6.00000000000000e-01,1.80000000000020e-01,5.99682668590556e-01
3.02000000000000e-08,6.00000000000000e-01,1.44328993201270e-14,6.00014439089806e-01
3.02080000000000e-08,6.00000000000000e-01,0.00000000000000e+00,5.99994279969042e-01
3.02240000000000e-08,6.00000000000000e-01,0.00000000000000e+00,5.99966320638880e-01
3.02560000000000e-08,6.00000000000000e-01,0.00000000000000e+00,5.99945066318428e-01
3.03200000000000e-08,6.00000000000000e-01,0.00000000000000e+00,5.99948689902508e-01
3.04480000000000e-08,6.00000000000000e-01,0.00000000000000e+00,5.99962203371092e-01
3.07040000000000e-08,6.00000000000000e-01,0.00000000000000e+00,5.99971058217926e-01
3.11486547941102e-08,6.00000000000000e-01,0.00000000000000e+00,5.99947279955955e-01
3.17055020956761e-08,6.00000000000000e-01,0.00000000000000e+00,5.99976125166422e-01
3.28191966988078e-08,6.00000000000000e-01,0.00000000000000e+00,5.99954312572614e-01
3.50465859050712e-08,6.00000000000000e-01,0.00000000000000e+00,5.99983518383427e-01
3.51000000000000e-08,5.99999999999970e-01,0.00000000000000e+00,5.99967480411920e-01
3.51100000000000e-08,5.39999999999982e-01,0.00000000000000e+00,5.99916221304912e-01
3.51300000000000e-08,4.19999999999965e-01,0.00000000000000e+00,5.99856404747857e-01
3.51700000000000e-08,1.79999999999970e-01,0.00000000000000e+00,6.00419677689451e-01
3.52000000000000e-08,0.00000000000000e+00,0.00000000000000e+00,6.01983823079538e-01
3.52080000000000e-08,0.00000000000000e+00,0.00000000000000e+00,6.02369599594658e-01
3.52240000000000e-08,0.00000000000000e+00,0.00000000000000e+00,6.02770433056728e-01
3.52560000000000e-08,0.00000000000000e+00,0.00000000000000e+00,6.01558428447219e-01
3.53200000000000e-08,0.00000000000000e+00,0.00000000000000e+00,5.89950608540321e-01
3.54480000000000e-08,0.00000000000000e+00,0.00000000000000e+00,5.80070075481086e-01
3.57040000000000e-08,0.00000000000000e+00,0.00000000000000e+00,5.99365300761276e-01
3.60427979886285e-08,0.00000000000000e+00,0.00000000000000e+00,5.99066010051063e-01
3.67203939658855e-08,0.00000000000000e+00,0.00000000000000e+00,5.99902311657944e-01
3.74270896198168e-08,0.00000000000000e+00,0.00000000000000e+00,5.99458462593198e-01
3.88404809276794e-08,0.00000000000000e+00,0.00000000000000e+00,6.00037542861675e-01
3.91000000000000e-08,0.00000000000000e+00,0.00000000000000e+00,5.99636817841042e-01
3.93826782615725e-08,0.00000000000000e+00,0.00000000000000e+00,5.99796728922453e-01
3.99480347847176e-08,0.00000000000000e+00,0.00000000000000e+00,5.99833771861304e-01
4.10787478310077e-08,0.00000000000000e+00,0.00000000000000e+00,5.99827470433337e-01
4.33401739235878e-08,0.00000000000000e+00,0.00000000000000e+00,5.99865186248150e-01
4.50000000000000e-08,0.00000000000000e+00,0.00000000000000e+00,5.99850704903564e-01
4.50100000000000e-08,5.99999999999886e-02,0.00000000000000e+00,5.99899599362149e-01
4.50300000000000e-08,1.80000000000006e-01,0.00000000000000e+00,5.99948418463888e-01
4.50700000000000e-08,4.20000000000000e-01,0.00000000000000e+00,5.99905411788473e-01
4.51000000000000e-08,6.00000000000000e-01,0.00000000000000e+00,5.99782700668479e-01
4.51080000000000e-08,6.00000000000000e-01,0.00000000000000e+00,5.99730054678141e-01
4.51240000000000e-08,6.00000000000000e-01,0.00000000000000e+00,5.99665032344583e-01
4.51560000000000e-08,6.00000000000000e-01,0.00000000000000e+00,5.99644353044767e-01
4.52200000000000e-08,6.00000000000000e-01,0.00000000000000e+00,5.99788353888559e-01
4.53480000000000e-08,6.00000000000000e-01,0.00000000000000e+00,6.03028119561592e-01
4.56040000000000e-08,6.00000000000000e-01,0.00000000000000e+00,3.48750659978591e-01
4.56680000000000e-08,6.00000000000000e-01,0.00000000000000e+00,1.89609170898378e-01
4.57960000000000e-08,6.00000000000000e-01,0.00000000000000e+00,1.40324954262958e-02
4.60520000000000e-08,6.00000000000000e-01,0.00000000000000e+00,-6.29432795895504e-03
4.65640000000000e-08,6.00000000000000e-01,0.00000000000000e+00,4.40418629286983e-03
4.71534358109133e-08,6.00000000000000e-01,0.00000000000000e+00,-3.21918129731622e-03
4.83323074327399e-08,6.00000000000000e-01,0.00000000000000e+00,2.77730712140861e-03
5.00000000000000e-08,6.00000000000000e-01,0.00000000000000e+00,-2.48961794664621e-03
5.00100000000000e-08,6.00000000000000e-01,5.99999999999886e-02,-1.99561298972487e-03
5.00300000000000e-08,6.00000000000000e-01,1.79999999999966e-01,-1.21549632360673e-03
5.00700000000000e-08,6.00000000000000e-01,4.20000000000000e-01,-4.62429545387610e-04
5.01000000000000e-08,6.00000000000000e-01,6.00000000000000e-01,-2.44078349652808e-04
5.01080000000000e-08,6.00000000000000e-01,6.00000000000000e-01,-2.08657874531136e-04
5.01240000000000e-08,6.00000000000000e-01,6.00000000000000e-01,-1.37528637239870e-04
5.01560000000000e-08,6.00000000000000e-01,6.00000000000000e-01,-6.25091258942209e-05
5.02200000000000e-08,6.00000000000000e-01,6.00000000000000e-01,-5.37365072123680e-06
5.03480000000000e-08,6.00000000000000e-01,6.00000000000000e-01,6.34106846552837e-06
5.06040000000000e-08,6.00000000000000e-01,6.00000000000000e-01,5.21766186366984e-06
5.11160000000001e-08,6.00000000000000e-01,6.00000000000000e-01,6.84502048671140e-06
5.21400000000002e-08,6.00000000000000e-01,6.00000000000000e-01,6.03978103999939e-06
5.41880000000003e-08,6.00000000000000e-01,6.00000000000000e-01,7.17738920433600e-06
5.51000000000000e-08,6.00000000000000e-01,6.00000000000000e-01,5.95267682637797e-06
5.51100000000000e-08,5.40000000000021e-01,6.00000000000000e-01,-4.96138770621629e-05
5.51300000000000e-08,4.20000000000004e-01,6.00000000000000e-01,-1.32441359359206e-04
5.51700000000000e-08,1.80000000000010e-01,6.00000000000000e-01,-1.02781073968668e-04
5.52000000000000e-08,0.00000000000000e+00,6.00000000000000e-01,1.17971158599059e-04
5.52080000000000e-08,0.00000000000000e+00,6.00000000000000e-01,2.32575198322510e-04
5.52240000000000e-08,0.00000000000000e+00,6.00000000000000e-01,3.59331023906485e-04
5.52560000000000e-08,0.00000000000000e+00,6.00000000000000e-01,2.66481873913621e-04
5.53200000000000e-08,0.00000000000000e+00,6.00000000000000e-01,-3.98950170372524e-04
5.54480000000000e-08,0.00000000000000e+00,6.00000000000000e-01,-5.00205349035880e-04
5.57040000000000e-08,0.00000000000000e+00,6.00000000000000e-01,1.02020802955910e-04
5.61484187149391e-08,0.00000000000000e+00,6.00000000000000e-01,-7.60620707566523e-05
5.66980153323050e-08,0.00000000000000e+00,6.00000000000000e-01,2.05300885994471e-04
5.77972085670368e-08,0.00000000000000e+00,6.00000000000000e-01,-2.09042973898470e-04
5.90227991734753e-08,0.00000000000000e+00,6.00000000000000e-01,2.28677283182550e-04
6.14739803863524e-08,0.00000000000000e+00,6.00000000000000e-01,-2.13329314677756e-04
6.50000000000000e-08,0.00000000000000e+00,6.00000000000000e-01,2.26403910280447e-04
6.50100000000000e-08,5.99999999999886e-02,6.00000000000000e-01,2.75587459043929e-04
6.50300000000000e-08,1.79999999999966e-01,6.00000000000000e-01,3.58833793340917e-04
6.50700000000000e-08,4.19999999999920e-01,6.00000000000000e-01,4.11712686119420e-04
6.51000000000000e-08,5.99999999999966e-01,6.00000000000000e-01,-1.31467893914973e-04
6.51080000000000e-08,6.00000000000000e-01,6.00000000000000e-01,-5.58724889853014e-04
6.51240000000000e-08,6.00000000000000e-01,6.00000000000000e-01,-1.51971854592541e-03
6.51560000000000e-08,6.00000000000000e-01,6.00000000000000e-01,-3.36904510769334e-03
6.52200000000000e-08,6.00000000000000e-01,6.00000000000000e-01,-4.84142236194109e-03
6.53480000000000e-08,6.00000000000000e-01,6.00000000000000e-01,7.49706804966580e-02
6.56040000000000e-08,6.00000000000000e-01,6.00000000000000e-01,5.17465207211519e-01
6.61159999999999e-08,6.00000000000000e-01,6.00000000000000e-01,6.20948785968265e-01
6.66862866831642e-08,6.00000000000000e-01,6.00000000000000e-01,5.79071522400879e-01
6.78177972279153e-08,6.00000000000000e-01,6.00000000000000e-01,6.17945155220024e-01
6.93126577718698e-08,6.00000000000000e-01,6.00000000000000e-01,5.81335618348909e-01
7.01000000000000e-08,6.00000000000000e-01,6.00000000000000e-01,6.15926016624269e-01
7.01100000000000e-08,6.00000000000000e-01,5.40000000000011e-01,6.09570834616100e-01
7.01300000000000e-08,6.00000000000000e-01,4.20000000000034e-01,6.01925122752650e-01
7.01700000000000e-08,6.00000000000000e-01,1.80000000000080e-01,5.99682682048170e-01
7.02000000000000e-08,6.00000000000000e-01,3.44169137633799e-14,6.00014438909358e-01
7.02080000000000e-08,6.00000000000000e-01,0.00000000000000e+00,5.99994280954558e-01
7.02240000000000e-08,6.00000000000000e-01,0.00000000000000e+00,5.99966323930934e-01
7.02560000000000e-08,6.00000000000000e-01,0.00000000000000e+00,5.99945069873287e-01
7.03200000000000e-08,6.00000000000000e-01,0.00000000000000e+00,5.99948691305646e-01
7.04480000000000e-08,6.00000000000000e-01,0.00000000000000e+00,5.99962204506787e-01
7.07040000000000e-08,6.00000000000000e-01,0.00000000000000e+00,5.99971057397263e-01
7.11486547652501e-08,6.00000000000000e-01,0.00000000000000e+00,5.99947281488558e-01
7.17055029950799e-08,6.00000000000000e-01,0.00000000000000e+00,5.99976125012461e-01
7.28191994547396e-08,6.00000000000000e-01,0.00000000000000e+00,5.99954313466408e-01
7.50465923740590e-08,6.00000000000000e-01,0.00000000000000e+00,5.99983518060360e-01
7.51000000000000e-08,6.00000000000000e-01,0.00000000000000e+00,5.99967481552947e-01
7.51100000000000e-08,5.40000000000061e-01,0.00000000000000e+00,5.99916222008847e-01
7.51300000000000e-08,4.20000000000084e-01,0.00000000000000e+00,5.99856405012948e-01
7.51700000000000e-08,1.80000000000129e-01,0.00000000000000e+00,6.00419677856711e-01
7.52000000000000e-08,8.40438829641244e-14,0.00000000000000e+00,6.01983823750593e-01
7.52080000000000e-08,0.00000000000000e+00,0.00000000000000e+00,6.02369600600712e-01
7.52240000000000e-08,0.00000000000000e+00,0.00000000000000e+00,6.02770435417438e-01
7.52560000000000e-08,0.00000000000000e+00,0.00000000000000e+00,6.01558439703680e-01
7.53200000000000e-08,0.00000000000000e+00,0.00000000000000e+00,5.89950638766140e-01
7.54480000000000e-08,0.00000000000000e+00,0.00000000000000e+00,5.80070085354110e-01
7.57040000000000e-08,0.00000000000000e+00,0.00000000000000e+00,5.99365290557370e-01
7.60427979879470e-08,0.00000000000000e+00,0.00000000000000e+00,5.99066018016931e-01
7.67203939638409e-08,0.00000000000000e+00,0.00000000000000e+00,5.99902305316926e-01
7.74270896184161e-08,0.00000000000000e+00,0.00000000000000e+00,5.99458468074225e-01
7.81000000000000e-08,0.00000000000000e+00,0.00000000000000e+00,5.99986233146183e-01
7.82413391309150e-08,0.00000000000000e+00,0.00000000000000e+00,5.99801987090468e-01
7.85240173927451e-08,0.00000000000000e+00,0.00000000000000e+00,5.99757506598216e-01
7.90893739164052e-08,0.00000000000000e+00,0.00000000000000e+00,5.99821490024165e-01
8.02200869637255e-08,0.00000000000000e+00,0.00000000000000e+00,5.99807243319279e-01
8.24815130583660e-08,0.00000000000000e+00,0.00000000000000e+00,5.99868203464995e-01
8.50000000000000e-08,0.00000000000000e+00,0.00000000000000e+00,5.99843372317937e-01
8.50100000000000e-08,5.99999999999886e-02,0.00000000000000e+00,5.99899499086000e-01
8.50300000000000e-08,1.79999999999966e-01,0.00000000000000e+00,5.99955790900145e-01
8.50700000000000e-08,4.19999999999920e-01,0.00000000000000e+00,5.99909080085616e-01
8.51000000000000e-08,5.99999999999966e-01,0.00000000000000e+00,5.99783666487160e-01
8.51080000000000e-08,6.00000000000000e-01,0.00000000000000e+00,5.99732588574565e-01
8.51240000000000e-08,6.00000000000000e-01,0.00000000000000e+00,5.99669161451958e-01
8.51560000000000e-08,6.00000000000000e-01,0.00000000000000e+00,5.99640447835725e-01
8.52200000000000e-08,6.00000000000000e-01,0.00000000000000e+00,5.99778536547005e-01
8.53480000000000e-08,6.00000000000000e-01,0.00000000000000e+00,6.03032535979886e-01
8.56040000000000e-08,6.00000000000000e-01,0.00000000000000e+00,3.48761907197190e-01
8.56680000000000e-08,6.00000000000000e-01,0.00000000000000e+00,1.89618601089213e-01
8.57959999999999e-08,6.00000000000000e-01,0.00000000000000e+00,1.40355238010728e-02
8.60519999999999e-08,6.00000000000000e-01,0.00000000000000e+00,-6.29567626336788e-03
8.65639999999999e-08,6.00000000000000e-01,0.00000000000000e+00,4.40515710378729e-03
8.71534300838454e-08,6.00000000000000e-01,0.00000000000000e+00,-3.21989236420617e-03
8.83322902515365e-08,6.00000000000000e-01,0.00000000000000e+00,2.77792663364467e-03
9.00000000000000e-08,6.00000000000000e-01,0.00000000000000e+00,-2.49018052762111e-03
9.00100000000000e-08,6.00000000000000e-01,5.99999999999886e-02,-1.99603324493943e-03
9.00300000000000e-08,6.00000000000000e-01,1.79999999999966e-01,-1.21573040138522e-03
9.00700000000000e-08,6.00000000000000e-01,4.19999999999920e-01,-4.62528695506087e-04
9.01000000000000e-08,6.00000000000000e-01,5.99999999999966e-01,-2.44126212407172e-04
9.01080000000000e-08,6.00000000000000e-01,6.00000000000000e-01,-2.08699499706637e-04
9.01240000000000e-08,6.00000000000000e-01,6.00000000000000e-01,-1.37555821449371e-04
9.01560000000000e-08,6.00000000000000e-01,6.00000000000000e-01,-6.25227617159774e-05
9.02200000000000e-08,6.00000000000000e-01,6.00000000000000e-01,-5.37787464748030e-06
9.03480000000000e-08,6.00000000000000e-01,6.00000000000000e-01,6.34005307766430e-06
9.06040000000000e-08,6.00000000000000e-01,6.00000000000000e-01,5.21629715926133e-06
9.11159999999999e-08,6.00000000000000e-01,6.00000000000000e-01,6.84373397895517e-06
9.21399999999999e-08,6.00000000000000e-01,6.00000000000000e-01,6.03949178783984e-06
9.41879999999998e-08,6.00000000000000e-01,6.00000000000000e-01,7.17665854942052e-06
9.51000000000000e-08,6.00000000000000e-01,6.00000000000000e-01,5.95184733004350e-06
9.51100000000000e-08,5.40000000000061e-01,6.00000000000000e-01,-4.96145431722744e-05
9.51300000000000e-08,4.20000000000084e-01,6.00000000000000e-01,-1.32442004422834e-04
9.51700000000000e-08,1.80000000000129e-01,6.00000000000000e-01,-1.02782287722536e-04
9.52000000000000e-08,8.40438829641244e-14,6.00000000000000e-01,1.17968736473392e-04
9.52080000000000e-08,0.00000000000000e+00,6.00000000000000e-01,2.32571970174206e-04
9.52240000000000e-08,0.00000000000000e+00,6.00000000000000e-01,3.59324852795162e-04
9.52560000000000e-08,0.00000000000000e+00,6.00000000000000e-01,2.66459659932092e-04
9.53200000000000e-08,0.00000000000000e+00,6.00000000000000e-01,-3.99203135090592e-04
9.54480000000000e-08,0.00000000000000e+00,6.00000000000000e-01,-5.00444865688458e-04
9.57040000000000e-08,0.00000000000000e+00,6.00000000000000e-01,1.02136259275241e-04
9.61484176431431e-08,0.00000000000000e+00,6.00000000000000e-01,-7.61408284325575e-05
9.66980146064413e-08,0.00000000000000e+00,6.00000000000000e-01,2.05358977710379e-04
9.77972085330378e-08,0.00000000000000e+00,6.00000000000000e-01,-2.09094317999197e-04
9.90227981800697e-08,0.00000000000000e+00,6.00000000000000e-01,2.28722717441576e-04
1.01473977474134e-07,0.00000000000000e+00,6.00000000000000e-01,-2.13372596776821e-04
1.05000000000000e-07,0.00000000000000e+00,6.00000000000000e-01,2.26445352099930e-04
1.05010000000000e-07,5.99999999999886e-02,6.00000000000000e-01,2.75613990351607e-04
1.05030000000000e-07,1.79999999999966e-01,6.00000000000000e-01,3.58846203353823e-04
1.05070000000000e-07,4.19999999999920e-01,6.00000000000000e-01,4.11719989410655e-04
1.05100000000000e-07,5.99999999999966e-01,6.00000000000000e-01,-1.31465279062881e-04
1.05108000000000e-07,6.00000000000000e-01,6.00000000000000e-01,-5.58722375826819e-04
1.05124000000000e-07,6.00000000000000e-01,6.00000000000000e-01,-1.51971656453397e-03
1.05156000000000e-07,6.00000000000000e-01,6.00000000000000e-01,-3.36904415090934e-03
1.05220000000000e-07,6.00000000000000e-01,6.00000000000000e-01,-4.84142190660632e-03
1.05348000000000e-07,6.00000000000000e-01,6.00000000000000e-01,7.49706857834930e-02
1.05604000000000e-07,6.00000000000000e-01,6.00000000000000e-01,5.17465211778991e-01
1.06116000000000e-07,6.00000000000000e-01,6.00000000000000e-01,6.20948785141998e-01
1.06686286688169e-07,6.00000000000000e-01,6.00000000000000e-01,5.79071523167434e-01
