Time,v(clk),v(data),v(out)
1.00000000000000e-08,6.00000000000000e-01,0.00000000000000e+00,-1.62575953905991e-04
1.00100000000000e-08,6.00000000000000e-01,5.99999999999986e-02,-1.23753962975953e-04
1.00300000000000e-08,6.00000000000000e-01,1.79999999999996e-01,-6.72987846538214e-05
1.00700000000000e-08,6.00000000000000e-01,4.19999999999990e-01,-3.44909704861063e-05
1.01000000000000e-08,6.00000000000000e-01,5.99999999999995e-01,-7.64445664246799e-05
1.01080000000000e-08,6.00000000000000e-01,6.00000000000000e-01,-8.76680200381508e-05
1.01240000000000e-08,6.00000000000000e-01,6.00000000000000e-01,-9.37868279006632e-05
1.01560000000000e-08,6.00000000000000e-01,6.00000000000000e-01,-7.48507053988517e-05
1.02200000000000e-08,6.00000000000000e-01,6.00000000000000e-01,-1.59657204705371e-05
1.03480000000000e-08,6.00000000000000e-01,6.00000000000000e-01,1.58485970064015e-05
1.06040000000000e-08,6.00000000000000e-01,6.00000000000000e-01,2.13681507097579e-06
1.11160000000000e-08,6.00000000000000e-01,6.00000000000000e-01,1.30512868449714e-06
1.21400000000000e-08,6.00000000000000e-01,6.00000000000000e-01,1.69943620463749e-06
1.41880000000000e-08,6.00000000000000e-01,6.00000000000000e-01,1.48491860510816e-06
1.51000000000000e-08,6.00000000000000e-01,6.00000000000000e-01,1.73098849303929e-06
1.51100000000000e-08,5.39999999999992e-01,6.00000000000000e-01,-1.57990305976602e-04
1.51300000000000e-08,4.19999999999994e-01,6.00000000000000e-01,-5.56195507039101e-04
1.51700000000000e-08,1.80000000000000e-01,6.00000000000000e-01,-1.51242262939388e-03
1.52000000000000e-08,0.00000000000000e+00,6.00000000000000e-01,-1.65383131543992e-03
1.52080000000000e-08,0.00000000000000e+00,6.00000000000000e-01,-1.28010466287433e-03
1.52240000000000e-08,0.00000000000000e+00,6.00000000000000e-01,-6.23175319840311e-04
1.52560000000000e-08,0.00000000000000e+00,6.00000000000000e-01,2.14855144204523e-04
1.53200000000000e-08,0.00000000000000e+00,6.00000000000000e-01,7.32101322515069e-04
1.54480000000000e-08,0.00000000000000e+00,6.00000000000000e-01,5.90803578469211e-04
1.57040000000000e-08,0.00000000000000e+00,6.00000000000000e-01,1.96135518383836e-04
1.62160000000000e-08,0.00000000000000e+00,6.00000000000000e-01,-2.61158087604095e-05
1.72400000000000e-08,0.00000000000000e+00,6.00000000000000e-01,-1.30952450141568e-04
1.89180158189334e-08,0.00000000000000e+00,6.00000000000000e-01,-3.33586792742938e-05
2.10325725560501e-08,0.00000000000000e+00,6.00000000000000e-01,1.18122126465254e-04
2.48325725560501e-08,0.00000000000000e+00,6.00000000000000e-01,-1.01622378935937e-04
2.50000000000000e-08,0.00000000000000e+00,6.00000000000000e-01,-1.28481257049215e-05
2.50100000000000e-08,5.99999999999886e-02,6.00000000000000e-01,4.97375611925741e-04
2.50300000000000e-08,1.80000000000006e-01,6.00000000000000e-01,1.36557591308793e-03
2.50700000000000e-08,4.20000000000000e-01,6.00000000000000e-01,2.25828623118950e-03
2.51000000000000e-08,6.00000000000000e-01,6.00000000000000e-01,1.11698060683228e-03
2.51080000000000e-08,6.00000000000000e-01,6.00000000000000e-01,2.54209236493788e-04
2.51240000000000e-08,6.00000000000000e-01,6.00000000000000e-01,-1.64374550228140e-03
2.51560000000000e-08,6.00000000000000e-01,6.00000000000000e-01,-5.34382059796859e-03
2.52200000000000e-08,6.00000000000000e-01,6.00000000000000e-01,-9.73528858884837e-03
2.53480000000000e-08,6.00000000000000e-01,6.00000000000000e-01,-1.04908387260673e-02
2.56040000000000e-08,6.00000000000000e-01,6.00000000000000e-01,5.75352574801293e-02
2.61160000000000e-08,6.00000000000000e-01,6.00000000000000e-01,3.50132403057276e-01
2.71400000000000e-08,6.00000000000000e-01,6.00000000000000e-01,6.00917153319259e-01
2.83809117339143e-08,6.00000000000000e-01,6.00000000000000e-01,5.97537614526047e-01
3.01000000000000e-08,6.00000000000000e-01,6.00000000000000e-01,6.02845936821897e-01
3.01100000000000e-08,6.00000000000000e-01,5.40000000000031e-01,6.02376360822906e-01
3.01300000000000e-08,6.00000000000000e-01,4.20000000000014e-01,6.01575752643616e-01
3.01700000000000e-08,6.00000000000000e-01,1.80000000000020e-01,6.00461878255704e-01
3.02000000000000e-08,6.00000000000000e-01,1.44328993201270e-14,6.00021094898808e-01
3.02080000000000e-08,6.00000000000000e-01,0.00000000000000e+00,5.99951641376192e-01
3.02240000000000e-08,6.00000000000000e-01,0.00000000000000e+00,5.99826086054626e-01
3.02560000000000e-08,6.00000000000000e-01,0.00000000000000e+00,5.99682769746205e-01
3.03200000000000e-08,6.00000000000000e-01,0.00000000000000e+00,5.99588612094236e-01
3.04480000000000e-08,6.00000000000000e-01,0.00000000000000e+00,5.99632516217082e-01
3.07040000000000e-08,6.00000000000000e-01,0.00000000000000e+00,5.99848943466958e-01
3.12160000000000e-08,6.00000000000000e-01,0.00000000000000e+00,5.99952732384806e-01
3.22400000000000e-08,6.00000000000000e-01,0.00000000000000e+00,6.00020863663903e-01
3.33505973440791e-08,6.00000000000000e-01,0.00000000000000e+00,5.99983525971843e-01
3.51000000000000e-08,5.99999999999970e-01,0.00000000000000e+00,5.99972178603644e-01
3.51100000000000e-08,5.39999999999982e-01,0.00000000000000e+00,5.99752323378231e-01
3.51300000000000e-08,4.19999999999965e-01,0.00000000000000e+00,5.99262944187702e-01
3.51700000000000e-08,1.79999999999970e-01,0.00000000000000e+00,5.98495387366159e-01
3.52000000000000e-08,0.00000000000000e+00,0.00000000000000e+00,5.98783659788441e-01
3.52080000000000e-08,0.00000000000000e+00,0.00000000000000e+00,5.99137559894192e-01
3.52240000000000e-08,0.00000000000000e+00,0.00000000000000e+00,5.99835934174957e-01
3.52560000000000e-08,0.00000000000000e+00,0.00000000000000e+00,6.01186475772594e-01
3.53200000000000e-08,0.00000000000000e+00,0.00000000000000e+00,6.02969388787720e-01
3.54480000000000e-08,0.00000000000000e+00,0.00000000000000e+00,6.04784287516571e-01
3.57040000000000e-08,0.00000000000000e+00,0.00000000000000e+00,6.05382821050154e-01
3.62160000000000e-08,0.00000000000000e+00,0.00000000000000e+00,5.98455735319261e-01
3.72400000000000e-08,0.00000000000000e+00,0.00000000000000e+00,5.84238755408641e-01
3.91000000000000e-08,0.00000000000000e+00,0.00000000000000e+00,5.95356944617551e-01
3.93048000000000e-08,0.00000000000000e+00,0.00000000000000e+00,5.97015286521121e-01
3.97144000000000e-08,0.00000000000000e+00,0.00000000000000e+00,5.99147177478014e-01
4.05336000000000e-08,0.00000000000000e+00,0.00000000000000e+00,6.00034092555614e-01
4.21720000000000e-08,0.00000000000000e+00,0.00000000000000e+00,5.99850473181461e-01
4.50000000000000e-08,0.00000000000000e+00,0.00000000000000e+00,5.99954323664208e-01
4.50100000000000e-08,5.99999999999886e-02,0.00000000000000e+00,6.00220004854032e-01
4.50300000000000e-08,1.80000000000006e-01,0.00000000000000e+00,6.00701888949658e-01
4.50700000000000e-08,4.20000000000000e-01,0.00000000000000e+00,6.01374340203487e-01
4.51000000000000e-08,6.00000000000000e-01,0.00000000000000e+00,6.00910254482376e-01
4.51080000000000e-08,6.00000000000000e-01,0.00000000000000e+00,6.00562346583208e-01
4.51240000000000e-08,6.00000000000000e-01,0.00000000000000e+00,5.99923308823645e-01
4.51560000000000e-08,6.00000000000000e-01,0.00000000000000e+00,5.98845041949267e-01
4.52200000000000e-08,6.00000000000000e-01,0.00000000000000e+00,5.97627794334101e-01
4.53480000000000e-08,6.00000000000000e-01,0.00000000000000e+00,5.98297616908907e-01
4.56040000000000e-08,6.00000000000000e-01,0.00000000000000e+00,6.11154494695547e-01
4.61160000000000e-08,6.00000000000000e-01,0.00000000000000e+00,6.28003411540689e-01
4.70510315299783e-08,6.00000000000000e-01,0.00000000000000e+00,5.99453128539473e-02
4.82668146264649e-08,6.00000000000000e-01,0.00000000000000e+00,-3.72222024911775e-02
4.99044845386377e-08,6.00000000000000e-01,0.00000000000000e+00,3.69158162849528e-02
5.00000000000000e-08,6.00000000000000e-01,0.00000000000000e+00,2.63913955249062e-03
5.00100000000000e-08,6.00000000000000e-01,5.99999999999886e-02,2.51607005542209e-03
5.00300000000000e-08,6.00000000000000e-01,1.79999999999966e-01,2.04084158716215e-03
5.00700000000000e-08,6.00000000000000e-01,4.20000000000000e-01,1.14528397648692e-03
5.01000000000000e-08,6.00000000000000e-01,6.00000000000000e-01,7.57115221282023e-04
5.01080000000000e-08,6.00000000000000e-01,6.00000000000000e-01,6.78039720925658e-04
5.01240000000000e-08,6.00000000000000e-01,6.00000000000000e-01,5.47841718442174e-04
5.01560000000000e-08,6.00000000000000e-01,6.00000000000000e-01,3.81584576118948e-04
5.02200000000000e-08,6.00000000000000e-01,6.00000000000000e-01,2.51646278038156e-04
5.03480000000000e-08,6.00000000000000e-01,6.00000000000000e-01,1.32681050093689e-04
5.06040000000000e-08,6.00000000000000e-01,6.00000000000000e-01,2.92879834006138e-05
5.11160000000001e-08,6.00000000000000e-01,6.00000000000000e-01,-1.96545362248293e-06
5.21400000000002e-08,6.00000000000000e-01,6.00000000000000e-01,1.24096643590484e-06
5.41880000000003e-08,6.00000000000000e-01,6.00000000000000e-01,-3.72032902234976e-07
5.51000000000000e-08,6.00000000000000e-01,6.00000000000000e-01,5.01166565186964e-07
5.51100000000000e-08,5.40000000000021e-01,6.00000000000000e-01,-1.58846141647753e-04
5.51300000000000e-08,4.20000000000004e-01,6.00000000000000e-01,-5.45704403888514e-04
5.51700000000000e-08,1.80000000000010e-01,6.00000000000000e-01,-1.51044975755107e-03
5.52000000000000e-08,0.00000000000000e+00,6.00000000000000e-01,-1.65452226986704e-03
5.52080000000000e-08,0.00000000000000e+00,6.00000000000000e-01,-1.28046436015319e-03
5.52240000000000e-08,0.00000000000000e+00,6.00000000000000e-01,-6.59845047487603e-04
5.52560000000000e-08,0.00000000000000e+00,6.00000000000000e-01,1.97719493758977e-04
5.53200000000000e-08,0.00000000000000e+00,6.00000000000000e-01,7.24542001963896e-04
5.54480000000000e-08,0.00000000000000e+00,6.00000000000000e-01,5.77466071145998e-04
5.57040000000000e-08,0.00000000000000e+00,6.00000000000000e-01,1.03327056612479e-04
5.62160000000000e-08,0.00000000000000e+00,6.00000000000000e-01,-9.63234353568213e-04
5.72400000000000e-08,0.00000000000000e+00,6.00000000000000e-01,5.14571036875213e-04
5.84160017917086e-08,0.00000000000000e+00,6.00000000000000e-01,-6.00708445979727e-04
6.06645305353109e-08,0.00000000000000e+00,6.00000000000000e-01,5.70805618496572e-04
6.35007567726420e-08,0.00000000000000e+00,6.00000000000000e-01,-4.58384832804558e-04
6.50000000000000e-08,0.00000000000000e+00,6.00000000000000e-01,3.30519625286410e-04
6.50100000000000e-08,5.99999999999886e-02,6.00000000000000e-01,8.50844328070408e-04
6.50300000000000e-08,1.79999999999966e-01,6.00000000000000e-01,1.69685432483277e-03
6.50700000000000e-08,4.19999999999920e-01,6.00000000000000e-01,2.45534342774582e-03
6.51000000000000e-08,5.99999999999966e-01,6.00000000000000e-01,1.50906869471468e-03
6.51080000000000e-08,6.00000000000000e-01,6.00000000000000e-01,7.87864685038955e-04
6.51240000000000e-08,6.00000000000000e-01,6.00000000000000e-01,-8.99327643457917e-04
6.51560000000000e-08,6.00000000000000e-01,6.00000000000000e-01,-4.58206740223691e-03
6.52200000000000e-08,6.00000000000000e-01,6.00000000000000e-01,-9.38404701297466e-03
6.53480000000000e-08,6.00000000000000e-01,6.00000000000000e-01,-1.06744032414172e-02
6.56040000000000e-08,6.00000000000000e-01,6.00000000000000e-01,5.41426090642106e-02
6.61159999999999e-08,6.00000000000000e-01,6.00000000000000e-01,3.44949406898851e-01
6.71399999999999e-08,6.00000000000000e-01,6.00000000000000e-01,6.00696313340268e-01
6.83862897503048e-08,6.00000000000000e-01,6.00000000000000e-01,5.97442524845996e-01
7.01000000000000e-08,6.00000000000000e-01,6.00000000000000e-01,6.03044250212674e-01
7.01100000000000e-08,6.00000000000000e-01,5.40000000000011e-01,6.02525765252216e-01
7.01300000000000e-08,6.00000000000000e-01,4.20000000000034e-01,6.01645698597107e-01
7.01700000000000e-08,6.00000000000000e-01,1.80000000000080e-01,6.00428864050264e-01
7.02000000000000e-08,6.00000000000000e-01,3.44169137633799e-14,5.99966289054093e-01
7.02080000000000e-08,6.00000000000000e-01,0.00000000000000e+00,5.99893341248191e-01
7.02240000000000e-08,6.00000000000000e-01,0.00000000000000e+00,5.99777915860850e-01
7.02560000000000e-08,6.00000000000000e-01,0.00000000000000e+00,5.99608411004596e-01
7.03200000000000e-08,6.00000000000000e-01,0.00000000000000e+00,5.99506212894086e-01
7.04480000000000e-08,6.00000000000000e-01,0.00000000000000e+00,5.99564732404442e-01
7.07040000000000e-08,6.00000000000000e-01,0.00000000000000e+00,5.99826486707803e-01
7.12159999999999e-08,6.00000000000000e-01,0.00000000000000e+00,5.99955058453747e-01
7.22399999999999e-08,6.00000000000000e-01,0.00000000000000e+00,6.00009453143269e-01
7.33475399815288e-08,6.00000000000000e-01,0.00000000000000e+00,5.99981854145244e-01
7.51000000000000e-08,6.00000000000000e-01,0.00000000000000e+00,5.99965211311538e-01
7.51100000000000e-08,5.40000000000061e-01,0.00000000000000e+00,5.99745654648194e-01
7.51300000000000e-08,4.20000000000084e-01,0.00000000000000e+00,5.99256817146606e-01
7.51700000000000e-08,1.80000000000129e-01,0.00000000000000e+00,5.98490060004527e-01
7.52000000000000e-08,8.40438829641244e-14,0.00000000000000e+00,5.98778553155424e-01
7.52080000000000e-08,0.00000000000000e+00,0.00000000000000e+00,5.99132423488459e-01
7.52240000000000e-08,0.00000000000000e+00,0.00000000000000e+00,5.99830823505217e-01
7.52560000000000e-08,0.00000000000000e+00,0.00000000000000e+00,6.01180964317283e-01
7.53200000000000e-08,0.00000000000000e+00,0.00000000000000e+00,6.02961992360146e-01
7.54480000000000e-08,0.00000000000000e+00,0.00000000000000e+00,6.04761818142345e-01
7.57040000000000e-08,0.00000000000000e+00,0.00000000000000e+00,6.05192195724521e-01
7.62159999999999e-08,0.00000000000000e+00,0.00000000000000e+00,5.97901200074094e-01
7.72399999999999e-08,0.00000000000000e+00,0.00000000000000e+00,5.84149201646095e-01
7.81000000000000e-08,0.00000000000000e+00,0.00000000000000e+00,5.91540719373461e-01
7.83048000000000e-08,0.00000000000000e+00,0.00000000000000e+00,5.93894723257879e-01
7.87144000000000e-08,0.00000000000000e+00,0.00000000000000e+00,5.97118487862619e-01
7.95335999999999e-08,0.00000000000000e+00,0.00000000000000e+00,5.98979892966200e-01
8.11719999999998e-08,0.00000000000000e+00,0.00000000000000e+00,5.99327480095425e-01
8.44487999999996e-08,0.00000000000000e+00,0.00000000000000e+00,5.99712887754835e-01
8.50000000000000e-08,0.00000000000000e+00,0.00000000000000e+00,5.99712098070674e-01
8.50100000000000e-08,5.99999999999886e-02,0.00000000000000e+00,5.99958436428034e-01
8.50300000000000e-08,1.79999999999966e-01,0.00000000000000e+00,6.00434049542406e-01
8.50700000000000e-08,4.19999999999920e-01,0.00000000000000e+00,6.01066645284815e-01
8.51000000000000e-08,5.99999999999966e-01,0.00000000000000e+00,6.00561473806505e-01
8.51080000000000e-08,6.00000000000000e-01,0.00000000000000e+00,6.00209160473917e-01
8.51240000000000e-08,6.00000000000000e-01,0.00000000000000e+00,5.99593980776435e-01
8.51560000000000e-08,6.00000000000000e-01,0.00000000000000e+00,5.98521906044390e-01
8.52200000000000e-08,6.00000000000000e-01,0.00000000000000e+00,5.97336224886154e-01
8.53480000000000e-08,6.00000000000000e-01,0.00000000000000e+00,5.98094396901212e-01
8.56040000000000e-08,6.00000000000000e-01,0.00000000000000e+00,6.11099878585605e-01
8.61159999999999e-08,6.00000000000000e-01,0.00000000000000e+00,6.23491452741858e-01
8.70526696724898e-08,6.00000000000000e-01,0.00000000000000e+00,5.87401478560976e-02
8.82697872443287e-08,6.00000000000000e-01,0.00000000000000e+00,-3.66077292039553e-02
8.99028049580690e-08,6.00000000000000e-01,0.00000000000000e+00,3.62335186364571e-02
9.00000000000000e-08,6.00000000000000e-01,0.00000000000000e+00,2.32154167167871e-03
9.00100000000000e-08,6.00000000000000e-01,5.99999999999886e-02,2.22847401172568e-03
9.00300000000000e-08,6.00000000000000e-01,1.79999999999966e-01,1.82616179257040e-03
9.00700000000000e-08,6.00000000000000e-01,4.19999999999920e-01,1.04623131440437e-03
9.01000000000000e-08,6.00000000000000e-01,5.99999999999966e-01,6.98731076204925e-04
9.01080000000000e-08,6.00000000000000e-01,6.00000000000000e-01,6.26890940878824e-04
9.01240000000000e-08,6.00000000000000e-01,6.00000000000000e-01,5.09467901690652e-04
9.01560000000000e-08,6.00000000000000e-01,6.00000000000000e-01,3.60632406053191e-04
9.02200000000000e-08,6.00000000000000e-01,6.00000000000000e-01,2.43803150184088e-04
9.03480000000000e-08,6.00000000000000e-01,6.00000000000000e-01,1.30878135297302e-04
9.06040000000000e-08,6.00000000000000e-01,6.00000000000000e-01,2.85419991602129e-05
9.11159999999999e-08,6.00000000000000e-01,6.00000000000000e-01,-1.76531511958400e-06
9.21399999999999e-08,6.00000000000000e-01,6.00000000000000e-01,1.07915523768834e-06
9.41879999999998e-08,6.00000000000000e-01,6.00000000000000e-01,-2.34527457773637e-07
9.51000000000000e-08,6.00000000000000e-01,6.00000000000000e-01,4.50198691185830e-07
9.51100000000000e-08,5.40000000000061e-01,6.00000000000000e-01,-1.57335201160499e-04
9.51300000000000e-08,4.20000000000084e-01,6.00000000000000e-01,-5.45139882988682e-04
9.51700000000000e-08,1.80000000000129e-01,6.00000000000000e-01,-1.51060548020746e-03
9.52000000000000e-08,8.40438829641244e-14,6.00000000000000e-01,-1.65465423698601e-03
9.52080000000000e-08,0.00000000000000e+00,6.00000000000000e-01,-1.28060204452020e-03
9.52240000000000e-08,0.00000000000000e+00,6.00000000000000e-01,-6.59987709000873e-04
9.52560000000000e-08,0.00000000000000e+00,6.00000000000000e-01,1.97597163751478e-04
9.53200000000000e-08,0.00000000000000e+00,6.00000000000000e-01,7.24414595343073e-04
9.54480000000000e-08,0.00000000000000e+00,6.00000000000000e-01,5.77378360994286e-04
9.57040000000000e-08,0.00000000000000e+00,6.00000000000000e-01,1.03111360695199e-04
9.62159999999999e-08,0.00000000000000e+00,6.00000000000000e-01,-9.64304084758782e-04
9.72399999999999e-08,0.00000000000000e+00,6.00000000000000e-01,5.15312643100212e-04
9.84153738993731e-08,0.00000000000000e+00,6.00000000000000e-01,-6.01253990378373e-04
1.00664261555968e-07,0.00000000000000e+00,6.00000000000000e-01,5.71252359606289e-04
1.03499472658678e-07,0.00000000000000e+00,6.00000000000000e-01,-4.58718522052532e-04
1.05000000000000e-07,0.00000000000000e+00,6.00000000000000e-01,3.30863736829958e-04
1.05010000000000e-07,5.99999999999886e-02,6.00000000000000e-01,8.51209541066975e-04
1.05030000000000e-07,1.79999999999966e-01,6.00000000000000e-01,1.69720983186047e-03
1.05070000000000e-07,4.19999999999920e-01,6.00000000000000e-01,2.45559866501695e-03
1.05100000000000e-07,5.99999999999966e-01,6.00000000000000e-01,1.50951907347330e-03
1.05108000000000e-07,6.00000000000000e-01,6.00000000000000e-01,7.88436695081038e-04
1.05124000000000e-07,6.00000000000000e-01,6.00000000000000e-01,-8.98590464085192e-04
1.05156000000000e-07,6.00000000000000e-01,6.00000000000000e-01,-4.58137882329521e-03
1.05220000000000e-07,6.00000000000000e-01,6.00000000000000e-01,-9.38383709898961e-03
1.05348000000000e-07,6.00000000000000e-01,6.00000000000000e-01,-1.06746327952622e-02
1.05604000000000e-07,6.00000000000000e-01,6.00000000000000e-01,5.41403894788544e-02
1.06116000000000e-07,6.00000000000000e-01,6.00000000000000e-01,3.44946104525814e-01
1.07140000000000e-07,6.00000000000000e-01,6.00000000000000e-01,6.00696187715511e-01
1.08386286538865e-07,6.00000000000000e-01,6.00000000000000e-01,5.97442446892664e-01
1.10100000000000e-07,6.00000000000000e-01,6.00000000000000e-01,6.03044386321140e-01
1.10110000000000e-07,6.00000000000000e-01,5.40000000000091e-01,6.02525869300427e-01
1.10130000000000e-07,6.00000000000000e-01,4.20000000000114e-01,6.01645750950108e-01
1.10170000000000e-07,6.00000000000000e-01,1.80000000000159e-01,6.00428849115976e-01
1.10200000000000e-07,6.00000000000000e-01,1.13686837721616e-13,5.99966253623998e-01
1.10208000000000e-07,6.00000000000000e-01,0.00000000000000e+00,5.99893301680190e-01
1.10224000000000e-07,6.00000000000000e-01,0.00000000000000e+00,5.99777869298411e-01
1.10256000000000e-07,6.00000000000000e-01,0.00000000000000e+00,5.99608355517364e-01
1.10320000000000e-07,6.00000000000000e-01,0.00000000000000e+00,5.99506156488040e-01
1.10448000000000e-07,6.00000000000000e-01,0.00000000000000e+00,5.99564690901293e-01
