Time,v(clk),v(data),v(out)
1.00000000000000e-08,6.00000000000000e-01,0.00000000000000e+00,8.51874418404727e-05
1.00100000000000e-08,6.00000000000000e-01,5.99999999999986e-02,9.30064914169554e-05
1.00300000000000e-08,6.00000000000000e-01,1.79999999999996e-01,9.08525604973454e-05
1.00700000000000e-08,6.00000000000000e-01,4.19999999999990e-01,4.78934922242408e-05
1.01000000000000e-08,6.00000000000000e-01,5.99999999999995e-01,1.27875911570402e-05
1.01080000000000e-08,6.00000000000000e-01,6.00000000000000e-01,6.16951046883418e-06
1.01240000000000e-08,6.00000000000000e-01,6.00000000000000e-01,1.72231218853458e-06
1.01560000000000e-08,6.00000000000000e-01,6.00000000000000e-01,8.50979066109592e-06
1.02200000000000e-08,6.00000000000000e-01,6.00000000000000e-01,1.94841979490878e-05
1.03480000000000e-08,6.00000000000000e-01,6.00000000000000e-01,6.88954953059762e-06
1.06040000000000e-08,6.00000000000000e-01,6.00000000000000e-01,-2.72973873403914e-06
1.11160000000000e-08,6.00000000000000e-01,6.00000000000000e-01,4.05946682760505e-06
1.21400000000000e-08,6.00000000000000e-01,6.00000000000000e-01,-1.18822698744192e-06
1.41880000000000e-08,6.00000000000000e-01,6.00000000000000e-01,3.21517878840074e-06
1.51000000000000e-08,6.00000000000000e-01,6.00000000000000e-01,-9.45562152163820e-07
1.51100000000000e-08,5.39999999999992e-01,6.00000000000000e-01,-1.19475298331104e-04
1.51300000000000e-08,4.19999999999994e-01,6.00000000000000e-01,-3.19506754414403e-04
1.51700000000000e-08,1.80000000000000e-01,6.00000000000000e-01,-5.81863761261028e-04
1.52000000000000e-08,0.00000000000000e+00,6.00000000000000e-01,-2.66475027729612e-04
1.52080000000000e-08,0.00000000000000e+00,6.00000000000000e-01,7.07850546808608e-05
1.52240000000000e-08,0.00000000000000e+00,6.00000000000000e-01,5.68048637312496e-04
1.52560000000000e-08,0.00000000000000e+00,6.00000000000000e-01,8.48970501348786e-04
1.53200000000000e-08,0.00000000000000e+00,6.00000000000000e-01,5.84231752407960e-04
1.54480000000000e-08,0.00000000000000e+00,6.00000000000000e-01,5.54325480130249e-05
1.57040000000000e-08,0.00000000000000e+00,6.00000000000000e-01,-3.78999788811465e-04
1.62160000000000e-08,0.00000000000000e+00,6.00000000000000e-01,1.28595854940136e-04
1.68974734485803e-08,0.00000000000000e+00,6.00000000000000e-01,-1.60028388229089e-04
1.78230339453472e-08,0.00000000000000e+00,6.00000000000000e-01,2.32004631983269e-04
1.93759348658927e-08,0.00000000000000e+00,6.00000000000000e-01,-2.47471250847383e-04
2.10257093554613e-08,0.00000000000000e+00,6.00000000000000e-01,2.43764967191401e-04
2.41417595090471e-08,0.00000000000000e+00,6.00000000000000e-01,-2.39460884154688e-04
2.50000000000000e-08,0.00000000000000e+00,6.00000000000000e-01,2.11817342795540e-04
2.50100000000000e-08,5.99999999999886e-02,6.00000000000000e-01,5.10708498481408e-04
2.50300000000000e-08,1.80000000000006e-01,6.00000000000000e-01,9.71605242206505e-04
2.50700000000000e-08,4.20000000000000e-01,6.00000000000000e-01,1.30728375601764e-03
2.51000000000000e-08,6.00000000000000e-01,6.00000000000000e-01,4.74459990622289e-06
2.51080000000000e-08,6.00000000000000e-01,6.00000000000000e-01,-7.93617402749414e-04
2.51240000000000e-08,6.00000000000000e-01,6.00000000000000e-01,-2.32875440198893e-03
2.51560000000000e-08,6.00000000000000e-01,6.00000000000000e-01,-4.60266875818241e-03
2.52200000000000e-08,6.00000000000000e-01,6.00000000000000e-01,-6.56810160590403e-03
2.53480000000000e-08,6.00000000000000e-01,6.00000000000000e-01,1.86355942626684e-02
2.56040000000000e-08,6.00000000000000e-01,6.00000000000000e-01,3.12423451727113e-01
2.61160000000000e-08,6.00000000000000e-01,6.00000000000000e-01,6.13276964187167e-01
2.66743101420927e-08,6.00000000000000e-01,6.00000000000000e-01,5.88861049520795e-01
2.77539311648314e-08,6.00000000000000e-01,6.00000000000000e-01,6.10788449060122e-01
2.89887709887750e-08,6.00000000000000e-01,6.00000000000000e-01,5.90350994761036e-01
3.01000000000000e-08,6.00000000000000e-01,6.00000000000000e-01,6.08887357909951e-01
3.01100000000000e-08,6.00000000000000e-01,5.40000000000031e-01,6.06739907212275e-01
3.01300000000000e-08,6.00000000000000e-01,4.20000000000014e-01,6.03466853264796e-01
3.01700000000000e-08,6.00000000000000e-01,1.80000000000020e-01,6.00614557569020e-01
3.02000000000000e-08,6.00000000000000e-01,1.44328993201270e-14,6.00030669917534e-01
3.02080000000000e-08,6.00000000000000e-01,0.00000000000000e+00,5.99973166119251e-01
3.02240000000000e-08,6.00000000000000e-01,0.00000000000000e+00,5.99872636514170e-01
3.02560000000000e-08,6.00000000000000e-01,0.00000000000000e+00,5.99789415857788e-01
3.03200000000000e-08,6.00000000000000e-01,0.00000000000000e+00,5.99813442268513e-01
3.04480000000000e-08,6.00000000000000e-01,0.00000000000000e+00,5.99870969297146e-01
3.07040000000000e-08,6.00000000000000e-01,0.00000000000000e+00,5.99957273104312e-01
3.12160000000000e-08,6.00000000000000e-01,0.00000000000000e+00,5.99989752827965e-01
3.20951882357082e-08,6.00000000000000e-01,0.00000000000000e+00,5.99919453822077e-01
3.31093601172414e-08,6.00000000000000e-01,0.00000000000000e+00,6.00002781129613e-01
3.51000000000000e-08,5.99999999999970e-01,0.00000000000000e+00,5.99932289325976e-01
3.51100000000000e-08,5.39999999999982e-01,0.00000000000000e+00,5.99768745020705e-01
3.51300000000000e-08,4.19999999999965e-01,0.00000000000000e+00,5.99510019103259e-01
3.51700000000000e-08,1.79999999999970e-01,0.00000000000000e+00,5.99737965026742e-01
3.52000000000000e-08,0.00000000000000e+00,0.00000000000000e+00,6.01529968930703e-01
3.52080000000000e-08,0.00000000000000e+00,0.00000000000000e+00,6.02327555726430e-01
3.52240000000000e-08,0.00000000000000e+00,0.00000000000000e+00,6.03611122589776e-01
3.52560000000000e-08,0.00000000000000e+00,0.00000000000000e+00,6.05015745922186e-01
3.53200000000000e-08,0.00000000000000e+00,0.00000000000000e+00,6.05695514552013e-01
3.54480000000000e-08,0.00000000000000e+00,0.00000000000000e+00,6.00460822927416e-01
3.57040000000000e-08,0.00000000000000e+00,0.00000000000000e+00,5.85362215859474e-01
3.62160000000000e-08,0.00000000000000e+00,0.00000000000000e+00,5.94272655936294e-01
3.67297539132199e-08,0.00000000000000e+00,0.00000000000000e+00,6.02328549520073e-01
3.77572617396596e-08,0.00000000000000e+00,0.00000000000000e+00,5.97882236624272e-01
3.88497277041867e-08,0.00000000000000e+00,0.00000000000000e+00,6.01226184415961e-01
3.91000000000000e-08,0.00000000000000e+00,0.00000000000000e+00,5.99447108815605e-01
3.93184931929054e-08,0.00000000000000e+00,0.00000000000000e+00,5.99757882041498e-01
3.97554795787163e-08,0.00000000000000e+00,0.00000000000000e+00,5.99881672476374e-01
4.06294523503380e-08,0.00000000000000e+00,0.00000000000000e+00,5.99827867208389e-01
4.23773978935814e-08,0.00000000000000e+00,0.00000000000000e+00,5.99903056237789e-01
4.50000000000000e-08,0.00000000000000e+00,0.00000000000000e+00,5.99870106756070e-01
4.50100000000000e-08,5.99999999999886e-02,0.00000000000000e+00,6.00137081511765e-01
4.50300000000000e-08,1.80000000000006e-01,0.00000000000000e+00,6.00540646755182e-01
4.50700000000000e-08,4.20000000000000e-01,0.00000000000000e+00,6.00708342041961e-01
4.51000000000000e-08,6.00000000000000e-01,0.00000000000000e+00,6.00085216347290e-01
4.51080000000000e-08,6.00000000000000e-01,0.00000000000000e+00,5.99814079933681e-01
4.51240000000000e-08,6.00000000000000e-01,0.00000000000000e+00,5.99389849692138e-01
4.51560000000000e-08,6.00000000000000e-01,0.00000000000000e+00,5.98889819512160e-01
4.52200000000000e-08,6.00000000000000e-01,0.00000000000000e+00,5.98905707548835e-01
4.53480000000000e-08,6.00000000000000e-01,0.00000000000000e+00,6.03631632341667e-01
4.56040000000000e-08,6.00000000000000e-01,0.00000000000000e+00,6.20856513745806e-01
4.61160000000000e-08,6.00000000000000e-01,0.00000000000000e+00,8.39787324179127e-02
4.67526405658341e-08,6.00000000000000e-01,0.00000000000000e+00,-5.02270296848312e-02
4.76927167440798e-08,6.00000000000000e-01,0.00000000000000e+00,4.76071688404870e-02
4.91944467059165e-08,6.00000000000000e-01,0.00000000000000e+00,-3.77907681415531e-02
5.00000000000000e-08,6.00000000000000e-01,0.00000000000000e+00,3.35066590269195e-02
5.00100000000000e-08,6.00000000000000e-01,5.99999999999886e-02,2.66697744374004e-02
5.00300000000000e-08,6.00000000000000e-01,1.79999999999966e-01,1.61906212957853e-02
5.00700000000000e-08,6.00000000000000e-01,4.20000000000000e-01,5.87005918978389e-03
5.01000000000000e-08,6.00000000000000e-01,6.00000000000000e-01,2.73676461084414e-03
5.01080000000000e-08,6.00000000000000e-01,6.00000000000000e-01,2.32203801885104e-03
5.01240000000000e-08,6.00000000000000e-01,6.00000000000000e-01,1.59148542887111e-03
5.01560000000000e-08,6.00000000000000e-01,6.00000000000000e-01,7.46555660745024e-04
5.02200000000000e-08,6.00000000000000e-01,6.00000000000000e-01,1.54478940511682e-04
5.03480000000000e-08,6.00000000000000e-01,6.00000000000000e-01,-1.07371160502079e-05
5.06040000000000e-08,6.00000000000000e-01,6.00000000000000e-01,2.91298264671128e-06
5.11160000000001e-08,6.00000000000000e-01,6.00000000000000e-01,-4.28016140240073e-06
5.21400000000002e-08,6.00000000000000e-01,6.00000000000000e-01,1.92635296605674e-06
5.41880000000003e-08,6.00000000000000e-01,6.00000000000000e-01,-3.71190695456006e-06
5.51000000000000e-08,6.00000000000000e-01,6.00000000000000e-01,1.46098882448757e-06
5.51100000000000e-08,5.40000000000021e-01,6.00000000000000e-01,-1.18478938718511e-04
5.51300000000000e-08,4.20000000000004e-01,6.00000000000000e-01,-3.20898063045916e-04
5.51700000000000e-08,1.80000000000010e-01,6.00000000000000e-01,-5.85363531821065e-04
5.52000000000000e-08,0.00000000000000e+00,6.00000000000000e-01,-2.67950182376867e-04
5.52080000000000e-08,0.00000000000000e+00,6.00000000000000e-01,6.92379429996365e-05
5.52240000000000e-08,0.00000000000000e+00,6.00000000000000e-01,5.65896809881214e-04
5.52560000000000e-08,0.00000000000000e+00,6.00000000000000e-01,8.41960814694301e-04
5.53200000000000e-08,0.00000000000000e+00,6.00000000000000e-01,5.33710826463085e-04
5.54480000000000e-08,0.00000000000000e+00,6.00000000000000e-01,-4.57954178463733e-04
5.57040000000000e-08,0.00000000000000e+00,6.00000000000000e-01,-7.12431364451920e-04
5.62069762973374e-08,0.00000000000000e+00,6.00000000000000e-01,3.55564350903264e-04
5.68913720734442e-08,0.00000000000000e+00,6.00000000000000e-01,-3.34706308283046e-04
5.78012549938842e-08,0.00000000000000e+00,6.00000000000000e-01,3.72306561057115e-04
5.93542460931312e-08,0.00000000000000e+00,6.00000000000000e-01,-3.70633578615723e-04
6.09751110180578e-08,0.00000000000000e+00,6.00000000000000e-01,3.52135658396938e-04
6.40549047020823e-08,0.00000000000000e+00,6.00000000000000e-01,-3.41312983546502e-04
6.50000000000000e-08,0.00000000000000e+00,6.00000000000000e-01,2.96547422134601e-04
6.50100000000000e-08,5.99999999999886e-02,6.00000000000000e-01,5.83990366939138e-04
6.50300000000000e-08,1.79999999999966e-01,6.00000000000000e-01,1.02286563952908e-03
6.50700000000000e-08,4.19999999999920e-01,6.00000000000000e-01,1.32843215767522e-03
6.51000000000000e-08,5.99999999999966e-01,6.00000000000000e-01,1.50775429975242e-05
6.51080000000000e-08,6.00000000000000e-01,6.00000000000000e-01,-7.84424593275906e-04
6.51240000000000e-08,6.00000000000000e-01,6.00000000000000e-01,-2.32183752792049e-03
6.51560000000000e-08,6.00000000000000e-01,6.00000000000000e-01,-4.59861099238969e-03
6.52200000000000e-08,6.00000000000000e-01,6.00000000000000e-01,-6.56678793286089e-03
6.53480000000000e-08,6.00000000000000e-01,6.00000000000000e-01,1.85952238592246e-02
6.56040000000000e-08,6.00000000000000e-01,6.00000000000000e-01,3.12294459895847e-01
6.61159999999999e-08,6.00000000000000e-01,6.00000000000000e-01,6.13260916471162e-01
6.66743765470160e-08,6.00000000000000e-01,6.00000000000000e-01,5.88870757155391e-01
6.77539581680517e-08,6.00000000000000e-01,6.00000000000000e-01,6.10781104761184e-01
6.89888551576389e-08,6.00000000000000e-01,6.00000000000000e-01,5.90357314963519e-01
7.01000000000000e-08,6.00000000000000e-01,6.00000000000000e-01,6.08882482578003e-01
7.01100000000000e-08,6.00000000000000e-01,5.40000000000011e-01,6.06735935763892e-01
7.01300000000000e-08,6.00000000000000e-01,4.20000000000034e-01,6.03464109275715e-01
7.01700000000000e-08,6.00000000000000e-01,1.80000000000080e-01,6.00613312310088e-01
7.02000000000000e-08,6.00000000000000e-01,3.44169137633799e-14,6.00029884234828e-01
7.02080000000000e-08,6.00000000000000e-01,0.00000000000000e+00,5.99972549364640e-01
7.02240000000000e-08,6.00000000000000e-01,0.00000000000000e+00,5.99872118525697e-01
7.02560000000000e-08,6.00000000000000e-01,0.00000000000000e+00,5.99789030626020e-01
7.03200000000000e-08,6.00000000000000e-01,0.00000000000000e+00,5.99813267207888e-01
7.04480000000000e-08,6.00000000000000e-01,0.00000000000000e+00,5.99870930020033e-01
7.07040000000000e-08,6.00000000000000e-01,0.00000000000000e+00,5.99957275014105e-01
7.12159999999999e-08,6.00000000000000e-01,0.00000000000000e+00,5.99989738325082e-01
7.20951565294927e-08,6.00000000000000e-01,0.00000000000000e+00,5.99919452989196e-01
7.31093176011009e-08,6.00000000000000e-01,0.00000000000000e+00,6.00002771005195e-01
7.51000000000000e-08,6.00000000000000e-01,0.00000000000000e+00,5.99932290557872e-01
7.51100000000000e-08,5.40000000000061e-01,0.00000000000000e+00,5.99768745040060e-01
7.51300000000000e-08,4.20000000000084e-01,0.00000000000000e+00,5.99510017681654e-01
7.51700000000000e-08,1.80000000000129e-01,0.00000000000000e+00,5.99737962846344e-01
7.52000000000000e-08,8.40438829641244e-14,0.00000000000000e+00,6.01529965490903e-01
7.52080000000000e-08,0.00000000000000e+00,0.00000000000000e+00,6.02327551870426e-01
7.52240000000000e-08,0.00000000000000e+00,0.00000000000000e+00,6.03611117249563e-01
7.52560000000000e-08,0.00000000000000e+00,0.00000000000000e+00,6.05015732687967e-01
7.53200000000000e-08,0.00000000000000e+00,0.00000000000000e+00,6.05695443806707e-01
7.54480000000000e-08,0.00000000000000e+00,0.00000000000000e+00,6.00460553923963e-01
7.57040000000000e-08,0.00000000000000e+00,0.00000000000000e+00,5.85362118381987e-01
7.62159999999999e-08,0.00000000000000e+00,0.00000000000000e+00,5.94272806295294e-01
7.67297539002947e-08,0.00000000000000e+00,0.00000000000000e+00,6.02328449822162e-01
7.77572617008842e-08,0.00000000000000e+00,0.00000000000000e+00,5.97882304556651e-01
7.81000000000000e-08,0.00000000000000e+00,0.00000000000000e+00,6.00492211456607e-01
7.82092465944477e-08,0.00000000000000e+00,0.00000000000000e+00,6.00046026822621e-01
7.84277397833432e-08,0.00000000000000e+00,0.00000000000000e+00,5.99770290783072e-01
7.88647261611341e-08,0.00000000000000e+00,0.00000000000000e+00,5.99847039374778e-01
7.97386989167158e-08,0.00000000000000e+00,0.00000000000000e+00,5.99819408405496e-01
8.14866444278793e-08,0.00000000000000e+00,0.00000000000000e+00,5.99889426426362e-01
8.49825354502063e-08,0.00000000000000e+00,0.00000000000000e+00,5.99873624786338e-01
8.50000000000000e-08,0.00000000000000e+00,0.00000000000000e+00,5.99896782956142e-01
8.50100000000000e-08,5.99999999999886e-02,0.00000000000000e+00,6.00158404319015e-01
8.50300000000000e-08,1.79999999999966e-01,0.00000000000000e+00,6.00550584344912e-01
8.50700000000000e-08,4.19999999999920e-01,0.00000000000000e+00,6.00710889422491e-01
8.51000000000000e-08,5.99999999999966e-01,0.00000000000000e+00,6.00086719621379e-01
8.51080000000000e-08,6.00000000000000e-01,0.00000000000000e+00,5.99815338606535e-01
8.51240000000000e-08,6.00000000000000e-01,0.00000000000000e+00,5.99390893223241e-01
8.51560000000000e-08,6.00000000000000e-01,0.00000000000000e+00,5.98890544672737e-01
8.52200000000000e-08,6.00000000000000e-01,0.00000000000000e+00,5.98906073402759e-01
8.53480000000000e-08,6.00000000000000e-01,0.00000000000000e+00,6.03631218940857e-01
8.56040000000000e-08,6.00000000000000e-01,0.00000000000000e+00,6.20867586762489e-01
8.61159999999999e-08,6.00000000000000e-01,0.00000000000000e+00,8.39864689414477e-02
8.67526412809234e-08,6.00000000000000e-01,0.00000000000000e+00,-5.02301391074718e-02
8.76927028829664e-08,6.00000000000000e-01,0.00000000000000e+00,4.76104585455004e-02
8.91944182851966e-08,6.00000000000000e-01,0.00000000000000e+00,-3.77929017411279e-02
9.00000000000000e-08,6.00000000000000e-01,0.00000000000000e+00,3.35090048638519e-02
9.00100000000000e-08,6.00000000000000e-01,5.99999999999886e-02,2.66716884959192e-02
9.00300000000000e-08,6.00000000000000e-01,1.79999999999966e-01,1.61918772854718e-02
9.00700000000000e-08,6.00000000000000e-01,4.19999999999920e-01,5.87056213834165e-03
9.01000000000000e-08,6.00000000000000e-01,5.99999999999966e-01,2.73701741516752e-03
9.01080000000000e-08,6.00000000000000e-01,6.00000000000000e-01,2.32225471710010e-03
9.01240000000000e-08,6.00000000000000e-01,6.00000000000000e-01,1.59163862660509e-03
9.01560000000000e-08,6.00000000000000e-01,6.00000000000000e-01,7.46631660484359e-04
9.02200000000000e-08,6.00000000000000e-01,6.00000000000000e-01,1.54495628609641e-04
9.03480000000000e-08,6.00000000000000e-01,6.00000000000000e-01,-1.07386815438246e-05
9.06040000000000e-08,6.00000000000000e-01,6.00000000000000e-01,2.91369624753901e-06
9.11159999999999e-08,6.00000000000000e-01,6.00000000000000e-01,-4.28072051112532e-06
9.21399999999999e-08,6.00000000000000e-01,6.00000000000000e-01,1.92680811140350e-06
9.41879999999998e-08,6.00000000000000e-01,6.00000000000000e-01,-3.71236757136083e-06
9.51000000000000e-08,6.00000000000000e-01,6.00000000000000e-01,1.46135699559923e-06
9.51100000000000e-08,5.40000000000061e-01,6.00000000000000e-01,-1.18478663791846e-04
9.51300000000000e-08,4.20000000000084e-01,6.00000000000000e-01,-3.20897926265384e-04
9.51700000000000e-08,1.80000000000129e-01,6.00000000000000e-01,-5.85363494668048e-04
9.52000000000000e-08,8.40438829641244e-14,6.00000000000000e-01,-2.67950180002891e-04
9.52080000000000e-08,0.00000000000000e+00,6.00000000000000e-01,6.92379412886995e-05
9.52240000000000e-08,0.00000000000000e+00,6.00000000000000e-01,5.65896794251397e-04
9.52560000000000e-08,0.00000000000000e+00,6.00000000000000e-01,8.41960742455933e-04
9.53200000000000e-08,0.00000000000000e+00,6.00000000000000e-01,5.33710320177808e-04
9.54480000000000e-08,0.00000000000000e+00,6.00000000000000e-01,-4.57956427849758e-04
9.57040000000000e-08,0.00000000000000e+00,6.00000000000000e-01,-7.12433848697881e-04
9.62069757339952e-08,0.00000000000000e+00,6.00000000000000e-01,3.55565657061178e-04
9.68913716651750e-08,0.00000000000000e+00,6.00000000000000e-01,-3.34707371105082e-04
9.78012536591042e-08,0.00000000000000e+00,6.00000000000000e-01,3.72307352109172e-04
9.93542447278335e-08,0.00000000000000e+00,6.00000000000000e-01,-3.70634206062529e-04
1.00975108022469e-07,0.00000000000000e+00,6.00000000000000e-01,3.52136115943122e-04
1.04054899631597e-07,0.00000000000000e+00,6.00000000000000e-01,-3.41313363029103e-04
1.05000000000000e-07,0.00000000000000e+00,6.00000000000000e-01,2.96547853627671e-04
1.05010000000000e-07,5.99999999999886e-02,6.00000000000000e-01,5.83990863721531e-04
1.05030000000000e-07,1.79999999999966e-01,6.00000000000000e-01,1.02286615990428e-03
1.05070000000000e-07,4.19999999999920e-01,6.00000000000000e-01,1.32843246634695e-03
1.05100000000000e-07,5.99999999999966e-01,6.00000000000000e-01,1.50778019541026e-05
1.05108000000000e-07,6.00000000000000e-01,6.00000000000000e-01,-7.84424333251516e-04
1.05124000000000e-07,6.00000000000000e-01,6.00000000000000e-01,-2.32183729394062e-03
1.05156000000000e-07,6.00000000000000e-01,6.00000000000000e-01,-4.59861082128575e-03
1.05220000000000e-07,6.00000000000000e-01,6.00000000000000e-01,-6.56678787211466e-03
1.05348000000000e-07,6.00000000000000e-01,6.00000000000000e-01,1.85952213772595e-02
1.05604000000000e-07,6.00000000000000e-01,6.00000000000000e-01,3.12294448304718e-01
1.06116000000000e-07,6.00000000000000e-01,6.00000000000000e-01,6.13260914611863e-01
1.06674376556019e-07,6.00000000000000e-01,6.00000000000000e-01,5.88870758287459e-01
1.07753958173495e-07,6.00000000000000e-01,6.00000000000000e-01,6.10781103880074e-01
1.08988855179100e-07,6.00000000000000e-01,6.00000000000000e-01,5.90357315712668e-01
