Time,v(clk),v(data),v(out)
1.00000000000000e-08,6.00000000000000e-01,0.00000000000000e+00,-1.01214170942585e-05
1.00100000000000e-08,6.00000000000000e-01,5.99999999999986e-02,1.62071368788735e-05
1.00300000000000e-08,6.00000000000000e-01,1.79999999999996e-01,4.62517675006019e-05
1.00700000000000e-08,6.00000000000000e-01,4.19999999999990e-01,4.19937960600830e-05
1.01000000000000e-08,6.00000000000000e-01,5.99999999999995e-01,9.75303211948886e-06
1.01080000000000e-08,6.00000000000000e-01,6.00000000000000e-01,2.33752744771554e-06
1.01240000000000e-08,6.00000000000000e-01,6.00000000000000e-01,-3.80271824682032e-06
1.01560000000000e-08,6.00000000000000e-01,6.00000000000000e-01,2.01947197954466e-06
1.02200000000000e-08,6.00000000000000e-01,6.00000000000000e-01,1.70141198686247e-05
1.03480000000000e-08,6.00000000000000e-01,6.00000000000000e-01,1.37644123340969e-05
1.06040000000000e-08,6.00000000000000e-01,6.00000000000000e-01,-2.02725126285941e-06
1.11160000000000e-08,6.00000000000000e-01,6.00000000000000e-01,4.63502487186435e-06
1.21400000000000e-08,6.00000000000000e-01,6.00000000000000e-01,5.50886084690200e-07
1.41880000000000e-08,6.00000000000000e-01,6.00000000000000e-01,3.30113842046242e-06
1.51000000000000e-08,6.00000000000000e-01,6.00000000000000e-01,8.36900172400748e-07
1.51100000000000e-08,5.39999999999992e-01,6.00000000000000e-01,-1.22864723983776e-04
1.51300000000000e-08,4.19999999999994e-01,6.00000000000000e-01,-3.47354669269787e-04
1.51700000000000e-08,1.80000000000000e-01,6.00000000000000e-01,-6.54619609450208e-04
1.52000000000000e-08,0.00000000000000e+00,6.00000000000000e-01,-3.78391392531208e-04
1.52080000000000e-08,0.00000000000000e+00,6.00000000000000e-01,-4.11975475358567e-05
1.52240000000000e-08,0.00000000000000e+00,6.00000000000000e-01,4.77994294059148e-04
1.52560000000000e-08,0.00000000000000e+00,6.00000000000000e-01,8.58417245471463e-04
1.53200000000000e-08,0.00000000000000e+00,6.00000000000000e-01,7.07269897514393e-04
1.54480000000000e-08,0.00000000000000e+00,6.00000000000000e-01,1.24350882317020e-04
1.57040000000000e-08,0.00000000000000e+00,6.00000000000000e-01,-3.85022530585803e-04
1.62160000000000e-08,0.00000000000000e+00,6.00000000000000e-01,6.63292525627246e-05
1.69544682401357e-08,0.00000000000000e+00,6.00000000000000e-01,-1.18587011558558e-04
1.78628327490994e-08,0.00000000000000e+00,6.00000000000000e-01,2.02563416417454e-04
1.95660965342994e-08,0.00000000000000e+00,6.00000000000000e-01,-2.07649737424870e-04
2.11163257709822e-08,0.00000000000000e+00,6.00000000000000e-01,2.01975182878438e-04
2.42167842443478e-08,0.00000000000000e+00,6.00000000000000e-01,-1.93353247618764e-04
2.50000000000000e-08,0.00000000000000e+00,6.00000000000000e-01,1.58247849111269e-04
2.50100000000000e-08,5.99999999999886e-02,6.00000000000000e-01,4.75479046446875e-04
2.50300000000000e-08,1.80000000000006e-01,6.00000000000000e-01,9.82074668237673e-04
2.50700000000000e-08,4.20000000000000e-01,6.00000000000000e-01,1.41329403244722e-03
2.51000000000000e-08,6.00000000000000e-01,6.00000000000000e-01,3.84117735239220e-04
2.51080000000000e-08,6.00000000000000e-01,6.00000000000000e-01,-3.24691610619765e-04
2.51240000000000e-08,6.00000000000000e-01,6.00000000000000e-01,-1.72885406436406e-03
2.51560000000000e-08,6.00000000000000e-01,6.00000000000000e-01,-3.98904732967977e-03
2.52200000000000e-08,6.00000000000000e-01,6.00000000000000e-01,-6.16493880094457e-03
2.53480000000000e-08,6.00000000000000e-01,6.00000000000000e-01,4.77948186406918e-03
2.56040000000000e-08,6.00000000000000e-01,6.00000000000000e-01,2.29157299655867e-01
2.61160000000000e-08,6.00000000000000e-01,6.00000000000000e-01,5.92670427212583e-01
2.67896006401393e-08,6.00000000000000e-01,6.00000000000000e-01,5.99469360424907e-01
2.78672654659750e-08,6.00000000000000e-01,6.00000000000000e-01,6.01660534333265e-01
2.92758831704395e-08,6.00000000000000e-01,6.00000000000000e-01,5.97834653574839e-01
3.14741837932465e-08,6.00000000000000e-01,6.00000000000000e-01,6.02391477417906e-01
3.51000000000000e-08,5.99999999999970e-01,6.00000000000000e-01,5.97577534723468e-01
3.51100000000000e-08,5.39999999999982e-01,6.00000000000000e-01,5.98205944022207e-01
3.51300000000000e-08,4.19999999999965e-01,6.00000000000000e-01,5.99045207872504e-01
3.51700000000000e-08,1.79999999999970e-01,6.00000000000000e-01,6.00101744650281e-01
3.52000000000000e-08,0.00000000000000e+00,6.00000000000000e-01,6.01993664510895e-01
3.52080000000000e-08,0.00000000000000e+00,6.00000000000000e-01,6.02750066904960e-01
3.52240000000000e-08,0.00000000000000e+00,6.00000000000000e-01,6.03984728626647e-01
3.52560000000000e-08,0.00000000000000e+00,6.00000000000000e-01,6.05380568100592e-01
3.53200000000000e-08,0.00000000000000e+00,6.00000000000000e-01,6.06117318371617e-01
3.54480000000000e-08,0.00000000000000e+00,6.00000000000000e-01,6.02304948159581e-01
3.57040000000000e-08,0.00000000000000e+00,6.00000000000000e-01,5.86799984543176e-01
3.62160000000000e-08,0.00000000000000e+00,6.00000000000000e-01,5.91232301895453e-01
3.72400000000000e-08,0.00000000000000e+00,6.00000000000000e-01,6.04758310044471e-01
3.85245545072200e-08,0.00000000000000e+00,6.00000000000000e-01,5.95827677458998e-01
4.05349046470862e-08,0.00000000000000e+00,6.00000000000000e-01,6.02981791700272e-01
4.43349046470862e-08,0.00000000000000e+00,6.00000000000000e-01,5.96905000102353e-01
4.50000000000000e-08,0.00000000000000e+00,6.00000000000000e-01,6.01520208400827e-01
4.50100000000000e-08,5.99999999999886e-02,6.00000000000000e-01,6.01597166370866e-01
4.50300000000000e-08,1.80000000000006e-01,6.00000000000000e-01,6.01747009277107e-01
4.50700000000000e-08,4.20000000000000e-01,6.00000000000000e-01,6.01766694088222e-01
4.51000000000000e-08,6.00000000000000e-01,6.00000000000000e-01,6.00737558081487e-01
4.51080000000000e-08,6.00000000000000e-01,5.52000000000025e-01,6.00079392264564e-01
4.51240000000000e-08,6.00000000000000e-01,4.55999999999996e-01,5.98863806035192e-01
4.51560000000000e-08,6.00000000000000e-01,2.64000000000016e-01,5.96699085293101e-01
4.52000000000000e-08,6.00000000000000e-01,3.44169137633799e-14,5.94532806778687e-01
4.52064000000000e-08,6.00000000000000e-01,0.00000000000000e+00,5.94281093538170e-01
4.52192000000000e-08,6.00000000000000e-01,0.00000000000000e+00,5.93765261900103e-01
4.52448000000000e-08,6.00000000000000e-01,0.00000000000000e+00,5.92765699467650e-01
4.52960000000000e-08,6.00000000000000e-01,0.00000000000000e+00,5.91127748804682e-01
4.53984000000000e-08,6.00000000000000e-01,0.00000000000000e+00,5.90845431143234e-01
4.56032000000000e-08,6.00000000000000e-01,0.00000000000000e+00,5.96007986371249e-01
4.60128000000000e-08,6.00000000000000e-01,0.00000000000000e+00,6.00661707063931e-01
4.64300484689683e-08,6.00000000000000e-01,0.00000000000000e+00,5.99738353251186e-01
4.72645454069048e-08,6.00000000000000e-01,0.00000000000000e+00,6.00168079295215e-01
4.84168511922646e-08,6.00000000000000e-01,0.00000000000000e+00,5.99875660048228e-01
5.05333334738120e-08,6.00000000000000e-01,0.00000000000000e+00,6.00104980629673e-01
5.41504894450324e-08,6.00000000000000e-01,0.00000000000000e+00,5.99904420549043e-01
5.51000000000000e-08,6.00000000000000e-01,0.00000000000000e+00,6.00065678093023e-01
5.51100000000000e-08,5.40000000000021e-01,0.00000000000000e+00,5.99874496914690e-01
5.51300000000000e-08,4.20000000000004e-01,0.00000000000000e+00,5.99575570149311e-01
5.51700000000000e-08,1.80000000000010e-01,0.00000000000000e+00,5.99720048094497e-01
5.52000000000000e-08,0.00000000000000e+00,0.00000000000000e+00,6.01438344442437e-01
5.52080000000000e-08,0.00000000000000e+00,0.00000000000000e+00,6.02197774261655e-01
5.52240000000000e-08,0.00000000000000e+00,0.00000000000000e+00,6.03485807919725e-01
5.52560000000000e-08,0.00000000000000e+00,0.00000000000000e+00,6.05021922448598e-01
5.53200000000000e-08,0.00000000000000e+00,0.00000000000000e+00,6.06480083103973e-01
5.54480000000000e-08,0.00000000000000e+00,0.00000000000000e+00,6.07954908052001e-01
5.57040000000000e-08,0.00000000000000e+00,0.00000000000000e+00,6.05620440272510e-01
5.62160000000000e-08,0.00000000000000e+00,0.00000000000000e+00,5.97944371549086e-01
5.67616408589126e-08,0.00000000000000e+00,0.00000000000000e+00,6.00084594225788e-01
5.78529225767378e-08,0.00000000000000e+00,0.00000000000000e+00,5.99327243319102e-01
5.89746108640025e-08,0.00000000000000e+00,0.00000000000000e+00,5.99945038100690e-01
6.12179874385318e-08,0.00000000000000e+00,0.00000000000000e+00,5.99610059026536e-01
6.50000000000000e-08,0.00000000000000e+00,0.00000000000000e+00,6.00002409955856e-01
6.50100000000000e-08,5.99999999999886e-02,0.00000000000000e+00,6.00223655742231e-01
6.50300000000000e-08,1.79999999999966e-01,0.00000000000000e+00,6.00560101651593e-01
6.50700000000000e-08,4.19999999999920e-01,0.00000000000000e+00,6.00737974900157e-01
6.51000000000000e-08,5.99999999999966e-01,0.00000000000000e+00,6.00227008038417e-01
6.51080000000000e-08,6.00000000000000e-01,0.00000000000000e+00,5.99956923639658e-01
6.51240000000000e-08,6.00000000000000e-01,0.00000000000000e+00,5.99541775867075e-01
6.51560000000000e-08,6.00000000000000e-01,0.00000000000000e+00,5.98988750361123e-01
6.52200000000000e-08,6.00000000000000e-01,0.00000000000000e+00,5.98803941579748e-01
6.53480000000000e-08,6.00000000000000e-01,0.00000000000000e+00,6.01634967154584e-01
6.56040000000000e-08,6.00000000000000e-01,0.00000000000000e+00,6.23100172100743e-01
6.61159999999999e-08,6.00000000000000e-01,0.00000000000000e+00,1.25219083914317e-01
6.68246729616635e-08,6.00000000000000e-01,0.00000000000000e+00,-6.19188708038865e-02
6.76741897430291e-08,6.00000000000000e-01,0.00000000000000e+00,5.73718345956371e-02
6.93076723402025e-08,6.00000000000000e-01,0.00000000000000e+00,-4.31100631668251e-02
7.11328075236773e-08,6.00000000000000e-01,0.00000000000000e+00,4.34610741926479e-02
7.46468323557626e-08,6.00000000000000e-01,0.00000000000000e+00,-3.65145671775518e-02
7.51000000000000e-08,6.00000000000000e-01,0.00000000000000e+00,2.51087626550455e-02
7.51100000000000e-08,5.40000000000061e-01,0.00000000000000e+00,2.07832250861859e-02
7.51300000000000e-08,4.20000000000084e-01,0.00000000000000e+00,1.36148695446327e-02
7.51700000000000e-08,1.80000000000129e-01,0.00000000000000e+00,5.44591835898717e-03
7.52000000000000e-08,8.40438829641244e-14,0.00000000000000e+00,2.93896658688281e-03
7.52080000000000e-08,0.00000000000000e+00,0.00000000000000e+00,2.84974738191880e-03
7.52240000000000e-08,0.00000000000000e+00,0.00000000000000e+00,2.60958738627823e-03
7.52560000000000e-08,0.00000000000000e+00,0.00000000000000e+00,2.00044808476471e-03
7.53200000000000e-08,0.00000000000000e+00,0.00000000000000e+00,9.73493563101099e-04
7.54480000000000e-08,0.00000000000000e+00,0.00000000000000e+00,-2.27053496074284e-04
7.57040000000000e-08,0.00000000000000e+00,0.00000000000000e+00,-8.18834217320798e-04
7.62159999999999e-08,0.00000000000000e+00,0.00000000000000e+00,3.13987903284508e-04
7.71220487497967e-08,0.00000000000000e+00,0.00000000000000e+00,-1.91731088695793e-04
7.82462699244915e-08,0.00000000000000e+00,0.00000000000000e+00,1.34417978169332e-04
8.04947122738811e-08,0.00000000000000e+00,0.00000000000000e+00,-1.10686008007180e-04
8.42947122738811e-08,0.00000000000000e+00,0.00000000000000e+00,1.01450833046811e-04
8.50000000000000e-08,0.00000000000000e+00,0.00000000000000e+00,-5.50363615875946e-05
8.50100000000000e-08,5.99999999999886e-02,0.00000000000000e+00,2.37203347773024e-04
8.50300000000000e-08,1.79999999999966e-01,0.00000000000000e+00,6.81116627356218e-04
8.50700000000000e-08,4.19999999999920e-01,0.00000000000000e+00,8.88017251670495e-04
8.51000000000000e-08,5.99999999999966e-01,0.00000000000000e+00,2.93339225960795e-04
8.51080000000000e-08,6.00000000000000e-01,0.00000000000000e+00,2.34136297033172e-05
8.51240000000000e-08,6.00000000000000e-01,0.00000000000000e+00,-4.02147442776529e-04
8.51560000000000e-08,6.00000000000000e-01,0.00000000000000e+00,-8.01167812698234e-04
8.52200000000000e-08,6.00000000000000e-01,0.00000000000000e+00,-8.61125251183981e-04
8.53480000000000e-08,6.00000000000000e-01,0.00000000000000e+00,-3.55156693426589e-04
8.56040000000000e-08,6.00000000000000e-01,0.00000000000000e+00,4.69148344006871e-04
8.61159999999999e-08,6.00000000000000e-01,0.00000000000000e+00,-1.04002448722666e-04
8.71399999999999e-08,6.00000000000000e-01,0.00000000000000e+00,4.59300697771645e-05
8.83578131254099e-08,6.00000000000000e-01,0.00000000000000e+00,-4.19322373894186e-06
9.00000000000000e-08,6.00000000000000e-01,0.00000000000000e+00,-7.14072756999914e-06
9.00100000000000e-08,6.00000000000000e-01,5.99999999999886e-02,1.83433440847230e-05
9.00300000000000e-08,6.00000000000000e-01,1.79999999999966e-01,4.73951025275199e-05
9.00700000000000e-08,6.00000000000000e-01,4.19999999999920e-01,4.23285372225524e-05
9.01000000000000e-08,6.00000000000000e-01,5.99999999999966e-01,1.02377929490499e-05
9.01080000000000e-08,6.00000000000000e-01,6.00000000000000e-01,2.82247065586105e-06
9.01240000000000e-08,6.00000000000000e-01,6.00000000000000e-01,-3.44388839579324e-06
9.01560000000000e-08,6.00000000000000e-01,6.00000000000000e-01,1.98618359936731e-06
9.02200000000000e-08,6.00000000000000e-01,6.00000000000000e-01,1.51299059684695e-05
9.03480000000000e-08,6.00000000000000e-01,6.00000000000000e-01,1.53537871430062e-05
9.06040000000000e-08,6.00000000000000e-01,6.00000000000000e-01,-3.21093662234567e-06
9.11159999999999e-08,6.00000000000000e-01,6.00000000000000e-01,5.72994501875021e-06
9.21399999999999e-08,6.00000000000000e-01,6.00000000000000e-01,-5.53658167140939e-07
9.41879999999998e-08,6.00000000000000e-01,6.00000000000000e-01,4.41100851329267e-06
9.51000000000000e-08,6.00000000000000e-01,6.00000000000000e-01,-2.71565076832153e-07
9.51100000000000e-08,5.40000000000061e-01,6.00000000000000e-01,-1.23885805861937e-04
9.51300000000000e-08,4.20000000000084e-01,6.00000000000000e-01,-3.47621388391492e-04
9.51700000000000e-08,1.80000000000129e-01,6.00000000000000e-01,-6.54657240291331e-04
9.52000000000000e-08,8.40438829641244e-14,6.00000000000000e-01,-3.78253115166940e-04
9.52080000000000e-08,0.00000000000000e+00,6.00000000000000e-01,-4.10066434694961e-05
9.52240000000000e-08,0.00000000000000e+00,6.00000000000000e-01,4.78158675012094e-04
9.52560000000000e-08,0.00000000000000e+00,6.00000000000000e-01,8.58446290347425e-04
9.53200000000000e-08,0.00000000000000e+00,6.00000000000000e-01,7.07224528386619e-04
9.54480000000000e-08,0.00000000000000e+00,6.00000000000000e-01,1.24368246243470e-04
9.57040000000000e-08,0.00000000000000e+00,6.00000000000000e-01,-3.84958436272495e-04
9.62159999999999e-08,0.00000000000000e+00,6.00000000000000e-01,6.62431031742926e-05
9.69544897989631e-08,0.00000000000000e+00,6.00000000000000e-01,-1.18507961998332e-04
9.78628521975877e-08,0.00000000000000e+00,6.00000000000000e-01,2.02489499857489e-04
9.95661488069155e-08,0.00000000000000e+00,6.00000000000000e-01,-2.07577463834068e-04
1.01116363389455e-07,0.00000000000000e+00,6.00000000000000e-01,2.01908168690133e-04
1.04216792554535e-07,0.00000000000000e+00,6.00000000000000e-01,-1.93287968526948e-04
1.05000000000000e-07,0.00000000000000e+00,6.00000000000000e-01,1.58191742954594e-04
1.05010000000000e-07,5.99999999999886e-02,6.00000000000000e-01,4.75435607168617e-04
1.05030000000000e-07,1.79999999999966e-01,6.00000000000000e-01,9.82048294413271e-04
1.05070000000000e-07,4.19999999999920e-01,6.00000000000000e-01,1.41328177079120e-03
1.05100000000000e-07,5.99999999999966e-01,6.00000000000000e-01,3.84104495453189e-04
1.05108000000000e-07,6.00000000000000e-01,6.00000000000000e-01,-3.24705509867046e-04
1.05124000000000e-07,6.00000000000000e-01,6.00000000000000e-01,-1.72886768878648e-03
1.05156000000000e-07,6.00000000000000e-01,6.00000000000000e-01,-3.98905667184175e-03
1.05220000000000e-07,6.00000000000000e-01,6.00000000000000e-01,-6.16494089782660e-03
1.05348000000000e-07,6.00000000000000e-01,6.00000000000000e-01,4.77954596096164e-03
1.05604000000000e-07,6.00000000000000e-01,6.00000000000000e-01,2.29157584307411e-01
1.06116000000000e-07,6.00000000000000e-01,6.00000000000000e-01,5.92670496429925e-01
1.06789600205718e-07,6.00000000000000e-01,6.00000000000000e-01,5.99469326618002e-01
1.07867265218415e-07,6.00000000000000e-01,6.00000000000000e-01,6.01660563894911e-01
1.09275882189943e-07,6.00000000000000e-01,6.00000000000000e-01,5.97834629971342e-01
1.11474183546207e-07,6.00000000000000e-01,6.00000000000000e-01,6.02391499885466e-01
1.15100000000000e-07,6.00000000000000e-01,6.00000000000000e-01,5.97577514528715e-01
1.15110000000000e-07,5.40000000000061e-01,6.00000000000000e-01,5.98205926953258e-01
1.15130000000000e-07,4.20000000000084e-01,6.00000000000000e-01,5.99045196139211e-01
1.15170000000000e-07,1.80000000000129e-01,6.00000000000000e-01,6.00101738654674e-01
1.15200000000000e-07,8.40438829641244e-14,6.00000000000000e-01,6.01993661314771e-01
1.15208000000000e-07,0.00000000000000e+00,6.00000000000000e-01,6.02750064116879e-01
1.15224000000000e-07,0.00000000000000e+00,6.00000000000000e-01,6.03984726543683e-01
1.15256000000000e-07,0.00000000000000e+00,6.00000000000000e-01,6.05380566871096e-01
1.15320000000000e-07,0.00000000000000e+00,6.00000000000000e-01,6.06117317798080e-01
1.15448000000000e-07,0.00000000000000e+00,6.00000000000000e-01,6.02304947676062e-01
1.15704000000000e-07,0.00000000000000e+00,6.00000000000000e-01,5.86799984268018e-01
1.16216000000000e-07,0.00000000000000e+00,6.00000000000000e-01,5.91232302174798e-01
1.17240000000000e-07,0.00000000000000e+00,6.00000000000000e-01,6.04758309752607e-01
1.18524554507982e-07,0.00000000000000e+00,6.00000000000000e-01,5.95827677675179e-01
1.20534904633018e-07,0.00000000000000e+00,6.00000000000000e-01,6.02981791509189e-01
1.24334904633018e-07,0.00000000000000e+00,6.00000000000000e-01,5.96905000281042e-01
1.25000000000000e-07,0.00000000000000e+00,6.00000000000000e-01,6.01520208309578e-01
1.25010000000000e-07,5.99999999999092e-02,6.00000000000000e-01,6.01597166289590e-01
1.25030000000000e-07,1.79999999999886e-01,6.00000000000000e-01,6.01747009214541e-01
1.25070000000000e-07,4.19999999999841e-01,6.00000000000000e-01,6.01766694049127e-01
1.25100000000000e-07,5.99999999999886e-01,6.00000000000000e-01,6.00737558045140e-01
1.25108000000000e-07,6.00000000000000e-01,5.51999999999946e-01,6.00079392228382e-01
1.25124000000000e-07,6.00000000000000e-01,4.55999999999996e-01,5.98863806004358e-01
1.25156000000000e-07,6.00000000000000e-01,2.63999999999937e-01,5.96699085270005e-01
1.25200000000000e-07,6.00000000000000e-01,0.00000000000000e+00,5.94532806770462e-01
1.25206400000000e-07,6.00000000000000e-01,0.00000000000000e+00,5.94281093528211e-01
1.25219200000000e-07,6.00000000000000e-01,0.00000000000000e+00,5.93765261890188e-01
1.25244800000000e-07,6.00000000000000e-01,0.00000000000000e+00,5.92765699461217e-01
1.25296000000000e-07,6.00000000000000e-01,0.00000000000000e+00,5.91127748799364e-01
1.25398400000000e-07,6.00000000000000e-01,0.00000000000000e+00,5.90845431132169e-01
1.25603200000000e-07,6.00000000000000e-01,0.00000000000000e+00,5.96007986371712e-01
1.26012800000000e-07,6.00000000000000e-01,0.00000000000000e+00,6.00661707061144e-01
1.26430048490462e-07,6.00000000000000e-01,0.00000000000000e+00,5.99738353241336e-01
1.27264545471387e-07,6.00000000000000e-01,0.00000000000000e+00,6.00168079305100e-01
1.28416851355424e-07,6.00000000000000e-01,0.00000000000000e+00,5.99875660038188e-01
1.30533333845187e-07,6.00000000000000e-01,0.00000000000000e+00,6.00104980639603e-01
1.34150490230692e-07,6.00000000000000e-01,0.00000000000000e+00,5.99904420538445e-01
1.35100000000000e-07,5.99999999999891e-01,0.00000000000000e+00,6.00065678079656e-01
1.35110000000000e-07,5.39999999999823e-01,0.00000000000000e+00,5.99874496910225e-01
1.35130000000000e-07,4.19999999999846e-01,0.00000000000000e+00,5.99575570153854e-01
1.35170000000000e-07,1.79999999999891e-01,0.00000000000000e+00,5.99720048101379e-01
1.35200000000000e-07,0.00000000000000e+00,0.00000000000000e+00,6.01438344446509e-01
1.35208000000000e-07,0.00000000000000e+00,0.00000000000000e+00,6.02197774265738e-01
