Time,v(clk),v(data),v(out)
1.00000000000000e-08,6.00000000000000e-01,0.00000000000000e+00,-1.07571763324869e-04
1.00100000000000e-08,6.00000000000000e-01,5.99999999999986e-02,-8.33550932277938e-05
1.00300000000000e-08,6.00000000000000e-01,1.79999999999996e-01,-5.10665729171883e-05
1.00700000000000e-08,6.00000000000000e-01,4.19999999999990e-01,-3.53146355295958e-05
1.01000000000000e-08,6.00000000000000e-01,5.99999999999995e-01,-7.48555166182746e-05
1.01080000000000e-08,6.00000000000000e-01,6.00000000000000e-01,-8.96368738556030e-05
1.01240000000000e-08,6.00000000000000e-01,6.00000000000000e-01,-1.02960345304534e-04
1.01560000000000e-08,6.00000000000000e-01,6.00000000000000e-01,-9.15463534568589e-05
1.02200000000000e-08,6.00000000000000e-01,6.00000000000000e-01,-3.85111608312561e-05
1.03480000000000e-08,6.00000000000000e-01,6.00000000000000e-01,9.45347961048976e-06
1.06040000000000e-08,6.00000000000000e-01,6.00000000000000e-01,7.58703814993100e-06
1.11141524900493e-08,6.00000000000000e-01,6.00000000000000e-01,1.82657302548808e-06
1.21344574701479e-08,6.00000000000000e-01,6.00000000000000e-01,4.66629308527346e-06
1.41750674303451e-08,6.00000000000000e-01,6.00000000000000e-01,2.16484767920268e-06
1.51000000000000e-08,6.00000000000000e-01,6.00000000000000e-01,4.28628977018446e-06
1.51100000000000e-08,5.39999999999992e-01,6.00000000000000e-01,-1.63525161010508e-04
1.51300000000000e-08,4.19999999999994e-01,6.00000000000000e-01,-5.99006326706661e-04
1.51700000000000e-08,1.80000000000000e-01,6.00000000000000e-01,-1.61324629112872e-03
1.52000000000000e-08,0.00000000000000e+00,6.00000000000000e-01,-1.84317857345069e-03
1.52080000000000e-08,0.00000000000000e+00,6.00000000000000e-01,-1.49409033918387e-03
1.52240000000000e-08,0.00000000000000e+00,6.00000000000000e-01,-8.64763750137373e-04
1.52560000000000e-08,0.00000000000000e+00,6.00000000000000e-01,6.43455629870116e-06
1.53200000000000e-08,0.00000000000000e+00,6.00000000000000e-01,6.84165199400927e-04
1.54480000000000e-08,0.00000000000000e+00,6.00000000000000e-01,6.96040273493168e-04
1.57040000000000e-08,0.00000000000000e+00,6.00000000000000e-01,2.63355334721840e-04
1.62160000000000e-08,0.00000000000000e+00,6.00000000000000e-01,-1.44805480506785e-05
1.72400000000000e-08,0.00000000000000e+00,6.00000000000000e-01,-1.11106307054125e-04
1.91653738400077e-08,0.00000000000000e+00,6.00000000000000e-01,-8.67484037215876e-05
2.12476506623823e-08,0.00000000000000e+00,6.00000000000000e-01,1.52056396244028e-04
2.50000000000000e-08,0.00000000000000e+00,6.00000000000000e-01,-9.77980666382354e-05
2.50100000000000e-08,5.99999999999886e-02,6.00000000000000e-01,4.20556517391479e-04
2.50300000000000e-08,1.80000000000006e-01,6.00000000000000e-01,1.31710279531133e-03
2.50700000000000e-08,4.20000000000000e-01,6.00000000000000e-01,2.35192298864861e-03
2.51000000000000e-08,6.00000000000000e-01,6.00000000000000e-01,1.66661020976847e-03
2.51080000000000e-08,6.00000000000000e-01,6.00000000000000e-01,9.94481366693153e-04
2.51240000000000e-08,6.00000000000000e-01,6.00000000000000e-01,-5.24334490695999e-04
2.51560000000000e-08,6.00000000000000e-01,6.00000000000000e-01,-3.82678802661403e-03
2.52200000000000e-08,6.00000000000000e-01,6.00000000000000e-01,-8.60363917845634e-03
2.53480000000000e-08,6.00000000000000e-01,6.00000000000000e-01,-1.09348868925479e-02
2.56040000000000e-08,6.00000000000000e-01,6.00000000000000e-01,2.94636602871289e-02
2.61160000000000e-08,6.00000000000000e-01,6.00000000000000e-01,2.82363726929950e-01
2.71400000000000e-08,6.00000000000000e-01,6.00000000000000e-01,5.85646684185777e-01
2.84675324469471e-08,6.00000000000000e-01,6.00000000000000e-01,6.00950302121230e-01
3.04980319884397e-08,6.00000000000000e-01,6.00000000000000e-01,6.01563464944153e-01
3.37696366182672e-08,6.00000000000000e-01,6.00000000000000e-01,5.97297896583946e-01
3.51000000000000e-08,5.99999999999970e-01,6.00000000000000e-01,6.03819945312364e-01
3.51100000000000e-08,5.39999999999982e-01,6.00000000000000e-01,6.03000481313424e-01
3.51300000000000e-08,4.19999999999965e-01,6.00000000000000e-01,6.01447649615079e-01
3.51700000000000e-08,1.79999999999970e-01,6.00000000000000e-01,5.99299895464824e-01
3.52000000000000e-08,0.00000000000000e+00,6.00000000000000e-01,5.98955392563583e-01
3.52080000000000e-08,0.00000000000000e+00,6.00000000000000e-01,5.99163516321076e-01
3.52240000000000e-08,0.00000000000000e+00,6.00000000000000e-01,5.99562790041303e-01
3.52560000000000e-08,0.00000000000000e+00,6.00000000000000e-01,6.00404192439153e-01
3.53200000000000e-08,0.00000000000000e+00,6.00000000000000e-01,6.01865698911227e-01
3.54480000000000e-08,0.00000000000000e+00,6.00000000000000e-01,6.03660707143501e-01
3.57040000000000e-08,0.00000000000000e+00,6.00000000000000e-01,6.04173446937516e-01
3.62160000000000e-08,0.00000000000000e+00,6.00000000000000e-01,5.97138936925784e-01
3.72400000000000e-08,0.00000000000000e+00,6.00000000000000e-01,5.84832074388990e-01
3.92880000000000e-08,0.00000000000000e+00,6.00000000000000e-01,5.95134175362286e-01
4.30880000000000e-08,0.00000000000000e+00,6.00000000000000e-01,6.02215046657238e-01
4.50000000000000e-08,0.00000000000000e+00,6.00000000000000e-01,5.98773688952245e-01
4.50100000000000e-08,5.99999999999886e-02,6.00000000000000e-01,5.99056311239473e-01
4.50300000000000e-08,1.80000000000006e-01,6.00000000000000e-01,5.99580831081232e-01
4.50700000000000e-08,4.20000000000000e-01,6.00000000000000e-01,6.00504024337827e-01
4.51000000000000e-08,6.00000000000000e-01,6.00000000000000e-01,6.00538268045488e-01
4.51080000000000e-08,6.00000000000000e-01,5.52000000000025e-01,6.00235441787727e-01
4.51240000000000e-08,6.00000000000000e-01,4.55999999999996e-01,5.99562253518052e-01
4.51560000000000e-08,6.00000000000000e-01,2.64000000000016e-01,5.97935570144428e-01
4.52000000000000e-08,6.00000000000000e-01,3.44169137633799e-14,5.95372459017641e-01
4.52064000000000e-08,6.00000000000000e-01,0.00000000000000e+00,5.94996648624029e-01
4.52192000000000e-08,6.00000000000000e-01,0.00000000000000e+00,5.94223217068196e-01
4.52448000000000e-08,6.00000000000000e-01,0.00000000000000e+00,5.92574977756937e-01
4.52960000000000e-08,6.00000000000000e-01,0.00000000000000e+00,5.89039774403694e-01
4.53984000000000e-08,6.00000000000000e-01,0.00000000000000e+00,5.83008925585553e-01
4.56032000000000e-08,6.00000000000000e-01,0.00000000000000e+00,5.81411927833195e-01
4.60128000000000e-08,6.00000000000000e-01,0.00000000000000e+00,5.93552105429336e-01
4.68320000000000e-08,6.00000000000000e-01,0.00000000000000e+00,6.02065979946008e-01
4.83099633332992e-08,6.00000000000000e-01,0.00000000000000e+00,5.98784981398859e-01
5.00604051904017e-08,6.00000000000000e-01,0.00000000000000e+00,6.00779290456112e-01
5.29516253877754e-08,6.00000000000000e-01,0.00000000000000e+00,5.99391092662825e-01
5.51000000000000e-08,6.00000000000000e-01,0.00000000000000e+00,6.00439351737915e-01
5.51100000000000e-08,5.40000000000021e-01,0.00000000000000e+00,6.00164329259665e-01
5.51300000000000e-08,4.20000000000004e-01,0.00000000000000e+00,5.99612796364274e-01
5.51700000000000e-08,1.80000000000010e-01,0.00000000000000e+00,5.98745249147849e-01
5.52000000000000e-08,0.00000000000000e+00,0.00000000000000e+00,5.98880261372007e-01
5.52080000000000e-08,0.00000000000000e+00,0.00000000000000e+00,5.99189467711401e-01
5.52240000000000e-08,0.00000000000000e+00,0.00000000000000e+00,5.99804805372183e-01
5.52560000000000e-08,0.00000000000000e+00,0.00000000000000e+00,6.01013020683515e-01
5.53200000000000e-08,0.00000000000000e+00,0.00000000000000e+00,6.02783188662845e-01
5.54480000000000e-08,0.00000000000000e+00,0.00000000000000e+00,6.04723351687239e-01
5.57040000000000e-08,0.00000000000000e+00,0.00000000000000e+00,6.06194935795755e-01
5.62160000000000e-08,0.00000000000000e+00,0.00000000000000e+00,6.07286888628753e-01
5.72400000000000e-08,0.00000000000000e+00,0.00000000000000e+00,6.05825179977294e-01
5.89767070759464e-08,0.00000000000000e+00,0.00000000000000e+00,5.97786051636529e-01
6.07541760301596e-08,0.00000000000000e+00,0.00000000000000e+00,6.00157080411260e-01
6.41730020345342e-08,0.00000000000000e+00,0.00000000000000e+00,5.99731528340225e-01
6.50000000000000e-08,0.00000000000000e+00,0.00000000000000e+00,5.99651111663106e-01
6.50100000000000e-08,5.99999999999886e-02,0.00000000000000e+00,5.99881859956873e-01
6.50300000000000e-08,1.79999999999966e-01,0.00000000000000e+00,6.00338370385709e-01
6.50700000000000e-08,4.19999999999920e-01,0.00000000000000e+00,6.01052389891312e-01
6.51000000000000e-08,5.99999999999966e-01,0.00000000000000e+00,6.00735320354893e-01
6.51080000000000e-08,6.00000000000000e-01,0.00000000000000e+00,6.00437514785716e-01
6.51240000000000e-08,6.00000000000000e-01,0.00000000000000e+00,5.99895183880425e-01
6.51560000000000e-08,6.00000000000000e-01,0.00000000000000e+00,5.98942402241991e-01
6.52200000000000e-08,6.00000000000000e-01,0.00000000000000e+00,5.97723384436900e-01
6.53480000000000e-08,6.00000000000000e-01,0.00000000000000e+00,5.97720901870537e-01
6.56040000000000e-08,6.00000000000000e-01,0.00000000000000e+00,6.07210491061076e-01
6.61159999999999e-08,6.00000000000000e-01,0.00000000000000e+00,6.34990870255858e-01
6.71399999999999e-08,6.00000000000000e-01,0.00000000000000e+00,7.71003430828733e-02
6.84181424084641e-08,6.00000000000000e-01,0.00000000000000e+00,-4.37222892788181e-02
7.00702405822790e-08,6.00000000000000e-01,0.00000000000000e+00,4.28967094429287e-02
7.32150935525279e-08,6.00000000000000e-01,0.00000000000000e+00,-3.51382217966484e-02
7.51000000000000e-08,6.00000000000000e-01,0.00000000000000e+00,3.37385158089504e-02
7.51100000000000e-08,5.40000000000061e-01,0.00000000000000e+00,2.88408900793556e-02
7.51300000000000e-08,4.20000000000084e-01,0.00000000000000e+00,2.04474108013992e-02
7.51700000000000e-08,1.80000000000129e-01,0.00000000000000e+00,9.47169650436329e-03
7.52000000000000e-08,8.40438829641244e-14,0.00000000000000e+00,5.06511537182000e-03
7.52080000000000e-08,0.00000000000000e+00,0.00000000000000e+00,4.65379036583699e-03
7.52240000000000e-08,0.00000000000000e+00,0.00000000000000e+00,3.92975323080172e-03
7.52560000000000e-08,0.00000000000000e+00,0.00000000000000e+00,2.79062805958898e-03
7.53200000000000e-08,0.00000000000000e+00,0.00000000000000e+00,1.66785742428448e-03
7.54480000000000e-08,0.00000000000000e+00,0.00000000000000e+00,7.91553537339923e-04
7.57040000000000e-08,0.00000000000000e+00,0.00000000000000e+00,2.31642585392690e-04
7.62159999999999e-08,0.00000000000000e+00,0.00000000000000e+00,-9.26352411126086e-04
7.72399999999999e-08,0.00000000000000e+00,0.00000000000000e+00,3.83870230345645e-04
7.85112775950760e-08,0.00000000000000e+00,0.00000000000000e+00,-3.16461821961248e-04
8.10538327852284e-08,0.00000000000000e+00,0.00000000000000e+00,2.69390214197057e-04
8.48538327852284e-08,0.00000000000000e+00,0.00000000000000e+00,-2.33032308920820e-04
8.50000000000000e-08,0.00000000000000e+00,0.00000000000000e+00,-1.49290956820237e-04
8.50100000000000e-08,5.99999999999886e-02,0.00000000000000e+00,3.60314377106485e-04
8.50300000000000e-08,1.79999999999966e-01,0.00000000000000e+00,1.19883409409111e-03
8.50700000000000e-08,4.19999999999920e-01,0.00000000000000e+00,1.93400392946444e-03
8.51000000000000e-08,5.99999999999966e-01,0.00000000000000e+00,9.72972882726034e-04
8.51080000000000e-08,6.00000000000000e-01,0.00000000000000e+00,5.14380075873150e-04
8.51240000000000e-08,6.00000000000000e-01,0.00000000000000e+00,-1.83719785429165e-04
8.51560000000000e-08,6.00000000000000e-01,0.00000000000000e+00,-8.02048712427061e-04
8.52200000000000e-08,6.00000000000000e-01,0.00000000000000e+00,-1.08710242585504e-03
8.53480000000000e-08,6.00000000000000e-01,0.00000000000000e+00,-1.19338700272013e-03
8.56040000000000e-08,6.00000000000000e-01,0.00000000000000e+00,-1.67781736447221e-04
8.61159999999999e-08,6.00000000000000e-01,0.00000000000000e+00,5.89161938199044e-04
8.71399999999999e-08,6.00000000000000e-01,0.00000000000000e+00,-2.58075031233228e-04
8.84315334085867e-08,6.00000000000000e-01,0.00000000000000e+00,1.70290081154073e-04
9.00000000000000e-08,6.00000000000000e-01,0.00000000000000e+00,-1.08076368353067e-04
9.00100000000000e-08,6.00000000000000e-01,5.99999999999886e-02,-8.35524278842981e-05
9.00300000000000e-08,6.00000000000000e-01,1.79999999999966e-01,-5.07355260390141e-05
9.00700000000000e-08,6.00000000000000e-01,4.19999999999920e-01,-3.42320614365871e-05
9.01000000000000e-08,6.00000000000000e-01,5.99999999999966e-01,-7.14469540852164e-05
9.01080000000000e-08,6.00000000000000e-01,6.00000000000000e-01,-8.55770173880249e-05
9.01240000000000e-08,6.00000000000000e-01,6.00000000000000e-01,-9.88033505576746e-05
9.01560000000000e-08,6.00000000000000e-01,6.00000000000000e-01,-8.95274223235848e-05
9.02200000000000e-08,6.00000000000000e-01,6.00000000000000e-01,-3.91798402983728e-05
9.03480000000000e-08,6.00000000000000e-01,6.00000000000000e-01,9.39362096876589e-06
9.06040000000000e-08,6.00000000000000e-01,6.00000000000000e-01,6.38971879592110e-06
9.11159999999999e-08,6.00000000000000e-01,6.00000000000000e-01,2.71072464550978e-06
9.21399999999999e-08,6.00000000000000e-01,6.00000000000000e-01,4.20132376384615e-06
9.41879999999998e-08,6.00000000000000e-01,6.00000000000000e-01,2.55825638767297e-06
9.51000000000000e-08,6.00000000000000e-01,6.00000000000000e-01,4.07582485426397e-06
9.51100000000000e-08,5.40000000000061e-01,6.00000000000000e-01,-1.63414104070420e-04
9.51300000000000e-08,4.20000000000084e-01,6.00000000000000e-01,-5.99004822299951e-04
9.51700000000000e-08,1.80000000000129e-01,6.00000000000000e-01,-1.61332617952746e-03
9.52000000000000e-08,8.40438829641244e-14,6.00000000000000e-01,-1.84522468346787e-03
9.52080000000000e-08,0.00000000000000e+00,6.00000000000000e-01,-1.49721541825157e-03
9.52240000000000e-08,0.00000000000000e+00,6.00000000000000e-01,-8.68651055576652e-04
9.52560000000000e-08,0.00000000000000e+00,6.00000000000000e-01,4.09129881731585e-06
9.53200000000000e-08,0.00000000000000e+00,6.00000000000000e-01,6.82717561707749e-04
9.54480000000000e-08,0.00000000000000e+00,6.00000000000000e-01,6.95346359226363e-04
9.57040000000000e-08,0.00000000000000e+00,6.00000000000000e-01,2.63281370686999e-04
9.62159999999999e-08,0.00000000000000e+00,6.00000000000000e-01,-1.44074921132574e-05
9.72399999999999e-08,0.00000000000000e+00,6.00000000000000e-01,-1.11156269142798e-04
9.91652488297755e-08,0.00000000000000e+00,6.00000000000000e-01,-8.67147027998729e-05
1.01247555538982e-07,0.00000000000000e+00,6.00000000000000e-01,1.52030653530351e-04
1.05000000000000e-07,0.00000000000000e+00,6.00000000000000e-01,-9.77777664073832e-05
1.05010000000000e-07,5.99999999999886e-02,6.00000000000000e-01,4.20581792088204e-04
1.05030000000000e-07,1.79999999999966e-01,6.00000000000000e-01,1.31713169165540e-03
1.05070000000000e-07,4.19999999999920e-01,6.00000000000000e-01,2.35193944523274e-03
1.05100000000000e-07,5.99999999999966e-01,6.00000000000000e-01,1.66661919186013e-03
1.05108000000000e-07,6.00000000000000e-01,6.00000000000000e-01,9.94489920003200e-04
1.05124000000000e-07,6.00000000000000e-01,6.00000000000000e-01,-5.24328194424120e-04
1.05156000000000e-07,6.00000000000000e-01,6.00000000000000e-01,-3.82678766482764e-03
1.05220000000000e-07,6.00000000000000e-01,6.00000000000000e-01,-8.60364777024855e-03
1.05348000000000e-07,6.00000000000000e-01,6.00000000000000e-01,-1.09348908642649e-02
1.05604000000000e-07,6.00000000000000e-01,6.00000000000000e-01,2.94637705133176e-02
1.06116000000000e-07,6.00000000000000e-01,6.00000000000000e-01,2.82363941421733e-01
1.07140000000000e-07,6.00000000000000e-01,6.00000000000000e-01,5.85646719970731e-01
1.08467532261963e-07,6.00000000000000e-01,6.00000000000000e-01,6.00950294358076e-01
1.10498031850323e-07,6.00000000000000e-01,6.00000000000000e-01,6.01563467996998e-01
1.13769636246540e-07,6.00000000000000e-01,6.00000000000000e-01,5.97297895688960e-01
1.15100000000000e-07,6.00000000000000e-01,6.00000000000000e-01,6.03819942767346e-01
1.15110000000000e-07,5.40000000000061e-01,6.00000000000000e-01,6.03000479359075e-01
1.15130000000000e-07,4.20000000000084e-01,6.00000000000000e-01,6.01447648658125e-01
1.15170000000000e-07,1.80000000000129e-01,6.00000000000000e-01,5.99299895707947e-01
1.15200000000000e-07,8.40438829641244e-14,6.00000000000000e-01,5.98955393279245e-01
1.15208000000000e-07,0.00000000000000e+00,6.00000000000000e-01,5.99163517118324e-01
1.15224000000000e-07,0.00000000000000e+00,6.00000000000000e-01,5.99562791003575e-01
1.15256000000000e-07,0.00000000000000e+00,6.00000000000000e-01,6.00404193757363e-01
1.15320000000000e-07,0.00000000000000e+00,6.00000000000000e-01,6.01865700346946e-01
1.15448000000000e-07,0.00000000000000e+00,6.00000000000000e-01,6.03660708306288e-01
1.15704000000000e-07,0.00000000000000e+00,6.00000000000000e-01,6.04173447239249e-01
1.16216000000000e-07,0.00000000000000e+00,6.00000000000000e-01,5.97138936862778e-01
1.17240000000000e-07,0.00000000000000e+00,6.00000000000000e-01,5.84832074436522e-01
1.19288000000000e-07,0.00000000000000e+00,6.00000000000000e-01,5.95134175360482e-01
1.23088000000000e-07,0.00000000000000e+00,6.00000000000000e-01,6.02215046583201e-01
1.25000000000000e-07,0.00000000000000e+00,6.00000000000000e-01,5.98773689025560e-01
1.25010000000000e-07,5.99999999999092e-02,6.00000000000000e-01,5.99056311324113e-01
1.25030000000000e-07,1.79999999999886e-01,6.00000000000000e-01,5.99580831189535e-01
1.25070000000000e-07,4.19999999999841e-01,6.00000000000000e-01,6.00504024424816e-01
1.25100000000000e-07,5.99999999999886e-01,6.00000000000000e-01,6.00538268038964e-01
1.25108000000000e-07,6.00000000000000e-01,5.51999999999946e-01,6.00235441765237e-01
1.25124000000000e-07,6.00000000000000e-01,4.55999999999996e-01,5.99562253482766e-01
1.25156000000000e-07,6.00000000000000e-01,2.63999999999937e-01,5.97935570123295e-01
1.25200000000000e-07,6.00000000000000e-01,0.00000000000000e+00,5.95372458987163e-01
1.25206400000000e-07,6.00000000000000e-01,0.00000000000000e+00,5.94996648593972e-01
1.25219200000000e-07,6.00000000000000e-01,0.00000000000000e+00,5.94223217036533e-01
1.25244800000000e-07,6.00000000000000e-01,0.00000000000000e+00,5.92574977714176e-01
1.25296000000000e-07,6.00000000000000e-01,0.00000000000000e+00,5.89039774347218e-01
1.25398400000000e-07,6.00000000000000e-01,0.00000000000000e+00,5.83008925532065e-01
1.25603200000000e-07,6.00000000000000e-01,0.00000000000000e+00,5.81411927836057e-01
1.26012800000000e-07,6.00000000000000e-01,0.00000000000000e+00,5.93552105467782e-01
1.26832000000000e-07,6.00000000000000e-01,0.00000000000000e+00,6.02065979943014e-01
1.28309963336146e-07,6.00000000000000e-01,0.00000000000000e+00,5.98784981395190e-01
1.30060405629323e-07,6.00000000000000e-01,0.00000000000000e+00,6.00779290554028e-01
1.32951626136314e-07,6.00000000000000e-01,0.00000000000000e+00,5.99391092570900e-01
1.35100000000000e-07,5.99999999999891e-01,0.00000000000000e+00,6.00439351747833e-01
1.35110000000000e-07,5.39999999999823e-01,0.00000000000000e+00,6.00164329270640e-01
1.35130000000000e-07,4.19999999999846e-01,0.00000000000000e+00,5.99612796374808e-01
1.35170000000000e-07,1.79999999999891e-01,0.00000000000000e+00,5.98745249157908e-01
1.35200000000000e-07,0.00000000000000e+00,0.00000000000000e+00,5.98880261388509e-01
1.35208000000000e-07,0.00000000000000e+00,0.00000000000000e+00,5.99189467726582e-01
1.35224000000000e-07,0.00000000000000e+00,0.00000000000000e+00,5.99804805390332e-01
1.35256000000000e-07,0.00000000000000e+00,0.00000000000000e+00,6.01013020697824e-01
1.35320000000000e-07,0.00000000000000e+00,0.00000000000000e+00,6.02783188674530e-01
1.35448000000000e-07,0.00000000000000e+00,0.00000000000000e+00,6.04723351670563e-01
1.35704000000000e-07,0.00000000000000e+00,0.00000000000000e+00,6.06194935784860e-01
1.36216000000000e-07,0.00000000000000e+00,0.00000000000000e+00,6.07286888648356e-01
1.37240000000000e-07,0.00000000000000e+00,0.00000000000000e+00,6.05825179836485e-01
1.38976707075303e-07,0.00000000000000e+00,0.00000000000000e+00,5.97786051700368e-01
1.40754176028967e-07,0.00000000000000e+00,0.00000000000000e+00,6.00157080387577e-01
