Time,v(clk),v(data),v(out)
1.00000000000000e-08,6.00000000000000e-01,0.00000000000000e+00,3.93072123547906e-05
1.00100000000000e-08,6.00000000000000e-01,5.99999999999986e-02,3.38037970237862e-05
1.00300000000000e-08,6.00000000000000e-01,1.79999999999996e-01,2.43812531398879e-05
1.00700000000000e-08,6.00000000000000e-01,4.19999999999990e-01,1.18270468991641e-05
1.01000000000000e-08,6.00000000000000e-01,5.99999999999995e-01,2.45936618675086e-06
1.01080000000000e-08,6.00000000000000e-01,6.00000000000000e-01,2.04434186215630e-06
1.01240000000000e-08,6.00000000000000e-01,6.00000000000000e-01,2.38019715680798e-06
1.01560000000000e-08,6.00000000000000e-01,6.00000000000000e-01,4.37860655454203e-06
1.02200000000000e-08,6.00000000000000e-01,6.00000000000000e-01,7.01312799836554e-06
1.03480000000000e-08,6.00000000000000e-01,6.00000000000000e-01,1.64674722355485e-06
1.06040000000000e-08,6.00000000000000e-01,6.00000000000000e-01,1.64157234399005e-06
1.11160000000000e-08,6.00000000000000e-01,6.00000000000000e-01,2.49747102325313e-06
1.21400000000000e-08,6.00000000000000e-01,6.00000000000000e-01,1.38238211099722e-06
1.41880000000000e-08,6.00000000000000e-01,6.00000000000000e-01,1.98407444652318e-06
1.51000000000000e-08,6.00000000000000e-01,6.00000000000000e-01,1.07119372047201e-06
1.51100000000000e-08,5.39999999999992e-01,6.00000000000000e-01,-5.83082434879936e-05
1.51300000000000e-08,4.19999999999994e-01,6.00000000000000e-01,-1.49686831088867e-04
1.51700000000000e-08,1.80000000000000e-01,6.00000000000000e-01,-1.90455520947361e-04
1.52000000000000e-08,0.00000000000000e+00,6.00000000000000e-01,-3.02206786952017e-05
1.52080000000000e-08,0.00000000000000e+00,6.00000000000000e-01,9.29031867970762e-05
1.52240000000000e-08,0.00000000000000e+00,6.00000000000000e-01,2.59918762029070e-04
1.52560000000000e-08,0.00000000000000e+00,6.00000000000000e-01,3.11163798876940e-04
1.53200000000000e-08,0.00000000000000e+00,6.00000000000000e-01,1.28396961089704e-04
1.54480000000000e-08,0.00000000000000e+00,6.00000000000000e-01,-1.40039303960834e-04
1.57040000000000e-08,0.00000000000000e+00,6.00000000000000e-01,-4.28795210471646e-05
1.62160000000000e-08,0.00000000000000e+00,6.00000000000000e-01,-1.29878765594665e-04
1.69457603988644e-08,0.00000000000000e+00,6.00000000000000e-01,1.60095968994810e-04
1.82552326025814e-08,0.00000000000000e+00,6.00000000000000e-01,-8.39855796074154e-05
1.99009745964827e-08,0.00000000000000e+00,6.00000000000000e-01,4.29492609297401e-05
2.30803567043493e-08,0.00000000000000e+00,6.00000000000000e-01,-2.37099875338507e-05
2.50000000000000e-08,0.00000000000000e+00,6.00000000000000e-01,6.73312176460109e-07
2.50100000000000e-08,5.99999999999886e-02,6.00000000000000e-01,1.22481406033124e-04
2.50300000000000e-08,1.80000000000006e-01,6.00000000000000e-01,2.96508542716234e-04
2.50700000000000e-08,4.20000000000000e-01,6.00000000000000e-01,3.65895535821011e-04
2.51000000000000e-08,6.00000000000000e-01,6.00000000000000e-01,-2.90745707861015e-04
2.51080000000000e-08,6.00000000000000e-01,6.00000000000000e-01,-8.10917455342550e-04
2.51240000000000e-08,6.00000000000000e-01,6.00000000000000e-01,-1.98611234089583e-03
2.51560000000000e-08,6.00000000000000e-01,6.00000000000000e-01,-4.11051121237582e-03
2.52200000000000e-08,6.00000000000000e-01,6.00000000000000e-01,-5.76175901500681e-03
2.53480000000000e-08,6.00000000000000e-01,6.00000000000000e-01,7.56202622942483e-02
2.56040000000000e-08,6.00000000000000e-01,6.00000000000000e-01,4.68751540084750e-01
2.61160000000000e-08,6.00000000000000e-01,6.00000000000000e-01,6.26216355184859e-01
2.67567212004886e-08,6.00000000000000e-01,6.00000000000000e-01,5.75601514516401e-01
2.80381636014657e-08,6.00000000000000e-01,6.00000000000000e-01,6.19905020878553e-01
2.95670764299073e-08,6.00000000000000e-01,6.00000000000000e-01,5.79867205577354e-01
3.26249020867904e-08,6.00000000000000e-01,6.00000000000000e-01,6.17739721217683e-01
3.51000000000000e-08,5.99999999999970e-01,6.00000000000000e-01,5.81710011140749e-01
3.51100000000000e-08,5.39999999999982e-01,6.00000000000000e-01,5.86024540973326e-01
3.51300000000000e-08,4.19999999999965e-01,6.00000000000000e-01,5.92581365791477e-01
3.51700000000000e-08,1.79999999999970e-01,6.00000000000000e-01,5.98476447101695e-01
3.52000000000000e-08,0.00000000000000e+00,6.00000000000000e-01,6.00606779282467e-01
3.52080000000000e-08,0.00000000000000e+00,6.00000000000000e-01,6.01120390903423e-01
3.52240000000000e-08,0.00000000000000e+00,6.00000000000000e-01,6.01896104027498e-01
3.52560000000000e-08,0.00000000000000e+00,6.00000000000000e-01,6.02494260392604e-01
3.53200000000000e-08,0.00000000000000e+00,6.00000000000000e-01,6.00640806964546e-01
3.54480000000000e-08,0.00000000000000e+00,6.00000000000000e-01,5.84412079138714e-01
3.57040000000000e-08,0.00000000000000e+00,6.00000000000000e-01,5.78009268903315e-01
3.62160000000000e-08,0.00000000000000e+00,6.00000000000000e-01,6.02730266994250e-01
3.71625966018142e-08,0.00000000000000e+00,6.00000000000000e-01,5.96742146821204e-01
3.84018064832736e-08,0.00000000000000e+00,6.00000000000000e-01,6.02080395848791e-01
4.08802262461923e-08,0.00000000000000e+00,6.00000000000000e-01,5.97560354442983e-01
4.46802262461923e-08,0.00000000000000e+00,6.00000000000000e-01,6.01924609965018e-01
4.50000000000000e-08,0.00000000000000e+00,6.00000000000000e-01,5.98751329635131e-01
4.50100000000000e-08,5.99999999999886e-02,6.00000000000000e-01,5.99002414244150e-01
4.50300000000000e-08,1.80000000000006e-01,6.00000000000000e-01,5.99410152458526e-01
4.50700000000000e-08,4.20000000000000e-01,6.00000000000000e-01,5.99804188575517e-01
4.51000000000000e-08,6.00000000000000e-01,6.00000000000000e-01,5.99301875363836e-01
4.51080000000000e-08,6.00000000000000e-01,5.52000000000025e-01,5.98894639909963e-01
4.51240000000000e-08,6.00000000000000e-01,4.55999999999996e-01,5.98030891491813e-01
4.51560000000000e-08,6.00000000000000e-01,2.64000000000016e-01,5.96500595977790e-01
4.52000000000000e-08,6.00000000000000e-01,3.44169137633799e-14,5.95133042283185e-01
4.52064000000000e-08,6.00000000000000e-01,0.00000000000000e+00,5.95005582493642e-01
4.52192000000000e-08,6.00000000000000e-01,0.00000000000000e+00,5.94756286860269e-01
4.52448000000000e-08,6.00000000000000e-01,0.00000000000000e+00,5.94422143233070e-01
4.52960000000000e-08,6.00000000000000e-01,0.00000000000000e+00,5.94813380380365e-01
4.53984000000000e-08,6.00000000000000e-01,0.00000000000000e+00,5.97440156906391e-01
4.56032000000000e-08,6.00000000000000e-01,0.00000000000000e+00,6.00056052054095e-01
4.60128000000000e-08,6.00000000000000e-01,0.00000000000000e+00,5.99942119408148e-01
4.65398704347699e-08,6.00000000000000e-01,0.00000000000000e+00,6.00046999685632e-01
4.73497072693286e-08,6.00000000000000e-01,0.00000000000000e+00,5.99957835501764e-01
4.89693809384461e-08,6.00000000000000e-01,0.00000000000000e+00,6.00039895117920e-01
5.19808306296217e-08,6.00000000000000e-01,0.00000000000000e+00,5.99958304867941e-01
5.51000000000000e-08,6.00000000000000e-01,0.00000000000000e+00,6.00040530035131e-01
5.51100000000000e-08,5.40000000000021e-01,0.00000000000000e+00,5.99953643036668e-01
5.51300000000000e-08,4.20000000000004e-01,0.00000000000000e+00,5.99842005007213e-01
5.51700000000000e-08,1.80000000000010e-01,0.00000000000000e+00,6.00101191235444e-01
5.52000000000000e-08,0.00000000000000e+00,0.00000000000000e+00,6.01267890907092e-01
5.52080000000000e-08,0.00000000000000e+00,0.00000000000000e+00,6.01675011080883e-01
5.52240000000000e-08,0.00000000000000e+00,0.00000000000000e+00,6.02308829049788e-01
5.52560000000000e-08,0.00000000000000e+00,0.00000000000000e+00,6.02974331027488e-01
5.53200000000000e-08,0.00000000000000e+00,0.00000000000000e+00,6.03618247838263e-01
5.54480000000000e-08,0.00000000000000e+00,0.00000000000000e+00,6.04076041866252e-01
5.57040000000000e-08,0.00000000000000e+00,0.00000000000000e+00,6.00603156549621e-01
5.61511891809218e-08,0.00000000000000e+00,0.00000000000000e+00,5.98842660888700e-01
5.67256640731952e-08,0.00000000000000e+00,0.00000000000000e+00,5.99837745089010e-01
5.76599738949497e-08,0.00000000000000e+00,0.00000000000000e+00,5.99463884509068e-01
5.92946065828062e-08,0.00000000000000e+00,0.00000000000000e+00,5.99888994845993e-01
6.20391784783628e-08,0.00000000000000e+00,0.00000000000000e+00,5.99684768134616e-01
6.50000000000000e-08,0.00000000000000e+00,0.00000000000000e+00,5.99933586471307e-01
6.50100000000000e-08,5.99999999999886e-02,0.00000000000000e+00,5.99992630059385e-01
6.50300000000000e-08,1.79999999999966e-01,0.00000000000000e+00,6.00076134336780e-01
6.50700000000000e-08,4.19999999999920e-01,0.00000000000000e+00,6.00038648344978e-01
6.51000000000000e-08,5.99999999999966e-01,0.00000000000000e+00,5.99813757405940e-01
6.51080000000000e-08,6.00000000000000e-01,0.00000000000000e+00,5.99726465846788e-01
6.51240000000000e-08,6.00000000000000e-01,0.00000000000000e+00,5.99566187207907e-01
6.51560000000000e-08,6.00000000000000e-01,0.00000000000000e+00,5.99420555340426e-01
6.52200000000000e-08,6.00000000000000e-01,0.00000000000000e+00,5.99586193856257e-01
6.53480000000000e-08,6.00000000000000e-01,0.00000000000000e+00,6.04136835687439e-01
6.56040000000000e-08,6.00000000000000e-01,0.00000000000000e+00,4.22054682831651e-01
6.61159999999999e-08,6.00000000000000e-01,0.00000000000000e+00,-7.20127300232029e-03
6.67161124180024e-08,6.00000000000000e-01,0.00000000000000e+00,5.70065558772111e-03
6.79163372540073e-08,6.00000000000000e-01,0.00000000000000e+00,-4.02733819424137e-03
6.91661439489026e-08,6.00000000000000e-01,0.00000000000000e+00,3.77310060191122e-03
7.16657573386933e-08,6.00000000000000e-01,0.00000000000000e+00,-2.95981239091974e-03
7.51000000000000e-08,6.00000000000000e-01,0.00000000000000e+00,3.13414970893673e-03
7.51100000000000e-08,5.40000000000061e-01,0.00000000000000e+00,3.24326856030905e-03
7.51300000000000e-08,4.20000000000084e-01,0.00000000000000e+00,2.48388291381531e-03
7.51700000000000e-08,1.80000000000129e-01,0.00000000000000e+00,7.60250983729352e-04
7.52000000000000e-08,8.40438829641244e-14,0.00000000000000e+00,5.20621927114627e-04
7.52080000000000e-08,0.00000000000000e+00,0.00000000000000e+00,5.41765515592652e-04
7.52240000000000e-08,0.00000000000000e+00,0.00000000000000e+00,5.56519797116087e-04
7.52560000000000e-08,0.00000000000000e+00,0.00000000000000e+00,4.49966778938639e-04
7.53200000000000e-08,0.00000000000000e+00,0.00000000000000e+00,9.38596793454705e-05
7.54480000000000e-08,0.00000000000000e+00,0.00000000000000e+00,-6.49506936702592e-04
7.57040000000000e-08,0.00000000000000e+00,0.00000000000000e+00,3.62415095200852e-06
7.61699513310027e-08,0.00000000000000e+00,0.00000000000000e+00,6.74317279349343e-05
7.70459644427130e-08,0.00000000000000e+00,0.00000000000000e+00,-8.31385625543260e-05
7.82863262765070e-08,0.00000000000000e+00,0.00000000000000e+00,9.36247808332740e-05
8.07670499440948e-08,0.00000000000000e+00,0.00000000000000e+00,-9.59218192209117e-05
8.45670499440948e-08,0.00000000000000e+00,0.00000000000000e+00,9.92865286110890e-05
8.50000000000000e-08,0.00000000000000e+00,0.00000000000000e+00,-1.10447910948499e-04
8.50100000000000e-08,5.99999999999886e-02,0.00000000000000e+00,4.82376334277959e-05
8.50300000000000e-08,1.79999999999966e-01,0.00000000000000e+00,2.31845289143877e-04
8.50700000000000e-08,4.19999999999920e-01,0.00000000000000e+00,2.04120371929829e-04
8.51000000000000e-08,5.99999999999966e-01,0.00000000000000e+00,-4.17073974606288e-05
8.51080000000000e-08,6.00000000000000e-01,0.00000000000000e+00,-1.35704696507227e-04
8.51240000000000e-08,6.00000000000000e-01,0.00000000000000e+00,-2.63292463355283e-04
8.51560000000000e-08,6.00000000000000e-01,0.00000000000000e+00,-3.13906764409316e-04
8.52200000000000e-08,6.00000000000000e-01,0.00000000000000e+00,-2.17676777636448e-04
8.53480000000000e-08,6.00000000000000e-01,0.00000000000000e+00,3.70825712973817e-05
8.56040000000000e-08,6.00000000000000e-01,0.00000000000000e+00,1.09888166271376e-04
8.61159999999999e-08,6.00000000000000e-01,0.00000000000000e+00,-6.19033414346326e-05
8.69462071035319e-08,6.00000000000000e-01,0.00000000000000e+00,5.40540421462201e-05
8.82506103662651e-08,6.00000000000000e-01,0.00000000000000e+00,-3.92354509119279e-05
9.00000000000000e-08,6.00000000000000e-01,0.00000000000000e+00,3.93091441082852e-05
9.00100000000000e-08,6.00000000000000e-01,5.99999999999886e-02,3.37754413473820e-05
9.00300000000000e-08,6.00000000000000e-01,1.79999999999966e-01,2.43066630125841e-05
9.00700000000000e-08,6.00000000000000e-01,4.19999999999920e-01,1.18160392212976e-05
9.01000000000000e-08,6.00000000000000e-01,5.99999999999966e-01,4.39782969616914e-06
9.01080000000000e-08,6.00000000000000e-01,6.00000000000000e-01,3.61552336305970e-06
9.01240000000000e-08,6.00000000000000e-01,6.00000000000000e-01,3.37580249167718e-06
9.01560000000000e-08,6.00000000000000e-01,6.00000000000000e-01,4.82762762048228e-06
9.02200000000000e-08,6.00000000000000e-01,6.00000000000000e-01,6.48449381568730e-06
9.03480000000000e-08,6.00000000000000e-01,6.00000000000000e-01,2.61015786999844e-06
9.06040000000000e-08,6.00000000000000e-01,6.00000000000000e-01,1.02075733110323e-06
9.11159999999999e-08,6.00000000000000e-01,6.00000000000000e-01,2.99824715441124e-06
9.21399999999999e-08,6.00000000000000e-01,6.00000000000000e-01,9.38434025082174e-07
9.41879999999998e-08,6.00000000000000e-01,6.00000000000000e-01,2.40553044526500e-06
9.51000000000000e-08,6.00000000000000e-01,6.00000000000000e-01,5.63345243081818e-07
9.51100000000000e-08,5.40000000000061e-01,6.00000000000000e-01,-5.89273874763083e-05
9.51300000000000e-08,4.20000000000084e-01,6.00000000000000e-01,-1.50010316007469e-04
9.51700000000000e-08,1.80000000000129e-01,6.00000000000000e-01,-1.90561858057464e-04
9.52000000000000e-08,8.40438829641244e-14,6.00000000000000e-01,-3.02556149638158e-05
9.52080000000000e-08,0.00000000000000e+00,6.00000000000000e-01,9.28755439449161e-05
9.52240000000000e-08,0.00000000000000e+00,6.00000000000000e-01,2.59903698676615e-04
9.52560000000000e-08,0.00000000000000e+00,6.00000000000000e-01,3.11162465749824e-04
9.53200000000000e-08,0.00000000000000e+00,6.00000000000000e-01,1.28407118973252e-04
9.54480000000000e-08,0.00000000000000e+00,6.00000000000000e-01,-1.40003067443970e-04
9.57040000000000e-08,0.00000000000000e+00,6.00000000000000e-01,-4.28873201386796e-05
9.62159999999999e-08,0.00000000000000e+00,6.00000000000000e-01,-1.29875225496914e-04
9.69457596124661e-08,0.00000000000000e+00,6.00000000000000e-01,1.60096377077107e-04
9.82552280799420e-08,0.00000000000000e+00,6.00000000000000e-01,-8.39882933612087e-05
9.99009624544014e-08,0.00000000000000e+00,6.00000000000000e-01,4.29530007249215e-05
1.03080359801904e-07,0.00000000000000e+00,6.00000000000000e-01,-2.37143309722314e-05
1.05000000000000e-07,0.00000000000000e+00,6.00000000000000e-01,6.78314253778432e-07
1.05010000000000e-07,5.99999999999886e-02,6.00000000000000e-01,1.22482915292446e-04
1.05030000000000e-07,1.79999999999966e-01,6.00000000000000e-01,2.96506757167851e-04
1.05070000000000e-07,4.19999999999920e-01,6.00000000000000e-01,3.65894024576811e-04
1.05100000000000e-07,5.99999999999966e-01,6.00000000000000e-01,-2.90750678805664e-04
1.05108000000000e-07,6.00000000000000e-01,6.00000000000000e-01,-8.10923721188073e-04
1.05124000000000e-07,6.00000000000000e-01,6.00000000000000e-01,-1.98611950981663e-03
1.05156000000000e-07,6.00000000000000e-01,6.00000000000000e-01,-4.11051599356255e-03
1.05220000000000e-07,6.00000000000000e-01,6.00000000000000e-01,-5.76175733621622e-03
1.05348000000000e-07,6.00000000000000e-01,6.00000000000000e-01,7.56203257164772e-02
1.05604000000000e-07,6.00000000000000e-01,6.00000000000000e-01,4.68751614334249e-01
1.06116000000000e-07,6.00000000000000e-01,6.00000000000000e-01,6.26216346379202e-01
1.06756721243100e-07,6.00000000000000e-01,6.00000000000000e-01,5.75601521567581e-01
1.08038163729301e-07,6.00000000000000e-01,6.00000000000000e-01,6.19905014203880e-01
1.09567076345536e-07,6.00000000000000e-01,6.00000000000000e-01,5.79867212113891e-01
1.12624901578007e-07,6.00000000000000e-01,6.00000000000000e-01,6.17739714825517e-01
1.15100000000000e-07,6.00000000000000e-01,6.00000000000000e-01,5.81710017194770e-01
1.15110000000000e-07,5.40000000000061e-01,6.00000000000000e-01,5.86024545370892e-01
1.15130000000000e-07,4.20000000000084e-01,6.00000000000000e-01,5.92581367775920e-01
1.15170000000000e-07,1.80000000000129e-01,6.00000000000000e-01,5.98476447323208e-01
1.15200000000000e-07,8.40438829641244e-14,6.00000000000000e-01,6.00606779256195e-01
1.15208000000000e-07,0.00000000000000e+00,6.00000000000000e-01,6.01120390852121e-01
1.15224000000000e-07,0.00000000000000e+00,6.00000000000000e-01,6.01896103939830e-01
1.15256000000000e-07,0.00000000000000e+00,6.00000000000000e-01,6.02494260319436e-01
1.15320000000000e-07,0.00000000000000e+00,6.00000000000000e-01,6.00640807215141e-01
1.15448000000000e-07,0.00000000000000e+00,6.00000000000000e-01,5.84412079761544e-01
1.15704000000000e-07,0.00000000000000e+00,6.00000000000000e-01,5.78009269061303e-01
1.16216000000000e-07,0.00000000000000e+00,6.00000000000000e-01,6.02730267024134e-01
1.17162596595018e-07,0.00000000000000e+00,6.00000000000000e-01,5.96742146811638e-01
1.18401806479403e-07,0.00000000000000e+00,6.00000000000000e-01,6.02080395889136e-01
1.20880226248174e-07,0.00000000000000e+00,6.00000000000000e-01,5.97560354415980e-01
1.24680226248174e-07,0.00000000000000e+00,6.00000000000000e-01,6.01924610008481e-01
1.25000000000000e-07,0.00000000000000e+00,6.00000000000000e-01,5.98751329601018e-01
1.25010000000000e-07,5.99999999999092e-02,6.00000000000000e-01,5.99002414226833e-01
1.25030000000000e-07,1.79999999999886e-01,6.00000000000000e-01,5.99410152468512e-01
1.25070000000000e-07,4.19999999999841e-01,6.00000000000000e-01,5.99804188589037e-01
1.25100000000000e-07,5.99999999999886e-01,6.00000000000000e-01,5.99301875371160e-01
1.25108000000000e-07,6.00000000000000e-01,5.51999999999946e-01,5.98894639919407e-01
1.25124000000000e-07,6.00000000000000e-01,4.55999999999996e-01,5.98030891503515e-01
1.25156000000000e-07,6.00000000000000e-01,2.63999999999937e-01,5.96500595980440e-01
1.25200000000000e-07,6.00000000000000e-01,0.00000000000000e+00,5.95133042273618e-01
1.25206400000000e-07,6.00000000000000e-01,0.00000000000000e+00,5.95005582489275e-01
1.25219200000000e-07,6.00000000000000e-01,0.00000000000000e+00,5.94756286863837e-01
1.25244800000000e-07,6.00000000000000e-01,0.00000000000000e+00,5.94422143233188e-01
1.25296000000000e-07,6.00000000000000e-01,0.00000000000000e+00,5.94813380369034e-01
1.25398400000000e-07,6.00000000000000e-01,0.00000000000000e+00,5.97440156899707e-01
1.25603200000000e-07,6.00000000000000e-01,0.00000000000000e+00,6.00056052054720e-01
1.26012800000000e-07,6.00000000000000e-01,0.00000000000000e+00,5.99942119407087e-01
1.26539870438490e-07,6.00000000000000e-01,0.00000000000000e+00,6.00046999686559e-01
1.27349707275719e-07,6.00000000000000e-01,0.00000000000000e+00,5.99957835500362e-01
1.28969380950176e-07,6.00000000000000e-01,0.00000000000000e+00,6.00039895119644e-01
1.31980830680867e-07,6.00000000000000e-01,0.00000000000000e+00,5.99958304866382e-01
1.35100000000000e-07,5.99999999999891e-01,0.00000000000000e+00,6.00040530036715e-01
1.35110000000000e-07,5.39999999999823e-01,0.00000000000000e+00,5.99953643037847e-01
1.35130000000000e-07,4.19999999999846e-01,0.00000000000000e+00,5.99842005009455e-01
1.35170000000000e-07,1.79999999999891e-01,0.00000000000000e+00,6.00101191238001e-01
1.35200000000000e-07,0.00000000000000e+00,0.00000000000000e+00,6.01267890899545e-01
1.35208000000000e-07,0.00000000000000e+00,0.00000000000000e+00,6.01675011078879e-01
1.35224000000000e-07,0.00000000000000e+00,0.00000000000000e+00,6.02308829047694e-01
1.35256000000000e-07,0.00000000000000e+00,0.00000000000000e+00,6.02974331016938e-01
1.35320000000000e-07,0.00000000000000e+00,0.00000000000000e+00,6.03618247834031e-01
1.35448000000000e-07,0.00000000000000e+00,0.00000000000000e+00,6.04076041860206e-01
1.35704000000000e-07,0.00000000000000e+00,0.00000000000000e+00,6.00603156550327e-01
