Time,v(clk),v(data),v(out)
1.00000000000000e-08,6.00000000000000e-01,0.00000000000000e+00,3.93357484409496e-05
1.00100000000000e-08,6.00000000000000e-01,5.99999999999986e-02,3.38239145568908e-05
1.00300000000000e-08,6.00000000000000e-01,1.79999999999996e-01,2.43931595666838e-05
1.00700000000000e-08,6.00000000000000e-01,4.19999999999990e-01,1.18322084516689e-05
1.01000000000000e-08,6.00000000000000e-01,5.99999999999995e-01,2.45382598484251e-06
1.01080000000000e-08,6.00000000000000e-01,6.00000000000000e-01,2.03904230853397e-06
1.01240000000000e-08,6.00000000000000e-01,6.00000000000000e-01,2.37700635666999e-06
1.01560000000000e-08,6.00000000000000e-01,6.00000000000000e-01,4.38010466050076e-06
1.02200000000000e-08,6.00000000000000e-01,6.00000000000000e-01,7.01945499663459e-06
1.03480000000000e-08,6.00000000000000e-01,6.00000000000000e-01,1.64537839601395e-06
1.06040000000000e-08,6.00000000000000e-01,6.00000000000000e-01,1.64107262669126e-06
1.11160000000000e-08,6.00000000000000e-01,6.00000000000000e-01,2.49840792884617e-06
1.21400000000000e-08,6.00000000000000e-01,6.00000000000000e-01,1.38173616625985e-06
1.41880000000000e-08,6.00000000000000e-01,6.00000000000000e-01,1.98491419988811e-06
1.51000000000000e-08,6.00000000000000e-01,6.00000000000000e-01,1.07054436847970e-06
1.51100000000000e-08,5.39999999999992e-01,6.00000000000000e-01,-5.83057704036313e-05
1.51300000000000e-08,4.19999999999994e-01,6.00000000000000e-01,-1.49685361952152e-04
1.51700000000000e-08,1.80000000000000e-01,6.00000000000000e-01,-1.90455146739828e-04
1.52000000000000e-08,0.00000000000000e+00,6.00000000000000e-01,-3.02210114544038e-05
1.52080000000000e-08,0.00000000000000e+00,6.00000000000000e-01,9.29027930477097e-05
1.52240000000000e-08,0.00000000000000e+00,6.00000000000000e-01,2.59918294005561e-04
1.52560000000000e-08,0.00000000000000e+00,6.00000000000000e-01,3.11163479908755e-04
1.53200000000000e-08,0.00000000000000e+00,6.00000000000000e-01,1.28397872615670e-04
1.54480000000000e-08,0.00000000000000e+00,6.00000000000000e-01,-1.40035278852386e-04
1.57040000000000e-08,0.00000000000000e+00,6.00000000000000e-01,-4.28804598804587e-05
1.62160000000000e-08,0.00000000000000e+00,6.00000000000000e-01,-1.29878402139247e-04
1.69457604026353e-08,0.00000000000000e+00,6.00000000000000e-01,1.60095903687651e-04
1.82552325818832e-08,0.00000000000000e+00,6.00000000000000e-01,-8.39856441632258e-05
1.99009745510203e-08,0.00000000000000e+00,6.00000000000000e-01,4.29494054413043e-05
2.30803567059864e-08,0.00000000000000e+00,6.00000000000000e-01,-2.37101716783728e-05
2.50000000000000e-08,0.00000000000000e+00,6.00000000000000e-01,6.73551877739334e-07
2.50100000000000e-08,5.99999999999886e-02,6.00000000000000e-01,1.22481346762571e-04
2.50300000000000e-08,1.80000000000006e-01,6.00000000000000e-01,2.96508221372518e-04
2.50700000000000e-08,4.20000000000000e-01,6.00000000000000e-01,3.65895322771918e-04
2.51000000000000e-08,6.00000000000000e-01,6.00000000000000e-01,-2.90745829991418e-04
2.51080000000000e-08,6.00000000000000e-01,6.00000000000000e-01,-8.10917555870337e-04
2.51240000000000e-08,6.00000000000000e-01,6.00000000000000e-01,-1.98611240918711e-03
2.51560000000000e-08,6.00000000000000e-01,6.00000000000000e-01,-4.11051124543776e-03
2.52200000000000e-08,6.00000000000000e-01,6.00000000000000e-01,-5.76175902140731e-03
2.53480000000000e-08,6.00000000000000e-01,6.00000000000000e-01,7.56202622626194e-02
2.56040000000000e-08,6.00000000000000e-01,6.00000000000000e-01,4.68751540035463e-01
2.61160000000000e-08,6.00000000000000e-01,6.00000000000000e-01,6.26216355220356e-01
2.67567212004761e-08,6.00000000000000e-01,6.00000000000000e-01,5.75601514518416e-01
2.80381636014282e-08,6.00000000000000e-01,6.00000000000000e-01,6.19905020878011e-01
2.95670764299436e-08,6.00000000000000e-01,6.00000000000000e-01,5.79867205578089e-01
3.01000000000000e-08,6.00000000000000e-01,6.00000000000000e-01,6.14687134410987e-01
3.01100000000000e-08,6.00000000000000e-01,5.40000000000031e-01,6.10918048743091e-01
3.01300000000000e-08,6.00000000000000e-01,4.20000000000014e-01,6.05296797561189e-01
3.01700000000000e-08,6.00000000000000e-01,1.80000000000020e-01,6.00921367108890e-01
3.02000000000000e-08,6.00000000000000e-01,1.44328993201270e-14,6.00293596351855e-01
3.02080000000000e-08,6.00000000000000e-01,0.00000000000000e+00,6.00213562110697e-01
3.02240000000000e-08,6.00000000000000e-01,0.00000000000000e+00,6.00091324953243e-01
3.02560000000000e-08,6.00000000000000e-01,0.00000000000000e+00,5.99976514574037e-01
3.03200000000000e-08,6.00000000000000e-01,0.00000000000000e+00,5.99962822558040e-01
3.04480000000000e-08,6.00000000000000e-01,0.00000000000000e+00,5.99934883198513e-01
3.07040000000000e-08,6.00000000000000e-01,0.00000000000000e+00,5.99971882264599e-01
3.10689621644136e-08,6.00000000000000e-01,0.00000000000000e+00,5.99945809608200e-01
3.17988864932407e-08,6.00000000000000e-01,0.00000000000000e+00,5.99952221657665e-01
3.26868836563293e-08,6.00000000000000e-01,0.00000000000000e+00,5.99964122592718e-01
3.44628779825067e-08,6.00000000000000e-01,0.00000000000000e+00,5.99954132328505e-01
3.51000000000000e-08,5.99999999999970e-01,0.00000000000000e+00,5.99974091968850e-01
3.51100000000000e-08,5.39999999999982e-01,0.00000000000000e+00,5.99901235333728e-01
3.51300000000000e-08,4.19999999999965e-01,0.00000000000000e+00,5.99794527903544e-01
3.51700000000000e-08,1.79999999999970e-01,0.00000000000000e+00,6.00056643560101e-01
3.52000000000000e-08,0.00000000000000e+00,0.00000000000000e+00,6.01214552834305e-01
3.52080000000000e-08,0.00000000000000e+00,0.00000000000000e+00,6.01609951044775e-01
3.52240000000000e-08,0.00000000000000e+00,0.00000000000000e+00,6.02199041904961e-01
3.52560000000000e-08,0.00000000000000e+00,0.00000000000000e+00,6.02612032070722e-01
3.53200000000000e-08,0.00000000000000e+00,0.00000000000000e+00,6.00680350605518e-01
3.54480000000000e-08,0.00000000000000e+00,0.00000000000000e+00,5.84315589790759e-01
3.57040000000000e-08,0.00000000000000e+00,0.00000000000000e+00,5.77767710061253e-01
3.61622554741515e-08,0.00000000000000e+00,0.00000000000000e+00,6.02132705290899e-01
3.67375319967730e-08,0.00000000000000e+00,0.00000000000000e+00,5.97197822465657e-01
3.76825337906710e-08,0.00000000000000e+00,0.00000000000000e+00,6.01378692622395e-01
3.91000000000000e-08,0.00000000000000e+00,0.00000000000000e+00,5.98148504986306e-01
3.92649555549747e-08,0.00000000000000e+00,0.00000000000000e+00,5.99345361327917e-01
3.95948666649241e-08,0.00000000000000e+00,0.00000000000000e+00,5.99931123972673e-01
4.02546888848229e-08,0.00000000000000e+00,0.00000000000000e+00,5.99612255486045e-01
4.15743333246205e-08,0.00000000000000e+00,0.00000000000000e+00,5.99909660582192e-01
4.42136222042156e-08,0.00000000000000e+00,0.00000000000000e+00,5.99706404957651e-01
4.50000000000000e-08,0.00000000000000e+00,0.00000000000000e+00,5.99911358291149e-01
4.50100000000000e-08,5.99999999999886e-02,0.00000000000000e+00,5.99963969709441e-01
4.50300000000000e-08,1.80000000000006e-01,0.00000000000000e+00,6.00032584395759e-01
4.50700000000000e-08,4.20000000000000e-01,0.00000000000000e+00,5.99993406497184e-01
4.51000000000000e-08,6.00000000000000e-01,0.00000000000000e+00,5.99773546684613e-01
4.51080000000000e-08,6.00000000000000e-01,0.00000000000000e+00,5.99685022623208e-01
4.51240000000000e-08,6.00000000000000e-01,0.00000000000000e+00,5.99532151319843e-01
4.51560000000000e-08,6.00000000000000e-01,0.00000000000000e+00,5.99379728151039e-01
4.52200000000000e-08,6.00000000000000e-01,0.00000000000000e+00,5.99577941175428e-01
4.53480000000000e-08,6.00000000000000e-01,0.00000000000000e+00,6.04132578490753e-01
4.56040000000000e-08,6.00000000000000e-01,0.00000000000000e+00,4.21494098453029e-01
4.61160000000000e-08,6.00000000000000e-01,0.00000000000000e+00,-7.35321284772710e-03
4.67160068615147e-08,6.00000000000000e-01,0.00000000000000e+00,5.82982380621548e-03
4.79160205845442e-08,6.00000000000000e-01,0.00000000000000e+00,-4.13553255960889e-03
4.91657141989940e-08,6.00000000000000e-01,0.00000000000000e+00,3.87374224422435e-03
5.00000000000000e-08,6.00000000000000e-01,0.00000000000000e+00,-2.44101615165099e-03
5.00100000000000e-08,6.00000000000000e-01,5.99999999999886e-02,-2.66030145490269e-03
5.00300000000000e-08,6.00000000000000e-01,1.79999999999966e-01,-2.19926631837681e-03
5.00700000000000e-08,6.00000000000000e-01,4.20000000000000e-01,-7.58654156891234e-04
5.01000000000000e-08,6.00000000000000e-01,6.00000000000000e-01,-4.82614719632776e-04
5.01080000000000e-08,6.00000000000000e-01,6.00000000000000e-01,-3.85630845766635e-04
5.01240000000000e-08,6.00000000000000e-01,6.00000000000000e-01,-2.58849402627027e-04
5.01560000000000e-08,6.00000000000000e-01,6.00000000000000e-01,-1.16348220869124e-04
5.02200000000000e-08,6.00000000000000e-01,6.00000000000000e-01,-4.36049029144819e-06
5.03480000000000e-08,6.00000000000000e-01,6.00000000000000e-01,-2.03031111371127e-07
5.06040000000000e-08,6.00000000000000e-01,6.00000000000000e-01,-7.31127590834074e-07
5.11160000000001e-08,6.00000000000000e-01,6.00000000000000e-01,1.41178985156067e-07
5.21400000000002e-08,6.00000000000000e-01,6.00000000000000e-01,-2.00600495894876e-07
5.41880000000003e-08,6.00000000000000e-01,6.00000000000000e-01,-3.85547642850221e-07
5.51000000000000e-08,6.00000000000000e-01,6.00000000000000e-01,4.25794191129605e-08
5.51100000000000e-08,5.40000000000021e-01,6.00000000000000e-01,-6.02400571125608e-05
5.51300000000000e-08,4.20000000000004e-01,6.00000000000000e-01,-1.49634664627418e-04
5.51700000000000e-08,1.80000000000010e-01,6.00000000000000e-01,-1.83592182969913e-04
5.52000000000000e-08,0.00000000000000e+00,6.00000000000000e-01,-3.20465366172792e-05
5.52080000000000e-08,0.00000000000000e+00,6.00000000000000e-01,9.04148674488528e-05
5.52240000000000e-08,0.00000000000000e+00,6.00000000000000e-01,2.52377257712960e-04
5.52560000000000e-08,0.00000000000000e+00,6.00000000000000e-01,2.93889991656304e-04
5.53200000000000e-08,0.00000000000000e+00,6.00000000000000e-01,7.44195570835382e-05
5.54480000000000e-08,0.00000000000000e+00,6.00000000000000e-01,-6.43029594546107e-04
5.57040000000000e-08,0.00000000000000e+00,6.00000000000000e-01,1.03708389240335e-05
5.61743180683284e-08,0.00000000000000e+00,6.00000000000000e-01,-1.30199444240080e-04
5.69177953393610e-08,0.00000000000000e+00,6.00000000000000e-01,1.24175820767690e-04
5.81825743397810e-08,0.00000000000000e+00,6.00000000000000e-01,-2.35569155285034e-05
5.97925911505684e-08,0.00000000000000e+00,6.00000000000000e-01,-2.96322118729319e-05
6.28430601228825e-08,0.00000000000000e+00,6.00000000000000e-01,5.37796282297927e-05
6.50000000000000e-08,0.00000000000000e+00,6.00000000000000e-01,-8.02231688995041e-05
6.50100000000000e-08,5.99999999999886e-02,6.00000000000000e-01,9.90760791714715e-05
6.50300000000000e-08,1.79999999999966e-01,6.00000000000000e-01,3.25867305010719e-04
6.50700000000000e-08,4.19999999999920e-01,6.00000000000000e-01,3.93059866189351e-04
6.51000000000000e-08,5.99999999999966e-01,6.00000000000000e-01,-2.14568723749982e-04
6.51080000000000e-08,6.00000000000000e-01,6.00000000000000e-01,-7.18026999012585e-04
6.51240000000000e-08,6.00000000000000e-01,6.00000000000000e-01,-1.87919099822565e-03
6.51560000000000e-08,6.00000000000000e-01,6.00000000000000e-01,-4.03714014493381e-03
6.52200000000000e-08,6.00000000000000e-01,6.00000000000000e-01,-5.79631987744879e-03
6.53480000000000e-08,6.00000000000000e-01,6.00000000000000e-01,7.43285038355804e-02
6.56040000000000e-08,6.00000000000000e-01,6.00000000000000e-01,4.67208058915886e-01
6.61159999999999e-08,6.00000000000000e-01,6.00000000000000e-01,6.26398090036705e-01
6.67558678792049e-08,6.00000000000000e-01,6.00000000000000e-01,5.75456858687821e-01
6.80356036376149e-08,6.00000000000000e-01,6.00000000000000e-01,6.20042618972489e-01
6.95689515712414e-08,6.00000000000000e-01,6.00000000000000e-01,5.79733206431385e-01
7.01000000000000e-08,6.00000000000000e-01,6.00000000000000e-01,6.14785507634353e-01
7.01100000000000e-08,6.00000000000000e-01,5.40000000000011e-01,6.10987719629298e-01
7.01300000000000e-08,6.00000000000000e-01,4.20000000000034e-01,6.05326545561184e-01
7.01700000000000e-08,6.00000000000000e-01,1.80000000000080e-01,6.00923982433282e-01
7.02000000000000e-08,6.00000000000000e-01,3.44169137633799e-14,6.00292806179870e-01
7.02080000000000e-08,6.00000000000000e-01,0.00000000000000e+00,6.00212447096936e-01
7.02240000000000e-08,6.00000000000000e-01,0.00000000000000e+00,6.00089635569501e-01
7.02560000000000e-08,6.00000000000000e-01,0.00000000000000e+00,5.99974547111628e-01
7.03200000000000e-08,6.00000000000000e-01,0.00000000000000e+00,5.99962268527866e-01
7.04480000000000e-08,6.00000000000000e-01,0.00000000000000e+00,5.99934528738506e-01
7.07040000000000e-08,6.00000000000000e-01,0.00000000000000e+00,5.99971666502138e-01
7.10687193174874e-08,6.00000000000000e-01,0.00000000000000e+00,5.99945525027673e-01
7.17981579524623e-08,6.00000000000000e-01,0.00000000000000e+00,5.99952035080466e-01
7.26851997460021e-08,6.00000000000000e-01,0.00000000000000e+00,5.99963904562853e-01
7.44592833330818e-08,6.00000000000000e-01,0.00000000000000e+00,5.99954009068632e-01
7.51000000000000e-08,6.00000000000000e-01,0.00000000000000e+00,5.99973936340114e-01
7.51100000000000e-08,5.40000000000061e-01,0.00000000000000e+00,5.99901081711194e-01
7.51300000000000e-08,4.20000000000084e-01,0.00000000000000e+00,5.99794399431617e-01
7.51700000000000e-08,1.80000000000129e-01,0.00000000000000e+00,6.00056509334989e-01
7.52000000000000e-08,8.40438829641244e-14,0.00000000000000e+00,6.01214382035330e-01
7.52080000000000e-08,0.00000000000000e+00,0.00000000000000e+00,6.01609737665758e-01
7.52240000000000e-08,0.00000000000000e+00,0.00000000000000e+00,6.02198692709256e-01
7.52560000000000e-08,0.00000000000000e+00,0.00000000000000e+00,6.02610933284437e-01
7.53200000000000e-08,0.00000000000000e+00,0.00000000000000e+00,6.00673764660221e-01
7.54480000000000e-08,0.00000000000000e+00,0.00000000000000e+00,5.84301332320220e-01
7.57040000000000e-08,0.00000000000000e+00,0.00000000000000e+00,5.77766942972069e-01
7.61622488541760e-08,0.00000000000000e+00,0.00000000000000e+00,6.02136142345607e-01
7.67375242957024e-08,0.00000000000000e+00,0.00000000000000e+00,5.97194881060349e-01
7.76825208803171e-08,0.00000000000000e+00,0.00000000000000e+00,6.01380749564415e-01
7.81000000000000e-08,0.00000000000000e+00,0.00000000000000e+00,5.98537340105068e-01
7.82649540942513e-08,0.00000000000000e+00,0.00000000000000e+00,5.99384772048702e-01
7.85948622827539e-08,0.00000000000000e+00,0.00000000000000e+00,5.99814766787340e-01
7.92546786597590e-08,0.00000000000000e+00,0.00000000000000e+00,5.99614409376807e-01
8.05743114137693e-08,0.00000000000000e+00,0.00000000000000e+00,5.99848442351052e-01
8.32135769217898e-08,0.00000000000000e+00,0.00000000000000e+00,5.99731855569627e-01
8.50000000000000e-08,0.00000000000000e+00,0.00000000000000e+00,5.99893930294898e-01
8.50100000000000e-08,5.99999999999886e-02,0.00000000000000e+00,5.99955747404727e-01
8.50300000000000e-08,1.79999999999966e-01,0.00000000000000e+00,6.00035914519669e-01
8.50700000000000e-08,4.19999999999920e-01,0.00000000000000e+00,5.99998027331574e-01
8.51000000000000e-08,5.99999999999966e-01,0.00000000000000e+00,5.99775822619325e-01
8.51080000000000e-08,6.00000000000000e-01,0.00000000000000e+00,5.99688972377689e-01
8.51240000000000e-08,6.00000000000000e-01,0.00000000000000e+00,5.99531163550999e-01
8.51560000000000e-08,6.00000000000000e-01,0.00000000000000e+00,5.99390593895459e-01
8.52200000000000e-08,6.00000000000000e-01,0.00000000000000e+00,5.99567223676104e-01
8.53480000000000e-08,6.00000000000000e-01,0.00000000000000e+00,6.04130712239417e-01
8.56040000000000e-08,6.00000000000000e-01,0.00000000000000e+00,4.21482333451655e-01
8.61159999999999e-08,6.00000000000000e-01,0.00000000000000e+00,-7.35295940282770e-03
8.67160553178825e-08,6.00000000000000e-01,0.00000000000000e+00,5.83013869862909e-03
8.79161659536477e-08,6.00000000000000e-01,0.00000000000000e+00,-4.13520395522618e-03
8.91659043920606e-08,6.00000000000000e-01,0.00000000000000e+00,3.87370694449238e-03
9.00000000000000e-08,6.00000000000000e-01,0.00000000000000e+00,-2.44035381651371e-03
9.00100000000000e-08,6.00000000000000e-01,5.99999999999886e-02,-2.65970710878036e-03
9.00300000000000e-08,6.00000000000000e-01,1.79999999999966e-01,-2.19908317986425e-03
9.00700000000000e-08,6.00000000000000e-01,4.19999999999920e-01,-7.58963228055215e-04
9.01000000000000e-08,6.00000000000000e-01,5.99999999999966e-01,-4.82770689092929e-04
9.01080000000000e-08,6.00000000000000e-01,6.00000000000000e-01,-3.85783791318331e-04
9.01240000000000e-08,6.00000000000000e-01,6.00000000000000e-01,-2.58958759194038e-04
9.01560000000000e-08,6.00000000000000e-01,6.00000000000000e-01,-1.16404129238502e-04
9.02200000000000e-08,6.00000000000000e-01,6.00000000000000e-01,-4.37280415496039e-06
9.03480000000000e-08,6.00000000000000e-01,6.00000000000000e-01,-1.98725284086126e-07
9.06040000000000e-08,6.00000000000000e-01,6.00000000000000e-01,-7.28602014476651e-07
9.11159999999999e-08,6.00000000000000e-01,6.00000000000000e-01,1.41702726903954e-07
9.21399999999999e-08,6.00000000000000e-01,6.00000000000000e-01,-2.01895154503928e-07
9.41879999999998e-08,6.00000000000000e-01,6.00000000000000e-01,-3.82534263659515e-07
9.51000000000000e-08,6.00000000000000e-01,6.00000000000000e-01,4.15311118533851e-08
9.51100000000000e-08,5.40000000000061e-01,6.00000000000000e-01,-6.02405170106943e-05
9.51300000000000e-08,4.20000000000084e-01,6.00000000000000e-01,-1.49634298527462e-04
9.51700000000000e-08,1.80000000000129e-01,6.00000000000000e-01,-1.83591244133842e-04
9.52000000000000e-08,8.40438829641244e-14,6.00000000000000e-01,-3.20453032776405e-05
9.52080000000000e-08,0.00000000000000e+00,6.00000000000000e-01,9.04164291613482e-05
9.52240000000000e-08,0.00000000000000e+00,6.00000000000000e-01,2.52380162843971e-04
9.52560000000000e-08,0.00000000000000e+00,6.00000000000000e-01,2.93900143192458e-04
9.53200000000000e-08,0.00000000000000e+00,6.00000000000000e-01,7.44905616573768e-05
9.54480000000000e-08,0.00000000000000e+00,6.00000000000000e-01,-6.42417627121472e-04
9.57040000000000e-08,0.00000000000000e+00,6.00000000000000e-01,1.03576913341938e-05
9.61745493409748e-08,0.00000000000000e+00,6.00000000000000e-01,-1.30177330746058e-04
9.69179440836171e-08,0.00000000000000e+00,6.00000000000000e-01,1.24208690069460e-04
9.81829723655697e-08,0.00000000000000e+00,6.00000000000000e-01,-2.36622467835331e-05
9.97931801874753e-08,0.00000000000000e+00,6.00000000000000e-01,-2.94958526535706e-05
1.02844367810666e-07,0.00000000000000e+00,6.00000000000000e-01,5.36307254826777e-05
1.05000000000000e-07,0.00000000000000e+00,6.00000000000000e-01,-8.00795162119435e-05
1.05010000000000e-07,5.99999999999886e-02,6.00000000000000e-01,9.91418202837199e-05
1.05030000000000e-07,1.79999999999966e-01,6.00000000000000e-01,3.25859946259284e-04
1.05070000000000e-07,4.19999999999920e-01,6.00000000000000e-01,3.93032536931417e-04
1.05100000000000e-07,5.99999999999966e-01,6.00000000000000e-01,-2.14964885756445e-04
1.05108000000000e-07,6.00000000000000e-01,6.00000000000000e-01,-7.18559565048786e-04
1.05124000000000e-07,6.00000000000000e-01,6.00000000000000e-01,-1.87984008234488e-03
1.05156000000000e-07,6.00000000000000e-01,6.00000000000000e-01,-4.03759759260967e-03
1.05220000000000e-07,6.00000000000000e-01,6.00000000000000e-01,-5.79610615498594e-03
1.05348000000000e-07,6.00000000000000e-01,6.00000000000000e-01,7.43368748059769e-02
1.05604000000000e-07,6.00000000000000e-01,6.00000000000000e-01,4.67218130363495e-01
1.06116000000000e-07,6.00000000000000e-01,6.00000000000000e-01,6.26396915908134e-01
1.06755873303604e-07,6.00000000000000e-01,6.00000000000000e-01,5.75457791070725e-01
1.08035619910813e-07,6.00000000000000e-01,6.00000000000000e-01,6.20041729813642e-01
1.09568938585326e-07,6.00000000000000e-01,6.00000000000000e-01,5.79734071853344e-01
1.10100000000000e-07,6.00000000000000e-01,6.00000000000000e-01,6.14784877642042e-01
