Time,v(clk),v(data),v(out)
1.00000000000000e-08,6.00000000000000e-01,0.00000000000000e+00,-1.10743529400645e-04
1.00100000000000e-08,6.00000000000000e-01,5.99999999999986e-02,-8.62340412287749e-05
1.00300000000000e-08,6.00000000000000e-01,1.79999999999996e-01,-5.32553163444249e-05
1.00700000000000e-08,6.00000000000000e-01,4.19999999999990e-01,-3.63602106518840e-05
1.01000000000000e-08,6.00000000000000e-01,5.99999999999995e-01,-7.54653291912960e-05
1.01080000000000e-08,6.00000000000000e-01,6.00000000000000e-01,-9.01704112406809e-05
1.01240000000000e-08,6.00000000000000e-01,6.00000000000000e-01,-1.03357169119384e-04
1.01560000000000e-08,6.00000000000000e-01,6.00000000000000e-01,-9.17495146673664e-05
1.02200000000000e-08,6.00000000000000e-01,6.00000000000000e-01,-3.85695824001026e-05
1.03480000000000e-08,6.00000000000000e-01,6.00000000000000e-01,9.45749183021288e-06
1.06040000000000e-08,6.00000000000000e-01,6.00000000000000e-01,7.58611950223836e-06
1.11141757177392e-08,6.00000000000000e-01,6.00000000000000e-01,1.82750807936963e-06
1.21345271532177e-08,6.00000000000000e-01,6.00000000000000e-01,4.66563651820191e-06
1.41752300241746e-08,6.00000000000000e-01,6.00000000000000e-01,2.16558797438288e-06
1.51000000000000e-08,6.00000000000000e-01,6.00000000000000e-01,4.28573120710672e-06
1.51100000000000e-08,5.39999999999992e-01,6.00000000000000e-01,-1.63526044006740e-04
1.51300000000000e-08,4.19999999999994e-01,6.00000000000000e-01,-5.99006739198854e-04
1.51700000000000e-08,1.80000000000000e-01,6.00000000000000e-01,-1.61324635432873e-03
1.52000000000000e-08,0.00000000000000e+00,6.00000000000000e-01,-1.84317860642647e-03
1.52080000000000e-08,0.00000000000000e+00,6.00000000000000e-01,-1.49409037281832e-03
1.52240000000000e-08,0.00000000000000e+00,6.00000000000000e-01,-8.64763764941948e-04
1.52560000000000e-08,0.00000000000000e+00,6.00000000000000e-01,6.43458173760214e-06
1.53200000000000e-08,0.00000000000000e+00,6.00000000000000e-01,6.84165384727764e-04
1.54480000000000e-08,0.00000000000000e+00,6.00000000000000e-01,6.96040653806539e-04
1.57040000000000e-08,0.00000000000000e+00,6.00000000000000e-01,2.63356283393315e-04
1.62160000000000e-08,0.00000000000000e+00,6.00000000000000e-01,-1.44795499433560e-05
1.72400000000000e-08,0.00000000000000e+00,6.00000000000000e-01,-1.11106924773533e-04
1.91653739807283e-08,0.00000000000000e+00,6.00000000000000e-01,-8.67478814276625e-05
2.12476507646386e-08,0.00000000000000e+00,6.00000000000000e-01,1.52055968726038e-04
2.50000000000000e-08,0.00000000000000e+00,6.00000000000000e-01,-9.77976846856525e-05
2.50100000000000e-08,5.99999999999886e-02,6.00000000000000e-01,4.20556901897975e-04
2.50300000000000e-08,1.80000000000006e-01,6.00000000000000e-01,1.31710316441992e-03
2.50700000000000e-08,4.20000000000000e-01,6.00000000000000e-01,2.35192324394451e-03
2.51000000000000e-08,6.00000000000000e-01,6.00000000000000e-01,1.66661040820372e-03
2.51080000000000e-08,6.00000000000000e-01,6.00000000000000e-01,9.94481558286700e-04
2.51240000000000e-08,6.00000000000000e-01,6.00000000000000e-01,-5.24334310479616e-04
2.51560000000000e-08,6.00000000000000e-01,6.00000000000000e-01,-3.82678787518125e-03
2.52200000000000e-08,6.00000000000000e-01,6.00000000000000e-01,-8.60363909789424e-03
2.53480000000000e-08,6.00000000000000e-01,6.00000000000000e-01,-1.09348868977611e-02
2.56040000000000e-08,6.00000000000000e-01,6.00000000000000e-01,2.94636597760237e-02
2.61160000000000e-08,6.00000000000000e-01,6.00000000000000e-01,2.82363725940247e-01
2.71400000000000e-08,6.00000000000000e-01,6.00000000000000e-01,5.85646684023758e-01
2.84675324478036e-08,6.00000000000000e-01,6.00000000000000e-01,6.00950302158555e-01
3.01000000000000e-08,6.00000000000000e-01,6.00000000000000e-01,6.02060778025139e-01
3.01100000000000e-08,6.00000000000000e-01,5.40000000000031e-01,6.01369374658071e-01
3.01300000000000e-08,6.00000000000000e-01,4.20000000000014e-01,6.00178960266088e-01
3.01700000000000e-08,6.00000000000000e-01,1.80000000000020e-01,5.98740914992067e-01
3.02000000000000e-08,6.00000000000000e-01,1.44328993201270e-14,5.98198571045762e-01
3.02080000000000e-08,6.00000000000000e-01,0.00000000000000e+00,5.98100933148551e-01
3.02240000000000e-08,6.00000000000000e-01,0.00000000000000e+00,5.97900627862374e-01
3.02560000000000e-08,6.00000000000000e-01,0.00000000000000e+00,5.97746537044244e-01
3.03200000000000e-08,6.00000000000000e-01,0.00000000000000e+00,5.97752492791384e-01
3.04480000000000e-08,6.00000000000000e-01,0.00000000000000e+00,5.98247800913506e-01
3.07040000000000e-08,6.00000000000000e-01,0.00000000000000e+00,5.99266051583168e-01
3.12160000000000e-08,6.00000000000000e-01,0.00000000000000e+00,5.99873715621685e-01
3.22400000000000e-08,6.00000000000000e-01,0.00000000000000e+00,5.99880000419683e-01
3.34418222478272e-08,6.00000000000000e-01,0.00000000000000e+00,5.99905527322135e-01
3.51000000000000e-08,5.99999999999970e-01,0.00000000000000e+00,5.99876791195759e-01
3.51100000000000e-08,5.39999999999982e-01,0.00000000000000e+00,5.99664657037841e-01
3.51300000000000e-08,4.19999999999965e-01,0.00000000000000e+00,5.99185877737463e-01
3.51700000000000e-08,1.79999999999970e-01,0.00000000000000e+00,5.98400738375633e-01
3.52000000000000e-08,0.00000000000000e+00,0.00000000000000e+00,5.98580568628751e-01
3.52080000000000e-08,0.00000000000000e+00,0.00000000000000e+00,5.98900534882497e-01
3.52240000000000e-08,0.00000000000000e+00,0.00000000000000e+00,5.99533835789245e-01
3.52560000000000e-08,0.00000000000000e+00,0.00000000000000e+00,6.00730216143840e-01
3.53200000000000e-08,0.00000000000000e+00,0.00000000000000e+00,6.02548468012282e-01
3.54480000000000e-08,0.00000000000000e+00,0.00000000000000e+00,6.04391616871762e-01
3.57040000000000e-08,0.00000000000000e+00,0.00000000000000e+00,6.04402885189866e-01
3.62160000000000e-08,0.00000000000000e+00,0.00000000000000e+00,5.97114296933863e-01
3.72400000000000e-08,0.00000000000000e+00,0.00000000000000e+00,5.84017285576286e-01
3.91000000000000e-08,0.00000000000000e+00,0.00000000000000e+00,5.93315355285540e-01
3.93048000000000e-08,0.00000000000000e+00,0.00000000000000e+00,5.95515118015191e-01
3.97144000000000e-08,0.00000000000000e+00,0.00000000000000e+00,5.98404399785572e-01
4.05336000000000e-08,0.00000000000000e+00,0.00000000000000e+00,5.99856229406487e-01
4.21720000000000e-08,0.00000000000000e+00,0.00000000000000e+00,5.99737347998597e-01
4.50000000000000e-08,0.00000000000000e+00,0.00000000000000e+00,5.99817530982276e-01
4.50100000000000e-08,5.99999999999886e-02,0.00000000000000e+00,6.00072401013616e-01
4.50300000000000e-08,1.80000000000006e-01,0.00000000000000e+00,6.00564201887717e-01
4.50700000000000e-08,4.20000000000000e-01,0.00000000000000e+00,6.01270059366579e-01
4.51000000000000e-08,6.00000000000000e-01,0.00000000000000e+00,6.00959170886510e-01
4.51080000000000e-08,6.00000000000000e-01,0.00000000000000e+00,6.00662178132801e-01
4.51240000000000e-08,6.00000000000000e-01,0.00000000000000e+00,6.00088249108645e-01
4.51560000000000e-08,6.00000000000000e-01,0.00000000000000e+00,5.99098739216108e-01
4.52200000000000e-08,6.00000000000000e-01,0.00000000000000e+00,5.97833058217523e-01
4.53480000000000e-08,6.00000000000000e-01,0.00000000000000e+00,5.97732206803117e-01
4.56040000000000e-08,6.00000000000000e-01,0.00000000000000e+00,6.07221108632856e-01
4.61160000000000e-08,6.00000000000000e-01,0.00000000000000e+00,6.34868132070691e-01
4.71400000000000e-08,6.00000000000000e-01,0.00000000000000e+00,7.69956437574906e-02
4.84167157540019e-08,6.00000000000000e-01,0.00000000000000e+00,-4.36822330678768e-02
5.00000000000000e-08,6.00000000000000e-01,0.00000000000000e+00,4.25220158060573e-02
5.00100000000000e-08,6.00000000000000e-01,5.99999999999886e-02,3.67972334747062e-02
5.00300000000000e-08,6.00000000000000e-01,1.79999999999966e-01,2.69632124062896e-02
5.00700000000000e-08,6.00000000000000e-01,4.20000000000000e-01,1.43789076600235e-02
5.01000000000000e-08,6.00000000000000e-01,6.00000000000000e-01,8.98981351757942e-03
5.01080000000000e-08,6.00000000000000e-01,6.00000000000000e-01,8.00752222002289e-03
5.01240000000000e-08,6.00000000000000e-01,6.00000000000000e-01,6.27431885965465e-03
5.01560000000000e-08,6.00000000000000e-01,6.00000000000000e-01,3.84415865911725e-03
5.02200000000000e-08,6.00000000000000e-01,6.00000000000000e-01,1.47599179928053e-03
5.03480000000000e-08,6.00000000000000e-01,6.00000000000000e-01,2.46485007624149e-04
5.06040000000000e-08,6.00000000000000e-01,6.00000000000000e-01,8.20929821606711e-05
5.11160000000001e-08,6.00000000000000e-01,6.00000000000000e-01,-8.99520623715705e-06
5.21400000000002e-08,6.00000000000000e-01,6.00000000000000e-01,7.73506208535599e-06
5.41880000000003e-08,6.00000000000000e-01,6.00000000000000e-01,-5.00728101799231e-06
5.51000000000000e-08,6.00000000000000e-01,6.00000000000000e-01,5.21711687719029e-06
5.51100000000000e-08,5.40000000000021e-01,6.00000000000000e-01,-1.63920359037797e-04
5.51300000000000e-08,4.20000000000004e-01,6.00000000000000e-01,-5.87438774471344e-04
5.51700000000000e-08,1.80000000000010e-01,6.00000000000000e-01,-1.61082221425697e-03
5.52000000000000e-08,0.00000000000000e+00,6.00000000000000e-01,-1.84601275654253e-03
5.52080000000000e-08,0.00000000000000e+00,6.00000000000000e-01,-1.49755643652229e-03
5.52240000000000e-08,0.00000000000000e+00,6.00000000000000e-01,-9.05586164815494e-04
5.52560000000000e-08,0.00000000000000e+00,6.00000000000000e-01,-1.50792421480250e-05
5.53200000000000e-08,0.00000000000000e+00,6.00000000000000e-01,6.71101779962741e-04
5.54480000000000e-08,0.00000000000000e+00,6.00000000000000e-01,6.79065596061741e-04
5.57040000000000e-08,0.00000000000000e+00,6.00000000000000e-01,1.86633036360954e-04
5.62160000000000e-08,0.00000000000000e+00,6.00000000000000e-01,-8.99582800325271e-04
5.72400000000000e-08,0.00000000000000e+00,6.00000000000000e-01,3.99960107074600e-04
5.85524106789202e-08,0.00000000000000e+00,6.00000000000000e-01,-5.41960828199958e-04
6.07913968496551e-08,0.00000000000000e+00,6.00000000000000e-01,4.77569552016901e-04
6.38046761352763e-08,0.00000000000000e+00,6.00000000000000e-01,-3.17274520930837e-04
6.50000000000000e-08,0.00000000000000e+00,6.00000000000000e-01,1.42008142180195e-04
6.50100000000000e-08,5.99999999999886e-02,6.00000000000000e-01,6.81505513719802e-04
6.50300000000000e-08,1.79999999999966e-01,6.00000000000000e-01,1.59031622194082e-03
6.50700000000000e-08,4.19999999999920e-01,6.00000000000000e-01,2.52292908318323e-03
6.51000000000000e-08,5.99999999999966e-01,6.00000000000000e-01,1.91819105053048e-03
6.51080000000000e-08,6.00000000000000e-01,6.00000000000000e-01,1.36792876640424e-03
6.51240000000000e-08,6.00000000000000e-01,6.00000000000000e-01,6.09926983310971e-05
6.51560000000000e-08,6.00000000000000e-01,6.00000000000000e-01,-3.11476891179446e-03
6.52200000000000e-08,6.00000000000000e-01,6.00000000000000e-01,-8.22216842711759e-03
6.53480000000000e-08,6.00000000000000e-01,6.00000000000000e-01,-1.09776706825234e-02
6.56040000000000e-08,6.00000000000000e-01,6.00000000000000e-01,2.79041436564029e-02
6.61159999999999e-08,6.00000000000000e-01,6.00000000000000e-01,2.79197061774451e-01
6.71399999999999e-08,6.00000000000000e-01,6.00000000000000e-01,5.85072006602976e-01
6.84713720266191e-08,6.00000000000000e-01,6.00000000000000e-01,6.01091665593105e-01
7.01000000000000e-08,6.00000000000000e-01,6.00000000000000e-01,6.02019406256786e-01
7.01100000000000e-08,6.00000000000000e-01,5.40000000000011e-01,6.01320780910414e-01
7.01300000000000e-08,6.00000000000000e-01,4.20000000000034e-01,6.00117935963695e-01
7.01700000000000e-08,6.00000000000000e-01,1.80000000000080e-01,5.98671567002958e-01
7.02000000000000e-08,6.00000000000000e-01,3.44169137633799e-14,5.98126359942785e-01
7.02080000000000e-08,6.00000000000000e-01,0.00000000000000e+00,5.98028357659773e-01
7.02240000000000e-08,6.00000000000000e-01,0.00000000000000e+00,5.97827192914446e-01
7.02560000000000e-08,6.00000000000000e-01,0.00000000000000e+00,5.97675336148038e-01
7.03200000000000e-08,6.00000000000000e-01,0.00000000000000e+00,5.97665443993312e-01
7.04480000000000e-08,6.00000000000000e-01,0.00000000000000e+00,5.98214207611762e-01
7.07040000000000e-08,6.00000000000000e-01,0.00000000000000e+00,5.99261197357555e-01
7.12159999999999e-08,6.00000000000000e-01,0.00000000000000e+00,5.99871421595638e-01
7.22399999999999e-08,6.00000000000000e-01,0.00000000000000e+00,5.99880771806147e-01
7.34413159474996e-08,6.00000000000000e-01,0.00000000000000e+00,5.99905424566465e-01
7.51000000000000e-08,6.00000000000000e-01,0.00000000000000e+00,5.99876280899922e-01
7.51100000000000e-08,5.40000000000061e-01,0.00000000000000e+00,5.99664475909621e-01
7.51300000000000e-08,4.20000000000084e-01,0.00000000000000e+00,5.99186219005693e-01
7.51700000000000e-08,1.80000000000129e-01,0.00000000000000e+00,5.98401291380404e-01
7.52000000000000e-08,8.40438829641244e-14,0.00000000000000e+00,5.98581059472072e-01
7.52080000000000e-08,0.00000000000000e+00,0.00000000000000e+00,5.98901008435708e-01
7.52240000000000e-08,0.00000000000000e+00,0.00000000000000e+00,5.99534271159855e-01
7.52560000000000e-08,0.00000000000000e+00,0.00000000000000e+00,6.00730642267932e-01
7.53200000000000e-08,0.00000000000000e+00,0.00000000000000e+00,6.02548776937634e-01
7.54480000000000e-08,0.00000000000000e+00,0.00000000000000e+00,6.04391858475199e-01
7.57040000000000e-08,0.00000000000000e+00,0.00000000000000e+00,6.04403589336835e-01
7.62159999999999e-08,0.00000000000000e+00,0.00000000000000e+00,5.97115668039554e-01
7.72399999999999e-08,0.00000000000000e+00,0.00000000000000e+00,5.84017325814826e-01
7.81000000000000e-08,0.00000000000000e+00,0.00000000000000e+00,5.88768235271673e-01
7.83048000000000e-08,0.00000000000000e+00,0.00000000000000e+00,5.91485149773917e-01
7.87144000000000e-08,0.00000000000000e+00,0.00000000000000e+00,5.95454685343077e-01
7.95335999999999e-08,0.00000000000000e+00,0.00000000000000e+00,5.98381698375854e-01
8.11719999999998e-08,0.00000000000000e+00,0.00000000000000e+00,5.99161937255869e-01
8.44487999999996e-08,0.00000000000000e+00,0.00000000000000e+00,5.99565110673551e-01
8.50000000000000e-08,0.00000000000000e+00,0.00000000000000e+00,5.99618613874627e-01
8.50100000000000e-08,5.99999999999886e-02,0.00000000000000e+00,5.99865559190159e-01
8.50300000000000e-08,1.79999999999966e-01,0.00000000000000e+00,6.00338577785668e-01
8.50700000000000e-08,4.19999999999920e-01,0.00000000000000e+00,6.01009883449410e-01
8.51000000000000e-08,5.99999999999966e-01,0.00000000000000e+00,6.00664532767129e-01
8.51080000000000e-08,6.00000000000000e-01,0.00000000000000e+00,6.00354801960753e-01
8.51240000000000e-08,6.00000000000000e-01,0.00000000000000e+00,5.99795180958127e-01
8.51560000000000e-08,6.00000000000000e-01,0.00000000000000e+00,5.98812702127076e-01
8.52200000000000e-08,6.00000000000000e-01,0.00000000000000e+00,5.97563287625298e-01
8.53480000000000e-08,6.00000000000000e-01,0.00000000000000e+00,5.97547752589817e-01
8.56040000000000e-08,6.00000000000000e-01,0.00000000000000e+00,6.07127220886534e-01
8.61159999999999e-08,6.00000000000000e-01,0.00000000000000e+00,6.33729043908225e-01
8.71399999999999e-08,6.00000000000000e-01,0.00000000000000e+00,7.64042779301470e-02
8.84170482510464e-08,6.00000000000000e-01,0.00000000000000e+00,-4.34168187078151e-02
9.00000000000000e-08,6.00000000000000e-01,0.00000000000000e+00,4.22310690927043e-02
9.00100000000000e-08,6.00000000000000e-01,5.99999999999886e-02,3.65442881889692e-02
9.00300000000000e-08,6.00000000000000e-01,1.79999999999966e-01,2.67762650937159e-02
9.00700000000000e-08,6.00000000000000e-01,4.19999999999920e-01,1.42783541345277e-02
9.01000000000000e-08,6.00000000000000e-01,5.99999999999966e-01,8.92703660850169e-03
9.01080000000000e-08,6.00000000000000e-01,6.00000000000000e-01,7.95162287900072e-03
9.01240000000000e-08,6.00000000000000e-01,6.00000000000000e-01,6.23062714483817e-03
9.01560000000000e-08,6.00000000000000e-01,6.00000000000000e-01,3.81776524858199e-03
9.02200000000000e-08,6.00000000000000e-01,6.00000000000000e-01,1.46662237957372e-03
9.03480000000000e-08,6.00000000000000e-01,6.00000000000000e-01,2.45715346035888e-04
9.06040000000000e-08,6.00000000000000e-01,6.00000000000000e-01,8.17902780017657e-05
9.11159999999999e-08,6.00000000000000e-01,6.00000000000000e-01,-8.95311742650159e-06
9.21399999999999e-08,6.00000000000000e-01,6.00000000000000e-01,7.69417018332483e-06
9.41879999999998e-08,6.00000000000000e-01,6.00000000000000e-01,-4.97599413633396e-06
9.51000000000000e-08,6.00000000000000e-01,6.00000000000000e-01,5.18835745730306e-06
9.51100000000000e-08,5.40000000000061e-01,6.00000000000000e-01,-1.63960207418878e-04
9.51300000000000e-08,4.20000000000084e-01,6.00000000000000e-01,-5.87456289168842e-04
9.51700000000000e-08,1.80000000000129e-01,6.00000000000000e-01,-1.61082952532121e-03
9.52000000000000e-08,8.40438829641244e-14,6.00000000000000e-01,-1.84601719696401e-03
9.52080000000000e-08,0.00000000000000e+00,6.00000000000000e-01,-1.49755952421828e-03
9.52240000000000e-08,0.00000000000000e+00,6.00000000000000e-01,-9.05585413032498e-04
9.52560000000000e-08,0.00000000000000e+00,6.00000000000000e-01,-1.50782110193010e-05
9.53200000000000e-08,0.00000000000000e+00,6.00000000000000e-01,6.71100163038826e-04
9.54480000000000e-08,0.00000000000000e+00,6.00000000000000e-01,6.79047438749261e-04
9.57040000000000e-08,0.00000000000000e+00,6.00000000000000e-01,1.86432186110259e-04
9.62159999999999e-08,0.00000000000000e+00,6.00000000000000e-01,-9.03228111007844e-04
9.72399999999999e-08,0.00000000000000e+00,6.00000000000000e-01,4.01453311542102e-04
9.85501835627225e-08,0.00000000000000e+00,6.00000000000000e-01,-5.43160356104406e-04
1.00790047975174e-07,0.00000000000000e+00,6.00000000000000e-01,4.78337148947849e-04
1.03799790926243e-07,0.00000000000000e+00,6.00000000000000e-01,-3.17016675738769e-04
1.05000000000000e-07,0.00000000000000e+00,6.00000000000000e-01,1.42123852910410e-04
1.05010000000000e-07,5.99999999999886e-02,6.00000000000000e-01,6.81746386809789e-04
1.05030000000000e-07,1.79999999999966e-01,6.00000000000000e-01,1.59076601251121e-03
1.05070000000000e-07,4.19999999999920e-01,6.00000000000000e-01,2.52328506304475e-03
1.05100000000000e-07,5.99999999999966e-01,6.00000000000000e-01,1.91895207645267e-03
1.05108000000000e-07,6.00000000000000e-01,6.00000000000000e-01,1.36926871325177e-03
1.05124000000000e-07,6.00000000000000e-01,6.00000000000000e-01,6.34850463604453e-05
1.05156000000000e-07,6.00000000000000e-01,6.00000000000000e-01,-3.11143097721368e-03
1.05220000000000e-07,6.00000000000000e-01,6.00000000000000e-01,-8.22055329067287e-03
1.05348000000000e-07,6.00000000000000e-01,6.00000000000000e-01,-1.09784583315662e-02
1.05604000000000e-07,6.00000000000000e-01,6.00000000000000e-01,2.78979456842567e-02
1.06116000000000e-07,6.00000000000000e-01,6.00000000000000e-01,2.79185498198230e-01
1.07140000000000e-07,6.00000000000000e-01,6.00000000000000e-01,5.85070134546373e-01
1.08471384835478e-07,6.00000000000000e-01,6.00000000000000e-01,6.01092093528730e-01
1.10100000000000e-07,6.00000000000000e-01,6.00000000000000e-01,6.02019331416880e-01
1.10110000000000e-07,6.00000000000000e-01,5.40000000000091e-01,6.01320672599993e-01
1.10130000000000e-07,6.00000000000000e-01,4.20000000000114e-01,6.00117774578783e-01
1.10170000000000e-07,6.00000000000000e-01,1.80000000000159e-01,5.98671375030003e-01
1.10200000000000e-07,6.00000000000000e-01,1.13686837721616e-13,5.98126147782941e-01
1.10208000000000e-07,6.00000000000000e-01,0.00000000000000e+00,5.98028141984036e-01
1.10224000000000e-07,6.00000000000000e-01,0.00000000000000e+00,5.97826969704210e-01
1.10256000000000e-07,6.00000000000000e-01,0.00000000000000e+00,5.97675113498921e-01
1.10320000000000e-07,6.00000000000000e-01,0.00000000000000e+00,5.97665239469265e-01
1.10448000000000e-07,6.00000000000000e-01,0.00000000000000e+00,5.98214068850190e-01
1.10704000000000e-07,6.00000000000000e-01,0.00000000000000e+00,5.99261156952179e-01
1.11216000000000e-07,6.00000000000000e-01,0.00000000000000e+00,5.99871429399845e-01
1.12240000000000e-07,6.00000000000000e-01,0.00000000000000e+00,5.99880772134039e-01
