Time,v(clk),v(data),v(out),v(reset)
1.00000000000000e-08,6.00000000000000e-01,0.00000000000000e+00,-1.01651445650313e-05,0.00000000000000e+00
1.00100000000000e-08,6.00000000000000e-01,5.99999999999986e-02,8.29890577383474e-06,0.00000000000000e+00
1.00300000000000e-08,6.00000000000000e-01,1.79999999999996e-01,2.81026063894407e-05,0.00000000000000e+00
1.00700000000000e-08,6.00000000000000e-01,4.19999999999990e-01,2.51731140934464e-05,0.00000000000000e+00
1.01000000000000e-08,6.00000000000000e-01,5.99999999999995e-01,5.90981150028203e-06,0.00000000000000e+00
1.01080000000000e-08,6.00000000000000e-01,6.00000000000000e-01,2.43999465418532e-06,0.00000000000000e+00
1.01240000000000e-08,6.00000000000000e-01,6.00000000000000e-01,3.29059132747611e-07,0.00000000000000e+00
1.01560000000000e-08,6.00000000000000e-01,6.00000000000000e-01,5.97995624844472e-06,0.00000000000000e+00
1.02200000000000e-08,6.00000000000000e-01,6.00000000000000e-01,1.40164402211845e-05,0.00000000000000e+00
1.03480000000000e-08,6.00000000000000e-01,6.00000000000000e-01,7.64399562257212e-06,0.00000000000000e+00
1.06040000000000e-08,6.00000000000000e-01,6.00000000000000e-01,1.58998381082770e-07,0.00000000000000e+00
1.11160000000000e-08,6.00000000000000e-01,6.00000000000000e-01,4.49433725087725e-06,0.00000000000000e+00
1.21400000000000e-08,6.00000000000000e-01,6.00000000000000e-01,1.10557163864392e-06,0.00000000000000e+00
1.41880000000000e-08,6.00000000000000e-01,6.00000000000000e-01,3.36289574114686e-06,0.00000000000000e+00
1.51000000000000e-08,6.00000000000000e-01,6.00000000000000e-01,1.06242908975290e-06,0.00000000000000e+00
1.51100000000000e-08,5.39999999999992e-01,6.00000000000000e-01,8.99307183436754e-04,6.00000000000085e-02
1.51300000000000e-08,4.19999999999994e-01,6.00000000000000e-01,2.04020524508959e-03,1.80000000000006e-01
1.51700000000000e-08,1.80000000000000e-01,6.00000000000000e-01,1.90727146703455e-03,4.20000000000000e-01
1.52000000000000e-08,0.00000000000000e+00,6.00000000000000e-01,5.03753926633058e-04,6.00000000000000e-01
1.52080000000000e-08,0.00000000000000e+00,6.00000000000000e-01,1.88308162398926e-04,6.00000000000000e-01
1.52240000000000e-08,0.00000000000000e+00,6.00000000000000e-01,-2.71164994565545e-04,6.00000000000000e-01
1.52560000000000e-08,0.00000000000000e+00,6.00000000000000e-01,-5.46390283827622e-04,6.00000000000000e-01
1.53200000000000e-08,0.00000000000000e+00,6.00000000000000e-01,-3.24100254166862e-04,6.00000000000000e-01
1.54480000000000e-08,0.00000000000000e+00,6.00000000000000e-01,1.85591261302603e-05,6.00000000000000e-01
1.57040000000000e-08,0.00000000000000e+00,6.00000000000000e-01,-3.37149523569301e-04,6.00000000000000e-01
1.62160000000000e-08,0.00000000000000e+00,6.00000000000000e-01,5.81153369301757e-05,6.00000000000000e-01
1.69657827393919e-08,0.00000000000000e+00,6.00000000000000e-01,-1.24700766418179e-04,6.00000000000000e-01
1.78734192560535e-08,0.00000000000000e+00,6.00000000000000e-01,1.95453825400337e-04,6.00000000000000e-01
1.95902015683291e-08,0.00000000000000e+00,6.00000000000000e-01,-1.95950256489542e-04,6.00000000000000e-01
2.11456529686384e-08,0.00000000000000e+00,6.00000000000000e-01,1.86379582052508e-04,6.00000000000000e-01
2.42565557692568e-08,0.00000000000000e+00,6.00000000000000e-01,-1.76112254063247e-04,6.00000000000000e-01
2.50000000000000e-08,0.00000000000000e+00,6.00000000000000e-01,1.36527757853373e-04,6.00000000000000e-01
2.50100000000000e-08,5.99999999999886e-02,6.00000000000000e-01,4.57753046215092e-04,6.00000000000000e-01
2.50300000000000e-08,1.80000000000006e-01,6.00000000000000e-01,9.72778564415605e-04,6.00000000000000e-01
2.50700000000000e-08,4.20000000000000e-01,6.00000000000000e-01,1.40849594705861e-03,6.00000000000000e-01
2.51000000000000e-08,6.00000000000000e-01,6.00000000000000e-01,3.72000075673895e-04,6.00000000000000e-01
2.51080000000000e-08,6.00000000000000e-01,6.00000000000000e-01,-3.38589021876404e-04,6.00000000000000e-01
2.51240000000000e-08,6.00000000000000e-01,6.00000000000000e-01,-1.74320318348674e-03,6.00000000000000e-01
2.51560000000000e-08,6.00000000000000e-01,6.00000000000000e-01,-3.99989843594094e-03,6.00000000000000e-01
2.52200000000000e-08,6.00000000000000e-01,6.00000000000000e-01,-6.16765259394109e-03,6.00000000000000e-01
2.53480000000000e-08,6.00000000000000e-01,6.00000000000000e-01,4.88240234905417e-03,6.00000000000000e-01
2.56040000000000e-08,6.00000000000000e-01,6.00000000000000e-01,2.29616393212227e-01,6.00000000000000e-01
2.61160000000000e-08,6.00000000000000e-01,6.00000000000000e-01,5.92782051985545e-01,6.00000000000000e-01
2.67889008215138e-08,6.00000000000000e-01,6.00000000000000e-01,5.99414840333064e-01,6.00000000000000e-01
2.78668795416008e-08,6.00000000000000e-01,6.00000000000000e-01,6.01708178432710e-01,6.00000000000000e-01
2.92743129895289e-08,6.00000000000000e-01,6.00000000000000e-01,5.97796619124774e-01,6.00000000000000e-01
3.14738200527985e-08,6.00000000000000e-01,6.00000000000000e-01,6.02427683807411e-01,6.00000000000000e-01
3.51000000000000e-08,5.99999999999970e-01,6.00000000000000e-01,5.97544992511646e-01,6.00000000000000e-01
3.51100000000000e-08,5.39999999999982e-01,6.00000000000000e-01,5.98178425355688e-01,6.00000000000000e-01
3.51300000000000e-08,4.19999999999965e-01,6.00000000000000e-01,5.99026280268356e-01,6.00000000000000e-01
3.51700000000000e-08,1.79999999999970e-01,6.00000000000000e-01,6.00092067605981e-01,6.00000000000000e-01
3.52000000000000e-08,0.00000000000000e+00,6.00000000000000e-01,6.01988502916404e-01,6.00000000000000e-01
3.52080000000000e-08,0.00000000000000e+00,6.00000000000000e-01,6.02745577395032e-01,6.00000000000000e-01
3.52240000000000e-08,0.00000000000000e+00,6.00000000000000e-01,6.03981378328705e-01,6.00000000000000e-01
3.52560000000000e-08,0.00000000000000e+00,6.00000000000000e-01,6.05378609498663e-01,6.00000000000000e-01
3.53200000000000e-08,0.00000000000000e+00,6.00000000000000e-01,6.06116464729458e-01,6.00000000000000e-01
3.54480000000000e-08,0.00000000000000e+00,6.00000000000000e-01,6.02304111278290e-01,6.00000000000000e-01
3.57040000000000e-08,0.00000000000000e+00,6.00000000000000e-01,5.86799569376896e-01,6.00000000000000e-01
3.62160000000000e-08,0.00000000000000e+00,6.00000000000000e-01,5.91232625348492e-01,6.00000000000000e-01
3.72400000000000e-08,0.00000000000000e+00,6.00000000000000e-01,6.04757996360635e-01,6.00000000000000e-01
3.85245575536644e-08,0.00000000000000e+00,6.00000000000000e-01,5.95827928413863e-01,6.00000000000000e-01
4.05348867025225e-08,0.00000000000000e+00,6.00000000000000e-01,6.02981569455620e-01,6.00000000000000e-01
4.43348867025225e-08,0.00000000000000e+00,6.00000000000000e-01,5.96905208190739e-01,6.00000000000000e-01
4.50000000000000e-08,0.00000000000000e+00,6.00000000000000e-01,6.01520105698344e-01,6.00000000000000e-01
4.50100000000000e-08,5.99999999999886e-02,6.00000000000000e-01,6.01127940535964e-01,5.40000000000011e-01
4.50300000000000e-08,1.80000000000006e-01,6.00000000000000e-01,6.00459458079489e-01,4.19999999999994e-01
4.50700000000000e-08,4.20000000000000e-01,6.00000000000000e-01,6.00555859815983e-01,1.80000000000000e-01
4.51000000000000e-08,6.00000000000000e-01,6.00000000000000e-01,6.03997434794677e-01,0.00000000000000e+00
4.51080000000000e-08,6.00000000000000e-01,6.00000000000000e-01,6.05756673466513e-01,0.00000000000000e+00
4.51240000000000e-08,6.00000000000000e-01,6.00000000000000e-01,6.08777815467451e-01,0.00000000000000e+00
4.51560000000000e-08,6.00000000000000e-01,6.00000000000000e-01,6.13291997375473e-01,0.00000000000000e+00
4.52200000000000e-08,6.00000000000000e-01,6.00000000000000e-01,6.20759922353162e-01,0.00000000000000e+00
4.53480000000000e-08,6.00000000000000e-01,6.00000000000000e-01,6.27558331611998e-01,0.00000000000000e+00
4.56040000000000e-08,6.00000000000000e-01,6.00000000000000e-01,2.28573196666045e-01,0.00000000000000e+00
4.61160000000000e-08,6.00000000000000e-01,6.00000000000000e-01,-6.15889372928224e-02,0.00000000000000e+00
4.66345978210319e-08,6.00000000000000e-01,6.00000000000000e-01,4.75027937168290e-02,0.00000000000000e+00
4.76717934630957e-08,6.00000000000000e-01,6.00000000000000e-01,-3.52478481874282e-02,0.00000000000000e+00
4.87960997582018e-08,6.00000000000000e-01,6.00000000000000e-01,3.19735363844984e-02,0.00000000000000e+00
5.01000000000000e-08,6.00000000000000e-01,5.99999999999966e-01,-2.58087248942893e-02,0.00000000000000e+00
5.03248612590212e-08,6.00000000000000e-01,6.00000000000000e-01,-4.33267970366865e-03,0.00000000000000e+00
5.07745837770637e-08,6.00000000000000e-01,6.00000000000000e-01,2.80031605624682e-03,0.00000000000000e+00
5.16740288131486e-08,6.00000000000000e-01,6.00000000000000e-01,-2.23624206822522e-03,0.00000000000000e+00
5.34729188853184e-08,6.00000000000000e-01,6.00000000000000e-01,2.01866246701358e-03,0.00000000000000e+00
5.51000000000000e-08,6.00000000000000e-01,6.00000000000000e-01,-1.78320986115494e-03,0.00000000000000e+00
5.51100000000000e-08,5.40000000000021e-01,6.00000000000000e-01,-5.67291717143731e-04,5.99999999999787e-02
5.51300000000000e-08,4.20000000000004e-01,6.00000000000000e-01,1.09844768051041e-03,1.79999999999996e-01
5.51700000000000e-08,1.80000000000010e-01,6.00000000000000e-01,1.51188795801059e-03,4.19999999999990e-01
5.52000000000000e-08,0.00000000000000e+00,6.00000000000000e-01,2.85728126554544e-04,6.00000000000000e-01
5.52080000000000e-08,0.00000000000000e+00,6.00000000000000e-01,-2.71801294350615e-06,6.00000000000000e-01
5.52240000000000e-08,0.00000000000000e+00,6.00000000000000e-01,-4.12106987457306e-04,6.00000000000000e-01
5.52560000000000e-08,0.00000000000000e+00,6.00000000000000e-01,-6.18228243494542e-04,6.00000000000000e-01
5.53200000000000e-08,0.00000000000000e+00,6.00000000000000e-01,-3.55923362796440e-04,6.00000000000000e-01
5.54480000000000e-08,0.00000000000000e+00,6.00000000000000e-01,-2.65926967580835e-04,6.00000000000000e-01
5.57040000000000e-08,0.00000000000000e+00,6.00000000000000e-01,-6.53479574490953e-04,6.00000000000000e-01
5.62160000000000e-08,0.00000000000000e+00,6.00000000000000e-01,3.69511661730465e-04,6.00000000000000e-01
5.69673690125044e-08,0.00000000000000e+00,6.00000000000000e-01,-4.18043391119125e-04,6.00000000000000e-01
5.78793717389616e-08,0.00000000000000e+00,6.00000000000000e-01,3.59165601768463e-04,6.00000000000000e-01
5.95969612778135e-08,0.00000000000000e+00,6.00000000000000e-01,-2.96906763738248e-04,6.00000000000000e-01
6.11635782616316e-08,0.00000000000000e+00,6.00000000000000e-01,2.42540554337264e-04,6.00000000000000e-01
6.42968122292678e-08,0.00000000000000e+00,6.00000000000000e-01,-2.13731585216887e-04,6.00000000000000e-01
6.50000000000000e-08,0.00000000000000e+00,6.00000000000000e-01,1.21880342192774e-04,6.00000000000000e-01
6.50100000000000e-08,5.99999999999886e-02,6.00000000000000e-01,4.54866613202584e-04,6.00000000000000e-01
6.50300000000000e-08,1.79999999999966e-01,6.00000000000000e-01,9.91471757182019e-04,6.00000000000000e-01
6.50700000000000e-08,4.19999999999920e-01,6.00000000000000e-01,1.42820870553832e-03,6.00000000000000e-01
6.51000000000000e-08,5.99999999999966e-01,6.00000000000000e-01,4.04809510002047e-04,6.00000000000000e-01
6.51080000000000e-08,6.00000000000000e-01,6.00000000000000e-01,-3.01127494580500e-04,6.00000000000000e-01
6.51240000000000e-08,6.00000000000000e-01,6.00000000000000e-01,-1.70376193824888e-03,6.00000000000000e-01
6.51560000000000e-08,6.00000000000000e-01,6.00000000000000e-01,-3.97462676734443e-03,6.00000000000000e-01
6.52200000000000e-08,6.00000000000000e-01,6.00000000000000e-01,-6.16186656692976e-03,6.00000000000000e-01
6.53480000000000e-08,6.00000000000000e-01,6.00000000000000e-01,4.90247381806981e-03,6.00000000000000e-01
6.56040000000000e-08,6.00000000000000e-01,6.00000000000000e-01,2.29712022399161e-01,6.00000000000000e-01
6.61159999999999e-08,6.00000000000000e-01,6.00000000000000e-01,5.92805397480045e-01,6.00000000000000e-01
6.67887340024949e-08,6.00000000000000e-01,6.00000000000000e-01,5.99403326501222e-01,6.00000000000000e-01
6.78667781651705e-08,6.00000000000000e-01,6.00000000000000e-01,6.01718200317998e-01,6.00000000000000e-01
6.92739447994466e-08,6.00000000000000e-01,6.00000000000000e-01,5.97788626238627e-01,6.00000000000000e-01
7.14736853359347e-08,6.00000000000000e-01,6.00000000000000e-01,6.02435276763825e-01,6.00000000000000e-01
7.51000000000000e-08,6.00000000000000e-01,6.00000000000000e-01,5.97538169184897e-01,6.00000000000000e-01
7.51100000000000e-08,5.40000000000061e-01,6.00000000000000e-01,5.98172643869408e-01,6.00000000000000e-01
7.51300000000000e-08,4.20000000000084e-01,6.00000000000000e-01,5.99022287467358e-01,6.00000000000000e-01
7.51700000000000e-08,1.80000000000129e-01,6.00000000000000e-01,6.00090011722920e-01,6.00000000000000e-01
7.52000000000000e-08,8.40438829641244e-14,6.00000000000000e-01,6.01987399050751e-01,6.00000000000000e-01
7.52080000000000e-08,0.00000000000000e+00,6.00000000000000e-01,6.02744615382455e-01,6.00000000000000e-01
7.52240000000000e-08,0.00000000000000e+00,6.00000000000000e-01,6.03980657117455e-01,6.00000000000000e-01
7.52560000000000e-08,0.00000000000000e+00,6.00000000000000e-01,6.05378183829677e-01,6.00000000000000e-01
7.53200000000000e-08,0.00000000000000e+00,6.00000000000000e-01,6.06116279326256e-01,6.00000000000000e-01
7.54480000000000e-08,0.00000000000000e+00,6.00000000000000e-01,6.02303942278159e-01,6.00000000000000e-01
7.57040000000000e-08,0.00000000000000e+00,6.00000000000000e-01,5.86799483549732e-01,6.00000000000000e-01
7.62159999999999e-08,0.00000000000000e+00,6.00000000000000e-01,5.91232684650401e-01,6.00000000000000e-01
7.72399999999999e-08,0.00000000000000e+00,6.00000000000000e-01,6.04757944169990e-01,6.00000000000000e-01
7.85245573383377e-08,0.00000000000000e+00,6.00000000000000e-01,5.95827969558862e-01,6.00000000000000e-01
8.05348851415083e-08,0.00000000000000e+00,6.00000000000000e-01,6.02981533587862e-01,6.00000000000000e-01
8.43348851415083e-08,0.00000000000000e+00,6.00000000000000e-01,5.96905241582205e-01,6.00000000000000e-01
8.50000000000000e-08,0.00000000000000e+00,6.00000000000000e-01,6.01520086979987e-01,6.00000000000000e-01
8.50100000000000e-08,5.99999999999886e-02,6.00000000000000e-01,6.01127924575865e-01,5.40000000000011e-01
8.50300000000000e-08,1.79999999999966e-01,6.00000000000000e-01,6.00459446203667e-01,4.20000000000034e-01
8.50700000000000e-08,4.19999999999920e-01,6.00000000000000e-01,6.00555853429200e-01,1.80000000000080e-01
8.51000000000000e-08,5.99999999999966e-01,6.00000000000000e-01,6.03997431184018e-01,3.44169137633799e-14
8.51080000000000e-08,6.00000000000000e-01,6.00000000000000e-01,6.05756670406381e-01,0.00000000000000e+00
8.51240000000000e-08,6.00000000000000e-01,6.00000000000000e-01,6.08777813304083e-01,0.00000000000000e+00
8.51560000000000e-08,6.00000000000000e-01,6.00000000000000e-01,6.13291996111169e-01,0.00000000000000e+00
8.52200000000000e-08,6.00000000000000e-01,6.00000000000000e-01,6.20759921743895e-01,0.00000000000000e+00
8.53480000000000e-08,6.00000000000000e-01,6.00000000000000e-01,6.27558326892869e-01,0.00000000000000e+00
8.56040000000000e-08,6.00000000000000e-01,6.00000000000000e-01,2.28573183635671e-01,0.00000000000000e+00
8.61159999999999e-08,6.00000000000000e-01,6.00000000000000e-01,-6.15889399525230e-02,0.00000000000000e+00
8.66345978215403e-08,6.00000000000000e-01,6.00000000000000e-01,4.75027958375830e-02,0.00000000000000e+00
8.76717934646210e-08,6.00000000000000e-01,6.00000000000000e-01,-3.52478489910372e-02,0.00000000000000e+00
8.87960997642828e-08,6.00000000000000e-01,6.00000000000000e-01,3.19735374238412e-02,0.00000000000000e+00
9.01000000000000e-08,6.00000000000000e-01,5.99999999999966e-01,-2.58087251558347e-02,0.00000000000000e+00
9.03248612599324e-08,6.00000000000000e-01,6.00000000000000e-01,-4.33267992091200e-03,0.00000000000000e+00
9.07745837797971e-08,6.00000000000000e-01,6.00000000000000e-01,2.80031617759371e-03,0.00000000000000e+00
9.16740288195266e-08,6.00000000000000e-01,6.00000000000000e-01,-2.23624214602214e-03,0.00000000000000e+00
9.34729188989856e-08,6.00000000000000e-01,6.00000000000000e-01,2.01866253209007e-03,0.00000000000000e+00
9.51000000000000e-08,6.00000000000000e-01,6.00000000000000e-01,-1.78320990562305e-03,0.00000000000000e+00
9.51100000000000e-08,5.40000000000061e-01,6.00000000000000e-01,-5.67291764051917e-04,5.99999999999390e-02
9.51300000000000e-08,4.20000000000084e-01,6.00000000000000e-01,1.09844762199986e-03,1.79999999999916e-01
9.51700000000000e-08,1.80000000000129e-01,6.00000000000000e-01,1.51188791960605e-03,4.19999999999871e-01
9.52000000000000e-08,8.40438829641244e-14,6.00000000000000e-01,2.85728099355231e-04,5.99999999999916e-01
9.52080000000000e-08,0.00000000000000e+00,6.00000000000000e-01,-2.71804374904483e-06,6.00000000000000e-01
9.52240000000000e-08,0.00000000000000e+00,6.00000000000000e-01,-4.12107015964044e-04,6.00000000000000e-01
9.52560000000000e-08,0.00000000000000e+00,6.00000000000000e-01,-6.18228258654888e-04,6.00000000000000e-01
9.53200000000000e-08,0.00000000000000e+00,6.00000000000000e-01,-3.55923356782140e-04,6.00000000000000e-01
9.54480000000000e-08,0.00000000000000e+00,6.00000000000000e-01,-2.65926888719153e-04,6.00000000000000e-01
9.57040000000000e-08,0.00000000000000e+00,6.00000000000000e-01,-6.53479436101403e-04,6.00000000000000e-01
9.62159999999999e-08,0.00000000000000e+00,6.00000000000000e-01,3.69511586401815e-04,6.00000000000000e-01
9.69673690136783e-08,0.00000000000000e+00,6.00000000000000e-01,-4.18043342992303e-04,6.00000000000000e-01
9.78793717399885e-08,0.00000000000000e+00,6.00000000000000e-01,3.59165570929710e-04,6.00000000000000e-01
9.95969612808408e-08,0.00000000000000e+00,6.00000000000000e-01,-2.96906740688881e-04,6.00000000000000e-01
1.01163578265225e-07,0.00000000000000e+00,6.00000000000000e-01,2.42540538226223e-04,6.00000000000000e-01
1.04296812233993e-07,0.00000000000000e+00,6.00000000000000e-01,-2.13731572274174e-04,6.00000000000000e-01
1.05000000000000e-07,0.00000000000000e+00,6.00000000000000e-01,1.21880339582972e-04,6.00000000000000e-01
1.05010000000000e-07,5.99999999999886e-02,6.00000000000000e-01,4.54866602853335e-04,6.00000000000000e-01
1.05030000000000e-07,1.79999999999966e-01,6.00000000000000e-01,9.91471740471733e-04,6.00000000000000e-01
1.05070000000000e-07,4.19999999999920e-01,6.00000000000000e-01,1.42820869385342e-03,6.00000000000000e-01
1.05100000000000e-07,5.99999999999966e-01,6.00000000000000e-01,4.04809500434922e-04,6.00000000000000e-01
1.05108000000000e-07,6.00000000000000e-01,6.00000000000000e-01,-3.01127503417514e-04,6.00000000000000e-01
1.05124000000000e-07,6.00000000000000e-01,6.00000000000000e-01,-1.70376194546991e-03,6.00000000000000e-01
1.05156000000000e-07,6.00000000000000e-01,6.00000000000000e-01,-3.97462677162747e-03,6.00000000000000e-01
1.05220000000000e-07,6.00000000000000e-01,6.00000000000000e-01,-6.16186656785843e-03,6.00000000000000e-01
1.05348000000000e-07,6.00000000000000e-01,6.00000000000000e-01,4.90247382849074e-03,6.00000000000000e-01
1.05604000000000e-07,6.00000000000000e-01,6.00000000000000e-01,2.29712022451373e-01,6.00000000000000e-01
1.06116000000000e-07,6.00000000000000e-01,6.00000000000000e-01,5.92805397493450e-01,6.00000000000000e-01
1.06788734002405e-07,6.00000000000000e-01,6.00000000000000e-01,5.99403326494617e-01,6.00000000000000e-01
1.07866778165125e-07,6.00000000000000e-01,6.00000000000000e-01,6.01718200329582e-01,6.00000000000000e-01
1.09273944799242e-07,6.00000000000000e-01,6.00000000000000e-01,5.97788626235255e-01,6.00000000000000e-01
1.11473685335900e-07,6.00000000000000e-01,6.00000000000000e-01,6.02435276767446e-01,6.00000000000000e-01
1.15100000000000e-07,6.00000000000000e-01,6.00000000000000e-01,5.97538169181827e-01,6.00000000000000e-01
1.15110000000000e-07,5.40000000000061e-01,6.00000000000000e-01,5.98172643869820e-01,6.00000000000000e-01
1.15130000000000e-07,4.20000000000084e-01,6.00000000000000e-01,5.99022287467308e-01,6.00000000000000e-01
1.15170000000000e-07,1.80000000000129e-01,6.00000000000000e-01,6.00090011722368e-01,6.00000000000000e-01
