Time,v(clk),v(data),v(out)
1.00000000000000e-08,6.00000000000000e-01,0.00000000000000e+00,-1.10893987757573e-04
1.00100000000000e-08,6.00000000000000e-01,5.99999999999986e-02,-7.92770355444866e-05
1.00300000000000e-08,6.00000000000000e-01,1.79999999999996e-01,-3.29020548247155e-05
1.00700000000000e-08,6.00000000000000e-01,4.19999999999990e-01,-1.19924805952465e-06
1.01000000000000e-08,6.00000000000000e-01,5.99999999999995e-01,-1.63481769240442e-05
1.01080000000000e-08,6.00000000000000e-01,6.00000000000000e-01,-2.24060214139288e-05
1.01240000000000e-08,6.00000000000000e-01,6.00000000000000e-01,-2.64886829492439e-05
1.01560000000000e-08,6.00000000000000e-01,6.00000000000000e-01,-1.75076373694488e-05
1.02200000000000e-08,6.00000000000000e-01,6.00000000000000e-01,3.06446939610239e-06
1.03480000000000e-08,6.00000000000000e-01,6.00000000000000e-01,2.07577656969812e-05
1.06040000000000e-08,6.00000000000000e-01,6.00000000000000e-01,5.51178201100427e-06
1.11160000000000e-08,6.00000000000000e-01,6.00000000000000e-01,6.19666233581465e-06
1.21400000000000e-08,6.00000000000000e-01,6.00000000000000e-01,6.26173077848333e-06
1.41880000000000e-08,6.00000000000000e-01,6.00000000000000e-01,5.88332886311983e-06
1.51000000000000e-08,6.00000000000000e-01,6.00000000000000e-01,5.15038699868201e-06
1.51100000000000e-08,5.39999999999992e-01,6.00000000000000e-01,-1.24343174658925e-04
1.51300000000000e-08,4.19999999999994e-01,6.00000000000000e-01,-3.79163282609840e-04
1.51700000000000e-08,1.80000000000000e-01,6.00000000000000e-01,-7.45173467633267e-04
1.52000000000000e-08,0.00000000000000e+00,6.00000000000000e-01,-5.39633731520009e-04
1.52080000000000e-08,0.00000000000000e+00,6.00000000000000e-01,-2.13130692948163e-04
1.52240000000000e-08,0.00000000000000e+00,6.00000000000000e-01,3.17744728124722e-04
1.52560000000000e-08,0.00000000000000e+00,6.00000000000000e-01,8.15174101841537e-04
1.53200000000000e-08,0.00000000000000e+00,6.00000000000000e-01,8.58308904018515e-04
1.54480000000000e-08,0.00000000000000e+00,6.00000000000000e-01,2.72590548003271e-04
1.57040000000000e-08,0.00000000000000e+00,6.00000000000000e-01,-3.66055868227161e-04
1.62160000000000e-08,0.00000000000000e+00,6.00000000000000e-01,-5.83167749039874e-05
1.70957841569859e-08,0.00000000000000e+00,6.00000000000000e-01,-3.04787727683428e-05
1.80644631580082e-08,0.00000000000000e+00,6.00000000000000e-01,1.25176090587698e-04
1.97582630171907e-08,0.00000000000000e+00,6.00000000000000e-01,-1.09524051483179e-04
2.14896999830625e-08,0.00000000000000e+00,6.00000000000000e-01,1.05581788391988e-04
2.49525739148060e-08,0.00000000000000e+00,6.00000000000000e-01,-8.89000820629730e-05
2.50000000000000e-08,0.00000000000000e+00,6.00000000000000e-01,-6.35478556506169e-05
2.50100000000000e-08,5.99999999999886e-02,6.00000000000000e-01,2.75877085114645e-04
2.50300000000000e-08,1.80000000000006e-01,6.00000000000000e-01,8.51339761718445e-04
2.50700000000000e-08,4.20000000000000e-01,6.00000000000000e-01,1.44012607696858e-03
2.51000000000000e-08,6.00000000000000e-01,6.00000000000000e-01,8.09688343157061e-04
2.51080000000000e-08,6.00000000000000e-01,6.00000000000000e-01,2.45528878415738e-04
2.51240000000000e-08,6.00000000000000e-01,6.00000000000000e-01,-9.19466995985621e-04
2.51560000000000e-08,6.00000000000000e-01,6.00000000000000e-01,-3.00495092245553e-03
2.52200000000000e-08,6.00000000000000e-01,6.00000000000000e-01,-5.42850142326906e-03
2.53480000000000e-08,6.00000000000000e-01,6.00000000000000e-01,-3.08059640723556e-03
2.56040000000000e-08,6.00000000000000e-01,6.00000000000000e-01,1.33923242072176e-01
2.61160000000000e-08,6.00000000000000e-01,6.00000000000000e-01,5.44556864474147e-01
2.71400000000000e-08,6.00000000000000e-01,6.00000000000000e-01,6.16200025699067e-01
2.80880906454669e-08,6.00000000000000e-01,6.00000000000000e-01,5.86388645381124e-01
2.99842719364008e-08,6.00000000000000e-01,6.00000000000000e-01,6.09874210556737e-01
3.21054838028111e-08,6.00000000000000e-01,6.00000000000000e-01,5.90511623793424e-01
3.51000000000000e-08,5.99999999999970e-01,6.00000000000000e-01,6.07744126895676e-01
3.51100000000000e-08,5.39999999999982e-01,6.00000000000000e-01,6.06589522966073e-01
3.51300000000000e-08,4.19999999999965e-01,6.00000000000000e-01,6.04488085676320e-01
3.51700000000000e-08,1.79999999999970e-01,6.00000000000000e-01,6.02233502757761e-01
3.52000000000000e-08,0.00000000000000e+00,6.00000000000000e-01,6.02956929720441e-01
3.52080000000000e-08,0.00000000000000e+00,6.00000000000000e-01,6.03529630834664e-01
3.52240000000000e-08,0.00000000000000e+00,6.00000000000000e-01,6.04478263853200e-01
3.52560000000000e-08,0.00000000000000e+00,6.00000000000000e-01,6.05603342671451e-01
3.53200000000000e-08,0.00000000000000e+00,6.00000000000000e-01,6.06358348133427e-01
3.54480000000000e-08,0.00000000000000e+00,6.00000000000000e-01,6.04170951707877e-01
3.57040000000000e-08,0.00000000000000e+00,6.00000000000000e-01,5.90046638140372e-01
3.62160000000000e-08,0.00000000000000e+00,6.00000000000000e-01,5.87598668347309e-01
3.72400000000000e-08,0.00000000000000e+00,6.00000000000000e-01,6.04948756590982e-01
3.86049981889706e-08,0.00000000000000e+00,6.00000000000000e-01,5.95342442447745e-01
4.05190558097614e-08,0.00000000000000e+00,6.00000000000000e-01,6.02981861093642e-01
4.43190558097614e-08,0.00000000000000e+00,6.00000000000000e-01,5.96649509704201e-01
4.50000000000000e-08,0.00000000000000e+00,6.00000000000000e-01,6.01361367821847e-01
4.50100000000000e-08,5.99999999999886e-02,6.00000000000000e-01,6.01481815322008e-01
4.50300000000000e-08,1.80000000000006e-01,6.00000000000000e-01,6.01661605534996e-01
4.50700000000000e-08,4.20000000000000e-01,6.00000000000000e-01,6.01749278773534e-01
4.51000000000000e-08,6.00000000000000e-01,6.00000000000000e-01,6.01035091064252e-01
4.51080000000000e-08,6.00000000000000e-01,5.52000000000025e-01,6.00516931974041e-01
4.51240000000000e-08,6.00000000000000e-01,4.55999999999996e-01,5.99493451379415e-01
4.51560000000000e-08,6.00000000000000e-01,2.64000000000016e-01,5.97644999387188e-01
4.52000000000000e-08,6.00000000000000e-01,3.44169137633799e-14,5.95605667441002e-01
4.52064000000000e-08,6.00000000000000e-01,0.00000000000000e+00,5.95377257686684e-01
4.52192000000000e-08,6.00000000000000e-01,0.00000000000000e+00,5.94915595851824e-01
4.52448000000000e-08,6.00000000000000e-01,0.00000000000000e+00,5.94046466354558e-01
4.52960000000000e-08,6.00000000000000e-01,0.00000000000000e+00,5.92529261357595e-01
4.53984000000000e-08,6.00000000000000e-01,0.00000000000000e+00,5.91026097501171e-01
4.56032000000000e-08,6.00000000000000e-01,0.00000000000000e+00,5.93762776490481e-01
4.60128000000000e-08,6.00000000000000e-01,0.00000000000000e+00,5.99821239658087e-01
4.64664946152883e-08,6.00000000000000e-01,0.00000000000000e+00,5.99952746533510e-01
4.73738838458649e-08,6.00000000000000e-01,0.00000000000000e+00,6.00015920073688e-01
4.84920303142810e-08,6.00000000000000e-01,0.00000000000000e+00,6.00000145877189e-01
5.07283232511130e-08,6.00000000000000e-01,0.00000000000000e+00,5.99993436507146e-01
5.45283232511130e-08,6.00000000000000e-01,0.00000000000000e+00,6.00009723327336e-01
5.51000000000000e-08,6.00000000000000e-01,0.00000000000000e+00,5.99977727038376e-01
5.51100000000000e-08,5.40000000000021e-01,0.00000000000000e+00,5.99813521809658e-01
5.51300000000000e-08,4.20000000000004e-01,0.00000000000000e+00,5.99533717895080e-01
5.51700000000000e-08,1.80000000000010e-01,0.00000000000000e+00,5.99688055504439e-01
5.52000000000000e-08,0.00000000000000e+00,0.00000000000000e+00,6.01274949564493e-01
5.52080000000000e-08,0.00000000000000e+00,0.00000000000000e+00,6.02005495322657e-01
5.52240000000000e-08,0.00000000000000e+00,0.00000000000000e+00,6.03265651178932e-01
5.52560000000000e-08,0.00000000000000e+00,0.00000000000000e+00,6.04846328227114e-01
5.53200000000000e-08,0.00000000000000e+00,0.00000000000000e+00,6.06412596179225e-01
5.54480000000000e-08,0.00000000000000e+00,0.00000000000000e+00,6.07856040460443e-01
5.57040000000000e-08,0.00000000000000e+00,0.00000000000000e+00,6.06950937803272e-01
5.62160000000000e-08,0.00000000000000e+00,0.00000000000000e+00,5.97601324431394e-01
5.68424464006806e-08,0.00000000000000e+00,0.00000000000000e+00,5.98973355986411e-01
5.80123311688897e-08,0.00000000000000e+00,0.00000000000000e+00,5.99371063601613e-01
5.92785627505639e-08,0.00000000000000e+00,0.00000000000000e+00,5.99568826069075e-01
6.18110259139123e-08,0.00000000000000e+00,0.00000000000000e+00,5.99625744411491e-01
6.50000000000000e-08,0.00000000000000e+00,0.00000000000000e+00,5.99716540614118e-01
6.50100000000000e-08,5.99999999999886e-02,0.00000000000000e+00,5.99949936006259e-01
6.50300000000000e-08,1.79999999999966e-01,0.00000000000000e+00,6.00344654415720e-01
6.50700000000000e-08,4.19999999999920e-01,0.00000000000000e+00,6.00632515818007e-01
6.51000000000000e-08,5.99999999999966e-01,0.00000000000000e+00,6.00272097531083e-01
6.51080000000000e-08,6.00000000000000e-01,0.00000000000000e+00,6.00017433701876e-01
6.51240000000000e-08,6.00000000000000e-01,0.00000000000000e+00,5.99616287825212e-01
6.51560000000000e-08,6.00000000000000e-01,0.00000000000000e+00,5.99028360382186e-01
6.52200000000000e-08,6.00000000000000e-01,0.00000000000000e+00,5.98602921561805e-01
6.53480000000000e-08,6.00000000000000e-01,0.00000000000000e+00,5.99795823385075e-01
6.56040000000000e-08,6.00000000000000e-01,0.00000000000000e+00,6.12745017693712e-01
6.61159999999999e-08,6.00000000000000e-01,0.00000000000000e+00,1.91361622919963e-01
6.69341963741498e-08,6.00000000000000e-01,0.00000000000000e+00,-6.56001657904854e-02
6.77718641774225e-08,6.00000000000000e-01,0.00000000000000e+00,5.76080497359778e-02
6.94471997839678e-08,6.00000000000000e-01,0.00000000000000e+00,-4.06249459607213e-02
7.11824251978222e-08,6.00000000000000e-01,0.00000000000000e+00,3.95677612056928e-02
7.46246903708193e-08,6.00000000000000e-01,0.00000000000000e+00,-3.22820181807061e-02
7.51000000000000e-08,6.00000000000000e-01,0.00000000000000e+00,1.94949689672376e-02
7.51100000000000e-08,5.40000000000061e-01,0.00000000000000e+00,1.70383278804504e-02
7.51300000000000e-08,4.20000000000084e-01,0.00000000000000e+00,1.24837836248703e-02
7.51700000000000e-08,1.80000000000129e-01,0.00000000000000e+00,6.19051900669035e-03
7.52000000000000e-08,8.40438829641244e-14,0.00000000000000e+00,3.88526324784108e-03
7.52080000000000e-08,0.00000000000000e+00,0.00000000000000e+00,3.72978550617339e-03
7.52240000000000e-08,0.00000000000000e+00,0.00000000000000e+00,3.44611611846048e-03
7.52560000000000e-08,0.00000000000000e+00,0.00000000000000e+00,2.77073146212733e-03
7.53200000000000e-08,0.00000000000000e+00,0.00000000000000e+00,1.57622379564547e-03
7.54480000000000e-08,0.00000000000000e+00,0.00000000000000e+00,1.74335947487864e-04
7.57040000000000e-08,0.00000000000000e+00,0.00000000000000e+00,-7.37717430678742e-04
7.62159999999999e-08,0.00000000000000e+00,0.00000000000000e+00,6.03407489714325e-05
7.72273973463125e-08,0.00000000000000e+00,0.00000000000000e+00,2.38058980849103e-05
7.84890499375383e-08,0.00000000000000e+00,0.00000000000000e+00,-4.33085631727399e-05
8.06304598952479e-08,0.00000000000000e+00,0.00000000000000e+00,6.08554435221342e-05
8.44304598952479e-08,0.00000000000000e+00,0.00000000000000e+00,-5.56892723988811e-05
8.50000000000000e-08,0.00000000000000e+00,0.00000000000000e+00,7.20537013458901e-05
8.50100000000000e-08,5.99999999999886e-02,0.00000000000000e+00,3.44244956758888e-04
8.50300000000000e-08,1.79999999999966e-01,0.00000000000000e+00,7.79870509209343e-04
8.50700000000000e-08,4.19999999999920e-01,0.00000000000000e+00,1.07922507440851e-03
8.51000000000000e-08,5.99999999999966e-01,0.00000000000000e+00,6.29755316765165e-04
8.51080000000000e-08,6.00000000000000e-01,0.00000000000000e+00,3.53378817374128e-04
8.51240000000000e-08,6.00000000000000e-01,0.00000000000000e+00,-9.89068704891488e-05
8.51560000000000e-08,6.00000000000000e-01,0.00000000000000e+00,-6.25807591899730e-04
8.52200000000000e-08,6.00000000000000e-01,0.00000000000000e+00,-9.02846053605591e-04
8.53480000000000e-08,6.00000000000000e-01,0.00000000000000e+00,-5.97408360175231e-04
8.56040000000000e-08,6.00000000000000e-01,0.00000000000000e+00,3.24799589969747e-04
8.61159999999999e-08,6.00000000000000e-01,0.00000000000000e+00,1.41582337196616e-04
8.71399999999999e-08,6.00000000000000e-01,0.00000000000000e+00,-1.23830907685613e-04
8.84640109707488e-08,6.00000000000000e-01,0.00000000000000e+00,1.34721595858015e-04
9.00000000000000e-08,6.00000000000000e-01,0.00000000000000e+00,-1.09473830887975e-04
9.00100000000000e-08,6.00000000000000e-01,5.99999999999886e-02,-7.80101294273333e-05
9.00300000000000e-08,6.00000000000000e-01,1.79999999999966e-01,-3.19097959026043e-05
9.00700000000000e-08,6.00000000000000e-01,4.19999999999920e-01,-5.38722933818292e-07
9.01000000000000e-08,6.00000000000000e-01,5.99999999999966e-01,-1.56926336318808e-05
9.01080000000000e-08,6.00000000000000e-01,6.00000000000000e-01,-2.17615459475462e-05
9.01240000000000e-08,6.00000000000000e-01,6.00000000000000e-01,-2.59274566690171e-05
9.01560000000000e-08,6.00000000000000e-01,6.00000000000000e-01,-1.71917085271256e-05
9.02200000000000e-08,6.00000000000000e-01,6.00000000000000e-01,3.04192897332412e-06
9.03480000000000e-08,6.00000000000000e-01,6.00000000000000e-01,2.04959201592705e-05
9.06040000000000e-08,6.00000000000000e-01,6.00000000000000e-01,5.69278247836841e-06
9.11159999999999e-08,6.00000000000000e-01,6.00000000000000e-01,5.93214875002288e-06
9.21399999999999e-08,6.00000000000000e-01,6.00000000000000e-01,6.98060233588794e-06
9.41879999999998e-08,6.00000000000000e-01,6.00000000000000e-01,5.03301403433423e-06
9.51000000000000e-08,6.00000000000000e-01,6.00000000000000e-01,6.16068885517067e-06
9.51100000000000e-08,5.40000000000061e-01,6.00000000000000e-01,-1.24060035006493e-04
9.51300000000000e-08,4.20000000000084e-01,6.00000000000000e-01,-3.79174889356668e-04
9.51700000000000e-08,1.80000000000129e-01,6.00000000000000e-01,-7.45524027710429e-04
9.52000000000000e-08,8.40438829641244e-14,6.00000000000000e-01,-5.39916170971447e-04
9.52080000000000e-08,0.00000000000000e+00,6.00000000000000e-01,-2.13427928978646e-04
9.52240000000000e-08,0.00000000000000e+00,6.00000000000000e-01,3.17454776973536e-04
9.52560000000000e-08,0.00000000000000e+00,6.00000000000000e-01,8.14927027074461e-04
9.53200000000000e-08,0.00000000000000e+00,6.00000000000000e-01,8.58167009600896e-04
9.54480000000000e-08,0.00000000000000e+00,6.00000000000000e-01,2.72587896690296e-04
9.57040000000000e-08,0.00000000000000e+00,6.00000000000000e-01,-3.66030511784188e-04
9.62159999999999e-08,0.00000000000000e+00,6.00000000000000e-01,-5.83311890248808e-05
9.70957842569021e-08,0.00000000000000e+00,6.00000000000000e-01,-3.04681797306163e-05
9.80644633793459e-08,0.00000000000000e+00,6.00000000000000e-01,1.25168185853097e-04
9.97582635040130e-08,0.00000000000000e+00,6.00000000000000e-01,-1.09517284545241e-04
1.01489700737747e-07,0.00000000000000e+00,6.00000000000000e-01,1.05575987782408e-04
1.04952575205215e-07,0.00000000000000e+00,6.00000000000000e-01,-8.88947155738467e-05
1.05000000000000e-07,0.00000000000000e+00,6.00000000000000e-01,-6.35461450822911e-05
1.05010000000000e-07,5.99999999999886e-02,6.00000000000000e-01,2.75878558734594e-04
1.05030000000000e-07,1.79999999999966e-01,6.00000000000000e-01,8.51340731980565e-04
1.05070000000000e-07,4.19999999999920e-01,6.00000000000000e-01,1.44012635102919e-03
1.05100000000000e-07,5.99999999999966e-01,6.00000000000000e-01,8.09688207118991e-04
1.05108000000000e-07,6.00000000000000e-01,6.00000000000000e-01,2.45528634164563e-04
1.05124000000000e-07,6.00000000000000e-01,6.00000000000000e-01,-9.19467358107495e-04
1.05156000000000e-07,6.00000000000000e-01,6.00000000000000e-01,-3.00495133079669e-03
1.05220000000000e-07,6.00000000000000e-01,6.00000000000000e-01,-5.42850167688057e-03
1.05348000000000e-07,6.00000000000000e-01,6.00000000000000e-01,-3.08059528791427e-03
1.05604000000000e-07,6.00000000000000e-01,6.00000000000000e-01,1.33923253246917e-01
1.06116000000000e-07,6.00000000000000e-01,6.00000000000000e-01,5.44556870778911e-01
1.07140000000000e-07,6.00000000000000e-01,6.00000000000000e-01,6.16200023817617e-01
1.08088090654038e-07,6.00000000000000e-01,6.00000000000000e-01,5.86388646915373e-01
1.09984271962114e-07,6.00000000000000e-01,6.00000000000000e-01,6.09874209345259e-01
1.12105483837729e-07,6.00000000000000e-01,6.00000000000000e-01,5.90511624975595e-01
1.15100000000000e-07,6.00000000000000e-01,6.00000000000000e-01,6.07744125855407e-01
1.15110000000000e-07,5.40000000000061e-01,6.00000000000000e-01,6.06589522114453e-01
1.15130000000000e-07,4.20000000000084e-01,6.00000000000000e-01,6.04488085130331e-01
1.15170000000000e-07,1.80000000000129e-01,6.00000000000000e-01,6.02233502562861e-01
1.15200000000000e-07,8.40438829641244e-14,6.00000000000000e-01,6.02956929605429e-01
1.15208000000000e-07,0.00000000000000e+00,6.00000000000000e-01,6.03529630753624e-01
1.15224000000000e-07,0.00000000000000e+00,6.00000000000000e-01,6.04478263795826e-01
1.15256000000000e-07,0.00000000000000e+00,6.00000000000000e-01,6.05603342645848e-01
1.15320000000000e-07,0.00000000000000e+00,6.00000000000000e-01,6.06358348121999e-01
1.15448000000000e-07,0.00000000000000e+00,6.00000000000000e-01,6.04170951721965e-01
1.15704000000000e-07,0.00000000000000e+00,6.00000000000000e-01,5.90046638136675e-01
1.16216000000000e-07,0.00000000000000e+00,6.00000000000000e-01,5.87598668323628e-01
1.17240000000000e-07,0.00000000000000e+00,6.00000000000000e-01,6.04948756603733e-01
1.18604998188884e-07,0.00000000000000e+00,6.00000000000000e-01,5.95342442439042e-01
1.20519055809318e-07,0.00000000000000e+00,6.00000000000000e-01,6.02981861101487e-01
1.24319055809318e-07,0.00000000000000e+00,6.00000000000000e-01,5.96649509697423e-01
1.25000000000000e-07,0.00000000000000e+00,6.00000000000000e-01,6.01361367822539e-01
1.25010000000000e-07,5.99999999999092e-02,6.00000000000000e-01,6.01481815323090e-01
1.25030000000000e-07,1.79999999999886e-01,6.00000000000000e-01,6.01661605535782e-01
1.25070000000000e-07,4.19999999999841e-01,6.00000000000000e-01,6.01749278770396e-01
1.25100000000000e-07,5.99999999999886e-01,6.00000000000000e-01,6.01035091060897e-01
1.25108000000000e-07,6.00000000000000e-01,5.51999999999946e-01,6.00516931970854e-01
1.25124000000000e-07,6.00000000000000e-01,4.55999999999996e-01,5.99493451376825e-01
1.25156000000000e-07,6.00000000000000e-01,2.63999999999937e-01,5.97644999385277e-01
1.25200000000000e-07,6.00000000000000e-01,0.00000000000000e+00,5.95605667439504e-01
1.25206400000000e-07,6.00000000000000e-01,0.00000000000000e+00,5.95377257687652e-01
1.25219200000000e-07,6.00000000000000e-01,0.00000000000000e+00,5.94915595854460e-01
1.25244800000000e-07,6.00000000000000e-01,0.00000000000000e+00,5.94046466356673e-01
1.25296000000000e-07,6.00000000000000e-01,0.00000000000000e+00,5.92529261360557e-01
1.25398400000000e-07,6.00000000000000e-01,0.00000000000000e+00,5.91026097511120e-01
1.25603200000000e-07,6.00000000000000e-01,0.00000000000000e+00,5.93762776490481e-01
1.26012800000000e-07,6.00000000000000e-01,0.00000000000000e+00,5.99821239662723e-01
1.26466494616116e-07,6.00000000000000e-01,0.00000000000000e+00,5.99952746531617e-01
1.27373883848347e-07,6.00000000000000e-01,0.00000000000000e+00,6.00015920075044e-01
1.28492030319867e-07,6.00000000000000e-01,0.00000000000000e+00,6.00000145875939e-01
1.30728323262907e-07,6.00000000000000e-01,0.00000000000000e+00,5.99993436508284e-01
1.34528323262907e-07,6.00000000000000e-01,0.00000000000000e+00,6.00009723326688e-01
1.35100000000000e-07,5.99999999999891e-01,0.00000000000000e+00,5.99977727039166e-01
1.35110000000000e-07,5.39999999999823e-01,0.00000000000000e+00,5.99813521810213e-01
1.35130000000000e-07,4.19999999999846e-01,0.00000000000000e+00,5.99533717895465e-01
1.35170000000000e-07,1.79999999999891e-01,0.00000000000000e+00,5.99688055504758e-01
1.35200000000000e-07,0.00000000000000e+00,0.00000000000000e+00,6.01274949570958e-01
1.35208000000000e-07,0.00000000000000e+00,0.00000000000000e+00,6.02005495327825e-01
