Time,v(clk),v(data),v(out)
1.00000000000000e-08,6.00000000000000e-01,0.00000000000000e+00,-1.10907483917290e-04
1.00100000000000e-08,6.00000000000000e-01,5.99999999999986e-02,-7.92920802650116e-05
1.00300000000000e-08,6.00000000000000e-01,1.79999999999996e-01,-3.29171828156449e-05
1.00700000000000e-08,6.00000000000000e-01,4.19999999999990e-01,-1.20894785152204e-06
1.01000000000000e-08,6.00000000000000e-01,5.99999999999995e-01,-1.63599613653559e-05
1.01080000000000e-08,6.00000000000000e-01,6.00000000000000e-01,-2.24177769733436e-05
1.01240000000000e-08,6.00000000000000e-01,6.00000000000000e-01,-2.64989410071470e-05
1.01560000000000e-08,6.00000000000000e-01,6.00000000000000e-01,-1.75130713488958e-05
1.02200000000000e-08,6.00000000000000e-01,6.00000000000000e-01,3.06597059715474e-06
1.03480000000000e-08,6.00000000000000e-01,6.00000000000000e-01,2.07643335564875e-05
1.06040000000000e-08,6.00000000000000e-01,6.00000000000000e-01,5.50711969372897e-06
1.11160000000000e-08,6.00000000000000e-01,6.00000000000000e-01,6.19902828112237e-06
1.21400000000000e-08,6.00000000000000e-01,6.00000000000000e-01,6.25975550614007e-06
1.41880000000000e-08,6.00000000000000e-01,6.00000000000000e-01,5.88524739350213e-06
1.51000000000000e-08,6.00000000000000e-01,6.00000000000000e-01,5.14882115318360e-06
1.51100000000000e-08,5.39999999999992e-01,6.00000000000000e-01,-1.24343329796134e-04
1.51300000000000e-08,4.19999999999994e-01,6.00000000000000e-01,-3.79163387622297e-04
1.51700000000000e-08,1.80000000000000e-01,6.00000000000000e-01,-7.45173232110291e-04
1.52000000000000e-08,0.00000000000000e+00,6.00000000000000e-01,-5.39633593947583e-04
1.52080000000000e-08,0.00000000000000e+00,6.00000000000000e-01,-2.13130543396486e-04
1.52240000000000e-08,0.00000000000000e+00,6.00000000000000e-01,3.17744875573622e-04
1.52560000000000e-08,0.00000000000000e+00,6.00000000000000e-01,8.15174236648578e-04
1.53200000000000e-08,0.00000000000000e+00,6.00000000000000e-01,8.58309031718865e-04
1.54480000000000e-08,0.00000000000000e+00,6.00000000000000e-01,2.72591071301821e-04
1.57040000000000e-08,0.00000000000000e+00,6.00000000000000e-01,-3.66055440262227e-04
1.62160000000000e-08,0.00000000000000e+00,6.00000000000000e-01,-5.83169981558142e-05
1.70957841430452e-08,0.00000000000000e+00,6.00000000000000e-01,-3.04786133934129e-05
1.80644631355814e-08,0.00000000000000e+00,6.00000000000000e-01,1.25175978399058e-04
1.97582629700113e-08,0.00000000000000e+00,6.00000000000000e-01,-1.09523958035936e-04
2.14896999118770e-08,0.00000000000000e+00,6.00000000000000e-01,1.05581709853162e-04
2.49525737956084e-08,0.00000000000000e+00,6.00000000000000e-01,-8.89000097336317e-05
2.50000000000000e-08,0.00000000000000e+00,6.00000000000000e-01,-6.35477548438096e-05
2.50100000000000e-08,5.99999999999886e-02,6.00000000000000e-01,2.75877182008194e-04
2.50300000000000e-08,1.80000000000006e-01,6.00000000000000e-01,8.51339848519622e-04
2.50700000000000e-08,4.20000000000000e-01,6.00000000000000e-01,1.44012614313216e-03
2.51000000000000e-08,6.00000000000000e-01,6.00000000000000e-01,8.09688415117804e-04
2.51080000000000e-08,6.00000000000000e-01,6.00000000000000e-01,2.45528953799992e-04
2.51240000000000e-08,6.00000000000000e-01,6.00000000000000e-01,-9.19466919550610e-04
2.51560000000000e-08,6.00000000000000e-01,6.00000000000000e-01,-3.00495085769924e-03
2.52200000000000e-08,6.00000000000000e-01,6.00000000000000e-01,-5.42850138896649e-03
2.53480000000000e-08,6.00000000000000e-01,6.00000000000000e-01,-3.08059651081238e-03
2.56040000000000e-08,6.00000000000000e-01,6.00000000000000e-01,1.33923241213027e-01
2.61160000000000e-08,6.00000000000000e-01,6.00000000000000e-01,5.44556863504950e-01
2.71400000000000e-08,6.00000000000000e-01,6.00000000000000e-01,6.16200026011654e-01
2.80880906452159e-08,6.00000000000000e-01,6.00000000000000e-01,5.86388645129202e-01
2.99842719356477e-08,6.00000000000000e-01,6.00000000000000e-01,6.09874210753991e-01
3.01000000000000e-08,6.00000000000000e-01,6.00000000000000e-01,6.00721035813931e-01
3.01100000000000e-08,6.00000000000000e-01,5.40000000000031e-01,6.00625817424571e-01
3.01300000000000e-08,6.00000000000000e-01,4.20000000000014e-01,6.00460145255441e-01
3.01700000000000e-08,6.00000000000000e-01,1.80000000000020e-01,6.00428804866517e-01
3.02000000000000e-08,6.00000000000000e-01,1.44328993201270e-14,6.00398599748688e-01
3.02080000000000e-08,6.00000000000000e-01,0.00000000000000e+00,6.00404704106634e-01
3.02240000000000e-08,6.00000000000000e-01,0.00000000000000e+00,6.00404124394549e-01
3.02560000000000e-08,6.00000000000000e-01,0.00000000000000e+00,6.00350926682749e-01
3.03200000000000e-08,6.00000000000000e-01,0.00000000000000e+00,6.00151047419371e-01
3.04480000000000e-08,6.00000000000000e-01,0.00000000000000e+00,5.99934283718811e-01
3.07040000000000e-08,6.00000000000000e-01,0.00000000000000e+00,5.99881085367852e-01
3.12160000000000e-08,6.00000000000000e-01,0.00000000000000e+00,5.99972582581776e-01
3.18451595448748e-08,6.00000000000000e-01,0.00000000000000e+00,5.99909037382932e-01
3.31034786346244e-08,6.00000000000000e-01,0.00000000000000e+00,5.99936800086430e-01
3.47668688839839e-08,6.00000000000000e-01,0.00000000000000e+00,5.99945991779246e-01
3.51000000000000e-08,5.99999999999970e-01,0.00000000000000e+00,5.99916533603856e-01
3.51100000000000e-08,5.39999999999982e-01,0.00000000000000e+00,5.99752909820621e-01
3.51300000000000e-08,4.19999999999965e-01,0.00000000000000e+00,5.99473582522332e-01
3.51700000000000e-08,1.79999999999970e-01,0.00000000000000e+00,5.99641722215473e-01
3.52000000000000e-08,0.00000000000000e+00,0.00000000000000e+00,6.01213176791797e-01
3.52080000000000e-08,0.00000000000000e+00,0.00000000000000e+00,6.01957381225731e-01
3.52240000000000e-08,0.00000000000000e+00,0.00000000000000e+00,6.03200119421585e-01
3.52560000000000e-08,0.00000000000000e+00,0.00000000000000e+00,6.04716801883853e-01
3.53200000000000e-08,0.00000000000000e+00,0.00000000000000e+00,6.05933070763142e-01
3.54480000000000e-08,0.00000000000000e+00,0.00000000000000e+00,6.04053973826501e-01
3.57040000000000e-08,0.00000000000000e+00,0.00000000000000e+00,5.90264774638450e-01
3.62160000000000e-08,0.00000000000000e+00,0.00000000000000e+00,5.87913695484095e-01
3.68445655052958e-08,0.00000000000000e+00,0.00000000000000e+00,6.02959797870118e-01
3.80140371649548e-08,0.00000000000000e+00,0.00000000000000e+00,5.96293568253821e-01
3.91000000000000e-08,0.00000000000000e+00,0.00000000000000e+00,6.01677175629391e-01
3.92268318200743e-08,0.00000000000000e+00,0.00000000000000e+00,6.00383262113838e-01
3.94804954602228e-08,0.00000000000000e+00,0.00000000000000e+00,5.99410698850519e-01
3.99878227405199e-08,0.00000000000000e+00,0.00000000000000e+00,5.99636810073306e-01
4.10024773011141e-08,0.00000000000000e+00,0.00000000000000e+00,5.99576362360205e-01
4.30317864223024e-08,0.00000000000000e+00,0.00000000000000e+00,5.99701336537188e-01
4.50000000000000e-08,0.00000000000000e+00,0.00000000000000e+00,5.99655197368434e-01
4.50100000000000e-08,5.99999999999886e-02,0.00000000000000e+00,5.99903879200337e-01
4.50300000000000e-08,1.80000000000006e-01,0.00000000000000e+00,6.00319412346441e-01
4.50700000000000e-08,4.20000000000000e-01,0.00000000000000e+00,6.00625411212291e-01
4.51000000000000e-08,6.00000000000000e-01,0.00000000000000e+00,6.00266703513548e-01
4.51080000000000e-08,6.00000000000000e-01,0.00000000000000e+00,6.00012002024217e-01
4.51240000000000e-08,6.00000000000000e-01,0.00000000000000e+00,5.99611329783079e-01
4.51560000000000e-08,6.00000000000000e-01,0.00000000000000e+00,5.99022832429030e-01
4.52200000000000e-08,6.00000000000000e-01,0.00000000000000e+00,5.98597123845661e-01
4.53480000000000e-08,6.00000000000000e-01,0.00000000000000e+00,5.99797109218367e-01
4.56040000000000e-08,6.00000000000000e-01,0.00000000000000e+00,6.12775661288879e-01
4.61160000000000e-08,6.00000000000000e-01,0.00000000000000e+00,1.91204805739501e-01
4.69344737078080e-08,6.00000000000000e-01,0.00000000000000e+00,-6.56355537100337e-02
4.77721549517537e-08,6.00000000000000e-01,0.00000000000000e+00,5.76409735331807e-02
4.94475174396452e-08,6.00000000000000e-01,0.00000000000000e+00,-4.06525158619793e-02
5.00000000000000e-08,6.00000000000000e-01,0.00000000000000e+00,2.74354173194734e-02
5.00100000000000e-08,6.00000000000000e-01,5.99999999999886e-02,2.41410781031455e-02
5.00300000000000e-08,6.00000000000000e-01,1.79999999999966e-01,1.81312027662437e-02
5.00700000000000e-08,6.00000000000000e-01,4.20000000000000e-01,9.83120289124223e-03
5.01000000000000e-08,6.00000000000000e-01,6.00000000000000e-01,6.27182369720543e-03
5.01080000000000e-08,6.00000000000000e-01,6.00000000000000e-01,5.60007583218565e-03
5.01240000000000e-08,6.00000000000000e-01,6.00000000000000e-01,4.41308721787591e-03
5.01560000000000e-08,6.00000000000000e-01,6.00000000000000e-01,2.57249074519657e-03
5.02200000000000e-08,6.00000000000000e-01,6.00000000000000e-01,9.70715796716676e-04
5.03480000000000e-08,6.00000000000000e-01,6.00000000000000e-01,6.52644232495420e-05
5.06040000000000e-08,6.00000000000000e-01,6.00000000000000e-01,-6.22327909342163e-06
5.11160000000001e-08,6.00000000000000e-01,6.00000000000000e-01,2.07259583043934e-06
5.21400000000002e-08,6.00000000000000e-01,6.00000000000000e-01,3.67071641730818e-06
5.41880000000003e-08,6.00000000000000e-01,6.00000000000000e-01,3.10301949384660e-07
5.51000000000000e-08,6.00000000000000e-01,6.00000000000000e-01,5.14415407161517e-06
5.51100000000000e-08,5.40000000000021e-01,6.00000000000000e-01,-1.27069309144023e-04
5.51300000000000e-08,4.20000000000004e-01,6.00000000000000e-01,-3.77396423745527e-04
5.51700000000000e-08,1.80000000000010e-01,6.00000000000000e-01,-7.49454910770650e-04
5.52000000000000e-08,0.00000000000000e+00,6.00000000000000e-01,-5.42841899534019e-04
5.52080000000000e-08,0.00000000000000e+00,6.00000000000000e-01,-2.19966679726749e-04
5.52240000000000e-08,0.00000000000000e+00,6.00000000000000e-01,3.11298171686361e-04
5.52560000000000e-08,0.00000000000000e+00,6.00000000000000e-01,8.07648487635468e-04
5.53200000000000e-08,0.00000000000000e+00,6.00000000000000e-01,8.42023555465921e-04
5.54480000000000e-08,0.00000000000000e+00,6.00000000000000e-01,1.23404074375409e-04
5.57040000000000e-08,0.00000000000000e+00,6.00000000000000e-01,-7.18576538426906e-04
5.62160000000000e-08,0.00000000000000e+00,6.00000000000000e-01,8.96439955260474e-05
5.70969018019726e-08,0.00000000000000e+00,6.00000000000000e-01,-1.17139142158188e-04
5.80659274805998e-08,0.00000000000000e+00,6.00000000000000e-01,1.68470053993258e-04
5.97612744078412e-08,0.00000000000000e+00,6.00000000000000e-01,-1.44364432031793e-04
6.14941455295609e-08,0.00000000000000e+00,6.00000000000000e-01,1.24773134141960e-04
6.49598877730003e-08,0.00000000000000e+00,6.00000000000000e-01,-1.01473463064626e-04
6.50000000000000e-08,0.00000000000000e+00,6.00000000000000e-01,-1.20570175887375e-04
6.50100000000000e-08,5.99999999999886e-02,6.00000000000000e-01,2.25682269697561e-04
6.50300000000000e-08,1.79999999999966e-01,6.00000000000000e-01,8.10281372558133e-04
6.50700000000000e-08,4.19999999999920e-01,6.00000000000000e-01,1.41364615935929e-03
6.51000000000000e-08,5.99999999999966e-01,6.00000000000000e-01,7.91232068697620e-04
6.51080000000000e-08,6.00000000000000e-01,6.00000000000000e-01,2.28281231843569e-04
6.51240000000000e-08,6.00000000000000e-01,6.00000000000000e-01,-9.34305322030635e-04
6.51560000000000e-08,6.00000000000000e-01,6.00000000000000e-01,-3.01509657408054e-03
6.52200000000000e-08,6.00000000000000e-01,6.00000000000000e-01,-5.43286394619422e-03
6.53480000000000e-08,6.00000000000000e-01,6.00000000000000e-01,-3.07383198676171e-03
6.56040000000000e-08,6.00000000000000e-01,6.00000000000000e-01,1.33994900312551e-01
6.61159999999999e-08,6.00000000000000e-01,6.00000000000000e-01,5.44597562438175e-01
6.71399999999999e-08,6.00000000000000e-01,6.00000000000000e-01,6.16187886750413e-01
6.80881488588347e-08,6.00000000000000e-01,6.00000000000000e-01,5.86398382013768e-01
6.99844465765043e-08,6.00000000000000e-01,6.00000000000000e-01,6.09866611072178e-01
7.01000000000000e-08,6.00000000000000e-01,6.00000000000000e-01,6.00729528819151e-01
7.01100000000000e-08,6.00000000000000e-01,5.40000000000011e-01,6.00633060973605e-01
7.01300000000000e-08,6.00000000000000e-01,4.20000000000034e-01,6.00465166087682e-01
7.01700000000000e-08,6.00000000000000e-01,1.80000000000080e-01,6.00431545506896e-01
7.02000000000000e-08,6.00000000000000e-01,3.44169137633799e-14,6.00400434824437e-01
7.02080000000000e-08,6.00000000000000e-01,0.00000000000000e+00,6.00406380120121e-01
7.02240000000000e-08,6.00000000000000e-01,0.00000000000000e+00,6.00405514604074e-01
7.02560000000000e-08,6.00000000000000e-01,0.00000000000000e+00,6.00351893701277e-01
7.03200000000000e-08,6.00000000000000e-01,0.00000000000000e+00,6.00151452697501e-01
7.04480000000000e-08,6.00000000000000e-01,0.00000000000000e+00,5.99934407483408e-01
7.07040000000000e-08,6.00000000000000e-01,0.00000000000000e+00,5.99881109550209e-01
7.12159999999999e-08,6.00000000000000e-01,0.00000000000000e+00,5.99972569933478e-01
7.18451925542504e-08,6.00000000000000e-01,0.00000000000000e+00,5.99909049481867e-01
7.31035776627515e-08,6.00000000000000e-01,0.00000000000000e+00,5.99936796770880e-01
7.47669908398759e-08,6.00000000000000e-01,0.00000000000000e+00,5.99945999116458e-01
7.51000000000000e-08,6.00000000000000e-01,0.00000000000000e+00,5.99916530430442e-01
7.51100000000000e-08,5.40000000000061e-01,0.00000000000000e+00,5.99752906487441e-01
7.51300000000000e-08,4.20000000000084e-01,0.00000000000000e+00,5.99473579384617e-01
7.51700000000000e-08,1.80000000000129e-01,0.00000000000000e+00,5.99641720462509e-01
7.52000000000000e-08,8.40438829641244e-14,0.00000000000000e+00,6.01213176243851e-01
7.52080000000000e-08,0.00000000000000e+00,0.00000000000000e+00,6.01957381192322e-01
7.52240000000000e-08,0.00000000000000e+00,0.00000000000000e+00,6.03200120534719e-01
7.52560000000000e-08,0.00000000000000e+00,0.00000000000000e+00,6.04716805001473e-01
7.53200000000000e-08,0.00000000000000e+00,0.00000000000000e+00,6.05933080701036e-01
7.54480000000000e-08,0.00000000000000e+00,0.00000000000000e+00,6.04054029809880e-01
7.57040000000000e-08,0.00000000000000e+00,0.00000000000000e+00,5.90264841166196e-01
7.62159999999999e-08,0.00000000000000e+00,0.00000000000000e+00,5.87913677617219e-01
7.68445655442460e-08,0.00000000000000e+00,0.00000000000000e+00,6.02959802936137e-01
7.80140371717771e-08,0.00000000000000e+00,0.00000000000000e+00,8.43369808495826e-02
7.81000000000000e-08,0.00000000000000e+00,0.00000000000000e+00,3.37972107757897e-02
7.81379890349343e-08,0.00000000000000e+00,0.00000000000000e+00,2.14771920072851e-02
7.82139671048030e-08,0.00000000000000e+00,0.00000000000000e+00,6.04089711294229e-03
7.83659232445402e-08,0.00000000000000e+00,0.00000000000000e+00,-9.31861746072959e-06
7.86698355240147e-08,0.00000000000000e+00,0.00000000000000e+00,1.62482066380178e-04
7.92776600829638e-08,0.00000000000000e+00,0.00000000000000e+00,-1.11587665244182e-04
8.04933092008618e-08,0.00000000000000e+00,0.00000000000000e+00,1.00828704129207e-04
8.29246074366580e-08,0.00000000000000e+00,0.00000000000000e+00,-8.35021782432215e-05
8.50000000000000e-08,0.00000000000000e+00,0.00000000000000e+00,8.25123247382587e-05
8.50100000000000e-08,5.99999999999886e-02,0.00000000000000e+00,3.73529613696078e-04
8.50300000000000e-08,1.79999999999966e-01,0.00000000000000e+00,8.23625020856242e-04
8.50700000000000e-08,4.19999999999920e-01,0.00000000000000e+00,1.10829706392694e-03
8.51000000000000e-08,5.99999999999966e-01,0.00000000000000e+00,6.48449065793505e-04
8.51080000000000e-08,6.00000000000000e-01,0.00000000000000e+00,3.68525744938272e-04
8.51240000000000e-08,6.00000000000000e-01,0.00000000000000e+00,-8.76859319974693e-05
8.51560000000000e-08,6.00000000000000e-01,0.00000000000000e+00,-6.17275327681230e-04
8.52200000000000e-08,6.00000000000000e-01,0.00000000000000e+00,-8.97638217357360e-04
8.53480000000000e-08,6.00000000000000e-01,0.00000000000000e+00,-5.97446192635610e-04
8.56040000000000e-08,6.00000000000000e-01,0.00000000000000e+00,3.21558940208078e-04
8.61159999999999e-08,6.00000000000000e-01,0.00000000000000e+00,1.44618560757183e-04
8.71399999999999e-08,6.00000000000000e-01,0.00000000000000e+00,-1.26204822247681e-04
8.84633505866261e-08,6.00000000000000e-01,0.00000000000000e+00,1.36689217091849e-04
9.00000000000000e-08,6.00000000000000e-01,0.00000000000000e+00,-1.11149359362565e-04
9.00100000000000e-08,6.00000000000000e-01,5.99999999999886e-02,-7.93930901510365e-05
9.00300000000000e-08,6.00000000000000e-01,1.79999999999966e-01,-3.28646314241843e-05
9.00700000000000e-08,6.00000000000000e-01,4.19999999999920e-01,-1.05130079521010e-06
9.01000000000000e-08,6.00000000000000e-01,5.99999999999966e-01,-1.60395080250342e-05
9.01080000000000e-08,6.00000000000000e-01,6.00000000000000e-01,-2.20786193933509e-05
9.01240000000000e-08,6.00000000000000e-01,6.00000000000000e-01,-2.61827893677236e-05
9.01560000000000e-08,6.00000000000000e-01,6.00000000000000e-01,-1.73404146381895e-05
9.02200000000000e-08,6.00000000000000e-01,6.00000000000000e-01,3.00751940549016e-06
9.03480000000000e-08,6.00000000000000e-01,6.00000000000000e-01,2.05213720253991e-05
9.06040000000000e-08,6.00000000000000e-01,6.00000000000000e-01,5.67580819327979e-06
9.11159999999999e-08,6.00000000000000e-01,6.00000000000000e-01,5.94143961092988e-06
9.21399999999999e-08,6.00000000000000e-01,6.00000000000000e-01,6.97414133355584e-06
9.41879999999998e-08,6.00000000000000e-01,6.00000000000000e-01,5.03865022874906e-06
9.51000000000000e-08,6.00000000000000e-01,6.00000000000000e-01,6.15698030731124e-06
9.51100000000000e-08,5.40000000000061e-01,6.00000000000000e-01,-1.24060211563026e-04
9.51300000000000e-08,4.20000000000084e-01,6.00000000000000e-01,-3.79175759047737e-04
9.51700000000000e-08,1.80000000000129e-01,6.00000000000000e-01,-7.45524237413780e-04
9.52000000000000e-08,8.40438829641244e-14,6.00000000000000e-01,-5.39916516313355e-04
9.52080000000000e-08,0.00000000000000e+00,6.00000000000000e-01,-2.13428267605759e-04
9.52240000000000e-08,0.00000000000000e+00,6.00000000000000e-01,3.17454467041803e-04
9.52560000000000e-08,0.00000000000000e+00,6.00000000000000e-01,8.14926791195700e-04
9.53200000000000e-08,0.00000000000000e+00,6.00000000000000e-01,8.58166993624468e-04
9.54480000000000e-08,0.00000000000000e+00,6.00000000000000e-01,2.72589056568379e-04
9.57040000000000e-08,0.00000000000000e+00,6.00000000000000e-01,-3.66029518437970e-04
9.62159999999999e-08,0.00000000000000e+00,6.00000000000000e-01,-5.83316913388664e-05
9.70957842056749e-08,0.00000000000000e+00,6.00000000000000e-01,-3.04678270926437e-05
9.80644632899835e-08,0.00000000000000e+00,6.00000000000000e-01,1.25167947191779e-04
9.97582633117795e-08,0.00000000000000e+00,6.00000000000000e-01,-1.09517090361603e-04
1.01489700444805e-07,0.00000000000000e+00,6.00000000000000e-01,1.05575827226930e-04
1.04952574710855e-07,0.00000000000000e+00,6.00000000000000e-01,-8.88945684947634e-05
1.05000000000000e-07,0.00000000000000e+00,6.00000000000000e-01,-6.35457926177613e-05
1.05010000000000e-07,5.99999999999886e-02,6.00000000000000e-01,2.75878898713861e-04
1.05030000000000e-07,1.79999999999966e-01,6.00000000000000e-01,8.51341044471710e-04
1.05070000000000e-07,4.19999999999920e-01,6.00000000000000e-01,1.44012660284402e-03
1.05100000000000e-07,5.99999999999966e-01,6.00000000000000e-01,8.09688490232732e-04
1.05108000000000e-07,6.00000000000000e-01,6.00000000000000e-01,2.45528933251166e-04
1.05124000000000e-07,6.00000000000000e-01,6.00000000000000e-01,-9.19467052434980e-04
1.05156000000000e-07,6.00000000000000e-01,6.00000000000000e-01,-3.00495106927971e-03
1.05220000000000e-07,6.00000000000000e-01,6.00000000000000e-01,-5.42850153724364e-03
1.05348000000000e-07,6.00000000000000e-01,6.00000000000000e-01,-3.08059572033273e-03
1.05604000000000e-07,6.00000000000000e-01,6.00000000000000e-01,1.33923249053259e-01
1.06116000000000e-07,6.00000000000000e-01,6.00000000000000e-01,5.44556868023004e-01
