Time,v(clk),v(data),v(out)
1.00000000000000e-08,6.00000000000000e-01,0.00000000000000e+00,4.23387320344602e-05
1.00100000000000e-08,6.00000000000000e-01,5.99999999999986e-02,4.91045877362428e-05
1.00300000000000e-08,6.00000000000000e-01,1.79999999999996e-01,5.79583903300845e-05
1.00700000000000e-08,6.00000000000000e-01,4.19999999999990e-01,4.40081123620900e-05
1.01000000000000e-08,6.00000000000000e-01,5.99999999999995e-01,-3.01222638429688e-06
1.01080000000000e-08,6.00000000000000e-01,6.00000000000000e-01,-2.17161674088417e-05
1.01240000000000e-08,6.00000000000000e-01,6.00000000000000e-01,-4.57877842637150e-05
1.01560000000000e-08,6.00000000000000e-01,6.00000000000000e-01,-5.84503272814813e-05
1.02200000000000e-08,6.00000000000000e-01,6.00000000000000e-01,-4.08792730100943e-05
1.03480000000000e-08,6.00000000000000e-01,6.00000000000000e-01,5.48062507094160e-06
1.06040000000000e-08,6.00000000000000e-01,6.00000000000000e-01,2.01700927059401e-05
1.11022763692547e-08,6.00000000000000e-01,6.00000000000000e-01,7.01936798947270e-06
1.20988291077642e-08,6.00000000000000e-01,6.00000000000000e-01,1.24032637632155e-05
1.40919345847832e-08,6.00000000000000e-01,6.00000000000000e-01,7.20951095890040e-06
1.51000000000000e-08,6.00000000000000e-01,6.00000000000000e-01,1.05027615792674e-05
1.51100000000000e-08,5.39999999999992e-01,6.00000000000000e-01,-1.69131239944553e-04
1.51300000000000e-08,4.19999999999994e-01,6.00000000000000e-01,-6.45775826480927e-04
1.51700000000000e-08,1.80000000000000e-01,6.00000000000000e-01,-1.72503633562879e-03
1.52000000000000e-08,0.00000000000000e+00,6.00000000000000e-01,-2.08565577807300e-03
1.52080000000000e-08,0.00000000000000e+00,6.00000000000000e-01,-1.78129212950548e-03
1.52240000000000e-08,0.00000000000000e+00,6.00000000000000e-01,-1.21342184536175e-03
1.52560000000000e-08,0.00000000000000e+00,6.00000000000000e-01,-3.44955830050730e-04
1.53200000000000e-08,0.00000000000000e+00,6.00000000000000e-01,5.22340768987828e-04
1.54480000000000e-08,0.00000000000000e+00,6.00000000000000e-01,8.02289932276275e-04
1.57040000000000e-08,0.00000000000000e+00,6.00000000000000e-01,4.03394243024276e-04
1.62160000000000e-08,0.00000000000000e+00,6.00000000000000e-01,-2.71353608145841e-07
1.72400000000000e-08,0.00000000000000e+00,6.00000000000000e-01,-6.97201381447531e-05
1.92880000000000e-08,0.00000000000000e+00,6.00000000000000e-01,-1.82378388659523e-04
2.14720508376706e-08,0.00000000000000e+00,6.00000000000000e-01,1.89445936066119e-04
2.50000000000000e-08,0.00000000000000e+00,6.00000000000000e-01,-5.68317313630632e-05
2.50100000000000e-08,5.99999999999886e-02,6.00000000000000e-01,4.41301137957914e-04
2.50300000000000e-08,1.80000000000006e-01,6.00000000000000e-01,1.33519162090194e-03
2.50700000000000e-08,4.20000000000000e-01,6.00000000000000e-01,2.51083299150165e-03
2.51000000000000e-08,6.00000000000000e-01,6.00000000000000e-01,2.31914713401973e-03
2.51080000000000e-08,6.00000000000000e-01,6.00000000000000e-01,1.85747525676727e-03
2.51240000000000e-08,6.00000000000000e-01,6.00000000000000e-01,8.10326662713606e-04
2.51560000000000e-08,6.00000000000000e-01,6.00000000000000e-01,-1.70812671347088e-03
2.52200000000000e-08,6.00000000000000e-01,6.00000000000000e-01,-6.32145146976133e-03
2.53480000000000e-08,6.00000000000000e-01,6.00000000000000e-01,-1.04621786982678e-02
2.56040000000000e-08,6.00000000000000e-01,6.00000000000000e-01,2.48482235740026e-03
2.61160000000000e-08,6.00000000000000e-01,6.00000000000000e-01,1.83855353880744e-01
2.71400000000000e-08,6.00000000000000e-01,6.00000000000000e-01,5.44016579564312e-01
2.88529752191638e-08,6.00000000000000e-01,6.00000000000000e-01,6.13790966945126e-01
3.07800939255874e-08,6.00000000000000e-01,6.00000000000000e-01,5.93940832964617e-01
3.12550939255874e-08,6.00000000000000e-01,6.00000000000000e-01,5.95697841747276e-01
3.22050939255874e-08,6.00000000000000e-01,6.00000000000000e-01,6.00282930591908e-01
3.41050939255874e-08,6.00000000000000e-01,6.00000000000000e-01,6.00107708338486e-01
3.51000000000000e-08,5.99999999999970e-01,6.00000000000000e-01,5.99503289840875e-01
3.51100000000000e-08,5.39999999999982e-01,6.00000000000000e-01,5.99341515340538e-01
3.51300000000000e-08,4.19999999999965e-01,6.00000000000000e-01,5.98970421508165e-01
3.51700000000000e-08,1.79999999999970e-01,6.00000000000000e-01,5.98323956591445e-01
3.52000000000000e-08,0.00000000000000e+00,6.00000000000000e-01,5.98477111165291e-01
3.52080000000000e-08,0.00000000000000e+00,6.00000000000000e-01,5.98753697762287e-01
3.52240000000000e-08,0.00000000000000e+00,6.00000000000000e-01,5.99322974155196e-01
3.52560000000000e-08,0.00000000000000e+00,6.00000000000000e-01,6.00416560736773e-01
3.53200000000000e-08,0.00000000000000e+00,6.00000000000000e-01,6.02228818420096e-01
3.54480000000000e-08,0.00000000000000e+00,6.00000000000000e-01,6.04317836506262e-01
3.57040000000000e-08,0.00000000000000e+00,6.00000000000000e-01,6.05558536152347e-01
3.62160000000000e-08,0.00000000000000e+00,6.00000000000000e-01,6.01806424732527e-01
3.72400000000000e-08,0.00000000000000e+00,6.00000000000000e-01,5.87699287582918e-01
3.92880000000000e-08,0.00000000000000e+00,6.00000000000000e-01,5.89255000811426e-01
4.30880000000000e-08,0.00000000000000e+00,6.00000000000000e-01,6.04841909280788e-01
4.50000000000000e-08,0.00000000000000e+00,6.00000000000000e-01,5.97349621944088e-01
4.50100000000000e-08,5.99999999999886e-02,6.00000000000000e-01,5.97669065852898e-01
4.50300000000000e-08,1.80000000000006e-01,6.00000000000000e-01,5.98261725926311e-01
4.50700000000000e-08,4.20000000000000e-01,6.00000000000000e-01,5.99247052945332e-01
4.51000000000000e-08,6.00000000000000e-01,6.00000000000000e-01,5.99524146203377e-01
4.51080000000000e-08,6.00000000000000e-01,5.52000000000025e-01,5.99350653649714e-01
4.51240000000000e-08,6.00000000000000e-01,4.55999999999996e-01,5.98927580713588e-01
4.51560000000000e-08,6.00000000000000e-01,2.64000000000016e-01,5.97731091625072e-01
4.52000000000000e-08,6.00000000000000e-01,3.44169137633799e-14,5.95774191079678e-01
4.52064000000000e-08,6.00000000000000e-01,0.00000000000000e+00,5.95461400470579e-01
4.52192000000000e-08,6.00000000000000e-01,0.00000000000000e+00,5.94852290696549e-01
4.52448000000000e-08,6.00000000000000e-01,0.00000000000000e+00,5.93567686092910e-01
4.52960000000000e-08,6.00000000000000e-01,0.00000000000000e+00,5.90885030460614e-01
4.53984000000000e-08,6.00000000000000e-01,0.00000000000000e+00,5.85520854901006e-01
4.56032000000000e-08,6.00000000000000e-01,0.00000000000000e+00,5.80881299211107e-01
4.60128000000000e-08,6.00000000000000e-01,0.00000000000000e+00,5.88906772533555e-01
4.68320000000000e-08,6.00000000000000e-01,0.00000000000000e+00,6.01406250068479e-01
4.70368000000000e-08,6.00000000000000e-01,0.00000000000000e+00,6.00860770680225e-01
4.74464000000000e-08,6.00000000000000e-01,0.00000000000000e+00,6.00197267505028e-01
4.82656000000000e-08,6.00000000000000e-01,0.00000000000000e+00,5.99963834049777e-01
4.99040000000000e-08,6.00000000000000e-01,0.00000000000000e+00,6.00012865537009e-01
5.31808000000001e-08,6.00000000000000e-01,0.00000000000000e+00,5.99990968667953e-01
5.51000000000000e-08,6.00000000000000e-01,0.00000000000000e+00,6.00003603263417e-01
5.51100000000000e-08,5.40000000000021e-01,0.00000000000000e+00,5.99796548298265e-01
5.51300000000000e-08,4.20000000000004e-01,0.00000000000000e+00,5.99324039895871e-01
5.51700000000000e-08,1.80000000000010e-01,0.00000000000000e+00,5.98514481300725e-01
5.52000000000000e-08,0.00000000000000e+00,0.00000000000000e+00,5.98546466788142e-01
5.52080000000000e-08,0.00000000000000e+00,0.00000000000000e+00,5.98818098469602e-01
5.52240000000000e-08,0.00000000000000e+00,0.00000000000000e+00,5.99361729479600e-01
5.52560000000000e-08,0.00000000000000e+00,0.00000000000000e+00,6.00460417388512e-01
5.53200000000000e-08,0.00000000000000e+00,0.00000000000000e+00,6.02215574155077e-01
5.54480000000000e-08,0.00000000000000e+00,0.00000000000000e+00,6.04294575128210e-01
5.57040000000000e-08,0.00000000000000e+00,0.00000000000000e+00,6.06081711061194e-01
5.62160000000000e-08,0.00000000000000e+00,0.00000000000000e+00,6.07322441661249e-01
5.72400000000000e-08,0.00000000000000e+00,0.00000000000000e+00,6.07704737418336e-01
5.89527493527027e-08,0.00000000000000e+00,0.00000000000000e+00,5.97777567457565e-01
6.07062805523635e-08,0.00000000000000e+00,0.00000000000000e+00,5.99256484444988e-01
6.42133429516853e-08,0.00000000000000e+00,0.00000000000000e+00,5.99892471012858e-01
6.50000000000000e-08,0.00000000000000e+00,0.00000000000000e+00,5.99474559564378e-01
6.50100000000000e-08,5.99999999999886e-02,0.00000000000000e+00,5.99697821023508e-01
6.50300000000000e-08,1.79999999999966e-01,0.00000000000000e+00,6.00125942816175e-01
6.50700000000000e-08,4.19999999999920e-01,0.00000000000000e+00,6.00854564386032e-01
6.51000000000000e-08,5.99999999999966e-01,0.00000000000000e+00,6.00717962246672e-01
6.51080000000000e-08,6.00000000000000e-01,0.00000000000000e+00,6.00464373619968e-01
6.51240000000000e-08,6.00000000000000e-01,0.00000000000000e+00,5.99991095736499e-01
6.51560000000000e-08,6.00000000000000e-01,0.00000000000000e+00,5.99183746361960e-01
6.52200000000000e-08,6.00000000000000e-01,0.00000000000000e+00,5.97987890247509e-01
6.53480000000000e-08,6.00000000000000e-01,0.00000000000000e+00,5.97314573093242e-01
6.56040000000000e-08,6.00000000000000e-01,0.00000000000000e+00,6.02565818243891e-01
6.61159999999999e-08,6.00000000000000e-01,0.00000000000000e+00,6.26597236882785e-01
6.62439999999999e-08,6.00000000000000e-01,0.00000000000000e+00,6.31737061010137e-01
6.64999999999999e-08,6.00000000000000e-01,0.00000000000000e+00,6.16791746091209e-01
6.70119999999999e-08,6.00000000000000e-01,0.00000000000000e+00,1.80939179900360e-01
6.80359999999998e-08,6.00000000000000e-01,0.00000000000000e+00,-5.55737897526972e-02
6.90482178021304e-08,6.00000000000000e-01,0.00000000000000e+00,4.56819400092813e-02
7.10726534063916e-08,6.00000000000000e-01,0.00000000000000e+00,-3.58407051647148e-02
7.34443289219543e-08,6.00000000000000e-01,0.00000000000000e+00,3.39670421204291e-02
7.51000000000000e-08,6.00000000000000e-01,0.00000000000000e+00,-2.65501763009561e-02
7.51100000000000e-08,5.40000000000061e-01,0.00000000000000e+00,-2.31363276507819e-02
7.51300000000000e-08,4.20000000000084e-01,0.00000000000000e+00,-1.76616457679485e-02
7.51700000000000e-08,1.80000000000129e-01,0.00000000000000e+00,-1.15220488386925e-02
7.52000000000000e-08,8.40438829641244e-14,0.00000000000000e+00,-8.63478066805327e-03
7.52080000000000e-08,0.00000000000000e+00,0.00000000000000e+00,-7.70622060179540e-03
7.52240000000000e-08,0.00000000000000e+00,0.00000000000000e+00,-6.02672923501761e-03
7.52560000000000e-08,0.00000000000000e+00,0.00000000000000e+00,-3.54387131924053e-03
7.53200000000000e-08,0.00000000000000e+00,0.00000000000000e+00,-7.59877945395365e-04
7.54480000000000e-08,0.00000000000000e+00,0.00000000000000e+00,6.80072019641792e-04
7.57040000000000e-08,0.00000000000000e+00,0.00000000000000e+00,3.60186425548893e-04
7.62159999999999e-08,0.00000000000000e+00,0.00000000000000e+00,-7.09585298784617e-04
7.72399999999999e-08,0.00000000000000e+00,0.00000000000000e+00,1.35123737433239e-04
7.88304292640289e-08,0.00000000000000e+00,0.00000000000000e+00,-1.78285239093854e-04
8.20112877920869e-08,0.00000000000000e+00,0.00000000000000e+00,1.60687558125909e-04
8.50000000000000e-08,0.00000000000000e+00,0.00000000000000e+00,-1.15001487740450e-04
8.50100000000000e-08,5.99999999999886e-02,0.00000000000000e+00,3.10250371480872e-04
8.50300000000000e-08,1.79999999999966e-01,0.00000000000000e+00,1.07601225149016e-03
8.50700000000000e-08,4.19999999999920e-01,0.00000000000000e+00,1.95319834026372e-03
8.51000000000000e-08,5.99999999999966e-01,0.00000000000000e+00,1.33655401596587e-03
8.51080000000000e-08,6.00000000000000e-01,0.00000000000000e+00,8.98398051855417e-04
8.51240000000000e-08,6.00000000000000e-01,0.00000000000000e+00,1.84158754615915e-04
8.51560000000000e-08,6.00000000000000e-01,0.00000000000000e+00,-5.83468740420187e-04
8.52200000000000e-08,6.00000000000000e-01,0.00000000000000e+00,-1.08525165320142e-03
8.53480000000000e-08,6.00000000000000e-01,0.00000000000000e+00,-1.22986737726805e-03
8.56040000000000e-08,6.00000000000000e-01,0.00000000000000e+00,-6.26538265909082e-04
8.61159999999999e-08,6.00000000000000e-01,0.00000000000000e+00,6.17375097008762e-04
8.71399999999999e-08,6.00000000000000e-01,0.00000000000000e+00,-5.71212486522171e-05
8.86653653679193e-08,6.00000000000000e-01,0.00000000000000e+00,2.09960828839902e-05
9.00000000000000e-08,6.00000000000000e-01,0.00000000000000e+00,4.17846116591951e-05
9.00100000000000e-08,6.00000000000000e-01,5.99999999999886e-02,4.87138451434610e-05
9.00300000000000e-08,6.00000000000000e-01,1.79999999999966e-01,5.77097513411312e-05
9.00700000000000e-08,6.00000000000000e-01,4.19999999999920e-01,4.42074466775466e-05
9.01000000000000e-08,6.00000000000000e-01,5.99999999999966e-01,-1.10086977876678e-06
9.01080000000000e-08,6.00000000000000e-01,6.00000000000000e-01,-1.93639153341640e-05
9.01240000000000e-08,6.00000000000000e-01,6.00000000000000e-01,-4.29090361803997e-05
9.01560000000000e-08,6.00000000000000e-01,6.00000000000000e-01,-5.65783634420974e-05
9.02200000000000e-08,6.00000000000000e-01,6.00000000000000e-01,-4.07209678901649e-05
9.03480000000000e-08,6.00000000000000e-01,6.00000000000000e-01,5.49487202067961e-06
9.06040000000000e-08,6.00000000000000e-01,6.00000000000000e-01,1.83112129590532e-05
9.11159999999999e-08,6.00000000000000e-01,6.00000000000000e-01,8.14107898347918e-06
9.21399999999999e-08,6.00000000000000e-01,6.00000000000000e-01,1.16846252808112e-05
9.41879999999998e-08,6.00000000000000e-01,6.00000000000000e-01,7.75989338687097e-06
9.51000000000000e-08,6.00000000000000e-01,6.00000000000000e-01,1.00610534241215e-05
9.51100000000000e-08,5.40000000000061e-01,6.00000000000000e-01,-1.69485747269243e-04
9.51300000000000e-08,4.20000000000084e-01,6.00000000000000e-01,-6.46059479531710e-04
9.51700000000000e-08,1.80000000000129e-01,6.00000000000000e-01,-1.72520577553949e-03
9.52000000000000e-08,8.40438829641244e-14,6.00000000000000e-01,-2.08577213288344e-03
9.52080000000000e-08,0.00000000000000e+00,6.00000000000000e-01,-1.78139843325464e-03
9.52240000000000e-08,0.00000000000000e+00,6.00000000000000e-01,-1.21351004982410e-03
9.52560000000000e-08,0.00000000000000e+00,6.00000000000000e-01,-3.45013602644453e-04
9.53200000000000e-08,0.00000000000000e+00,6.00000000000000e-01,5.22311612297460e-04
9.54480000000000e-08,0.00000000000000e+00,6.00000000000000e-01,8.02280630686783e-04
9.57040000000000e-08,0.00000000000000e+00,6.00000000000000e-01,4.03396132948611e-04
9.62159999999999e-08,0.00000000000000e+00,6.00000000000000e-01,-2.62248806174453e-07
9.72399999999999e-08,0.00000000000000e+00,6.00000000000000e-01,-6.97257807404632e-05
9.92879999999998e-08,0.00000000000000e+00,6.00000000000000e-01,-1.82373340879751e-04
1.01472048221704e-07,0.00000000000000e+00,6.00000000000000e-01,1.89443112596717e-04
1.05000000000000e-07,0.00000000000000e+00,6.00000000000000e-01,-5.68301841448998e-05
1.05010000000000e-07,5.99999999999886e-02,6.00000000000000e-01,4.41301996004048e-04
1.05030000000000e-07,1.79999999999966e-01,6.00000000000000e-01,1.33519272030935e-03
1.05070000000000e-07,4.19999999999920e-01,6.00000000000000e-01,2.51083305863099e-03
1.05100000000000e-07,5.99999999999966e-01,6.00000000000000e-01,2.31914395955765e-03
1.05108000000000e-07,6.00000000000000e-01,6.00000000000000e-01,1.85747084257569e-03
1.05124000000000e-07,6.00000000000000e-01,6.00000000000000e-01,8.10319642620322e-04
1.05156000000000e-07,6.00000000000000e-01,6.00000000000000e-01,-1.70813757223129e-03
1.05220000000000e-07,6.00000000000000e-01,6.00000000000000e-01,-6.32146322967099e-03
1.05348000000000e-07,6.00000000000000e-01,6.00000000000000e-01,-1.04621827627860e-02
1.05604000000000e-07,6.00000000000000e-01,6.00000000000000e-01,2.48486717458181e-03
1.06116000000000e-07,6.00000000000000e-01,6.00000000000000e-01,1.83855521776788e-01
1.07140000000000e-07,6.00000000000000e-01,6.00000000000000e-01,5.44016644173330e-01
1.08852974393046e-07,6.00000000000000e-01,6.00000000000000e-01,6.13790935799828e-01
1.10780093834540e-07,6.00000000000000e-01,6.00000000000000e-01,5.93940848948886e-01
1.11255093834540e-07,6.00000000000000e-01,6.00000000000000e-01,5.95697847156334e-01
1.12205093834540e-07,6.00000000000000e-01,6.00000000000000e-01,6.00282928646399e-01
1.14105093834540e-07,6.00000000000000e-01,6.00000000000000e-01,6.00107709291419e-01
1.15100000000000e-07,6.00000000000000e-01,6.00000000000000e-01,5.99503289303355e-01
1.15110000000000e-07,5.40000000000061e-01,6.00000000000000e-01,5.99341514848488e-01
1.15130000000000e-07,4.20000000000084e-01,6.00000000000000e-01,5.98970421027572e-01
1.15170000000000e-07,1.80000000000129e-01,6.00000000000000e-01,5.98323956164035e-01
1.15200000000000e-07,8.40438829641244e-14,6.00000000000000e-01,5.98477110781211e-01
1.15208000000000e-07,0.00000000000000e+00,6.00000000000000e-01,5.98753697390544e-01
1.15224000000000e-07,0.00000000000000e+00,6.00000000000000e-01,5.99322973799880e-01
1.15256000000000e-07,0.00000000000000e+00,6.00000000000000e-01,6.00416560363501e-01
1.15320000000000e-07,0.00000000000000e+00,6.00000000000000e-01,6.02228818080827e-01
1.15448000000000e-07,0.00000000000000e+00,6.00000000000000e-01,6.04317836098105e-01
1.15704000000000e-07,0.00000000000000e+00,6.00000000000000e-01,6.05558534726307e-01
1.16216000000000e-07,0.00000000000000e+00,6.00000000000000e-01,6.01806418129297e-01
1.17240000000000e-07,0.00000000000000e+00,6.00000000000000e-01,5.87699283559001e-01
1.19288000000000e-07,0.00000000000000e+00,6.00000000000000e-01,5.89255004423699e-01
1.23088000000000e-07,0.00000000000000e+00,6.00000000000000e-01,6.04841906044500e-01
1.25000000000000e-07,0.00000000000000e+00,6.00000000000000e-01,5.97349623556732e-01
1.25010000000000e-07,5.99999999999092e-02,6.00000000000000e-01,5.97669067409476e-01
1.25030000000000e-07,1.79999999999886e-01,6.00000000000000e-01,5.98261727381276e-01
1.25070000000000e-07,4.19999999999841e-01,6.00000000000000e-01,5.99247054231447e-01
1.25100000000000e-07,5.99999999999886e-01,6.00000000000000e-01,5.99524147364845e-01
1.25108000000000e-07,6.00000000000000e-01,5.51999999999946e-01,5.99350654774079e-01
1.25124000000000e-07,6.00000000000000e-01,4.55999999999996e-01,5.98927581766102e-01
1.25156000000000e-07,6.00000000000000e-01,2.63999999999937e-01,5.97731092562422e-01
1.25200000000000e-07,6.00000000000000e-01,0.00000000000000e+00,5.95774191881783e-01
1.25206400000000e-07,6.00000000000000e-01,0.00000000000000e+00,5.95461401254110e-01
1.25219200000000e-07,6.00000000000000e-01,0.00000000000000e+00,5.94852291448414e-01
1.25244800000000e-07,6.00000000000000e-01,0.00000000000000e+00,5.93567686777009e-01
1.25296000000000e-07,6.00000000000000e-01,0.00000000000000e+00,5.90885031023868e-01
1.25398400000000e-07,6.00000000000000e-01,0.00000000000000e+00,5.85520855309456e-01
1.25603200000000e-07,6.00000000000000e-01,0.00000000000000e+00,5.80881299495529e-01
1.26012800000000e-07,6.00000000000000e-01,0.00000000000000e+00,5.88906772667770e-01
1.26832000000000e-07,6.00000000000000e-01,0.00000000000000e+00,6.01406250061417e-01
1.27036800000000e-07,6.00000000000000e-01,0.00000000000000e+00,6.00860770662193e-01
1.27446400000000e-07,6.00000000000000e-01,0.00000000000000e+00,6.00197267486810e-01
1.28265600000000e-07,6.00000000000000e-01,0.00000000000000e+00,5.99963834052695e-01
1.29904000000000e-07,6.00000000000000e-01,0.00000000000000e+00,6.00012865537125e-01
1.33180800000001e-07,6.00000000000000e-01,0.00000000000000e+00,5.99990968666766e-01
1.35100000000000e-07,5.99999999999891e-01,0.00000000000000e+00,6.00003603267031e-01
1.35110000000000e-07,5.39999999999823e-01,0.00000000000000e+00,5.99796548322960e-01
1.35130000000000e-07,4.19999999999846e-01,0.00000000000000e+00,5.99324039957328e-01
1.35170000000000e-07,1.79999999999891e-01,0.00000000000000e+00,5.98514481381064e-01
1.35200000000000e-07,0.00000000000000e+00,0.00000000000000e+00,5.98546466840807e-01
