Time,v(clk),v(data),v(out),v(reset)
1.00000000000000e-08,6.00000000000000e-01,0.00000000000000e+00,1.41707478963454e-04,0.00000000000000e+00
1.00100000000000e-08,6.00000000000000e-01,5.99999999999986e-02,-7.50237598316196e-04,0.00000000000000e+00
1.00300000000000e-08,6.00000000000000e-01,1.79999999999996e-01,-1.43564908965259e-03,0.00000000000000e+00
1.00700000000000e-08,6.00000000000000e-01,4.19999999999990e-01,-8.10054820827542e-04,0.00000000000000e+00
1.01000000000000e-08,6.00000000000000e-01,5.99999999999995e-01,-5.62976582652107e-04,0.00000000000000e+00
1.01080000000000e-08,6.00000000000000e-01,6.00000000000000e-01,-5.02152069428885e-04,0.00000000000000e+00
1.01240000000000e-08,6.00000000000000e-01,6.00000000000000e-01,-4.07372496946945e-04,0.00000000000000e+00
1.01560000000000e-08,6.00000000000000e-01,6.00000000000000e-01,-2.67909976168025e-04,0.00000000000000e+00
1.02200000000000e-08,6.00000000000000e-01,6.00000000000000e-01,-1.09265389734964e-04,0.00000000000000e+00
1.03480000000000e-08,6.00000000000000e-01,6.00000000000000e-01,8.96028694359619e-07,0.00000000000000e+00
1.06040000000000e-08,6.00000000000000e-01,6.00000000000000e-01,7.73942037533837e-07,0.00000000000000e+00
1.11160000000000e-08,6.00000000000000e-01,6.00000000000000e-01,1.46647632748471e-06,0.00000000000000e+00
1.21400000000000e-08,6.00000000000000e-01,6.00000000000000e-01,6.56171140510538e-07,0.00000000000000e+00
1.41880000000000e-08,6.00000000000000e-01,6.00000000000000e-01,1.54662832782537e-06,0.00000000000000e+00
1.51000000000000e-08,6.00000000000000e-01,6.00000000000000e-01,7.41705853993593e-07,0.00000000000000e+00
1.51100000000000e-08,5.39999999999992e-01,6.00000000000000e-01,1.64458498561719e-04,6.00000000000085e-02
1.51300000000000e-08,4.19999999999994e-01,6.00000000000000e-01,3.18889789176262e-04,1.80000000000006e-01
1.51700000000000e-08,1.80000000000000e-01,6.00000000000000e-01,2.10426249128461e-04,4.20000000000000e-01
1.52000000000000e-08,0.00000000000000e+00,6.00000000000000e-01,2.01367844808120e-04,6.00000000000000e-01
1.52080000000000e-08,0.00000000000000e+00,6.00000000000000e-01,2.02431307028253e-04,6.00000000000000e-01
1.52240000000000e-08,0.00000000000000e+00,6.00000000000000e-01,1.97562051827332e-04,6.00000000000000e-01
1.52560000000000e-08,0.00000000000000e+00,6.00000000000000e-01,9.94458480834473e-05,6.00000000000000e-01
1.53200000000000e-08,0.00000000000000e+00,6.00000000000000e-01,-7.83661854985886e-04,6.00000000000000e-01
1.54480000000000e-08,0.00000000000000e+00,6.00000000000000e-01,-1.20489201714583e-03,6.00000000000000e-01
1.57040000000000e-08,0.00000000000000e+00,6.00000000000000e-01,2.08029205554617e-04,6.00000000000000e-01
1.61088299071161e-08,0.00000000000000e+00,6.00000000000000e-01,-2.40668188765805e-04,6.00000000000000e-01
1.68166332338921e-08,0.00000000000000e+00,6.00000000000000e-01,2.10853784465269e-04,6.00000000000000e-01
1.80250368273850e-08,0.00000000000000e+00,6.00000000000000e-01,-1.18883537193023e-04,6.00000000000000e-01
1.94363592779872e-08,0.00000000000000e+00,6.00000000000000e-01,6.66191282222171e-05,6.00000000000000e-01
2.22590041791915e-08,0.00000000000000e+00,6.00000000000000e-01,-4.26481759877627e-05,6.00000000000000e-01
2.50000000000000e-08,0.00000000000000e+00,6.00000000000000e-01,2.59417717971165e-05,6.00000000000000e-01
2.50100000000000e-08,5.99999999999886e-02,6.00000000000000e-01,1.38739002364996e-04,6.00000000000000e-01
2.50300000000000e-08,1.80000000000006e-01,6.00000000000000e-01,3.34355544185351e-04,6.00000000000000e-01
2.50700000000000e-08,4.20000000000000e-01,6.00000000000000e-01,5.47940490457942e-04,6.00000000000000e-01
2.51000000000000e-08,6.00000000000000e-01,6.00000000000000e-01,5.23358824202284e-04,6.00000000000000e-01
2.51080000000000e-08,6.00000000000000e-01,6.00000000000000e-01,4.36945671849980e-04,6.00000000000000e-01
2.51240000000000e-08,6.00000000000000e-01,6.00000000000000e-01,2.22534986197814e-04,6.00000000000000e-01
2.51560000000000e-08,6.00000000000000e-01,6.00000000000000e-01,-6.16195375628889e-04,6.00000000000000e-01
2.52200000000000e-08,6.00000000000000e-01,6.00000000000000e-01,-2.93099647666263e-03,6.00000000000000e-01
2.53480000000000e-08,6.00000000000000e-01,6.00000000000000e-01,-4.98246448455932e-03,6.00000000000000e-01
2.56040000000000e-08,6.00000000000000e-01,6.00000000000000e-01,2.17005407106797e-01,6.00000000000000e-01
2.61160000000000e-08,6.00000000000000e-01,6.00000000000000e-01,6.01351836067124e-01,6.00000000000000e-01
2.69487116872072e-08,6.00000000000000e-01,6.00000000000000e-01,5.98439010396107e-01,6.00000000000000e-01
2.82193993733688e-08,6.00000000000000e-01,6.00000000000000e-01,6.01834237424465e-01,6.00000000000000e-01
2.99636901355015e-08,6.00000000000000e-01,6.00000000000000e-01,5.98262854028196e-01,6.00000000000000e-01
3.25907240783724e-08,6.00000000000000e-01,6.00000000000000e-01,6.01827703052536e-01,6.00000000000000e-01
3.51000000000000e-08,5.99999999999970e-01,6.00000000000000e-01,5.98245437469569e-01,6.00000000000000e-01
3.51100000000000e-08,5.39999999999982e-01,6.00000000000000e-01,5.99068361687394e-01,6.00000000000000e-01
3.51300000000000e-08,4.19999999999965e-01,6.00000000000000e-01,5.99933864384240e-01,6.00000000000000e-01
3.51700000000000e-08,1.79999999999970e-01,6.00000000000000e-01,6.00544807093955e-01,6.00000000000000e-01
3.52000000000000e-08,0.00000000000000e+00,6.00000000000000e-01,6.02216646970465e-01,6.00000000000000e-01
3.52080000000000e-08,0.00000000000000e+00,6.00000000000000e-01,6.02659286614386e-01,6.00000000000000e-01
3.52240000000000e-08,0.00000000000000e+00,6.00000000000000e-01,6.03141211812801e-01,6.00000000000000e-01
3.52560000000000e-08,0.00000000000000e+00,6.00000000000000e-01,6.01467985212295e-01,6.00000000000000e-01
3.53200000000000e-08,0.00000000000000e+00,6.00000000000000e-01,5.88251859777426e-01,6.00000000000000e-01
3.54480000000000e-08,0.00000000000000e+00,6.00000000000000e-01,5.84045553026101e-01,6.00000000000000e-01
3.57040000000000e-08,0.00000000000000e+00,6.00000000000000e-01,6.02291413786877e-01,6.00000000000000e-01
3.61373717565481e-08,0.00000000000000e+00,6.00000000000000e-01,5.97365350634622e-01,6.00000000000000e-01
3.67976306939882e-08,0.00000000000000e+00,6.00000000000000e-01,6.01731880949376e-01,6.00000000000000e-01
3.81181485688683e-08,0.00000000000000e+00,6.00000000000000e-01,5.98064842321010e-01,6.00000000000000e-01
4.07591843186286e-08,0.00000000000000e+00,6.00000000000000e-01,6.01671728661196e-01,6.00000000000000e-01
4.45591843186286e-08,0.00000000000000e+00,6.00000000000000e-01,5.98258754858294e-01,6.00000000000000e-01
4.50000000000000e-08,0.00000000000000e+00,6.00000000000000e-01,6.01320172985300e-01,6.00000000000000e-01
4.50100000000000e-08,5.99999999999886e-02,6.00000000000000e-01,6.00819118999983e-01,5.40000000000011e-01
4.50300000000000e-08,1.80000000000006e-01,6.00000000000000e-01,6.00124126529584e-01,4.19999999999994e-01
4.50700000000000e-08,4.20000000000000e-01,6.00000000000000e-01,6.01344264342543e-01,1.80000000000000e-01
4.51000000000000e-08,6.00000000000000e-01,6.00000000000000e-01,6.06896199261138e-01,0.00000000000000e+00
4.51080000000000e-08,6.00000000000000e-01,6.00000000000000e-01,6.08987467197415e-01,0.00000000000000e+00
4.51240000000000e-08,6.00000000000000e-01,6.00000000000000e-01,6.12892296576247e-01,0.00000000000000e+00
4.51560000000000e-08,6.00000000000000e-01,6.00000000000000e-01,6.21455752151407e-01,0.00000000000000e+00
4.52200000000000e-08,6.00000000000000e-01,6.00000000000000e-01,6.28854173697360e-01,0.00000000000000e+00
4.53480000000000e-08,6.00000000000000e-01,6.00000000000000e-01,4.35185309593439e-01,0.00000000000000e+00
4.56040000000000e-08,6.00000000000000e-01,6.00000000000000e-01,4.17051605044030e-02,0.00000000000000e+00
4.60140424985871e-08,6.00000000000000e-01,6.00000000000000e-01,-1.41593645379207e-02,0.00000000000000e+00
4.66553411137886e-08,6.00000000000000e-01,6.00000000000000e-01,7.94533438543299e-03,0.00000000000000e+00
4.76716296115995e-08,6.00000000000000e-01,6.00000000000000e-01,-4.97684717980038e-03,0.00000000000000e+00
4.96488510094042e-08,6.00000000000000e-01,6.00000000000000e-01,4.02047352056674e-03,0.00000000000000e+00
5.01000000000000e-08,6.00000000000000e-01,5.99999999999966e-01,-7.52718743273671e-04,0.00000000000000e+00
5.04329542852324e-08,6.00000000000000e-01,6.00000000000000e-01,-5.02707646772316e-04,0.00000000000000e+00
5.10988628556972e-08,6.00000000000000e-01,6.00000000000000e-01,2.91201962371923e-04,0.00000000000000e+00
5.24306799966268e-08,6.00000000000000e-01,6.00000000000000e-01,-2.18146644138926e-04,0.00000000000000e+00
5.50943142784861e-08,6.00000000000000e-01,6.00000000000000e-01,1.89561835553391e-04,0.00000000000000e+00
5.51000000000000e-08,6.00000000000000e-01,6.00000000000000e-01,1.97847970011544e-04,0.00000000000000e+00
5.51100000000000e-08,5.40000000000021e-01,6.00000000000000e-01,3.51232280000738e-04,5.99999999999787e-02
5.51300000000000e-08,4.20000000000004e-01,6.00000000000000e-01,4.75264398745866e-04,1.79999999999996e-01
5.51700000000000e-08,1.80000000000010e-01,6.00000000000000e-01,3.03690957080729e-04,4.19999999999990e-01
5.52000000000000e-08,0.00000000000000e+00,6.00000000000000e-01,2.64642072918195e-04,6.00000000000000e-01
5.52080000000000e-08,0.00000000000000e+00,6.00000000000000e-01,2.59901043276937e-04,6.00000000000000e-01
5.52240000000000e-08,0.00000000000000e+00,6.00000000000000e-01,2.45348946104458e-04,6.00000000000000e-01
5.52560000000000e-08,0.00000000000000e+00,6.00000000000000e-01,1.41094309446595e-04,6.00000000000000e-01
5.53200000000000e-08,0.00000000000000e+00,6.00000000000000e-01,-6.72853447416272e-04,6.00000000000000e-01
5.54480000000000e-08,0.00000000000000e+00,6.00000000000000e-01,-1.05145350284232e-03,6.00000000000000e-01
5.57040000000000e-08,0.00000000000000e+00,6.00000000000000e-01,2.25214297772957e-04,6.00000000000000e-01
5.61092936541833e-08,0.00000000000000e+00,6.00000000000000e-01,-1.46402894058588e-04,6.00000000000000e-01
5.68159941160073e-08,0.00000000000000e+00,6.00000000000000e-01,9.14861647309858e-05,6.00000000000000e-01
5.80043157295498e-08,0.00000000000000e+00,6.00000000000000e-01,-5.01690218829027e-05,6.00000000000000e-01
5.94239526746240e-08,0.00000000000000e+00,6.00000000000000e-01,2.89291103358841e-05,6.00000000000000e-01
6.22632265647724e-08,0.00000000000000e+00,6.00000000000000e-01,-1.74950241817609e-05,6.00000000000000e-01
6.50000000000000e-08,0.00000000000000e+00,6.00000000000000e-01,1.19001230654910e-05,6.00000000000000e-01
6.50100000000000e-08,5.99999999999886e-02,6.00000000000000e-01,1.14354879911432e-04,6.00000000000000e-01
6.50300000000000e-08,1.79999999999966e-01,6.00000000000000e-01,2.96775220276935e-04,6.00000000000000e-01
6.50700000000000e-08,4.19999999999920e-01,6.00000000000000e-01,5.11421205336426e-04,6.00000000000000e-01
6.51000000000000e-08,5.99999999999966e-01,6.00000000000000e-01,4.09662995930163e-04,6.00000000000000e-01
6.51080000000000e-08,6.00000000000000e-01,6.00000000000000e-01,2.40061894823687e-04,6.00000000000000e-01
6.51240000000000e-08,6.00000000000000e-01,6.00000000000000e-01,-2.00051023725833e-04,6.00000000000000e-01
6.51560000000000e-08,6.00000000000000e-01,6.00000000000000e-01,-1.40920123297432e-03,6.00000000000000e-01
6.52200000000000e-08,6.00000000000000e-01,6.00000000000000e-01,-3.64946208108150e-03,6.00000000000000e-01
6.53480000000000e-08,6.00000000000000e-01,6.00000000000000e-01,-4.04192961363498e-03,6.00000000000000e-01
6.56040000000000e-08,6.00000000000000e-01,6.00000000000000e-01,2.49097005306627e-01,6.00000000000000e-01
6.61159999999999e-08,6.00000000000000e-01,6.00000000000000e-01,6.06965593398295e-01,6.00000000000000e-01
6.68792814564893e-08,6.00000000000000e-01,6.00000000000000e-01,5.95497219274520e-01,6.00000000000000e-01
6.81696647691025e-08,6.00000000000000e-01,6.00000000000000e-01,6.04868276180428e-01,6.00000000000000e-01
6.98550828278998e-08,6.00000000000000e-01,6.00000000000000e-01,5.95459966691292e-01,6.00000000000000e-01
7.24539757633843e-08,6.00000000000000e-01,6.00000000000000e-01,6.04649700061027e-01,6.00000000000000e-01
7.51000000000000e-08,6.00000000000000e-01,6.00000000000000e-01,5.95528206541214e-01,6.00000000000000e-01
7.51100000000000e-08,5.40000000000061e-01,6.00000000000000e-01,5.97543706072326e-01,6.00000000000000e-01
7.51300000000000e-08,4.20000000000084e-01,6.00000000000000e-01,5.99741214211257e-01,6.00000000000000e-01
7.51700000000000e-08,1.80000000000129e-01,6.00000000000000e-01,6.00577983622645e-01,6.00000000000000e-01
7.52000000000000e-08,8.40438829641244e-14,6.00000000000000e-01,6.02206542020797e-01,6.00000000000000e-01
7.52080000000000e-08,0.00000000000000e+00,6.00000000000000e-01,6.02650097853828e-01,6.00000000000000e-01
7.52240000000000e-08,0.00000000000000e+00,6.00000000000000e-01,6.03128562875407e-01,6.00000000000000e-01
7.52560000000000e-08,0.00000000000000e+00,6.00000000000000e-01,6.01408329997614e-01,6.00000000000000e-01
7.53200000000000e-08,0.00000000000000e+00,6.00000000000000e-01,5.88127113205730e-01,6.00000000000000e-01
7.54480000000000e-08,0.00000000000000e+00,6.00000000000000e-01,5.84029315652661e-01,6.00000000000000e-01
7.57040000000000e-08,0.00000000000000e+00,6.00000000000000e-01,6.02310944057420e-01,6.00000000000000e-01
7.61374450782585e-08,0.00000000000000e+00,6.00000000000000e-01,5.97347556384719e-01,6.00000000000000e-01
7.67977537353567e-08,0.00000000000000e+00,6.00000000000000e-01,6.01746559370289e-01,6.00000000000000e-01
7.81183710495531e-08,0.00000000000000e+00,6.00000000000000e-01,5.98050754515118e-01,6.00000000000000e-01
8.07596056779459e-08,0.00000000000000e+00,6.00000000000000e-01,6.01685118714024e-01,6.00000000000000e-01
8.45596056779459e-08,0.00000000000000e+00,6.00000000000000e-01,5.98245516486627e-01,6.00000000000000e-01
8.50000000000000e-08,0.00000000000000e+00,6.00000000000000e-01,6.01330481970230e-01,6.00000000000000e-01
8.50100000000000e-08,5.99999999999886e-02,6.00000000000000e-01,6.00826318979926e-01,5.40000000000011e-01
8.50300000000000e-08,1.79999999999966e-01,6.00000000000000e-01,6.00126876646405e-01,4.20000000000034e-01
8.50700000000000e-08,4.19999999999920e-01,6.00000000000000e-01,6.01344345480193e-01,1.80000000000080e-01
8.51000000000000e-08,5.99999999999966e-01,6.00000000000000e-01,6.06895970053740e-01,3.44169137633799e-14
8.51080000000000e-08,6.00000000000000e-01,6.00000000000000e-01,6.08987197505615e-01,0.00000000000000e+00
8.51240000000000e-08,6.00000000000000e-01,6.00000000000000e-01,6.12892002230663e-01,0.00000000000000e+00
8.51560000000000e-08,6.00000000000000e-01,6.00000000000000e-01,6.21455560768850e-01,0.00000000000000e+00
8.52200000000000e-08,6.00000000000000e-01,6.00000000000000e-01,6.28855450497726e-01,0.00000000000000e+00
8.53480000000000e-08,6.00000000000000e-01,6.00000000000000e-01,4.35187729875236e-01,0.00000000000000e+00
8.56040000000000e-08,6.00000000000000e-01,6.00000000000000e-01,4.17066368067134e-02,0.00000000000000e+00
8.60140145061168e-08,6.00000000000000e-01,6.00000000000000e-01,-1.41586216808909e-02,0.00000000000000e+00
8.66576813867078e-08,6.00000000000000e-01,6.00000000000000e-01,7.96509701810985e-03,0.00000000000000e+00
8.76728614983854e-08,6.00000000000000e-01,6.00000000000000e-01,-4.98756912164226e-03,0.00000000000000e+00
8.96572906840218e-08,6.00000000000000e-01,6.00000000000000e-01,4.03368215347772e-03,0.00000000000000e+00
9.01000000000000e-08,6.00000000000000e-01,5.99999999999966e-01,-7.14480183560288e-04,0.00000000000000e+00
9.04349144828549e-08,6.00000000000000e-01,6.00000000000000e-01,-4.92616520242574e-04,0.00000000000000e+00
9.11047434485648e-08,6.00000000000000e-01,6.00000000000000e-01,2.86072079485319e-04,0.00000000000000e+00
9.24444013799845e-08,6.00000000000000e-01,6.00000000000000e-01,-2.14530178685434e-04,0.00000000000000e+00
9.51000000000000e-08,6.00000000000000e-01,6.00000000000000e-01,1.86322876674421e-04,0.00000000000000e+00
9.51100000000000e-08,5.40000000000061e-01,6.00000000000000e-01,3.51113287524067e-04,5.99999999999390e-02
9.51300000000000e-08,4.20000000000084e-01,6.00000000000000e-01,4.84690233367537e-04,1.79999999999916e-01
9.51700000000000e-08,1.80000000000129e-01,6.00000000000000e-01,3.09125846871816e-04,4.19999999999871e-01
9.52000000000000e-08,8.40438829641244e-14,6.00000000000000e-01,2.68442117960441e-04,5.99999999999916e-01
9.52080000000000e-08,0.00000000000000e+00,6.00000000000000e-01,2.63343362049119e-04,6.00000000000000e-01
9.52240000000000e-08,0.00000000000000e+00,6.00000000000000e-01,2.48145552450348e-04,6.00000000000000e-01
9.52560000000000e-08,0.00000000000000e+00,6.00000000000000e-01,1.42872754214478e-04,6.00000000000000e-01
9.53200000000000e-08,0.00000000000000e+00,6.00000000000000e-01,-6.72409819929935e-04,6.00000000000000e-01
9.54480000000000e-08,0.00000000000000e+00,6.00000000000000e-01,-1.05174481788233e-03,6.00000000000000e-01
9.57040000000000e-08,0.00000000000000e+00,6.00000000000000e-01,2.25254217575542e-04,6.00000000000000e-01
9.61092933549541e-08,0.00000000000000e+00,6.00000000000000e-01,-1.46464257469298e-04,6.00000000000000e-01
9.68160296119832e-08,0.00000000000000e+00,6.00000000000000e-01,9.15570144570926e-05,6.00000000000000e-01
9.80046531915067e-08,0.00000000000000e+00,6.00000000000000e-01,-5.02372414182082e-05,6.00000000000000e-01
9.94242089739804e-08,0.00000000000000e+00,6.00000000000000e-01,2.89861507293916e-05,6.00000000000000e-01
1.02263320538928e-07,0.00000000000000e+00,6.00000000000000e-01,-1.75471028767025e-05,6.00000000000000e-01
1.05000000000000e-07,0.00000000000000e+00,6.00000000000000e-01,1.19475997153243e-05,6.00000000000000e-01
1.05010000000000e-07,5.99999999999886e-02,6.00000000000000e-01,1.14402321023839e-04,6.00000000000000e-01
1.05030000000000e-07,1.79999999999966e-01,6.00000000000000e-01,2.96818894807607e-04,6.00000000000000e-01
1.05070000000000e-07,4.19999999999920e-01,6.00000000000000e-01,5.11453232298245e-04,6.00000000000000e-01
1.05100000000000e-07,5.99999999999966e-01,6.00000000000000e-01,4.09692309125458e-04,6.00000000000000e-01
1.05108000000000e-07,6.00000000000000e-01,6.00000000000000e-01,2.40093444200076e-04,6.00000000000000e-01
1.05124000000000e-07,6.00000000000000e-01,6.00000000000000e-01,-2.00014548580624e-04,6.00000000000000e-01
1.05156000000000e-07,6.00000000000000e-01,6.00000000000000e-01,-1.40916206714665e-03,6.00000000000000e-01
1.05220000000000e-07,6.00000000000000e-01,6.00000000000000e-01,-3.64943588645761e-03,6.00000000000000e-01
1.05348000000000e-07,6.00000000000000e-01,6.00000000000000e-01,-4.04200787243696e-03,6.00000000000000e-01
1.05604000000000e-07,6.00000000000000e-01,6.00000000000000e-01,2.49095168544466e-01,6.00000000000000e-01
1.06116000000000e-07,6.00000000000000e-01,6.00000000000000e-01,6.06965295523418e-01,6.00000000000000e-01
1.06879284875040e-07,6.00000000000000e-01,6.00000000000000e-01,5.95497384939277e-01,6.00000000000000e-01
1.08169666872205e-07,6.00000000000000e-01,6.00000000000000e-01,6.04868109061392e-01,6.00000000000000e-01
1.09855087742168e-07,6.00000000000000e-01,6.00000000000000e-01,5.95460123879325e-01,6.00000000000000e-01
1.12453981197530e-07,6.00000000000000e-01,6.00000000000000e-01,6.04649543314995e-01,6.00000000000000e-01
1.15100000000000e-07,6.00000000000000e-01,6.00000000000000e-01,5.95528357922133e-01,6.00000000000000e-01
1.15110000000000e-07,5.40000000000061e-01,6.00000000000000e-01,5.97543791282293e-01,6.00000000000000e-01
1.15130000000000e-07,4.20000000000084e-01,6.00000000000000e-01,5.99741225162753e-01,6.00000000000000e-01
1.15170000000000e-07,1.80000000000129e-01,6.00000000000000e-01,6.00577981703283e-01,6.00000000000000e-01
1.15200000000000e-07,8.40438829641244e-14,6.00000000000000e-01,6.02206542595158e-01,6.00000000000000e-01
1.15208000000000e-07,0.00000000000000e+00,6.00000000000000e-01,6.02650098398233e-01,6.00000000000000e-01
1.15224000000000e-07,0.00000000000000e+00,6.00000000000000e-01,6.03128563707718e-01,6.00000000000000e-01
1.15256000000000e-07,0.00000000000000e+00,6.00000000000000e-01,6.01408334087505e-01,6.00000000000000e-01
