Time,v(clk),v(data),v(out)
1.00000000000000e-08,6.00000000000000e-01,0.00000000000000e+00,-2.29778912995242e-05
1.00100000000000e-08,6.00000000000000e-01,5.99999999999986e-02,-9.99273305371529e-06
1.00300000000000e-08,6.00000000000000e-01,1.79999999999996e-01,5.16632398557537e-06
1.00700000000000e-08,6.00000000000000e-01,4.19999999999990e-01,-4.38927486934304e-06
1.01000000000000e-08,6.00000000000000e-01,5.99999999999995e-01,-2.63103279622284e-05
1.01080000000000e-08,6.00000000000000e-01,6.00000000000000e-01,-3.07477839726344e-05
1.01240000000000e-08,6.00000000000000e-01,6.00000000000000e-01,-3.13015454572046e-05
1.01560000000000e-08,6.00000000000000e-01,6.00000000000000e-01,-1.52738866711494e-05
1.02200000000000e-08,6.00000000000000e-01,6.00000000000000e-01,5.93824791582376e-06
1.03480000000000e-08,6.00000000000000e-01,6.00000000000000e-01,1.17459556414484e-05
1.06040000000000e-08,6.00000000000000e-01,6.00000000000000e-01,1.54224101525657e-06
1.11081686322563e-08,6.00000000000000e-01,6.00000000000000e-01,6.13652225669309e-06
1.21165058967690e-08,6.00000000000000e-01,6.00000000000000e-01,3.93794393450247e-06
1.41331804257944e-08,6.00000000000000e-01,6.00000000000000e-01,6.11867947679021e-06
1.51000000000000e-08,6.00000000000000e-01,6.00000000000000e-01,3.67398925446918e-06
1.51100000000000e-08,5.39999999999992e-01,6.00000000000000e-01,-1.11324285173867e-04
1.51300000000000e-08,4.19999999999994e-01,6.00000000000000e-01,-3.28817284811253e-04
1.51700000000000e-08,1.80000000000000e-01,6.00000000000000e-01,-4.72261379830821e-04
1.52000000000000e-08,0.00000000000000e+00,6.00000000000000e-01,2.37435250000459e-04
1.52080000000000e-08,0.00000000000000e+00,6.00000000000000e-01,6.57736810490445e-04
1.52240000000000e-08,0.00000000000000e+00,6.00000000000000e-01,1.24351935599190e-03
1.52560000000000e-08,0.00000000000000e+00,6.00000000000000e-01,1.57652554562492e-03
1.53200000000000e-08,0.00000000000000e+00,6.00000000000000e-01,1.15142085780892e-03
1.54480000000000e-08,0.00000000000000e+00,6.00000000000000e-01,-1.02512525856993e-03
1.57040000000000e-08,0.00000000000000e+00,6.00000000000000e-01,-7.32456849328114e-05
1.60842200606431e-08,0.00000000000000e+00,6.00000000000000e-01,1.25129377366931e-04
1.65936715024611e-08,0.00000000000000e+00,6.00000000000000e-01,-2.79438128160905e-04
1.72996973884562e-08,0.00000000000000e+00,6.00000000000000e-01,3.78512268038578e-04
1.85024689389615e-08,0.00000000000000e+00,6.00000000000000e-01,-3.71251688215640e-04
1.97877073049825e-08,0.00000000000000e+00,6.00000000000000e-01,3.48211475467538e-04
2.23581840370245e-08,0.00000000000000e+00,6.00000000000000e-01,-3.24496357458031e-04
2.50000000000000e-08,0.00000000000000e+00,6.00000000000000e-01,3.12086269789829e-04
2.50100000000000e-08,5.99999999999886e-02,6.00000000000000e-01,6.26440969800052e-04
2.50300000000000e-08,1.80000000000006e-01,6.00000000000000e-01,1.13436017148467e-03
2.50700000000000e-08,4.20000000000000e-01,6.00000000000000e-01,1.87775579271247e-03
2.51000000000000e-08,6.00000000000000e-01,6.00000000000000e-01,1.81293398956020e-03
2.51080000000000e-08,6.00000000000000e-01,6.00000000000000e-01,1.53900803625184e-03
2.51240000000000e-08,6.00000000000000e-01,6.00000000000000e-01,9.36135064127638e-04
2.51560000000000e-08,6.00000000000000e-01,6.00000000000000e-01,-4.41751591859663e-04
2.52200000000000e-08,6.00000000000000e-01,6.00000000000000e-01,-2.87260695928132e-03
2.53480000000000e-08,6.00000000000000e-01,6.00000000000000e-01,-5.39988793037761e-03
2.56040000000000e-08,6.00000000000000e-01,6.00000000000000e-01,3.36943586511266e-02
2.61160000000000e-08,6.00000000000000e-01,6.00000000000000e-01,5.23350132049533e-01
2.69416835354925e-08,6.00000000000000e-01,6.00000000000000e-01,6.15937965248045e-01
2.77907362635784e-08,6.00000000000000e-01,6.00000000000000e-01,5.85433775532157e-01
2.94888417197504e-08,6.00000000000000e-01,6.00000000000000e-01,6.13680889798242e-01
3.16537960363814e-08,6.00000000000000e-01,6.00000000000000e-01,5.86480519619919e-01
3.51000000000000e-08,5.99999999999970e-01,6.00000000000000e-01,6.12861932834973e-01
3.51100000000000e-08,5.39999999999982e-01,6.00000000000000e-01,6.08212644868211e-01
3.51300000000000e-08,4.19999999999965e-01,6.00000000000000e-01,6.02203836773770e-01
3.51700000000000e-08,1.79999999999970e-01,6.00000000000000e-01,6.00534547897931e-01
3.52000000000000e-08,0.00000000000000e+00,6.00000000000000e-01,6.03621925556259e-01
3.52080000000000e-08,0.00000000000000e+00,6.00000000000000e-01,6.04573318836198e-01
3.52240000000000e-08,0.00000000000000e+00,6.00000000000000e-01,6.05916652986698e-01
3.52560000000000e-08,0.00000000000000e+00,6.00000000000000e-01,6.06800289428068e-01
3.53200000000000e-08,0.00000000000000e+00,6.00000000000000e-01,6.03608592125023e-01
3.54480000000000e-08,0.00000000000000e+00,6.00000000000000e-01,5.88053430729969e-01
3.57040000000000e-08,0.00000000000000e+00,6.00000000000000e-01,5.94999175980077e-01
3.61419080879831e-08,0.00000000000000e+00,6.00000000000000e-01,6.02698058571643e-01
3.67483008156692e-08,0.00000000000000e+00,6.00000000000000e-01,5.97498660134296e-01
3.79078395991038e-08,0.00000000000000e+00,6.00000000000000e-01,6.01894292013117e-01
4.02269171659730e-08,0.00000000000000e+00,6.00000000000000e-01,5.98048877778049e-01
4.40269171659730e-08,0.00000000000000e+00,6.00000000000000e-01,6.01763691560786e-01
4.50000000000000e-08,0.00000000000000e+00,6.00000000000000e-01,5.98407829493945e-01
4.50100000000000e-08,5.99999999999886e-02,6.00000000000000e-01,5.98961874532379e-01
4.50300000000000e-08,1.80000000000006e-01,6.00000000000000e-01,5.99775422255642e-01
4.50700000000000e-08,4.20000000000000e-01,6.00000000000000e-01,6.00551616093922e-01
4.51000000000000e-08,6.00000000000000e-01,6.00000000000000e-01,6.00402092646787e-01
4.51080000000000e-08,6.00000000000000e-01,5.52000000000025e-01,6.00207432204653e-01
4.51240000000000e-08,6.00000000000000e-01,4.55999999999996e-01,5.99819522649023e-01
4.51560000000000e-08,6.00000000000000e-01,2.64000000000016e-01,5.99227478226021e-01
4.52000000000000e-08,6.00000000000000e-01,3.44169137633799e-14,5.98785936097357e-01
4.52064000000000e-08,6.00000000000000e-01,0.00000000000000e+00,5.98760569019791e-01
4.52192000000000e-08,6.00000000000000e-01,0.00000000000000e+00,5.98698849721256e-01
4.52448000000000e-08,6.00000000000000e-01,0.00000000000000e+00,5.98585360713940e-01
4.52960000000000e-08,6.00000000000000e-01,0.00000000000000e+00,5.98438108866086e-01
4.53984000000000e-08,6.00000000000000e-01,0.00000000000000e+00,5.98330750326701e-01
4.56032000000000e-08,6.00000000000000e-01,0.00000000000000e+00,5.99227369866330e-01
4.59251084984218e-08,6.00000000000000e-01,0.00000000000000e+00,6.02435870263339e-01
4.64935774423857e-08,6.00000000000000e-01,0.00000000000000e+00,4.67536535738344e-01
4.71569690740920e-08,6.00000000000000e-01,0.00000000000000e+00,5.70909318063570e-02
4.81722213967880e-08,6.00000000000000e-01,0.00000000000000e+00,-3.15614447386894e-02
4.95690751272995e-08,6.00000000000000e-01,0.00000000000000e+00,2.62359956095679e-02
5.15574041387695e-08,6.00000000000000e-01,0.00000000000000e+00,-1.96999622231315e-02
5.51000000000000e-08,6.00000000000000e-01,0.00000000000000e+00,1.90780945744518e-02
5.51100000000000e-08,5.40000000000021e-01,0.00000000000000e+00,1.64123627166431e-02
5.51300000000000e-08,4.20000000000004e-01,0.00000000000000e+00,1.23266166750119e-02
5.51700000000000e-08,1.80000000000010e-01,0.00000000000000e+00,8.03215894681315e-03
5.52000000000000e-08,0.00000000000000e+00,0.00000000000000e+00,6.77487257931587e-03
5.52080000000000e-08,0.00000000000000e+00,0.00000000000000e+00,6.73477655875321e-03
5.52240000000000e-08,0.00000000000000e+00,0.00000000000000e+00,6.49427698462018e-03
5.52560000000000e-08,0.00000000000000e+00,0.00000000000000e+00,5.47337733049755e-03
5.53200000000000e-08,0.00000000000000e+00,0.00000000000000e+00,2.91946447803712e-03
5.54480000000000e-08,0.00000000000000e+00,0.00000000000000e+00,-1.54007723702572e-03
5.57040000000000e-08,0.00000000000000e+00,0.00000000000000e+00,-3.82718292289023e-04
5.60809414668144e-08,0.00000000000000e+00,0.00000000000000e+00,2.77689675788839e-04
5.65907741841361e-08,0.00000000000000e+00,0.00000000000000e+00,-1.91786079094335e-04
5.76104396187794e-08,0.00000000000000e+00,0.00000000000000e+00,1.66930975744790e-04
5.96497704880661e-08,0.00000000000000e+00,0.00000000000000e+00,-1.45088264089490e-04
6.34497704880661e-08,0.00000000000000e+00,0.00000000000000e+00,1.45047767446400e-04
6.50000000000000e-08,0.00000000000000e+00,0.00000000000000e+00,-1.21847532862429e-04
6.50100000000000e-08,5.99999999999886e-02,0.00000000000000e+00,1.84643451386773e-04
6.50300000000000e-08,1.79999999999966e-01,0.00000000000000e+00,6.27733673954634e-04
6.50700000000000e-08,4.19999999999920e-01,0.00000000000000e+00,8.91748538407539e-04
6.51000000000000e-08,5.99999999999966e-01,0.00000000000000e+00,4.50296444665002e-04
6.51080000000000e-08,6.00000000000000e-01,0.00000000000000e+00,2.19919615493641e-04
6.51240000000000e-08,6.00000000000000e-01,0.00000000000000e+00,-1.53516462318329e-04
6.51560000000000e-08,6.00000000000000e-01,0.00000000000000e+00,-5.06278691679865e-04
6.52200000000000e-08,6.00000000000000e-01,0.00000000000000e+00,-5.49435113598742e-04
6.53480000000000e-08,6.00000000000000e-01,0.00000000000000e+00,-2.48142711226584e-04
6.56040000000000e-08,6.00000000000000e-01,0.00000000000000e+00,-3.14201681374041e-05
6.61159999999999e-08,6.00000000000000e-01,0.00000000000000e+00,1.53021989859732e-04
6.71399999999999e-08,6.00000000000000e-01,0.00000000000000e+00,-6.69224593118946e-05
6.91879999999998e-08,6.00000000000000e-01,0.00000000000000e+00,5.98971416893631e-05
7.14474580473392e-08,6.00000000000000e-01,0.00000000000000e+00,-3.87262183432942e-05
7.51000000000000e-08,6.00000000000000e-01,0.00000000000000e+00,4.29680415280336e-05
7.51100000000000e-08,5.40000000000061e-01,0.00000000000000e+00,-7.54887681358590e-05
7.51300000000000e-08,4.20000000000084e-01,0.00000000000000e+00,-3.01834744985227e-04
7.51700000000000e-08,1.80000000000129e-01,0.00000000000000e+00,-4.52997562467458e-04
7.52000000000000e-08,8.40438829641244e-14,0.00000000000000e+00,2.50393893021020e-04
7.52080000000000e-08,0.00000000000000e+00,0.00000000000000e+00,6.69898966885629e-04
7.52240000000000e-08,0.00000000000000e+00,0.00000000000000e+00,1.25500566468972e-03
7.52560000000000e-08,0.00000000000000e+00,0.00000000000000e+00,1.58929665053439e-03
7.53200000000000e-08,0.00000000000000e+00,0.00000000000000e+00,1.16807629109772e-03
7.54480000000000e-08,0.00000000000000e+00,0.00000000000000e+00,-1.03798762677414e-03
7.57040000000000e-08,0.00000000000000e+00,0.00000000000000e+00,-8.02066088077397e-05
7.60810454629375e-08,0.00000000000000e+00,0.00000000000000e+00,8.14309403310010e-05
7.65894996474748e-08,0.00000000000000e+00,0.00000000000000e+00,-5.36629961859700e-05
7.76064080165495e-08,0.00000000000000e+00,0.00000000000000e+00,5.06396844137565e-05
7.96402247546987e-08,0.00000000000000e+00,0.00000000000000e+00,-3.88975786739226e-05
8.34402247546987e-08,0.00000000000000e+00,0.00000000000000e+00,4.37217364929422e-05
8.50000000000000e-08,0.00000000000000e+00,0.00000000000000e+00,-3.12529924756319e-05
8.50100000000000e-08,5.99999999999886e-02,0.00000000000000e+00,2.54336434070884e-04
8.50300000000000e-08,1.79999999999966e-01,0.00000000000000e+00,6.68705660658395e-04
8.50700000000000e-08,4.19999999999920e-01,0.00000000000000e+00,9.09211876519822e-04
8.51000000000000e-08,5.99999999999966e-01,0.00000000000000e+00,4.59355922691751e-04
8.51080000000000e-08,6.00000000000000e-01,0.00000000000000e+00,2.27770735804267e-04
8.51240000000000e-08,6.00000000000000e-01,0.00000000000000e+00,-1.47686049918827e-04
8.51560000000000e-08,6.00000000000000e-01,0.00000000000000e+00,-5.03248829396660e-04
8.52200000000000e-08,6.00000000000000e-01,0.00000000000000e+00,-5.48809670460143e-04
8.53480000000000e-08,6.00000000000000e-01,0.00000000000000e+00,-2.48351731840166e-04
8.56040000000000e-08,6.00000000000000e-01,0.00000000000000e+00,-3.11740488108322e-05
8.61159999999999e-08,6.00000000000000e-01,0.00000000000000e+00,1.52885289500942e-04
8.71399999999999e-08,6.00000000000000e-01,0.00000000000000e+00,-6.68364973908965e-05
8.91879999999998e-08,6.00000000000000e-01,0.00000000000000e+00,5.98259562623674e-05
9.00000000000000e-08,6.00000000000000e-01,0.00000000000000e+00,-2.43972638475261e-05
9.00100000000000e-08,6.00000000000000e-01,5.99999999999886e-02,-1.10526540511441e-05
9.00300000000000e-08,6.00000000000000e-01,1.79999999999966e-01,5.30900615193508e-06
9.00700000000000e-08,6.00000000000000e-01,4.19999999999920e-01,-3.59970493836459e-06
9.01000000000000e-08,6.00000000000000e-01,5.99999999999966e-01,-2.55205082898974e-05
9.01080000000000e-08,6.00000000000000e-01,6.00000000000000e-01,-2.99566625621833e-05
9.01240000000000e-08,6.00000000000000e-01,6.00000000000000e-01,-3.04401160251683e-05
9.01560000000000e-08,6.00000000000000e-01,6.00000000000000e-01,-1.45508035633707e-05
9.02200000000000e-08,6.00000000000000e-01,6.00000000000000e-01,5.87901222709464e-06
9.03480000000000e-08,6.00000000000000e-01,6.00000000000000e-01,1.13778436431761e-05
9.06040000000000e-08,6.00000000000000e-01,6.00000000000000e-01,1.60391212811195e-06
9.11159999999999e-08,6.00000000000000e-01,6.00000000000000e-01,6.23743305318281e-06
9.21399999999999e-08,6.00000000000000e-01,6.00000000000000e-01,3.80811155484620e-06
9.41879999999998e-08,6.00000000000000e-01,6.00000000000000e-01,5.65789333565811e-06
9.51000000000000e-08,6.00000000000000e-01,6.00000000000000e-01,3.91934343966019e-06
9.51100000000000e-08,5.40000000000061e-01,6.00000000000000e-01,-1.11113181514341e-04
9.51300000000000e-08,4.20000000000084e-01,6.00000000000000e-01,-3.28547716067440e-04
9.51700000000000e-08,1.80000000000129e-01,6.00000000000000e-01,-4.72038270774647e-04
9.52000000000000e-08,8.40438829641244e-14,6.00000000000000e-01,2.37620563546925e-04
9.52080000000000e-08,0.00000000000000e+00,6.00000000000000e-01,6.57909631132270e-04
9.52240000000000e-08,0.00000000000000e+00,6.00000000000000e-01,1.24366922956357e-03
9.52560000000000e-08,0.00000000000000e+00,6.00000000000000e-01,1.57664653172238e-03
9.53200000000000e-08,0.00000000000000e+00,6.00000000000000e-01,1.15158445631162e-03
9.54480000000000e-08,0.00000000000000e+00,6.00000000000000e-01,-1.02498420330453e-03
9.57040000000000e-08,0.00000000000000e+00,6.00000000000000e-01,-7.32627389288878e-05
9.60842206589370e-08,0.00000000000000e+00,6.00000000000000e-01,1.25138364755632e-04
9.65936724338046e-08,0.00000000000000e+00,6.00000000000000e-01,-2.79445106408031e-04
9.72996984852998e-08,0.00000000000000e+00,6.00000000000000e-01,3.78517543612074e-04
9.85024724200452e-08,0.00000000000000e+00,6.00000000000000e-01,-3.71256432253469e-04
9.97877100602018e-08,0.00000000000000e+00,6.00000000000000e-01,3.48215681195436e-04
1.02358185340515e-07,0.00000000000000e+00,6.00000000000000e-01,-3.24500408829776e-04
1.05000000000000e-07,0.00000000000000e+00,6.00000000000000e-01,3.12090099180659e-04
1.05010000000000e-07,5.99999999999886e-02,6.00000000000000e-01,6.26442912021144e-04
1.05030000000000e-07,1.79999999999966e-01,6.00000000000000e-01,1.13436064995112e-03
1.05070000000000e-07,4.19999999999920e-01,6.00000000000000e-01,1.87775621340529e-03
1.05100000000000e-07,5.99999999999966e-01,6.00000000000000e-01,1.81293411461828e-03
1.05108000000000e-07,6.00000000000000e-01,6.00000000000000e-01,1.53900807064519e-03
1.05124000000000e-07,6.00000000000000e-01,6.00000000000000e-01,9.36134971821184e-04
1.05156000000000e-07,6.00000000000000e-01,6.00000000000000e-01,-4.41751845461233e-04
1.05220000000000e-07,6.00000000000000e-01,6.00000000000000e-01,-2.87260719380386e-03
1.05348000000000e-07,6.00000000000000e-01,6.00000000000000e-01,-5.39988793164020e-03
1.05604000000000e-07,6.00000000000000e-01,6.00000000000000e-01,3.36943637420252e-02
1.06116000000000e-07,6.00000000000000e-01,6.00000000000000e-01,5.23350135970634e-01
1.06941683545332e-07,6.00000000000000e-01,6.00000000000000e-01,6.15937964848697e-01
1.07790736281618e-07,6.00000000000000e-01,6.00000000000000e-01,5.85433775845638e-01
1.09488841754188e-07,6.00000000000000e-01,6.00000000000000e-01,6.13680889485353e-01
1.11653796069635e-07,6.00000000000000e-01,6.00000000000000e-01,5.86480519923136e-01
1.15100000000000e-07,6.00000000000000e-01,6.00000000000000e-01,6.12861932526136e-01
1.15110000000000e-07,5.40000000000061e-01,6.00000000000000e-01,6.08212644672979e-01
1.15130000000000e-07,4.20000000000084e-01,6.00000000000000e-01,6.02203836719292e-01
1.15170000000000e-07,1.80000000000129e-01,6.00000000000000e-01,6.00534547905131e-01
1.15200000000000e-07,8.40438829641244e-14,6.00000000000000e-01,6.03621925555092e-01
1.15208000000000e-07,0.00000000000000e+00,6.00000000000000e-01,6.04573318831521e-01
1.15224000000000e-07,0.00000000000000e+00,6.00000000000000e-01,6.05916652981067e-01
1.15256000000000e-07,0.00000000000000e+00,6.00000000000000e-01,6.06800289430291e-01
1.15320000000000e-07,0.00000000000000e+00,6.00000000000000e-01,6.03608592140208e-01
1.15448000000000e-07,0.00000000000000e+00,6.00000000000000e-01,5.88053430716885e-01
1.15704000000000e-07,0.00000000000000e+00,6.00000000000000e-01,5.94999176012417e-01
1.16141908089000e-07,0.00000000000000e+00,6.00000000000000e-01,6.02698058551295e-01
1.16748300815440e-07,0.00000000000000e+00,6.00000000000000e-01,5.97498660151628e-01
1.17907839603157e-07,0.00000000000000e+00,6.00000000000000e-01,6.01894291999022e-01
1.20226917178592e-07,0.00000000000000e+00,6.00000000000000e-01,5.98048877791350e-01
1.24026917178592e-07,0.00000000000000e+00,6.00000000000000e-01,6.01763691548307e-01
1.25000000000000e-07,0.00000000000000e+00,6.00000000000000e-01,5.98407829508258e-01
1.25010000000000e-07,5.99999999999092e-02,6.00000000000000e-01,5.98961874543746e-01
1.25030000000000e-07,1.79999999999886e-01,6.00000000000000e-01,5.99775422262316e-01
1.25070000000000e-07,4.19999999999841e-01,6.00000000000000e-01,6.00551616095780e-01
1.25100000000000e-07,5.99999999999886e-01,6.00000000000000e-01,6.00402092647203e-01
1.25108000000000e-07,6.00000000000000e-01,5.51999999999946e-01,6.00207432204945e-01
1.25124000000000e-07,6.00000000000000e-01,4.55999999999996e-01,5.99819522649159e-01
1.25156000000000e-07,6.00000000000000e-01,2.63999999999937e-01,5.99227478225859e-01
1.25200000000000e-07,6.00000000000000e-01,0.00000000000000e+00,5.98785936097969e-01
1.25206400000000e-07,6.00000000000000e-01,0.00000000000000e+00,5.98760569019633e-01
1.25219200000000e-07,6.00000000000000e-01,0.00000000000000e+00,5.98698849720668e-01
1.25244800000000e-07,6.00000000000000e-01,0.00000000000000e+00,5.98585360713351e-01
1.25296000000000e-07,6.00000000000000e-01,0.00000000000000e+00,5.98438108866550e-01
1.25398400000000e-07,6.00000000000000e-01,0.00000000000000e+00,5.98330750326346e-01
1.25603200000000e-07,6.00000000000000e-01,0.00000000000000e+00,5.99227369862172e-01
1.25925108498702e-07,6.00000000000000e-01,0.00000000000000e+00,6.02435870267205e-01
1.26493577442633e-07,6.00000000000000e-01,0.00000000000000e+00,4.67536544612472e-01
1.27156969075164e-07,6.00000000000000e-01,0.00000000000000e+00,5.70909365753017e-02
1.28172221404394e-07,6.00000000000000e-01,0.00000000000000e+00,-3.15614469455371e-02
1.29569075131572e-07,6.00000000000000e-01,0.00000000000000e+00,2.62359974964716e-02
1.31557404150051e-07,6.00000000000000e-01,0.00000000000000e+00,-1.96999635272691e-02
1.35100000000000e-07,5.99999999999891e-01,0.00000000000000e+00,1.90780958563405e-02
1.35110000000000e-07,5.39999999999823e-01,0.00000000000000e+00,1.64123639091728e-02
1.35130000000000e-07,4.19999999999846e-01,0.00000000000000e+00,1.23266176927534e-02
1.35170000000000e-07,1.79999999999891e-01,0.00000000000000e+00,8.03215967053338e-03
1.35200000000000e-07,0.00000000000000e+00,0.00000000000000e+00,6.77487313392884e-03
1.35208000000000e-07,0.00000000000000e+00,0.00000000000000e+00,6.73477707920291e-03
1.35224000000000e-07,0.00000000000000e+00,0.00000000000000e+00,6.49427743594577e-03
