Time,v(clk),v(data),v(out)
1.00000000000000e-08,6.00000000000000e-01,0.00000000000000e+00,9.26861411590998e-05
1.00100000000000e-08,6.00000000000000e-01,5.99999999999986e-02,9.96147037273243e-05
1.00300000000000e-08,6.00000000000000e-01,1.79999999999996e-01,1.08608570789148e-04
1.00700000000000e-08,6.00000000000000e-01,4.19999999999990e-01,1.03258920258406e-04
1.01000000000000e-08,6.00000000000000e-01,5.99999999999995e-01,4.90377927456348e-05
1.01080000000000e-08,6.00000000000000e-01,6.00000000000000e-01,2.54005587546347e-05
1.01240000000000e-08,6.00000000000000e-01,6.00000000000000e-01,-9.90179126596213e-06
1.01560000000000e-08,6.00000000000000e-01,6.00000000000000e-01,-4.58267370239962e-05
1.02200000000000e-08,6.00000000000000e-01,6.00000000000000e-01,-3.86825020911030e-05
1.03480000000000e-08,6.00000000000000e-01,6.00000000000000e-01,2.04017152432984e-05
1.06040000000000e-08,6.00000000000000e-01,6.00000000000000e-01,3.71779508042541e-05
1.11160000000000e-08,6.00000000000000e-01,6.00000000000000e-01,-2.94349311912717e-06
1.20005153478345e-08,6.00000000000000e-01,6.00000000000000e-01,1.25009829793701e-05
1.37695460435035e-08,6.00000000000000e-01,6.00000000000000e-01,6.40126330273688e-06
1.51000000000000e-08,6.00000000000000e-01,6.00000000000000e-01,9.69480618663240e-06
1.51100000000000e-08,5.39999999999992e-01,6.00000000000000e-01,-1.47622422009205e-04
1.51300000000000e-08,4.19999999999994e-01,6.00000000000000e-01,-6.08924643694608e-04
1.51700000000000e-08,1.80000000000000e-01,6.00000000000000e-01,-1.65844083169468e-03
1.52000000000000e-08,0.00000000000000e+00,6.00000000000000e-01,-1.74696455748845e-03
1.52080000000000e-08,0.00000000000000e+00,6.00000000000000e-01,-1.34233157505058e-03
1.52240000000000e-08,0.00000000000000e+00,6.00000000000000e-01,-6.03064753439617e-04
1.52560000000000e-08,0.00000000000000e+00,6.00000000000000e-01,4.63750847959868e-04
1.53200000000000e-08,0.00000000000000e+00,6.00000000000000e-01,1.37617980436228e-03
1.54480000000000e-08,0.00000000000000e+00,6.00000000000000e-01,1.34167778955885e-03
1.57040000000000e-08,0.00000000000000e+00,6.00000000000000e-01,2.93041700863542e-04
1.62160000000000e-08,0.00000000000000e+00,6.00000000000000e-01,-8.31469816306413e-04
1.72400000000000e-08,0.00000000000000e+00,6.00000000000000e-01,4.84247109610068e-04
1.85691047300676e-08,0.00000000000000e+00,6.00000000000000e-01,-5.16970026489469e-04
2.02661758221656e-08,0.00000000000000e+00,6.00000000000000e-01,6.33151866764634e-04
2.34118389565167e-08,0.00000000000000e+00,6.00000000000000e-01,-6.09985149051457e-04
2.50000000000000e-08,0.00000000000000e+00,6.00000000000000e-01,5.45780973154187e-04
2.50100000000000e-08,5.99999999999886e-02,6.00000000000000e-01,1.04207267485672e-03
2.50300000000000e-08,1.80000000000006e-01,6.00000000000000e-01,1.96249684310876e-03
2.50700000000000e-08,4.20000000000000e-01,6.00000000000000e-01,3.45314805738019e-03
2.51000000000000e-08,6.00000000000000e-01,6.00000000000000e-01,3.68028821367199e-03
2.51080000000000e-08,6.00000000000000e-01,6.00000000000000e-01,3.35956487917254e-03
2.51240000000000e-08,6.00000000000000e-01,6.00000000000000e-01,2.70902758924482e-03
2.51560000000000e-08,6.00000000000000e-01,6.00000000000000e-01,1.30928906914299e-03
2.52200000000000e-08,6.00000000000000e-01,6.00000000000000e-01,-1.81313476191412e-03
2.53480000000000e-08,6.00000000000000e-01,6.00000000000000e-01,-6.75344522006746e-03
2.56040000000000e-08,6.00000000000000e-01,6.00000000000000e-01,-6.72114826590497e-03
2.61160000000000e-08,6.00000000000000e-01,6.00000000000000e-01,1.78049100639784e-01
2.71400000000000e-08,6.00000000000000e-01,6.00000000000000e-01,5.81002342057780e-01
2.86385244315631e-08,6.00000000000000e-01,6.00000000000000e-01,6.05486823022771e-01
3.07458769485231e-08,6.00000000000000e-01,6.00000000000000e-01,5.95883841217141e-01
3.37724207550410e-08,6.00000000000000e-01,6.00000000000000e-01,6.02953874766342e-01
3.51000000000000e-08,5.99999999999970e-01,6.00000000000000e-01,5.98214262049169e-01
3.51100000000000e-08,5.39999999999982e-01,6.00000000000000e-01,5.98173407171291e-01
3.51300000000000e-08,4.19999999999965e-01,6.00000000000000e-01,5.98043349671433e-01
3.51700000000000e-08,1.79999999999970e-01,6.00000000000000e-01,5.98258978058917e-01
3.52000000000000e-08,0.00000000000000e+00,6.00000000000000e-01,5.99673426299983e-01
3.52080000000000e-08,0.00000000000000e+00,6.00000000000000e-01,6.00345558946744e-01
3.52240000000000e-08,0.00000000000000e+00,6.00000000000000e-01,6.01620925277633e-01
3.52560000000000e-08,0.00000000000000e+00,6.00000000000000e-01,6.03454187934660e-01
3.53200000000000e-08,0.00000000000000e+00,6.00000000000000e-01,6.05450805467223e-01
3.54480000000000e-08,0.00000000000000e+00,6.00000000000000e-01,6.06732486550962e-01
3.57040000000000e-08,0.00000000000000e+00,6.00000000000000e-01,6.02999133970977e-01
3.62160000000000e-08,0.00000000000000e+00,6.00000000000000e-01,5.87088190051522e-01
3.72400000000000e-08,0.00000000000000e+00,6.00000000000000e-01,5.96512504708297e-01
3.87621755589584e-08,0.00000000000000e+00,6.00000000000000e-01,6.02076483853594e-01
4.08629092472271e-08,0.00000000000000e+00,6.00000000000000e-01,5.98272726206559e-01
4.46629092472271e-08,0.00000000000000e+00,6.00000000000000e-01,6.01340852631666e-01
4.50000000000000e-08,0.00000000000000e+00,6.00000000000000e-01,5.99764002393989e-01
4.50100000000000e-08,5.99999999999886e-02,6.00000000000000e-01,6.00043281293933e-01
4.50300000000000e-08,1.80000000000006e-01,6.00000000000000e-01,6.00568113011501e-01
4.50700000000000e-08,4.20000000000000e-01,6.00000000000000e-01,6.01290790706136e-01
4.51000000000000e-08,6.00000000000000e-01,6.00000000000000e-01,6.01387858659077e-01
4.51080000000000e-08,6.00000000000000e-01,5.52000000000025e-01,6.01231336499643e-01
4.51240000000000e-08,6.00000000000000e-01,4.55999999999996e-01,6.00872729793895e-01
4.51560000000000e-08,6.00000000000000e-01,2.64000000000016e-01,6.00142457859515e-01
4.52000000000000e-08,6.00000000000000e-01,3.44169137633799e-14,5.99275951361394e-01
4.52064000000000e-08,6.00000000000000e-01,0.00000000000000e+00,5.99158933786807e-01
4.52192000000000e-08,6.00000000000000e-01,0.00000000000000e+00,5.98923692353370e-01
4.52448000000000e-08,6.00000000000000e-01,0.00000000000000e+00,5.98474860227638e-01
4.52960000000000e-08,6.00000000000000e-01,0.00000000000000e+00,5.97640156751829e-01
4.53984000000000e-08,6.00000000000000e-01,0.00000000000000e+00,5.96182125312619e-01
4.56032000000000e-08,6.00000000000000e-01,0.00000000000000e+00,5.93750789775451e-01
4.60128000000000e-08,6.00000000000000e-01,0.00000000000000e+00,5.94588012209852e-01
4.68320000000000e-08,6.00000000000000e-01,0.00000000000000e+00,5.99786250408197e-01
4.77468334173795e-08,6.00000000000000e-01,0.00000000000000e+00,5.99717077827391e-01
4.95765002521385e-08,6.00000000000000e-01,0.00000000000000e+00,6.00221615859166e-01
5.20702239847633e-08,6.00000000000000e-01,0.00000000000000e+00,5.99819720446117e-01
5.51000000000000e-08,6.00000000000000e-01,0.00000000000000e+00,6.00148892259318e-01
5.51100000000000e-08,5.40000000000021e-01,0.00000000000000e+00,5.99963027099937e-01
5.51300000000000e-08,4.20000000000004e-01,0.00000000000000e+00,5.99590328175497e-01
5.51700000000000e-08,1.80000000000010e-01,0.00000000000000e+00,5.99407508565615e-01
5.52000000000000e-08,0.00000000000000e+00,0.00000000000000e+00,6.00626669391844e-01
5.52080000000000e-08,0.00000000000000e+00,0.00000000000000e+00,6.01277150881854e-01
5.52240000000000e-08,0.00000000000000e+00,0.00000000000000e+00,6.02470422898075e-01
5.52560000000000e-08,0.00000000000000e+00,0.00000000000000e+00,6.04154782789093e-01
5.53200000000000e-08,0.00000000000000e+00,0.00000000000000e+00,6.05949559631925e-01
5.54480000000000e-08,0.00000000000000e+00,0.00000000000000e+00,6.07239478618132e-01
5.57040000000000e-08,0.00000000000000e+00,0.00000000000000e+00,6.08759808567497e-01
5.62160000000000e-08,0.00000000000000e+00,0.00000000000000e+00,6.02265613059872e-01
5.72400000000000e-08,0.00000000000000e+00,0.00000000000000e+00,5.98906259612445e-01
5.83679109409280e-08,0.00000000000000e+00,0.00000000000000e+00,6.00518207470604e-01
6.06237328227841e-08,0.00000000000000e+00,0.00000000000000e+00,5.99510472599601e-01
6.28398392099022e-08,0.00000000000000e+00,0.00000000000000e+00,6.00301124541888e-01
6.50000000000000e-08,0.00000000000000e+00,0.00000000000000e+00,5.99686760081008e-01
6.50100000000000e-08,5.99999999999886e-02,0.00000000000000e+00,5.99949270562881e-01
6.50300000000000e-08,1.79999999999966e-01,0.00000000000000e+00,6.00434934586137e-01
6.50700000000000e-08,4.19999999999920e-01,0.00000000000000e+00,6.01106117589134e-01
6.51000000000000e-08,5.99999999999966e-01,0.00000000000000e+00,6.01035924554481e-01
6.51080000000000e-08,6.00000000000000e-01,0.00000000000000e+00,6.00827409424532e-01
6.51240000000000e-08,6.00000000000000e-01,0.00000000000000e+00,6.00437446476147e-01
6.51560000000000e-08,6.00000000000000e-01,0.00000000000000e+00,5.99856414268142e-01
6.52200000000000e-08,6.00000000000000e-01,0.00000000000000e+00,5.99137100628117e-01
6.53480000000000e-08,6.00000000000000e-01,0.00000000000000e+00,5.98778103040535e-01
6.56040000000000e-08,6.00000000000000e-01,0.00000000000000e+00,6.00467047355793e-01
6.61159999999999e-08,6.00000000000000e-01,0.00000000000000e+00,6.21057818750225e-01
6.71399999999999e-08,6.00000000000000e-01,0.00000000000000e+00,1.58903775613215e-01
6.85139224184711e-08,6.00000000000000e-01,0.00000000000000e+00,-6.24580400448614e-02
7.02214688085677e-08,6.00000000000000e-01,0.00000000000000e+00,5.61627801886326e-02
7.33734404524979e-08,6.00000000000000e-01,0.00000000000000e+00,-3.97985146777373e-02
7.51000000000000e-08,6.00000000000000e-01,0.00000000000000e+00,3.30648378698606e-02
7.51100000000000e-08,5.40000000000061e-01,0.00000000000000e+00,3.07702223962017e-02
7.51300000000000e-08,4.20000000000084e-01,0.00000000000000e+00,2.62877624647102e-02
7.51700000000000e-08,1.80000000000129e-01,0.00000000000000e+00,1.85262315439484e-02
7.52000000000000e-08,8.40438829641244e-14,0.00000000000000e+00,1.45072369552877e-02
7.52080000000000e-08,0.00000000000000e+00,0.00000000000000e+00,1.40083407511588e-02
7.52240000000000e-08,0.00000000000000e+00,0.00000000000000e+00,1.29809248079362e-02
7.52560000000000e-08,0.00000000000000e+00,0.00000000000000e+00,1.11931831117113e-02
7.53200000000000e-08,0.00000000000000e+00,0.00000000000000e+00,8.02396258443555e-03
7.54480000000000e-08,0.00000000000000e+00,0.00000000000000e+00,3.64587483578703e-03
7.57040000000000e-08,0.00000000000000e+00,0.00000000000000e+00,-1.29506752128724e-03
7.62159999999999e-08,0.00000000000000e+00,0.00000000000000e+00,-1.62911654536074e-03
7.71392186639490e-08,0.00000000000000e+00,0.00000000000000e+00,9.36247015546329e-04
7.85055973439851e-08,0.00000000000000e+00,0.00000000000000e+00,-6.34505885213649e-04
8.03218342298494e-08,0.00000000000000e+00,0.00000000000000e+00,4.99929770659720e-04
8.39543080015782e-08,0.00000000000000e+00,0.00000000000000e+00,-4.24415731362411e-04
8.50000000000000e-08,0.00000000000000e+00,0.00000000000000e+00,2.85751944104587e-04
8.50100000000000e-08,5.99999999999886e-02,0.00000000000000e+00,7.20408081084797e-04
8.50300000000000e-08,1.79999999999966e-01,0.00000000000000e+00,1.49769594244333e-03
8.50700000000000e-08,4.19999999999920e-01,0.00000000000000e+00,2.52628362122841e-03
8.51000000000000e-08,5.99999999999966e-01,0.00000000000000e+00,2.20510581369704e-03
8.51080000000000e-08,6.00000000000000e-01,0.00000000000000e+00,1.79605949961971e-03
8.51240000000000e-08,6.00000000000000e-01,0.00000000000000e+00,1.04599197876502e-03
8.51560000000000e-08,6.00000000000000e-01,0.00000000000000e+00,7.99579240146064e-06
8.52200000000000e-08,6.00000000000000e-01,0.00000000000000e+00,-8.76377350846239e-04
8.53480000000000e-08,6.00000000000000e-01,0.00000000000000e+00,-9.91825787100345e-04
8.56040000000000e-08,6.00000000000000e-01,0.00000000000000e+00,-5.67840274080376e-04
8.61159999999999e-08,6.00000000000000e-01,0.00000000000000e+00,2.47031784212981e-04
8.71399999999999e-08,6.00000000000000e-01,0.00000000000000e+00,1.21154748836786e-04
8.91879999999998e-08,6.00000000000000e-01,0.00000000000000e+00,-9.87481779590720e-05
9.00000000000000e-08,6.00000000000000e-01,0.00000000000000e+00,8.21647757817227e-05
9.00100000000000e-08,6.00000000000000e-01,5.99999999999886e-02,9.01409480194987e-05
9.00300000000000e-08,6.00000000000000e-01,1.79999999999966e-01,1.02109898468192e-04
9.00700000000000e-08,6.00000000000000e-01,4.19999999999920e-01,9.99069450332707e-05
9.01000000000000e-08,6.00000000000000e-01,5.99999999999966e-01,4.73280259514486e-05
9.01080000000000e-08,6.00000000000000e-01,6.00000000000000e-01,2.40624651677429e-05
9.01240000000000e-08,6.00000000000000e-01,6.00000000000000e-01,-1.00337819893270e-05
9.01560000000000e-08,6.00000000000000e-01,6.00000000000000e-01,-4.31460142742285e-05
9.02200000000000e-08,6.00000000000000e-01,6.00000000000000e-01,-3.69794024820680e-05
9.03480000000000e-08,6.00000000000000e-01,6.00000000000000e-01,1.76001962054889e-05
9.06040000000000e-08,6.00000000000000e-01,6.00000000000000e-01,3.59037696392242e-05
9.11159999999999e-08,6.00000000000000e-01,6.00000000000000e-01,-2.73401639153820e-06
9.20953162521941e-08,6.00000000000000e-01,6.00000000000000e-01,1.31620353855284e-05
9.40539487565826e-08,6.00000000000000e-01,6.00000000000000e-01,5.80642658257538e-06
9.51000000000000e-08,6.00000000000000e-01,6.00000000000000e-01,9.76000943985270e-06
9.51100000000000e-08,5.40000000000061e-01,6.00000000000000e-01,-1.46766080032626e-04
9.51300000000000e-08,4.20000000000084e-01,6.00000000000000e-01,-6.08371596306931e-04
9.51700000000000e-08,1.80000000000129e-01,6.00000000000000e-01,-1.65824295901168e-03
9.52000000000000e-08,8.40438829641244e-14,6.00000000000000e-01,-1.74687408293837e-03
9.52080000000000e-08,0.00000000000000e+00,6.00000000000000e-01,-1.34227054773661e-03
9.52240000000000e-08,0.00000000000000e+00,6.00000000000000e-01,-6.03045256311066e-04
9.52560000000000e-08,0.00000000000000e+00,6.00000000000000e-01,4.63724110797620e-04
9.53200000000000e-08,0.00000000000000e+00,6.00000000000000e-01,1.37615089234282e-03
9.54480000000000e-08,0.00000000000000e+00,6.00000000000000e-01,1.34183658374397e-03
9.57040000000000e-08,0.00000000000000e+00,6.00000000000000e-01,2.93395655966144e-04
9.62159999999999e-08,0.00000000000000e+00,6.00000000000000e-01,-8.31469918822325e-04
9.72399999999999e-08,0.00000000000000e+00,6.00000000000000e-01,4.84238794943422e-04
9.85690759906226e-08,0.00000000000000e+00,6.00000000000000e-01,-5.16941216896528e-04
1.00266164355019e-07,0.00000000000000e+00,6.00000000000000e-01,6.33125096828229e-04
1.03411779799836e-07,0.00000000000000e+00,6.00000000000000e-01,-6.09960372254267e-04
1.05000000000000e-07,0.00000000000000e+00,6.00000000000000e-01,5.45761422175804e-04
1.05010000000000e-07,5.99999999999886e-02,6.00000000000000e-01,1.04206121881251e-03
1.05030000000000e-07,1.79999999999966e-01,6.00000000000000e-01,1.96249595872654e-03
1.05070000000000e-07,4.19999999999920e-01,6.00000000000000e-01,3.45315043459342e-03
1.05100000000000e-07,5.99999999999966e-01,6.00000000000000e-01,3.68029175724537e-03
1.05108000000000e-07,6.00000000000000e-01,6.00000000000000e-01,3.35956989896663e-03
1.05124000000000e-07,6.00000000000000e-01,6.00000000000000e-01,2.70903867601756e-03
1.05156000000000e-07,6.00000000000000e-01,6.00000000000000e-01,1.30932153866581e-03
1.05220000000000e-07,6.00000000000000e-01,6.00000000000000e-01,-1.81307628307280e-03
1.05348000000000e-07,6.00000000000000e-01,6.00000000000000e-01,-6.75340889927749e-03
1.05604000000000e-07,6.00000000000000e-01,6.00000000000000e-01,-6.72121623113126e-03
1.06116000000000e-07,6.00000000000000e-01,6.00000000000000e-01,1.78048191815502e-01
1.07140000000000e-07,6.00000000000000e-01,6.00000000000000e-01,5.81002075969338e-01
1.08638529488913e-07,6.00000000000000e-01,6.00000000000000e-01,6.05486964142527e-01
1.10745879410694e-07,6.00000000000000e-01,6.00000000000000e-01,5.95883709784132e-01
1.13772432339836e-07,6.00000000000000e-01,6.00000000000000e-01,6.02953985055330e-01
1.15100000000000e-07,6.00000000000000e-01,6.00000000000000e-01,5.98214180287179e-01
1.15110000000000e-07,5.40000000000061e-01,6.00000000000000e-01,5.98173335170982e-01
1.15130000000000e-07,4.20000000000084e-01,6.00000000000000e-01,5.98043294581270e-01
1.15170000000000e-07,1.80000000000129e-01,6.00000000000000e-01,5.98258946258440e-01
1.15200000000000e-07,8.40438829641244e-14,6.00000000000000e-01,5.99673405142104e-01
1.15208000000000e-07,0.00000000000000e+00,6.00000000000000e-01,6.00345537108065e-01
1.15224000000000e-07,0.00000000000000e+00,6.00000000000000e-01,6.01620908290439e-01
1.15256000000000e-07,0.00000000000000e+00,6.00000000000000e-01,6.03454177679901e-01
1.15320000000000e-07,0.00000000000000e+00,6.00000000000000e-01,6.05450802191765e-01
1.15448000000000e-07,0.00000000000000e+00,6.00000000000000e-01,6.06732488728374e-01
1.15704000000000e-07,0.00000000000000e+00,6.00000000000000e-01,6.02999149138359e-01
1.16216000000000e-07,0.00000000000000e+00,6.00000000000000e-01,5.87088198278809e-01
1.17240000000000e-07,0.00000000000000e+00,6.00000000000000e-01,5.96512495312844e-01
1.18762175604412e-07,0.00000000000000e+00,6.00000000000000e-01,6.02076490970484e-01
1.20862909330711e-07,0.00000000000000e+00,6.00000000000000e-01,5.98272720705059e-01
1.24662909330711e-07,0.00000000000000e+00,6.00000000000000e-01,6.01340857650048e-01
1.25000000000000e-07,0.00000000000000e+00,6.00000000000000e-01,5.99764001594523e-01
1.25010000000000e-07,5.99999999999092e-02,6.00000000000000e-01,6.00043280537668e-01
1.25030000000000e-07,1.79999999999886e-01,6.00000000000000e-01,6.00568112485942e-01
1.25070000000000e-07,4.19999999999841e-01,6.00000000000000e-01,6.01290790461062e-01
1.25100000000000e-07,5.99999999999886e-01,6.00000000000000e-01,6.01387858508597e-01
1.25108000000000e-07,6.00000000000000e-01,5.51999999999946e-01,6.01231336356588e-01
1.25124000000000e-07,6.00000000000000e-01,4.55999999999996e-01,6.00872729697353e-01
1.25156000000000e-07,6.00000000000000e-01,2.63999999999937e-01,6.00142457829474e-01
1.25200000000000e-07,6.00000000000000e-01,0.00000000000000e+00,5.99275951373270e-01
1.25206400000000e-07,6.00000000000000e-01,0.00000000000000e+00,5.99158933799818e-01
1.25219200000000e-07,6.00000000000000e-01,0.00000000000000e+00,5.98923692370332e-01
1.25244800000000e-07,6.00000000000000e-01,0.00000000000000e+00,5.98474860241750e-01
1.25296000000000e-07,6.00000000000000e-01,0.00000000000000e+00,5.97640156755246e-01
1.25398400000000e-07,6.00000000000000e-01,0.00000000000000e+00,5.96182125294835e-01
1.25603200000000e-07,6.00000000000000e-01,0.00000000000000e+00,5.93750789758787e-01
1.26012800000000e-07,6.00000000000000e-01,0.00000000000000e+00,5.94588012214984e-01
1.26832000000000e-07,6.00000000000000e-01,0.00000000000000e+00,5.99786250417802e-01
1.27746833435887e-07,6.00000000000000e-01,0.00000000000000e+00,5.99717077830668e-01
1.29576500307662e-07,6.00000000000000e-01,0.00000000000000e+00,6.00221615861816e-01
1.32070224122660e-07,6.00000000000000e-01,0.00000000000000e+00,5.99819720440951e-01
1.35100000000000e-07,5.99999999999891e-01,0.00000000000000e+00,6.00148892263585e-01
1.35110000000000e-07,5.39999999999823e-01,0.00000000000000e+00,5.99963027103022e-01
1.35130000000000e-07,4.19999999999846e-01,0.00000000000000e+00,5.99590328177544e-01
1.35170000000000e-07,1.79999999999891e-01,0.00000000000000e+00,5.99407508566311e-01
1.35200000000000e-07,0.00000000000000e+00,0.00000000000000e+00,6.00626669392914e-01
1.35208000000000e-07,0.00000000000000e+00,0.00000000000000e+00,6.01277150882839e-01
1.35224000000000e-07,0.00000000000000e+00,0.00000000000000e+00,6.02470422903385e-01
1.35256000000000e-07,0.00000000000000e+00,0.00000000000000e+00,6.04154782783625e-01
1.35320000000000e-07,0.00000000000000e+00,0.00000000000000e+00,6.05949559635971e-01
1.35448000000000e-07,0.00000000000000e+00,0.00000000000000e+00,6.07239478596240e-01
1.35704000000000e-07,0.00000000000000e+00,0.00000000000000e+00,6.08759808627694e-01
