Time,v(clk),v(data),v(out)
1.00000000000000e-08,6.00000000000000e-01,0.00000000000000e+00,2.02589083585260e-05
1.00100000000000e-08,6.00000000000000e-01,5.99999999999986e-02,2.57612993733031e-05
1.00300000000000e-08,6.00000000000000e-01,1.79999999999996e-01,2.88886580083053e-05
1.00700000000000e-08,6.00000000000000e-01,4.19999999999990e-01,1.21296310304081e-05
1.01000000000000e-08,6.00000000000000e-01,5.99999999999995e-01,-1.12004395457083e-05
1.01080000000000e-08,6.00000000000000e-01,6.00000000000000e-01,-1.75041097286305e-05
1.01240000000000e-08,6.00000000000000e-01,6.00000000000000e-01,-2.13849077550926e-05
1.01560000000000e-08,6.00000000000000e-01,6.00000000000000e-01,-9.49217381177037e-06
1.02200000000000e-08,6.00000000000000e-01,6.00000000000000e-01,1.13902758613338e-05
1.03480000000000e-08,6.00000000000000e-01,6.00000000000000e-01,2.04297698502137e-05
1.06040000000000e-08,6.00000000000000e-01,6.00000000000000e-01,1.20027728831851e-05
1.11160000000000e-08,6.00000000000000e-01,6.00000000000000e-01,1.28421779406404e-05
1.20456748402729e-08,6.00000000000000e-01,6.00000000000000e-01,1.34146255595137e-05
1.39050245208188e-08,6.00000000000000e-01,6.00000000000000e-01,1.24730534257159e-05
1.51000000000000e-08,6.00000000000000e-01,6.00000000000000e-01,1.29982855394568e-05
1.51100000000000e-08,5.39999999999992e-01,6.00000000000000e-01,-1.06057459462280e-04
1.51300000000000e-08,4.19999999999994e-01,6.00000000000000e-01,-3.43859891914655e-04
1.51700000000000e-08,1.80000000000000e-01,6.00000000000000e-01,-5.12529626913505e-04
1.52000000000000e-08,0.00000000000000e+00,6.00000000000000e-01,1.57723997256970e-04
1.52080000000000e-08,0.00000000000000e+00,6.00000000000000e-01,5.76406588292361e-04
1.52240000000000e-08,0.00000000000000e+00,6.00000000000000e-01,1.18527611195460e-03
1.52560000000000e-08,0.00000000000000e+00,6.00000000000000e-01,1.60024055036193e-03
1.53200000000000e-08,0.00000000000000e+00,6.00000000000000e-01,1.35950971454897e-03
1.54480000000000e-08,0.00000000000000e+00,6.00000000000000e-01,-7.67882264693126e-04
1.57040000000000e-08,0.00000000000000e+00,6.00000000000000e-01,-3.98266922984634e-04
1.61204355042433e-08,0.00000000000000e+00,6.00000000000000e-01,3.15707011499862e-04
1.66553619789841e-08,0.00000000000000e+00,6.00000000000000e-01,-4.10006636462075e-04
1.74365579370235e-08,0.00000000000000e+00,6.00000000000000e-01,4.47229587253996e-04
1.89219985885097e-08,0.00000000000000e+00,6.00000000000000e-01,-3.93286609715274e-04
2.02668269774040e-08,0.00000000000000e+00,6.00000000000000e-01,3.53954954260320e-04
2.29564837551928e-08,0.00000000000000e+00,6.00000000000000e-01,-3.04589117738998e-04
2.50000000000000e-08,0.00000000000000e+00,6.00000000000000e-01,2.90189419752337e-04
2.50100000000000e-08,5.99999999999886e-02,6.00000000000000e-01,6.12651742359055e-04
2.50300000000000e-08,1.80000000000006e-01,6.00000000000000e-01,1.14789241771525e-03
2.50700000000000e-08,4.20000000000000e-01,6.00000000000000e-01,1.94121500821735e-03
2.51000000000000e-08,6.00000000000000e-01,6.00000000000000e-01,1.99773985943499e-03
2.51080000000000e-08,6.00000000000000e-01,6.00000000000000e-01,1.76445915963723e-03
2.51240000000000e-08,6.00000000000000e-01,6.00000000000000e-01,1.27336702586285e-03
2.51560000000000e-08,6.00000000000000e-01,6.00000000000000e-01,1.34189413631594e-04
2.52200000000000e-08,6.00000000000000e-01,6.00000000000000e-01,-2.07136408793648e-03
2.53480000000000e-08,6.00000000000000e-01,6.00000000000000e-01,-4.80573553068016e-03
2.56040000000000e-08,6.00000000000000e-01,6.00000000000000e-01,1.02191392413607e-02
2.61160000000000e-08,6.00000000000000e-01,6.00000000000000e-01,4.69688872389817e-01
2.69225501786295e-08,6.00000000000000e-01,6.00000000000000e-01,6.17887329975775e-01
2.77584523027220e-08,6.00000000000000e-01,6.00000000000000e-01,5.84972068236276e-01
2.94302565509069e-08,6.00000000000000e-01,6.00000000000000e-01,6.14249926500222e-01
3.01000000000000e-08,6.00000000000000e-01,6.00000000000000e-01,5.87183183300762e-01
3.01100000000000e-08,6.00000000000000e-01,5.40000000000031e-01,5.90887395271676e-01
3.01300000000000e-08,6.00000000000000e-01,4.20000000000014e-01,5.96139017321692e-01
3.01700000000000e-08,6.00000000000000e-01,1.80000000000020e-01,5.99619885790586e-01
3.02000000000000e-08,6.00000000000000e-01,1.44328993201270e-14,5.99969323486103e-01
3.02080000000000e-08,6.00000000000000e-01,0.00000000000000e+00,5.99997652868532e-01
3.02240000000000e-08,6.00000000000000e-01,0.00000000000000e+00,6.00029506563334e-01
3.02560000000000e-08,6.00000000000000e-01,0.00000000000000e+00,6.00020216217710e-01
3.03200000000000e-08,6.00000000000000e-01,0.00000000000000e+00,5.99964395077257e-01
3.04480000000000e-08,6.00000000000000e-01,0.00000000000000e+00,5.99903939173136e-01
3.07040000000000e-08,6.00000000000000e-01,0.00000000000000e+00,6.00060937713844e-01
3.11170650382142e-08,6.00000000000000e-01,0.00000000000000e+00,5.99938596367429e-01
3.16548382261153e-08,6.00000000000000e-01,0.00000000000000e+00,6.00016795867804e-01
3.27021221489638e-08,6.00000000000000e-01,0.00000000000000e+00,5.99959479236689e-01
3.47966899946608e-08,6.00000000000000e-01,0.00000000000000e+00,6.00011786688481e-01
3.51000000000000e-08,5.99999999999970e-01,0.00000000000000e+00,5.99975853795799e-01
3.51100000000000e-08,5.39999999999982e-01,0.00000000000000e+00,5.99838054010657e-01
3.51300000000000e-08,4.19999999999965e-01,0.00000000000000e+00,5.99660197869600e-01
3.51700000000000e-08,1.79999999999970e-01,0.00000000000000e+00,6.00631079625698e-01
3.52000000000000e-08,0.00000000000000e+00,0.00000000000000e+00,6.03639162057966e-01
3.52080000000000e-08,0.00000000000000e+00,0.00000000000000e+00,6.04601506795520e-01
3.52240000000000e-08,0.00000000000000e+00,0.00000000000000e+00,6.05975545305056e-01
3.52560000000000e-08,0.00000000000000e+00,0.00000000000000e+00,6.06985186332026e-01
3.53200000000000e-08,0.00000000000000e+00,0.00000000000000e+00,6.04729783622722e-01
3.54480000000000e-08,0.00000000000000e+00,0.00000000000000e+00,5.89896807328619e-01
3.57040000000000e-08,0.00000000000000e+00,0.00000000000000e+00,5.92871083263058e-01
3.61441278020071e-08,0.00000000000000e+00,0.00000000000000e+00,6.03465589907173e-01
3.67782451937262e-08,0.00000000000000e+00,0.00000000000000e+00,5.96625109667205e-01
3.79040608581200e-08,0.00000000000000e+00,0.00000000000000e+00,6.02493630505345e-01
3.91000000000000e-08,0.00000000000000e+00,0.00000000000000e+00,5.97555219021094e-01
3.92353252066831e-08,0.00000000000000e+00,0.00000000000000e+00,5.99342936262795e-01
3.95059756200494e-08,0.00000000000000e+00,0.00000000000000e+00,6.00193330250245e-01
4.00472764467818e-08,0.00000000000000e+00,0.00000000000000e+00,5.99690009605254e-01
4.11298781002468e-08,0.00000000000000e+00,0.00000000000000e+00,6.00110513775786e-01
4.32950814071767e-08,0.00000000000000e+00,0.00000000000000e+00,5.99767594335204e-01
4.50000000000000e-08,0.00000000000000e+00,0.00000000000000e+00,6.00107911881898e-01
4.50100000000000e-08,5.99999999999886e-02,0.00000000000000e+00,6.00282994284804e-01
4.50300000000000e-08,1.80000000000006e-01,0.00000000000000e+00,6.00469268235128e-01
4.50700000000000e-08,4.20000000000000e-01,0.00000000000000e+00,6.00449777199363e-01
4.51000000000000e-08,6.00000000000000e-01,0.00000000000000e+00,6.00111792008667e-01
4.51080000000000e-08,6.00000000000000e-01,0.00000000000000e+00,5.99946511095888e-01
4.51240000000000e-08,6.00000000000000e-01,0.00000000000000e+00,5.99721864426472e-01
4.51560000000000e-08,6.00000000000000e-01,0.00000000000000e+00,5.99567977893967e-01
4.52200000000000e-08,6.00000000000000e-01,0.00000000000000e+00,5.99597454284299e-01
4.53480000000000e-08,6.00000000000000e-01,0.00000000000000e+00,5.99800031756404e-01
4.56040000000000e-08,6.00000000000000e-01,0.00000000000000e+00,6.01346661194626e-01
4.61160000000000e-08,6.00000000000000e-01,0.00000000000000e+00,4.54408342433486e-01
4.69420562966709e-08,6.00000000000000e-01,0.00000000000000e+00,1.40948867165659e-02
4.77945495291341e-08,6.00000000000000e-01,0.00000000000000e+00,-9.47359540725429e-03
4.94675327477139e-08,6.00000000000000e-01,0.00000000000000e+00,8.70972679604778e-03
5.00000000000000e-08,6.00000000000000e-01,0.00000000000000e+00,-5.60440580464189e-03
5.00100000000000e-08,6.00000000000000e-01,5.99999999999886e-02,-3.90159797481718e-03
5.00300000000000e-08,6.00000000000000e-01,1.79999999999966e-01,-1.69763217868814e-03
5.00700000000000e-08,6.00000000000000e-01,4.20000000000000e-01,-5.41203664750842e-04
5.01000000000000e-08,6.00000000000000e-01,6.00000000000000e-01,-3.85104281873744e-04
5.01080000000000e-08,6.00000000000000e-01,6.00000000000000e-01,-3.61881052414331e-04
5.01240000000000e-08,6.00000000000000e-01,6.00000000000000e-01,-3.08342632166628e-04
5.01560000000000e-08,6.00000000000000e-01,6.00000000000000e-01,-2.15858005514047e-04
5.02200000000000e-08,6.00000000000000e-01,6.00000000000000e-01,-1.18598331903627e-04
5.03480000000000e-08,6.00000000000000e-01,6.00000000000000e-01,-2.60931558140054e-05
5.06040000000000e-08,6.00000000000000e-01,6.00000000000000e-01,1.20699846789390e-05
5.11160000000001e-08,6.00000000000000e-01,6.00000000000000e-01,6.96572125642725e-06
5.21274515240407e-08,6.00000000000000e-01,6.00000000000000e-01,1.30763144534224e-05
5.41503545721218e-08,6.00000000000000e-01,6.00000000000000e-01,7.90723693832110e-06
5.51000000000000e-08,6.00000000000000e-01,6.00000000000000e-01,1.18959635331331e-05
5.51100000000000e-08,5.40000000000021e-01,6.00000000000000e-01,-1.11355336616908e-04
5.51300000000000e-08,4.20000000000004e-01,6.00000000000000e-01,-3.49607671528945e-04
5.51700000000000e-08,1.80000000000010e-01,6.00000000000000e-01,-5.03445293953811e-04
5.52000000000000e-08,0.00000000000000e+00,6.00000000000000e-01,1.53572670071378e-04
5.52080000000000e-08,0.00000000000000e+00,6.00000000000000e-01,5.71669693463117e-04
5.52240000000000e-08,0.00000000000000e+00,6.00000000000000e-01,1.16413957977118e-03
5.52560000000000e-08,0.00000000000000e+00,6.00000000000000e-01,1.54299749447485e-03
5.53200000000000e-08,0.00000000000000e+00,6.00000000000000e-01,1.06122675078374e-03
5.54480000000000e-08,0.00000000000000e+00,6.00000000000000e-01,-1.76135739809012e-03
5.57040000000000e-08,0.00000000000000e+00,6.00000000000000e-01,-8.51899261405636e-04
5.61200740415291e-08,0.00000000000000e+00,6.00000000000000e-01,5.35189104999140e-04
5.66548994600599e-08,0.00000000000000e+00,6.00000000000000e-01,-5.49180449348985e-04
5.74362643099966e-08,0.00000000000000e+00,6.00000000000000e-01,5.45862535684512e-04
5.89241776462474e-08,0.00000000000000e+00,6.00000000000000e-01,-4.64023402649286e-04
6.02687078947468e-08,0.00000000000000e+00,6.00000000000000e-01,4.18012184127185e-04
6.29577683917456e-08,0.00000000000000e+00,6.00000000000000e-01,-3.65808519968407e-04
6.50000000000000e-08,0.00000000000000e+00,6.00000000000000e-01,3.47371958789425e-04
6.50100000000000e-08,5.99999999999886e-02,6.00000000000000e-01,6.54434376001614e-04
6.50300000000000e-08,1.79999999999966e-01,6.00000000000000e-01,1.16870312227647e-03
6.50700000000000e-08,4.19999999999920e-01,6.00000000000000e-01,1.95105034245947e-03
6.51000000000000e-08,5.99999999999966e-01,6.00000000000000e-01,2.00293199532080e-03
6.51080000000000e-08,6.00000000000000e-01,6.00000000000000e-01,1.76898990468265e-03
6.51240000000000e-08,6.00000000000000e-01,6.00000000000000e-01,1.27667874727189e-03
6.51560000000000e-08,6.00000000000000e-01,6.00000000000000e-01,1.35945779344337e-04
6.52200000000000e-08,6.00000000000000e-01,6.00000000000000e-01,-2.07110817580049e-03
6.53480000000000e-08,6.00000000000000e-01,6.00000000000000e-01,-4.80602866811980e-03
6.56040000000000e-08,6.00000000000000e-01,6.00000000000000e-01,1.02196730511625e-02
6.61159999999999e-08,6.00000000000000e-01,6.00000000000000e-01,4.69690335371978e-01
6.69225507048622e-08,6.00000000000000e-01,6.00000000000000e-01,6.17887344542439e-01
6.77584531693310e-08,6.00000000000000e-01,6.00000000000000e-01,5.84972035095131e-01
6.94302580982687e-08,6.00000000000000e-01,6.00000000000000e-01,6.14249953806920e-01
7.01000000000000e-08,6.00000000000000e-01,6.00000000000000e-01,5.87183161206569e-01
7.01100000000000e-08,6.00000000000000e-01,5.40000000000011e-01,5.90887378473023e-01
7.01300000000000e-08,6.00000000000000e-01,4.20000000000034e-01,5.96139009442394e-01
7.01700000000000e-08,6.00000000000000e-01,1.80000000000080e-01,5.99619884568370e-01
7.02000000000000e-08,6.00000000000000e-01,3.44169137633799e-14,5.99969323044273e-01
7.02080000000000e-08,6.00000000000000e-01,0.00000000000000e+00,5.99997652457200e-01
7.02240000000000e-08,6.00000000000000e-01,0.00000000000000e+00,6.00029506131898e-01
7.02560000000000e-08,6.00000000000000e-01,0.00000000000000e+00,6.00020215954307e-01
7.03200000000000e-08,6.00000000000000e-01,0.00000000000000e+00,5.99964395002266e-01
7.04480000000000e-08,6.00000000000000e-01,0.00000000000000e+00,5.99903939250318e-01
7.07040000000000e-08,6.00000000000000e-01,0.00000000000000e+00,6.00060937722799e-01
7.11170650795558e-08,6.00000000000000e-01,0.00000000000000e+00,5.99938596349990e-01
7.16548382999548e-08,6.00000000000000e-01,0.00000000000000e+00,6.00016795926755e-01
7.27021258203757e-08,6.00000000000000e-01,0.00000000000000e+00,5.99959479213470e-01
7.47967008612176e-08,6.00000000000000e-01,0.00000000000000e+00,6.00011786765360e-01
7.51000000000000e-08,6.00000000000000e-01,0.00000000000000e+00,5.99975854116750e-01
7.51100000000000e-08,5.40000000000061e-01,0.00000000000000e+00,5.99838054406246e-01
7.51300000000000e-08,4.20000000000084e-01,0.00000000000000e+00,5.99660198170813e-01
7.51700000000000e-08,1.80000000000129e-01,0.00000000000000e+00,6.00631079610461e-01
7.52000000000000e-08,8.40438829641244e-14,0.00000000000000e+00,6.03639162125673e-01
7.52080000000000e-08,0.00000000000000e+00,0.00000000000000e+00,6.04601506886214e-01
7.52240000000000e-08,0.00000000000000e+00,0.00000000000000e+00,6.05975545443735e-01
7.52560000000000e-08,0.00000000000000e+00,0.00000000000000e+00,6.06985186752364e-01
7.53200000000000e-08,0.00000000000000e+00,0.00000000000000e+00,6.04729785942293e-01
7.54480000000000e-08,0.00000000000000e+00,0.00000000000000e+00,5.89896809646813e-01
7.57040000000000e-08,0.00000000000000e+00,0.00000000000000e+00,5.92871082307806e-01
7.61441277964402e-08,0.00000000000000e+00,0.00000000000000e+00,6.03465590457887e-01
7.67782451878067e-08,0.00000000000000e+00,0.00000000000000e+00,5.96625109206396e-01
7.79040608383398e-08,0.00000000000000e+00,0.00000000000000e+00,6.02493630897866e-01
7.81000000000000e-08,0.00000000000000e+00,0.00000000000000e+00,5.98702837468313e-01
7.82353252061448e-08,0.00000000000000e+00,0.00000000000000e+00,5.99581463417322e-01
7.85059756184343e-08,0.00000000000000e+00,0.00000000000000e+00,6.00017175354137e-01
7.90472764430134e-08,0.00000000000000e+00,0.00000000000000e+00,5.99778084411086e-01
8.01298780921715e-08,0.00000000000000e+00,0.00000000000000e+00,5.99999987441168e-01
8.22950813904878e-08,0.00000000000000e+00,0.00000000000000e+00,5.99851179978692e-01
8.50000000000000e-08,0.00000000000000e+00,0.00000000000000e+00,6.00028265783192e-01
8.50100000000000e-08,5.99999999999886e-02,0.00000000000000e+00,6.00218982427292e-01
8.50300000000000e-08,1.79999999999966e-01,0.00000000000000e+00,6.00429140918048e-01
8.50700000000000e-08,4.19999999999920e-01,0.00000000000000e+00,6.00439721457989e-01
8.51000000000000e-08,5.99999999999966e-01,0.00000000000000e+00,6.00085191634178e-01
8.51080000000000e-08,6.00000000000000e-01,0.00000000000000e+00,5.99936816121780e-01
8.51240000000000e-08,6.00000000000000e-01,0.00000000000000e+00,5.99740681239947e-01
8.51560000000000e-08,6.00000000000000e-01,0.00000000000000e+00,5.99556166763419e-01
8.52200000000000e-08,6.00000000000000e-01,0.00000000000000e+00,5.99577077186428e-01
8.53480000000000e-08,6.00000000000000e-01,0.00000000000000e+00,5.99815747485443e-01
8.56040000000000e-08,6.00000000000000e-01,0.00000000000000e+00,6.01336256278700e-01
8.61159999999999e-08,6.00000000000000e-01,0.00000000000000e+00,4.54571621613550e-01
8.69418906067700e-08,6.00000000000000e-01,0.00000000000000e+00,1.41586658287941e-02
8.77942412338914e-08,6.00000000000000e-01,0.00000000000000e+00,-9.50575189805768e-03
8.94667419330083e-08,6.00000000000000e-01,0.00000000000000e+00,8.73313583178065e-03
9.00000000000000e-08,6.00000000000000e-01,0.00000000000000e+00,-5.61474006884814e-03
9.00100000000000e-08,6.00000000000000e-01,5.99999999999886e-02,-3.91090323238741e-03
9.00300000000000e-08,6.00000000000000e-01,1.79999999999966e-01,-1.70532851218004e-03
9.00700000000000e-08,6.00000000000000e-01,4.19999999999920e-01,-5.46861808481028e-04
9.01000000000000e-08,6.00000000000000e-01,5.99999999999966e-01,-3.89602488515772e-04
9.01080000000000e-08,6.00000000000000e-01,6.00000000000000e-01,-3.66111380928305e-04
9.01240000000000e-08,6.00000000000000e-01,6.00000000000000e-01,-3.12077329432087e-04
9.01560000000000e-08,6.00000000000000e-01,6.00000000000000e-01,-2.18759176073224e-04
9.02200000000000e-08,6.00000000000000e-01,6.00000000000000e-01,-1.20340585828549e-04
9.03480000000000e-08,6.00000000000000e-01,6.00000000000000e-01,-2.66697877072675e-05
9.06040000000000e-08,6.00000000000000e-01,6.00000000000000e-01,1.20676649225937e-05
9.11159999999999e-08,6.00000000000000e-01,6.00000000000000e-01,6.96308136961116e-06
9.21270239551282e-08,6.00000000000000e-01,6.00000000000000e-01,1.30864203150421e-05
9.41490718653847e-08,6.00000000000000e-01,6.00000000000000e-01,7.91590988968513e-06
9.51000000000000e-08,6.00000000000000e-01,6.00000000000000e-01,1.18879022390599e-05
9.51100000000000e-08,5.40000000000061e-01,6.00000000000000e-01,-1.11392287081152e-04
9.51300000000000e-08,4.20000000000084e-01,6.00000000000000e-01,-3.49696905615093e-04
9.51700000000000e-08,1.80000000000129e-01,6.00000000000000e-01,-5.03587054029905e-04
9.52000000000000e-08,8.40438829641244e-14,6.00000000000000e-01,1.53462029548621e-04
9.52080000000000e-08,0.00000000000000e+00,6.00000000000000e-01,5.71564256534846e-04
9.52240000000000e-08,0.00000000000000e+00,6.00000000000000e-01,1.16404163042719e-03
9.52560000000000e-08,0.00000000000000e+00,6.00000000000000e-01,1.54288439435912e-03
9.53200000000000e-08,0.00000000000000e+00,6.00000000000000e-01,1.06088125396500e-03
9.54480000000000e-08,0.00000000000000e+00,6.00000000000000e-01,-1.76306013582547e-03
9.57040000000000e-08,0.00000000000000e+00,6.00000000000000e-01,-8.52954985260224e-04
9.61200748227353e-08,0.00000000000000e+00,6.00000000000000e-01,5.35640704814530e-04
9.66548972707771e-08,0.00000000000000e+00,6.00000000000000e-01,-5.49458938857918e-04
9.74362640959436e-08,0.00000000000000e+00,6.00000000000000e-01,5.46070604916935e-04
9.89241760039183e-08,0.00000000000000e+00,6.00000000000000e-01,-4.64207610238132e-04
1.00268705251822e-07,0.00000000000000e+00,6.00000000000000e-01,4.18172734630060e-04
1.02957763747631e-07,0.00000000000000e+00,6.00000000000000e-01,-3.65960056820949e-04
1.05000000000000e-07,0.00000000000000e+00,6.00000000000000e-01,3.47511831537859e-04
1.05010000000000e-07,5.99999999999886e-02,6.00000000000000e-01,6.54530232989656e-04
1.05030000000000e-07,1.79999999999966e-01,6.00000000000000e-01,1.16874687128858e-03
1.05070000000000e-07,4.19999999999920e-01,6.00000000000000e-01,1.95107398497744e-03
1.05100000000000e-07,5.99999999999966e-01,6.00000000000000e-01,2.00294633341477e-03
1.05108000000000e-07,6.00000000000000e-01,6.00000000000000e-01,1.76900283577291e-03
1.05124000000000e-07,6.00000000000000e-01,6.00000000000000e-01,1.27668906563064e-03
1.05156000000000e-07,6.00000000000000e-01,6.00000000000000e-01,1.35952484573695e-04
1.05220000000000e-07,6.00000000000000e-01,6.00000000000000e-01,-2.07110532064272e-03
1.05348000000000e-07,6.00000000000000e-01,6.00000000000000e-01,-4.80602826605438e-03
1.05604000000000e-07,6.00000000000000e-01,6.00000000000000e-01,1.02196715424187e-02
1.06116000000000e-07,6.00000000000000e-01,6.00000000000000e-01,4.69690333505182e-01
1.06922550702568e-07,6.00000000000000e-01,6.00000000000000e-01,6.17887344613655e-01
1.07758453165227e-07,6.00000000000000e-01,6.00000000000000e-01,5.84972035114355e-01
