Time,v(clk),v(data),v(out)
1.00000000000000e-08,6.00000000000000e-01,0.00000000000000e+00,8.16334860080162e-05
1.00100000000000e-08,6.00000000000000e-01,5.99999999999986e-02,9.43028715748584e-05
1.00300000000000e-08,6.00000000000000e-01,1.79999999999996e-01,1.12111506901630e-04
1.00700000000000e-08,6.00000000000000e-01,4.19999999999990e-01,1.16269735142227e-04
1.01000000000000e-08,6.00000000000000e-01,5.99999999999995e-01,7.49540487229999e-05
1.01080000000000e-08,6.00000000000000e-01,6.00000000000000e-01,5.31777869664796e-05
1.01240000000000e-08,6.00000000000000e-01,6.00000000000000e-01,1.89964135450249e-05
1.01560000000000e-08,6.00000000000000e-01,6.00000000000000e-01,-2.05346124468320e-05
1.02200000000000e-08,6.00000000000000e-01,6.00000000000000e-01,-2.98200491984507e-05
1.03480000000000e-08,6.00000000000000e-01,6.00000000000000e-01,1.83927971193071e-05
1.06040000000000e-08,6.00000000000000e-01,6.00000000000000e-01,5.37184710533503e-05
1.11160000000000e-08,6.00000000000000e-01,6.00000000000000e-01,1.70452754116243e-05
1.19968298886016e-08,6.00000000000000e-01,6.00000000000000e-01,1.90864623561202e-05
1.37584896658047e-08,6.00000000000000e-01,6.00000000000000e-01,2.36796645674796e-05
1.51000000000000e-08,6.00000000000000e-01,6.00000000000000e-01,1.91054736894194e-05
1.51100000000000e-08,5.39999999999992e-01,6.00000000000000e-01,-1.44947681257224e-04
1.51300000000000e-08,4.19999999999994e-01,6.00000000000000e-01,-6.27509582218938e-04
1.51700000000000e-08,1.80000000000000e-01,6.00000000000000e-01,-1.70362611301655e-03
1.52000000000000e-08,0.00000000000000e+00,6.00000000000000e-01,-1.88781118500085e-03
1.52080000000000e-08,0.00000000000000e+00,6.00000000000000e-01,-1.51856881257491e-03
1.52240000000000e-08,0.00000000000000e+00,6.00000000000000e-01,-8.33521917621302e-04
1.52560000000000e-08,0.00000000000000e+00,6.00000000000000e-01,2.14854833917949e-04
1.53200000000000e-08,0.00000000000000e+00,6.00000000000000e-01,1.26955532835214e-03
1.54480000000000e-08,0.00000000000000e+00,6.00000000000000e-01,1.52425899936813e-03
1.57040000000000e-08,0.00000000000000e+00,6.00000000000000e-01,5.72793190013951e-04
1.62160000000000e-08,0.00000000000000e+00,6.00000000000000e-01,-8.40804126611402e-04
1.72400000000000e-08,0.00000000000000e+00,6.00000000000000e-01,3.61702802471945e-04
1.87613463566080e-08,0.00000000000000e+00,6.00000000000000e-01,-3.86910875093852e-04
2.04415831309618e-08,0.00000000000000e+00,6.00000000000000e-01,5.46892630776983e-04
2.33368298595197e-08,0.00000000000000e+00,6.00000000000000e-01,-4.82899886412150e-04
2.50000000000000e-08,0.00000000000000e+00,6.00000000000000e-01,4.28135868597711e-04
2.50100000000000e-08,5.99999999999886e-02,6.00000000000000e-01,9.30038994611179e-04
2.50300000000000e-08,1.80000000000006e-01,6.00000000000000e-01,1.87340720729538e-03
2.50700000000000e-08,4.20000000000000e-01,6.00000000000000e-01,3.42944165223816e-03
2.51000000000000e-08,6.00000000000000e-01,6.00000000000000e-01,3.80483352711515e-03
2.51080000000000e-08,6.00000000000000e-01,6.00000000000000e-01,3.52172276404004e-03
2.51240000000000e-08,6.00000000000000e-01,6.00000000000000e-01,2.95223250134220e-03
2.51560000000000e-08,6.00000000000000e-01,6.00000000000000e-01,1.75951372121416e-03
2.52200000000000e-08,6.00000000000000e-01,6.00000000000000e-01,-8.90599666772782e-04
2.53480000000000e-08,6.00000000000000e-01,6.00000000000000e-01,-5.54292114272779e-03
2.56040000000000e-08,6.00000000000000e-01,6.00000000000000e-01,-7.77910209354499e-03
2.61160000000000e-08,6.00000000000000e-01,6.00000000000000e-01,1.06016808492178e-01
2.71400000000000e-08,6.00000000000000e-01,6.00000000000000e-01,5.46815433933227e-01
2.91880000000000e-08,6.00000000000000e-01,6.00000000000000e-01,6.17439792431131e-01
3.01000000000000e-08,6.00000000000000e-01,6.00000000000000e-01,5.88560113726220e-01
3.01100000000000e-08,6.00000000000000e-01,5.40000000000031e-01,5.89638947645693e-01
3.01300000000000e-08,6.00000000000000e-01,4.20000000000014e-01,5.91577836029583e-01
3.01700000000000e-08,6.00000000000000e-01,1.80000000000020e-01,5.94420401427282e-01
3.02000000000000e-08,6.00000000000000e-01,1.44328993201270e-14,5.95943141490028e-01
3.02080000000000e-08,6.00000000000000e-01,0.00000000000000e+00,5.96250542921366e-01
3.02240000000000e-08,6.00000000000000e-01,0.00000000000000e+00,5.96826963587617e-01
3.02560000000000e-08,6.00000000000000e-01,0.00000000000000e+00,5.97678487143426e-01
3.03200000000000e-08,6.00000000000000e-01,0.00000000000000e+00,5.98767350393745e-01
3.04480000000000e-08,6.00000000000000e-01,0.00000000000000e+00,5.99613942829932e-01
3.07040000000000e-08,6.00000000000000e-01,0.00000000000000e+00,5.99834579796414e-01
3.12160000000000e-08,6.00000000000000e-01,0.00000000000000e+00,5.99922011469787e-01
3.22400000000000e-08,6.00000000000000e-01,0.00000000000000e+00,6.00107376179607e-01
3.37371684139206e-08,6.00000000000000e-01,0.00000000000000e+00,5.99901291572277e-01
3.51000000000000e-08,5.99999999999970e-01,0.00000000000000e+00,6.00070407057613e-01
3.51100000000000e-08,5.39999999999982e-01,0.00000000000000e+00,5.99889031682721e-01
3.51300000000000e-08,4.19999999999965e-01,0.00000000000000e+00,5.99511029566174e-01
3.51700000000000e-08,1.79999999999970e-01,0.00000000000000e+00,5.99330746870997e-01
3.52000000000000e-08,0.00000000000000e+00,0.00000000000000e+00,6.00421949511180e-01
3.52080000000000e-08,0.00000000000000e+00,0.00000000000000e+00,6.01043677255742e-01
3.52240000000000e-08,0.00000000000000e+00,0.00000000000000e+00,6.02188966675254e-01
3.52560000000000e-08,0.00000000000000e+00,0.00000000000000e+00,6.03866454643717e-01
3.53200000000000e-08,0.00000000000000e+00,0.00000000000000e+00,6.05763475866559e-01
3.54480000000000e-08,0.00000000000000e+00,0.00000000000000e+00,6.07115272362564e-01
3.57040000000000e-08,0.00000000000000e+00,0.00000000000000e+00,6.05195573200445e-01
3.62160000000000e-08,0.00000000000000e+00,0.00000000000000e+00,5.89637064175896e-01
3.72400000000000e-08,0.00000000000000e+00,0.00000000000000e+00,5.93019595963643e-01
3.84429565930703e-08,0.00000000000000e+00,0.00000000000000e+00,6.03657297284080e-01
3.91000000000000e-08,0.00000000000000e+00,0.00000000000000e+00,5.98192533271538e-01
3.93405913186141e-08,0.00000000000000e+00,0.00000000000000e+00,5.99222185192252e-01
3.98217739558422e-08,0.00000000000000e+00,0.00000000000000e+00,5.99959947655455e-01
4.07841392302984e-08,0.00000000000000e+00,0.00000000000000e+00,5.99752068131406e-01
4.27088697792109e-08,0.00000000000000e+00,0.00000000000000e+00,5.99928324315659e-01
4.50000000000000e-08,0.00000000000000e+00,0.00000000000000e+00,5.99844272251744e-01
4.50100000000000e-08,5.99999999999886e-02,0.00000000000000e+00,6.00093850363313e-01
4.50300000000000e-08,1.80000000000006e-01,0.00000000000000e+00,6.00550512453988e-01
4.50700000000000e-08,4.20000000000000e-01,0.00000000000000e+00,6.01196778921542e-01
4.51000000000000e-08,6.00000000000000e-01,0.00000000000000e+00,6.01172760685444e-01
4.51080000000000e-08,6.00000000000000e-01,0.00000000000000e+00,6.00971054949940e-01
4.51240000000000e-08,6.00000000000000e-01,0.00000000000000e+00,6.00595795223448e-01
4.51560000000000e-08,6.00000000000000e-01,0.00000000000000e+00,5.99995792550026e-01
4.52200000000000e-08,6.00000000000000e-01,0.00000000000000e+00,5.99260113959911e-01
4.53480000000000e-08,6.00000000000000e-01,0.00000000000000e+00,5.98774244953603e-01
4.56040000000000e-08,6.00000000000000e-01,0.00000000000000e+00,5.99674972640719e-01
4.61160000000000e-08,6.00000000000000e-01,0.00000000000000e+00,6.13474630435173e-01
4.71400000000000e-08,6.00000000000000e-01,0.00000000000000e+00,2.08951337312078e-01
4.88599160900063e-08,6.00000000000000e-01,0.00000000000000e+00,-6.64889113281533e-02
5.00000000000000e-08,6.00000000000000e-01,0.00000000000000e+00,4.68018050916310e-02
5.00100000000000e-08,6.00000000000000e-01,5.99999999999886e-02,4.45075207648415e-02
5.00300000000000e-08,6.00000000000000e-01,1.79999999999966e-01,4.00188215310478e-02
5.00700000000000e-08,6.00000000000000e-01,4.20000000000000e-01,3.19520942106781e-02
5.01000000000000e-08,6.00000000000000e-01,6.00000000000000e-01,2.68197614704605e-02
5.01080000000000e-08,6.00000000000000e-01,6.00000000000000e-01,2.56028219450397e-02
5.01240000000000e-08,6.00000000000000e-01,6.00000000000000e-01,2.32669787733636e-02
5.01560000000000e-08,6.00000000000000e-01,6.00000000000000e-01,1.91083974037005e-02
5.02200000000000e-08,6.00000000000000e-01,6.00000000000000e-01,1.29489538795877e-02
5.03480000000000e-08,6.00000000000000e-01,6.00000000000000e-01,5.75399732436917e-03
5.06040000000000e-08,6.00000000000000e-01,6.00000000000000e-01,7.60536665014952e-04
5.11160000000001e-08,6.00000000000000e-01,6.00000000000000e-01,-1.36709766229350e-04
5.20874428823316e-08,6.00000000000000e-01,6.00000000000000e-01,8.17640196508519e-05
5.40303286469946e-08,6.00000000000000e-01,6.00000000000000e-01,-2.50997412090150e-05
5.51000000000000e-08,6.00000000000000e-01,6.00000000000000e-01,4.19141329417727e-05
5.51100000000000e-08,5.40000000000021e-01,6.00000000000000e-01,-1.28770757851102e-04
5.51300000000000e-08,4.20000000000004e-01,6.00000000000000e-01,-6.12439677977583e-04
5.51700000000000e-08,1.80000000000010e-01,6.00000000000000e-01,-1.69656590554206e-03
5.52000000000000e-08,0.00000000000000e+00,6.00000000000000e-01,-1.88653813928304e-03
5.52080000000000e-08,0.00000000000000e+00,6.00000000000000e-01,-1.51849784563922e-03
5.52240000000000e-08,0.00000000000000e+00,6.00000000000000e-01,-8.75356562025101e-04
5.52560000000000e-08,0.00000000000000e+00,6.00000000000000e-01,1.79944192970530e-04
5.53200000000000e-08,0.00000000000000e+00,6.00000000000000e-01,1.23014074213554e-03
5.54480000000000e-08,0.00000000000000e+00,6.00000000000000e-01,1.40298671335695e-03
5.57040000000000e-08,0.00000000000000e+00,6.00000000000000e-01,-6.13441487771121e-04
5.62160000000000e-08,0.00000000000000e+00,6.00000000000000e-01,-1.52873856396217e-03
5.72400000000000e-08,0.00000000000000e+00,6.00000000000000e-01,7.40332805266579e-04
5.87501482180246e-08,0.00000000000000e+00,6.00000000000000e-01,-6.44378695103712e-04
6.04330906237531e-08,0.00000000000000e+00,6.00000000000000e-01,7.27793960732328e-04
6.33212794829568e-08,0.00000000000000e+00,6.00000000000000e-01,-6.33226310344012e-04
6.50000000000000e-08,0.00000000000000e+00,6.00000000000000e-01,5.38717295208404e-04
6.50100000000000e-08,5.99999999999886e-02,6.00000000000000e-01,1.02561952912537e-03
6.50300000000000e-08,1.79999999999966e-01,6.00000000000000e-01,1.94892319911151e-03
6.50700000000000e-08,4.19999999999920e-01,6.00000000000000e-01,3.48618980673063e-03
6.51000000000000e-08,5.99999999999966e-01,6.00000000000000e-01,3.85114063494314e-03
6.51080000000000e-08,6.00000000000000e-01,6.00000000000000e-01,3.56524351384500e-03
6.51240000000000e-08,6.00000000000000e-01,6.00000000000000e-01,2.99519690187124e-03
6.51560000000000e-08,6.00000000000000e-01,6.00000000000000e-01,1.79104625206430e-03
6.52200000000000e-08,6.00000000000000e-01,6.00000000000000e-01,-8.75687392472749e-04
6.53480000000000e-08,6.00000000000000e-01,6.00000000000000e-01,-5.53990038012703e-03
6.56040000000000e-08,6.00000000000000e-01,6.00000000000000e-01,-7.77522519910395e-03
6.61159999999999e-08,6.00000000000000e-01,6.00000000000000e-01,1.06087379377128e-01
6.71399999999999e-08,6.00000000000000e-01,6.00000000000000e-01,5.46850880903581e-01
6.91879999999998e-08,6.00000000000000e-01,6.00000000000000e-01,6.17430469434321e-01
7.01000000000000e-08,6.00000000000000e-01,6.00000000000000e-01,5.88567803400010e-01
7.01100000000000e-08,6.00000000000000e-01,5.40000000000011e-01,5.89645817215929e-01
7.01300000000000e-08,6.00000000000000e-01,4.20000000000034e-01,5.91583245065992e-01
7.01700000000000e-08,6.00000000000000e-01,1.80000000000080e-01,5.94423729496156e-01
7.02000000000000e-08,6.00000000000000e-01,3.44169137633799e-14,5.95945462723803e-01
7.02080000000000e-08,6.00000000000000e-01,0.00000000000000e+00,5.96252657979067e-01
7.02240000000000e-08,6.00000000000000e-01,0.00000000000000e+00,5.96828683631919e-01
7.02560000000000e-08,6.00000000000000e-01,0.00000000000000e+00,5.97679622433915e-01
7.03200000000000e-08,6.00000000000000e-01,0.00000000000000e+00,5.98767822208679e-01
7.04480000000000e-08,6.00000000000000e-01,0.00000000000000e+00,5.99613953097971e-01
7.07040000000000e-08,6.00000000000000e-01,0.00000000000000e+00,5.99834517203631e-01
7.12159999999999e-08,6.00000000000000e-01,0.00000000000000e+00,5.99922026168782e-01
7.22399999999999e-08,6.00000000000000e-01,0.00000000000000e+00,6.00107363332129e-01
7.37371658510143e-08,6.00000000000000e-01,0.00000000000000e+00,5.99901301829799e-01
7.51000000000000e-08,6.00000000000000e-01,0.00000000000000e+00,6.00070401755294e-01
7.51100000000000e-08,5.40000000000061e-01,0.00000000000000e+00,5.99889027545073e-01
7.51300000000000e-08,4.20000000000084e-01,0.00000000000000e+00,5.99511025565850e-01
7.51700000000000e-08,1.80000000000129e-01,0.00000000000000e+00,5.99330744272899e-01
7.52000000000000e-08,8.40438829641244e-14,0.00000000000000e+00,6.00421948770143e-01
7.52080000000000e-08,0.00000000000000e+00,0.00000000000000e+00,6.01043676991542e-01
7.52240000000000e-08,0.00000000000000e+00,0.00000000000000e+00,6.02188967239269e-01
7.52560000000000e-08,0.00000000000000e+00,0.00000000000000e+00,6.03866457100975e-01
7.53200000000000e-08,0.00000000000000e+00,0.00000000000000e+00,6.05763483660278e-01
7.54480000000000e-08,0.00000000000000e+00,0.00000000000000e+00,6.07115328494878e-01
7.57040000000000e-08,0.00000000000000e+00,0.00000000000000e+00,6.05196217698376e-01
7.62159999999999e-08,0.00000000000000e+00,0.00000000000000e+00,5.89637736555628e-01
7.72399999999999e-08,0.00000000000000e+00,0.00000000000000e+00,5.93019261727619e-01
7.81000000000000e-08,0.00000000000000e+00,0.00000000000000e+00,6.02867947539378e-01
7.82202957148333e-08,0.00000000000000e+00,0.00000000000000e+00,6.01364857465833e-01
7.84608871444999e-08,0.00000000000000e+00,0.00000000000000e+00,5.99851666792050e-01
7.89420700038331e-08,0.00000000000000e+00,0.00000000000000e+00,5.99787327605579e-01
7.99044357224995e-08,0.00000000000000e+00,0.00000000000000e+00,5.99805530638985e-01
8.18291671598322e-08,0.00000000000000e+00,0.00000000000000e+00,5.99863020582809e-01
8.50000000000000e-08,0.00000000000000e+00,0.00000000000000e+00,5.99885266141255e-01
8.50100000000000e-08,5.99999999999886e-02,0.00000000000000e+00,6.00141743957476e-01
8.50300000000000e-08,1.79999999999966e-01,0.00000000000000e+00,6.00598297431870e-01
8.50700000000000e-08,4.19999999999920e-01,0.00000000000000e+00,6.01225137477764e-01
8.51000000000000e-08,5.99999999999966e-01,0.00000000000000e+00,6.01186380703010e-01
8.51080000000000e-08,6.00000000000000e-01,0.00000000000000e+00,6.00999892766796e-01
8.51240000000000e-08,6.00000000000000e-01,0.00000000000000e+00,6.00612829181556e-01
8.51560000000000e-08,6.00000000000000e-01,0.00000000000000e+00,5.99978873306925e-01
8.52200000000000e-08,6.00000000000000e-01,0.00000000000000e+00,5.99275348090887e-01
8.53480000000000e-08,6.00000000000000e-01,0.00000000000000e+00,5.98766321042914e-01
8.56040000000000e-08,6.00000000000000e-01,0.00000000000000e+00,5.99685449049048e-01
8.61159999999999e-08,6.00000000000000e-01,0.00000000000000e+00,6.13469277235518e-01
8.71399999999999e-08,6.00000000000000e-01,0.00000000000000e+00,2.08949875906325e-01
8.88602334201929e-08,6.00000000000000e-01,0.00000000000000e+00,-6.65026337413602e-02
9.00000000000000e-08,6.00000000000000e-01,0.00000000000000e+00,4.68046342511308e-02
9.00100000000000e-08,6.00000000000000e-01,5.99999999999886e-02,4.45101519286004e-02
9.00300000000000e-08,6.00000000000000e-01,1.79999999999966e-01,4.00209922754589e-02
9.00700000000000e-08,6.00000000000000e-01,4.19999999999920e-01,3.19533566588974e-02
9.01000000000000e-08,6.00000000000000e-01,5.99999999999966e-01,2.68205129275315e-02
9.01080000000000e-08,6.00000000000000e-01,6.00000000000000e-01,2.56034731134319e-02
9.01240000000000e-08,6.00000000000000e-01,6.00000000000000e-01,2.32674458135229e-02
9.01560000000000e-08,6.00000000000000e-01,6.00000000000000e-01,1.91085861797097e-02
9.02200000000000e-08,6.00000000000000e-01,6.00000000000000e-01,1.29488765402125e-02
9.03480000000000e-08,6.00000000000000e-01,6.00000000000000e-01,5.75382419725919e-03
9.06040000000000e-08,6.00000000000000e-01,6.00000000000000e-01,7.60484363243108e-04
9.11159999999999e-08,6.00000000000000e-01,6.00000000000000e-01,-1.36692309099219e-04
9.20875341021867e-08,6.00000000000000e-01,6.00000000000000e-01,8.17616361037006e-05
9.40306023065601e-08,6.00000000000000e-01,6.00000000000000e-01,-2.50982438920865e-05
9.51000000000000e-08,6.00000000000000e-01,6.00000000000000e-01,4.19093526841316e-05
9.51100000000000e-08,5.40000000000061e-01,6.00000000000000e-01,-1.28774003560012e-04
9.51300000000000e-08,4.20000000000084e-01,6.00000000000000e-01,-6.12439442225998e-04
9.51700000000000e-08,1.80000000000129e-01,6.00000000000000e-01,-1.69656481122045e-03
9.52000000000000e-08,8.40438829641244e-14,6.00000000000000e-01,-1.88653694944564e-03
9.52080000000000e-08,0.00000000000000e+00,6.00000000000000e-01,-1.51849705776284e-03
9.52240000000000e-08,0.00000000000000e+00,6.00000000000000e-01,-8.75357185261466e-04
9.52560000000000e-08,0.00000000000000e+00,6.00000000000000e-01,1.79943572324773e-04
9.53200000000000e-08,0.00000000000000e+00,6.00000000000000e-01,1.23014367731754e-03
9.54480000000000e-08,0.00000000000000e+00,6.00000000000000e-01,1.40304032214825e-03
9.57040000000000e-08,0.00000000000000e+00,6.00000000000000e-01,-6.12391126178474e-04
9.62159999999999e-08,0.00000000000000e+00,6.00000000000000e-01,-1.52577665157147e-03
9.72399999999999e-08,0.00000000000000e+00,6.00000000000000e-01,7.39233875923496e-04
9.87501493946024e-08,0.00000000000000e+00,6.00000000000000e-01,-6.43923965889390e-04
1.00433090958898e-07,0.00000000000000e+00,6.00000000000000e-01,7.27696323419950e-04
1.03321280174502e-07,0.00000000000000e+00,6.00000000000000e-01,-6.33258256002951e-04
1.05000000000000e-07,0.00000000000000e+00,6.00000000000000e-01,5.38899414844852e-04
1.05010000000000e-07,5.99999999999886e-02,6.00000000000000e-01,1.02572315537017e-03
1.05030000000000e-07,1.79999999999966e-01,6.00000000000000e-01,1.94890638748775e-03
1.05070000000000e-07,4.19999999999920e-01,6.00000000000000e-01,3.48608840454401e-03
1.05100000000000e-07,5.99999999999966e-01,6.00000000000000e-01,3.85101252631287e-03
1.05108000000000e-07,6.00000000000000e-01,6.00000000000000e-01,3.56511217620309e-03
1.05124000000000e-07,6.00000000000000e-01,6.00000000000000e-01,2.99506138250694e-03
1.05156000000000e-07,6.00000000000000e-01,6.00000000000000e-01,1.79091347304997e-03
1.05220000000000e-07,6.00000000000000e-01,6.00000000000000e-01,-8.75798021658075e-04
1.05348000000000e-07,6.00000000000000e-01,6.00000000000000e-01,-5.53996354207444e-03
1.05604000000000e-07,6.00000000000000e-01,6.00000000000000e-01,-7.77523451813161e-03
1.06116000000000e-07,6.00000000000000e-01,6.00000000000000e-01,1.06087351885923e-01
1.07140000000000e-07,6.00000000000000e-01,6.00000000000000e-01,5.46850867447256e-01
1.09188000000000e-07,6.00000000000000e-01,6.00000000000000e-01,6.17430474142729e-01
1.10100000000000e-07,6.00000000000000e-01,6.00000000000000e-01,5.88567799618888e-01
1.10110000000000e-07,6.00000000000000e-01,5.40000000000091e-01,5.89645813778681e-01
1.10130000000000e-07,6.00000000000000e-01,4.20000000000114e-01,5.91583242277005e-01
1.10170000000000e-07,6.00000000000000e-01,1.80000000000159e-01,5.94423727706643e-01
1.10200000000000e-07,6.00000000000000e-01,1.13686837721616e-13,5.95945461457732e-01
1.10208000000000e-07,6.00000000000000e-01,0.00000000000000e+00,5.96252656814026e-01
1.10224000000000e-07,6.00000000000000e-01,0.00000000000000e+00,5.96828682661221e-01
1.10256000000000e-07,6.00000000000000e-01,0.00000000000000e+00,5.97679621754097e-01
1.10320000000000e-07,6.00000000000000e-01,0.00000000000000e+00,5.98767821910429e-01
1.10448000000000e-07,6.00000000000000e-01,0.00000000000000e+00,5.99613953083873e-01
1.10704000000000e-07,6.00000000000000e-01,0.00000000000000e+00,5.99834517220453e-01
