Time,v(clk),v(data),v(out)
1.00000000000000e-08,6.00000000000000e-01,0.00000000000000e+00,6.36683473075814e-05
1.00100000000000e-08,6.00000000000000e-01,5.99999999999986e-02,8.04808971943405e-05
1.00300000000000e-08,6.00000000000000e-01,1.79999999999996e-01,1.09957277445547e-04
1.00700000000000e-08,6.00000000000000e-01,4.19999999999990e-01,1.33594126992653e-04
1.01000000000000e-08,6.00000000000000e-01,5.99999999999995e-01,1.11286432944280e-04
1.01080000000000e-08,6.00000000000000e-01,6.00000000000000e-01,9.34024605669659e-05
1.01240000000000e-08,6.00000000000000e-01,6.00000000000000e-01,6.38471660782958e-05
1.01560000000000e-08,6.00000000000000e-01,6.00000000000000e-01,2.46957401312808e-05
1.02200000000000e-08,6.00000000000000e-01,6.00000000000000e-01,3.85280359399554e-06
1.03480000000000e-08,6.00000000000000e-01,6.00000000000000e-01,3.46756895549943e-05
1.06040000000000e-08,6.00000000000000e-01,6.00000000000000e-01,8.90294433095323e-05
1.11160000000000e-08,6.00000000000000e-01,6.00000000000000e-01,7.50239349416940e-05
1.20350616439409e-08,6.00000000000000e-01,6.00000000000000e-01,5.87676281842628e-05
1.38731849318227e-08,6.00000000000000e-01,6.00000000000000e-01,7.25930320711540e-05
1.51000000000000e-08,6.00000000000000e-01,6.00000000000000e-01,6.34946630291150e-05
1.51100000000000e-08,5.39999999999992e-01,6.00000000000000e-01,-1.13018284876587e-04
1.51300000000000e-08,4.19999999999994e-01,6.00000000000000e-01,-6.15917796213616e-04
1.51700000000000e-08,1.80000000000000e-01,6.00000000000000e-01,-1.70657309823252e-03
1.52000000000000e-08,0.00000000000000e+00,6.00000000000000e-01,-2.00883193007197e-03
1.52080000000000e-08,0.00000000000000e+00,6.00000000000000e-01,-1.69163602272324e-03
1.52240000000000e-08,0.00000000000000e+00,6.00000000000000e-01,-1.09311422524180e-03
1.52560000000000e-08,0.00000000000000e+00,6.00000000000000e-01,-1.11585970027556e-04
1.53200000000000e-08,0.00000000000000e+00,6.00000000000000e-01,1.05694296562982e-03
1.54480000000000e-08,0.00000000000000e+00,6.00000000000000e-01,1.65669571492724e-03
1.57040000000000e-08,0.00000000000000e+00,6.00000000000000e-01,9.74560675799707e-04
1.62160000000000e-08,0.00000000000000e+00,6.00000000000000e-01,-6.95350835658269e-04
1.72400000000000e-08,0.00000000000000e+00,6.00000000000000e-01,9.47176133753933e-05
1.89178224179590e-08,0.00000000000000e+00,6.00000000000000e-01,-1.01393156532559e-04
2.07717153858744e-08,0.00000000000000e+00,6.00000000000000e-01,3.53590352056635e-04
2.39762817184248e-08,0.00000000000000e+00,6.00000000000000e-01,-1.77957514969851e-04
2.50000000000000e-08,0.00000000000000e+00,6.00000000000000e-01,1.57478470436477e-04
2.50100000000000e-08,5.99999999999886e-02,6.00000000000000e-01,6.52161762666331e-04
2.50300000000000e-08,1.80000000000006e-01,6.00000000000000e-01,1.60709976983432e-03
2.50700000000000e-08,4.20000000000000e-01,6.00000000000000e-01,3.21886830488832e-03
2.51000000000000e-08,6.00000000000000e-01,6.00000000000000e-01,3.76816170797450e-03
2.51080000000000e-08,6.00000000000000e-01,6.00000000000000e-01,3.53806816348738e-03
2.51240000000000e-08,6.00000000000000e-01,6.00000000000000e-01,3.07902883290698e-03
2.51560000000000e-08,6.00000000000000e-01,6.00000000000000e-01,2.13375336518470e-03
2.52200000000000e-08,6.00000000000000e-01,6.00000000000000e-01,7.47006245176984e-05
2.53480000000000e-08,6.00000000000000e-01,6.00000000000000e-01,-3.84282083324992e-03
2.56040000000000e-08,6.00000000000000e-01,6.00000000000000e-01,-7.63187935357787e-03
2.61160000000000e-08,6.00000000000000e-01,6.00000000000000e-01,3.48955772835914e-02
2.71400000000000e-08,6.00000000000000e-01,6.00000000000000e-01,4.65074592243865e-01
2.73960000000000e-08,6.00000000000000e-01,6.00000000000000e-01,5.46161987825025e-01
2.79080000000000e-08,6.00000000000000e-01,6.00000000000000e-01,5.96401958161973e-01
2.89320000000000e-08,6.00000000000000e-01,6.00000000000000e-01,5.97620910402831e-01
3.09071692359597e-08,6.00000000000000e-01,6.00000000000000e-01,6.02003972347697e-01
3.35211139676270e-08,6.00000000000000e-01,6.00000000000000e-01,5.98169856542600e-01
3.51000000000000e-08,5.99999999999970e-01,6.00000000000000e-01,6.01413361419463e-01
3.51100000000000e-08,5.39999999999982e-01,6.00000000000000e-01,6.01091418768957e-01
3.51300000000000e-08,4.19999999999965e-01,6.00000000000000e-01,6.00463885529779e-01
3.51700000000000e-08,1.79999999999970e-01,6.00000000000000e-01,5.99961448154391e-01
3.52000000000000e-08,0.00000000000000e+00,6.00000000000000e-01,6.00825167597393e-01
3.52080000000000e-08,0.00000000000000e+00,6.00000000000000e-01,6.01328054140477e-01
3.52240000000000e-08,0.00000000000000e+00,6.00000000000000e-01,6.02260237268788e-01
3.52560000000000e-08,0.00000000000000e+00,6.00000000000000e-01,6.03735393480150e-01
3.53200000000000e-08,0.00000000000000e+00,6.00000000000000e-01,6.05513073470088e-01
3.54480000000000e-08,0.00000000000000e+00,6.00000000000000e-01,6.06694753915811e-01
3.57040000000000e-08,0.00000000000000e+00,6.00000000000000e-01,6.03496941756818e-01
3.62160000000000e-08,0.00000000000000e+00,6.00000000000000e-01,5.89342700242971e-01
3.72400000000000e-08,0.00000000000000e+00,6.00000000000000e-01,5.91104676924329e-01
3.90765036380959e-08,0.00000000000000e+00,6.00000000000000e-01,6.04186553325701e-01
4.15349397931459e-08,0.00000000000000e+00,6.00000000000000e-01,5.96337741298122e-01
4.50000000000000e-08,0.00000000000000e+00,6.00000000000000e-01,6.02540222190540e-01
4.50100000000000e-08,5.99999999999886e-02,6.00000000000000e-01,6.02674254488044e-01
4.50300000000000e-08,1.80000000000006e-01,6.00000000000000e-01,6.02912939103103e-01
4.50700000000000e-08,4.20000000000000e-01,6.00000000000000e-01,6.03193359894877e-01
4.51000000000000e-08,6.00000000000000e-01,6.00000000000000e-01,6.03098353825559e-01
4.51080000000000e-08,6.00000000000000e-01,5.52000000000025e-01,6.02887182506064e-01
4.51240000000000e-08,6.00000000000000e-01,4.55999999999996e-01,6.02480631848340e-01
4.51560000000000e-08,6.00000000000000e-01,2.64000000000016e-01,6.01651426006577e-01
4.52000000000000e-08,6.00000000000000e-01,3.44169137633799e-14,6.00647781017502e-01
4.52064000000000e-08,6.00000000000000e-01,0.00000000000000e+00,6.00514419056451e-01
4.52192000000000e-08,6.00000000000000e-01,0.00000000000000e+00,6.00247472141953e-01
4.52448000000000e-08,6.00000000000000e-01,0.00000000000000e+00,5.99760631409455e-01
4.52960000000000e-08,6.00000000000000e-01,0.00000000000000e+00,5.98933178572338e-01
4.53984000000000e-08,6.00000000000000e-01,0.00000000000000e+00,5.97462494378022e-01
4.56032000000000e-08,6.00000000000000e-01,0.00000000000000e+00,5.95227941552072e-01
4.60128000000000e-08,6.00000000000000e-01,0.00000000000000e+00,5.94103564146224e-01
4.68320000000000e-08,6.00000000000000e-01,0.00000000000000e+00,5.97511896785663e-01
4.78000563204587e-08,6.00000000000000e-01,0.00000000000000e+00,5.99657801092086e-01
4.97361689613760e-08,6.00000000000000e-01,0.00000000000000e+00,5.99912966575881e-01
5.19689189396328e-08,6.00000000000000e-01,0.00000000000000e+00,6.00162945547465e-01
5.51000000000000e-08,6.00000000000000e-01,0.00000000000000e+00,5.99828950906683e-01
5.51100000000000e-08,5.40000000000021e-01,0.00000000000000e+00,5.99658936333669e-01
5.51300000000000e-08,4.20000000000004e-01,0.00000000000000e+00,5.99324901547050e-01
5.51700000000000e-08,1.80000000000010e-01,0.00000000000000e+00,5.99170411798018e-01
5.52000000000000e-08,0.00000000000000e+00,0.00000000000000e+00,6.00141369326942e-01
5.52080000000000e-08,0.00000000000000e+00,0.00000000000000e+00,6.00741997122987e-01
5.52240000000000e-08,0.00000000000000e+00,0.00000000000000e+00,6.01830300455528e-01
5.52560000000000e-08,0.00000000000000e+00,0.00000000000000e+00,6.03522196477078e-01
5.53200000000000e-08,0.00000000000000e+00,0.00000000000000e+00,6.05478392073225e-01
5.54480000000000e-08,0.00000000000000e+00,0.00000000000000e+00,6.07202261439971e-01
5.57040000000000e-08,0.00000000000000e+00,0.00000000000000e+00,6.08575470881773e-01
5.62160000000000e-08,0.00000000000000e+00,0.00000000000000e+00,6.05786231939744e-01
5.72400000000000e-08,0.00000000000000e+00,0.00000000000000e+00,5.98175656855547e-01
5.85710550101754e-08,0.00000000000000e+00,0.00000000000000e+00,6.00749599359338e-01
6.05701640909340e-08,0.00000000000000e+00,0.00000000000000e+00,5.99230072917768e-01
6.32881866808442e-08,0.00000000000000e+00,0.00000000000000e+00,6.00360516925373e-01
6.50000000000000e-08,0.00000000000000e+00,0.00000000000000e+00,5.99587305716388e-01
6.50100000000000e-08,5.99999999999886e-02,0.00000000000000e+00,5.99845934353736e-01
6.50300000000000e-08,1.79999999999966e-01,0.00000000000000e+00,6.00338322818217e-01
6.50700000000000e-08,4.19999999999920e-01,0.00000000000000e+00,6.01094341666851e-01
6.51000000000000e-08,5.99999999999966e-01,0.00000000000000e+00,6.01209491572658e-01
6.51080000000000e-08,6.00000000000000e-01,0.00000000000000e+00,6.01047182230369e-01
6.51240000000000e-08,6.00000000000000e-01,0.00000000000000e+00,6.00747116587598e-01
6.51560000000000e-08,6.00000000000000e-01,0.00000000000000e+00,6.00166969475829e-01
6.52200000000000e-08,6.00000000000000e-01,0.00000000000000e+00,5.99419735932767e-01
6.53480000000000e-08,6.00000000000000e-01,0.00000000000000e+00,5.98864461288159e-01
6.56040000000000e-08,6.00000000000000e-01,0.00000000000000e+00,5.99181174576506e-01
6.61159999999999e-08,6.00000000000000e-01,0.00000000000000e+00,6.06562267901787e-01
6.71399999999999e-08,6.00000000000000e-01,0.00000000000000e+00,3.46036923764163e-01
6.73959999999999e-08,6.00000000000000e-01,0.00000000000000e+00,1.81387627129019e-01
6.79079999999998e-08,6.00000000000000e-01,0.00000000000000e+00,1.27589385334400e-02
6.89319999999998e-08,6.00000000000000e-01,0.00000000000000e+00,-5.33155820457711e-03
7.09799999999997e-08,6.00000000000000e-01,0.00000000000000e+00,3.80592461564645e-03
7.31296067617615e-08,6.00000000000000e-01,0.00000000000000e+00,-2.55261315051697e-03
7.51000000000000e-08,6.00000000000000e-01,0.00000000000000e+00,1.85372596108003e-03
7.51100000000000e-08,5.40000000000061e-01,0.00000000000000e+00,1.58676344838965e-03
7.51300000000000e-08,4.20000000000084e-01,0.00000000000000e+00,9.23498885372062e-04
7.51700000000000e-08,1.80000000000129e-01,0.00000000000000e+00,-4.57059642862051e-04
7.52000000000000e-08,8.40438829641244e-14,0.00000000000000e+00,-9.39808437948997e-04
7.52080000000000e-08,0.00000000000000e+00,0.00000000000000e+00,-6.71820195079900e-04
7.52240000000000e-08,0.00000000000000e+00,0.00000000000000e+00,-1.65082786788423e-04
7.52560000000000e-08,0.00000000000000e+00,0.00000000000000e+00,6.53662051960713e-04
7.53200000000000e-08,0.00000000000000e+00,0.00000000000000e+00,1.55889946776405e-03
7.54480000000000e-08,0.00000000000000e+00,0.00000000000000e+00,1.82196329351893e-03
7.57040000000000e-08,0.00000000000000e+00,0.00000000000000e+00,3.97157200277498e-04
7.62159999999999e-08,0.00000000000000e+00,0.00000000000000e+00,-1.20015452884381e-03
7.72399999999999e-08,0.00000000000000e+00,0.00000000000000e+00,2.66805969527006e-04
7.89551437515046e-08,0.00000000000000e+00,0.00000000000000e+00,2.72259014302487e-05
8.11498972831369e-08,0.00000000000000e+00,0.00000000000000e+00,4.56130352369730e-05
8.49498972831369e-08,0.00000000000000e+00,0.00000000000000e+00,9.38127889265408e-05
8.50000000000000e-08,0.00000000000000e+00,0.00000000000000e+00,7.94827402509773e-05
8.50100000000000e-08,5.99999999999886e-02,0.00000000000000e+00,5.20076429714134e-04
8.50300000000000e-08,1.79999999999966e-01,0.00000000000000e+00,1.34252234931997e-03
8.50700000000000e-08,4.19999999999920e-01,0.00000000000000e+00,2.57389018646809e-03
8.51000000000000e-08,5.99999999999966e-01,0.00000000000000e+00,2.72165654296745e-03
8.51080000000000e-08,6.00000000000000e-01,0.00000000000000e+00,2.41955173250366e-03
8.51240000000000e-08,6.00000000000000e-01,0.00000000000000e+00,1.83547009946619e-03
8.51560000000000e-08,6.00000000000000e-01,0.00000000000000e+00,8.66922960425370e-04
8.52200000000000e-08,6.00000000000000e-01,0.00000000000000e+00,-3.05856367957436e-04
8.53480000000000e-08,6.00000000000000e-01,0.00000000000000e+00,-1.02391376663129e-03
8.56040000000000e-08,6.00000000000000e-01,0.00000000000000e+00,-8.51130220622623e-04
8.61159999999999e-08,6.00000000000000e-01,0.00000000000000e+00,-6.20992872335455e-05
8.71399999999999e-08,6.00000000000000e-01,0.00000000000000e+00,3.88395610096022e-04
8.91879999999998e-08,6.00000000000000e-01,0.00000000000000e+00,-6.09110924224519e-05
9.00000000000000e-08,6.00000000000000e-01,0.00000000000000e+00,6.82757220593702e-05
9.00100000000000e-08,6.00000000000000e-01,5.99999999999886e-02,8.45852203190389e-05
9.00300000000000e-08,6.00000000000000e-01,1.79999999999966e-01,1.13051522166840e-04
9.00700000000000e-08,6.00000000000000e-01,4.19999999999920e-01,1.35790029078833e-04
9.01000000000000e-08,6.00000000000000e-01,5.99999999999966e-01,1.13204769780051e-04
9.01080000000000e-08,6.00000000000000e-01,6.00000000000000e-01,9.52900254209549e-05
9.01240000000000e-08,6.00000000000000e-01,6.00000000000000e-01,6.59872728258210e-05
9.01560000000000e-08,6.00000000000000e-01,6.00000000000000e-01,2.73321587124231e-05
9.02200000000000e-08,6.00000000000000e-01,6.00000000000000e-01,6.90016294385698e-06
9.03480000000000e-08,6.00000000000000e-01,6.00000000000000e-01,3.51464280376745e-05
9.06040000000000e-08,6.00000000000000e-01,6.00000000000000e-01,8.70252266649135e-05
9.11159999999999e-08,6.00000000000000e-01,6.00000000000000e-01,7.55074538000972e-05
9.20982953301159e-08,6.00000000000000e-01,6.00000000000000e-01,5.88938825988039e-05
9.40628859903479e-08,6.00000000000000e-01,6.00000000000000e-01,7.29385723427164e-05
9.51000000000000e-08,6.00000000000000e-01,6.00000000000000e-01,6.36878683528651e-05
9.51100000000000e-08,5.40000000000061e-01,6.00000000000000e-01,-1.12802287708103e-04
9.51300000000000e-08,4.20000000000084e-01,6.00000000000000e-01,-6.15689100925285e-04
9.51700000000000e-08,1.80000000000129e-01,6.00000000000000e-01,-1.70632964116203e-03
9.52000000000000e-08,8.40438829641244e-14,6.00000000000000e-01,-2.00854924444421e-03
9.52080000000000e-08,0.00000000000000e+00,6.00000000000000e-01,-1.69133877359458e-03
9.52240000000000e-08,0.00000000000000e+00,6.00000000000000e-01,-1.09278780920731e-03
9.52560000000000e-08,0.00000000000000e+00,6.00000000000000e-01,-1.11183446712432e-04
9.53200000000000e-08,0.00000000000000e+00,6.00000000000000e-01,1.05757398118020e-03
9.54480000000000e-08,0.00000000000000e+00,6.00000000000000e-01,1.65834557153073e-03
9.57040000000000e-08,0.00000000000000e+00,6.00000000000000e-01,9.77162656860195e-04
9.62159999999999e-08,0.00000000000000e+00,6.00000000000000e-01,-6.94021867296328e-04
9.72399999999999e-08,0.00000000000000e+00,6.00000000000000e-01,9.40166515468327e-05
9.89177544567778e-08,0.00000000000000e+00,6.00000000000000e-01,-1.00900644644703e-04
1.00771659889326e-07,0.00000000000000e+00,6.00000000000000e-01,3.53227533717068e-04
1.03976181049781e-07,0.00000000000000e+00,6.00000000000000e-01,-1.77642818192438e-04
1.05000000000000e-07,0.00000000000000e+00,6.00000000000000e-01,1.57284058515852e-04
1.05010000000000e-07,5.99999999999886e-02,6.00000000000000e-01,6.51998897229042e-04
1.05030000000000e-07,1.79999999999966e-01,6.00000000000000e-01,1.60699078467878e-03
1.05070000000000e-07,4.19999999999920e-01,6.00000000000000e-01,3.21879654835841e-03
1.05100000000000e-07,5.99999999999966e-01,6.00000000000000e-01,3.76810375084573e-03
1.05108000000000e-07,6.00000000000000e-01,6.00000000000000e-01,3.53801342593463e-03
1.05124000000000e-07,6.00000000000000e-01,6.00000000000000e-01,3.07898060477702e-03
1.05156000000000e-07,6.00000000000000e-01,6.00000000000000e-01,2.13371827191519e-03
1.05220000000000e-07,6.00000000000000e-01,6.00000000000000e-01,7.46865452280199e-05
1.05348000000000e-07,6.00000000000000e-01,6.00000000000000e-01,-3.84281788441393e-03
1.05604000000000e-07,6.00000000000000e-01,6.00000000000000e-01,-7.63188385744133e-03
1.06116000000000e-07,6.00000000000000e-01,6.00000000000000e-01,3.48954110216498e-02
1.07140000000000e-07,6.00000000000000e-01,6.00000000000000e-01,4.65074391842477e-01
1.07396000000000e-07,6.00000000000000e-01,6.00000000000000e-01,5.46161903099563e-01
1.07908000000000e-07,6.00000000000000e-01,6.00000000000000e-01,5.96401949895299e-01
1.08932000000000e-07,6.00000000000000e-01,6.00000000000000e-01,5.97620909468290e-01
1.10907169272194e-07,6.00000000000000e-01,6.00000000000000e-01,6.02003972913361e-01
1.13521113546205e-07,6.00000000000000e-01,6.00000000000000e-01,5.98169856146784e-01
1.15100000000000e-07,6.00000000000000e-01,6.00000000000000e-01,6.01413361813658e-01
1.15110000000000e-07,5.40000000000061e-01,6.00000000000000e-01,6.01091419078869e-01
1.15130000000000e-07,4.20000000000084e-01,6.00000000000000e-01,6.00463885641733e-01
1.15170000000000e-07,1.80000000000129e-01,6.00000000000000e-01,5.99961448241956e-01
1.15200000000000e-07,8.40438829641244e-14,6.00000000000000e-01,6.00825167656843e-01
1.15208000000000e-07,0.00000000000000e+00,6.00000000000000e-01,6.01328054162627e-01
1.15224000000000e-07,0.00000000000000e+00,6.00000000000000e-01,6.02260237209914e-01
1.15256000000000e-07,0.00000000000000e+00,6.00000000000000e-01,6.03735393429823e-01
1.15320000000000e-07,0.00000000000000e+00,6.00000000000000e-01,6.05513073449214e-01
1.15448000000000e-07,0.00000000000000e+00,6.00000000000000e-01,6.06694753913157e-01
1.15704000000000e-07,0.00000000000000e+00,6.00000000000000e-01,6.03496941694114e-01
1.16216000000000e-07,0.00000000000000e+00,6.00000000000000e-01,5.89342700163847e-01
1.17240000000000e-07,0.00000000000000e+00,6.00000000000000e-01,5.91104676962626e-01
1.19076503613621e-07,0.00000000000000e+00,6.00000000000000e-01,6.04186553267342e-01
1.21534939774083e-07,0.00000000000000e+00,6.00000000000000e-01,5.96337741321479e-01
1.25000000000000e-07,0.00000000000000e+00,6.00000000000000e-01,6.02540222172202e-01
1.25010000000000e-07,5.99999999999092e-02,6.00000000000000e-01,6.02674254470301e-01
1.25030000000000e-07,1.79999999999886e-01,6.00000000000000e-01,6.02912939087473e-01
1.25070000000000e-07,4.19999999999841e-01,6.00000000000000e-01,6.03193359882885e-01
1.25100000000000e-07,5.99999999999886e-01,6.00000000000000e-01,6.03098353821166e-01
1.25108000000000e-07,6.00000000000000e-01,5.51999999999946e-01,6.02887182504766e-01
1.25124000000000e-07,6.00000000000000e-01,4.55999999999996e-01,6.02480631853181e-01
1.25156000000000e-07,6.00000000000000e-01,2.63999999999937e-01,6.01651426019515e-01
1.25200000000000e-07,6.00000000000000e-01,0.00000000000000e+00,6.00647781035701e-01
1.25206400000000e-07,6.00000000000000e-01,0.00000000000000e+00,6.00514419075059e-01
1.25219200000000e-07,6.00000000000000e-01,0.00000000000000e+00,6.00247472161068e-01
1.25244800000000e-07,6.00000000000000e-01,0.00000000000000e+00,5.99760631426894e-01
1.25296000000000e-07,6.00000000000000e-01,0.00000000000000e+00,5.98933178590392e-01
1.25398400000000e-07,6.00000000000000e-01,0.00000000000000e+00,5.97462494395022e-01
1.25603200000000e-07,6.00000000000000e-01,0.00000000000000e+00,5.95227941563377e-01
1.26012800000000e-07,6.00000000000000e-01,0.00000000000000e+00,5.94103564149569e-01
1.26832000000000e-07,6.00000000000000e-01,0.00000000000000e+00,5.97511896758875e-01
1.27800056281085e-07,6.00000000000000e-01,0.00000000000000e+00,5.99657801060497e-01
1.29736168843256e-07,6.00000000000000e-01,0.00000000000000e+00,5.99912966561209e-01
1.31968918692200e-07,6.00000000000000e-01,0.00000000000000e+00,6.00162945560396e-01
1.35100000000000e-07,5.99999999999891e-01,0.00000000000000e+00,5.99828950897050e-01
1.35110000000000e-07,5.39999999999823e-01,0.00000000000000e+00,5.99658936311230e-01
1.35130000000000e-07,4.19999999999846e-01,0.00000000000000e+00,5.99324901506926e-01
1.35170000000000e-07,1.79999999999891e-01,0.00000000000000e+00,5.99170411749192e-01
1.35200000000000e-07,0.00000000000000e+00,0.00000000000000e+00,6.00141369278591e-01
1.35208000000000e-07,0.00000000000000e+00,0.00000000000000e+00,6.00741997081415e-01
1.35224000000000e-07,0.00000000000000e+00,0.00000000000000e+00,6.01830300411449e-01
