Time,v(clk),v(data),v(out),v(reset)
1.00000000000000e-08,6.00000000000000e-01,0.00000000000000e+00,2.84707718769626e-05,0.00000000000000e+00
1.00100000000000e-08,6.00000000000000e-01,5.99999999999986e-02,2.76710345596537e-05,0.00000000000000e+00
1.00300000000000e-08,6.00000000000000e-01,1.79999999999996e-01,2.64680244793994e-05,0.00000000000000e+00
1.00700000000000e-08,6.00000000000000e-01,4.19999999999990e-01,2.48003528520446e-05,0.00000000000000e+00
1.01000000000000e-08,6.00000000000000e-01,5.99999999999995e-01,2.37922268670823e-05,0.00000000000000e+00
1.01080000000000e-08,6.00000000000000e-01,6.00000000000000e-01,2.35020389594137e-05,0.00000000000000e+00
1.01240000000000e-08,6.00000000000000e-01,6.00000000000000e-01,2.36330759572217e-05,0.00000000000000e+00
1.01560000000000e-08,6.00000000000000e-01,6.00000000000000e-01,2.52906936608274e-05,0.00000000000000e+00
1.02200000000000e-08,6.00000000000000e-01,6.00000000000000e-01,2.67881734832415e-05,0.00000000000000e+00
1.03480000000000e-08,6.00000000000000e-01,6.00000000000000e-01,2.73244933416336e-05,0.00000000000000e+00
1.06040000000000e-08,6.00000000000000e-01,6.00000000000000e-01,2.56981934430613e-05,0.00000000000000e+00
1.11160000000000e-08,6.00000000000000e-01,6.00000000000000e-01,2.51814103006155e-05,0.00000000000000e+00
1.21400000000000e-08,6.00000000000000e-01,6.00000000000000e-01,2.49572039901450e-05,0.00000000000000e+00
1.41880000000000e-08,6.00000000000000e-01,6.00000000000000e-01,2.35897571481281e-05,0.00000000000000e+00
1.51000000000000e-08,6.00000000000000e-01,6.00000000000000e-01,2.35786457789579e-05,0.00000000000000e+00
1.51100000000000e-08,5.39999999999992e-01,6.00000000000000e-01,1.86285133020318e-04,6.00000000000085e-02
1.51300000000000e-08,4.19999999999994e-01,6.00000000000000e-01,3.64191997903676e-04,1.80000000000006e-01
1.51700000000000e-08,1.80000000000000e-01,6.00000000000000e-01,3.43899250449066e-04,4.20000000000000e-01
1.52000000000000e-08,0.00000000000000e+00,6.00000000000000e-01,3.48446583254697e-04,6.00000000000000e-01
1.52080000000000e-08,0.00000000000000e+00,6.00000000000000e-01,3.30998273265500e-04,6.00000000000000e-01
1.52240000000000e-08,0.00000000000000e+00,6.00000000000000e-01,3.04190238804160e-04,6.00000000000000e-01
1.52560000000000e-08,0.00000000000000e+00,6.00000000000000e-01,2.68629858530885e-04,6.00000000000000e-01
1.53200000000000e-08,0.00000000000000e+00,6.00000000000000e-01,8.55248058080280e-05,6.00000000000000e-01
1.54480000000000e-08,0.00000000000000e+00,6.00000000000000e-01,-2.94958215125582e-04,6.00000000000000e-01
1.57040000000000e-08,0.00000000000000e+00,6.00000000000000e-01,-6.22575376684614e-05,6.00000000000000e-01
1.61599150298571e-08,0.00000000000000e+00,6.00000000000000e-01,-2.67875506723379e-05,6.00000000000000e-01
1.68306876518206e-08,0.00000000000000e+00,6.00000000000000e-01,2.28133297084324e-05,6.00000000000000e-01
1.78068771231999e-08,0.00000000000000e+00,6.00000000000000e-01,1.28193344564369e-04,6.00000000000000e-01
1.95986060037289e-08,0.00000000000000e+00,6.00000000000000e-01,-1.18366539949188e-04,6.00000000000000e-01
2.21088305374134e-08,0.00000000000000e+00,6.00000000000000e-01,1.68310561584977e-04,6.00000000000000e-01
2.50000000000000e-08,0.00000000000000e+00,6.00000000000000e-01,-1.33440292454905e-04,6.00000000000000e-01
2.50100000000000e-08,5.99999999999886e-02,6.00000000000000e-01,-7.46344361986229e-06,6.00000000000000e-01
2.50300000000000e-08,1.80000000000006e-01,6.00000000000000e-01,2.06479840852529e-04,6.00000000000000e-01
2.50700000000000e-08,4.20000000000000e-01,6.00000000000000e-01,4.91757109914330e-04,6.00000000000000e-01
2.51000000000000e-08,6.00000000000000e-01,6.00000000000000e-01,5.38566792534875e-04,6.00000000000000e-01
2.51080000000000e-08,6.00000000000000e-01,6.00000000000000e-01,4.60547055325396e-04,6.00000000000000e-01
2.51240000000000e-08,6.00000000000000e-01,6.00000000000000e-01,2.69050723546008e-04,6.00000000000000e-01
2.51560000000000e-08,6.00000000000000e-01,6.00000000000000e-01,-3.19303941455129e-04,6.00000000000000e-01
2.52200000000000e-08,6.00000000000000e-01,6.00000000000000e-01,-1.90187180681028e-03,6.00000000000000e-01
2.53480000000000e-08,6.00000000000000e-01,6.00000000000000e-01,-4.18040213655727e-03,6.00000000000000e-01
2.56040000000000e-08,6.00000000000000e-01,6.00000000000000e-01,4.43884899152776e-02,6.00000000000000e-01
2.61160000000000e-08,6.00000000000000e-01,6.00000000000000e-01,5.33616380399397e-01,6.00000000000000e-01
2.71400000000000e-08,6.00000000000000e-01,6.00000000000000e-01,6.16441422521361e-01,6.00000000000000e-01
2.81570110156933e-08,6.00000000000000e-01,6.00000000000000e-01,5.83583537524091e-01,6.00000000000000e-01
3.01910330470797e-08,6.00000000000000e-01,6.00000000000000e-01,6.15000602177227e-01,6.00000000000000e-01
3.34041085754911e-08,6.00000000000000e-01,6.00000000000000e-01,5.84422118797854e-01,6.00000000000000e-01
3.51000000000000e-08,5.99999999999970e-01,6.00000000000000e-01,6.14182927821401e-01,6.00000000000000e-01
3.51100000000000e-08,5.39999999999982e-01,6.00000000000000e-01,6.08436004573859e-01,6.00000000000000e-01
3.51300000000000e-08,4.19999999999965e-01,6.00000000000000e-01,6.01561563714453e-01,6.00000000000000e-01
3.51700000000000e-08,1.79999999999970e-01,6.00000000000000e-01,6.00254625646407e-01,6.00000000000000e-01
3.52000000000000e-08,0.00000000000000e+00,6.00000000000000e-01,6.02186376668399e-01,6.00000000000000e-01
3.52080000000000e-08,0.00000000000000e+00,6.00000000000000e-01,6.02628857622276e-01,6.00000000000000e-01
3.52240000000000e-08,0.00000000000000e+00,6.00000000000000e-01,6.03145572998618e-01,6.00000000000000e-01
3.52560000000000e-08,0.00000000000000e+00,6.00000000000000e-01,6.02309147851604e-01,6.00000000000000e-01
3.53200000000000e-08,0.00000000000000e+00,6.00000000000000e-01,5.92542856222494e-01,6.00000000000000e-01
3.54480000000000e-08,0.00000000000000e+00,6.00000000000000e-01,5.81644032924740e-01,6.00000000000000e-01
3.57040000000000e-08,0.00000000000000e+00,6.00000000000000e-01,5.97922190924594e-01,6.00000000000000e-01
3.62045067147449e-08,0.00000000000000e+00,6.00000000000000e-01,5.99999094301968e-01,6.00000000000000e-01
3.68568954373231e-08,0.00000000000000e+00,6.00000000000000e-01,5.99176897875933e-01,6.00000000000000e-01
3.81616728824795e-08,0.00000000000000e+00,6.00000000000000e-01,6.00202014867185e-01,6.00000000000000e-01
4.07712277727922e-08,0.00000000000000e+00,6.00000000000000e-01,5.99499068320690e-01,6.00000000000000e-01
4.45712277727922e-08,0.00000000000000e+00,6.00000000000000e-01,6.00289183033490e-01,6.00000000000000e-01
4.50000000000000e-08,0.00000000000000e+00,6.00000000000000e-01,5.99654787244422e-01,6.00000000000000e-01
4.50100000000000e-08,5.99999999999886e-02,6.00000000000000e-01,5.99646787202574e-01,5.40000000000011e-01
4.50300000000000e-08,1.80000000000006e-01,6.00000000000000e-01,5.99619987068128e-01,4.19999999999994e-01
4.50700000000000e-08,4.20000000000000e-01,6.00000000000000e-01,6.01376906936057e-01,1.80000000000000e-01
4.51000000000000e-08,6.00000000000000e-01,6.00000000000000e-01,6.06631641433776e-01,0.00000000000000e+00
4.51080000000000e-08,6.00000000000000e-01,6.00000000000000e-01,6.08529834101667e-01,0.00000000000000e+00
4.51240000000000e-08,6.00000000000000e-01,6.00000000000000e-01,6.11971634286023e-01,0.00000000000000e+00
4.51560000000000e-08,6.00000000000000e-01,6.00000000000000e-01,6.18725350762254e-01,0.00000000000000e+00
4.52200000000000e-08,6.00000000000000e-01,6.00000000000000e-01,6.30498933061442e-01,0.00000000000000e+00
4.53480000000000e-08,6.00000000000000e-01,6.00000000000000e-01,5.34340559242028e-01,0.00000000000000e+00
4.56040000000000e-08,6.00000000000000e-01,6.00000000000000e-01,1.65835672657669e-01,0.00000000000000e+00
4.60371291929500e-08,6.00000000000000e-01,6.00000000000000e-01,-2.13532791096654e-02,0.00000000000000e+00
4.67364812543615e-08,6.00000000000000e-01,6.00000000000000e-01,1.19009722745096e-02,0.00000000000000e+00
4.79825787923244e-08,6.00000000000000e-01,6.00000000000000e-01,-8.29111256728290e-03,0.00000000000000e+00
4.97063231540043e-08,6.00000000000000e-01,6.00000000000000e-01,6.84485505450166e-03,0.00000000000000e+00
5.01000000000000e-08,6.00000000000000e-01,5.99999999999966e-01,-2.74815511415049e-03,0.00000000000000e+00
5.04115814085702e-08,6.00000000000000e-01,6.00000000000000e-01,-3.39308020026432e-04,0.00000000000000e+00
5.10347442257104e-08,6.00000000000000e-01,6.00000000000000e-01,2.12505893884902e-04,0.00000000000000e+00
5.22810698599910e-08,6.00000000000000e-01,6.00000000000000e-01,-1.35410748843882e-04,0.00000000000000e+00
5.47737211285522e-08,6.00000000000000e-01,6.00000000000000e-01,1.57040511686878e-04,0.00000000000000e+00
5.51000000000000e-08,6.00000000000000e-01,6.00000000000000e-01,-4.52619675103544e-05,0.00000000000000e+00
5.51100000000000e-08,5.40000000000021e-01,6.00000000000000e-01,1.52489733853123e-04,5.99999999999787e-02
5.51300000000000e-08,4.20000000000004e-01,6.00000000000000e-01,3.55476974844879e-04,1.79999999999996e-01
5.51700000000000e-08,1.80000000000010e-01,6.00000000000000e-01,3.40964101654753e-04,4.19999999999990e-01
5.52000000000000e-08,0.00000000000000e+00,6.00000000000000e-01,3.37429086961896e-04,6.00000000000000e-01
5.52080000000000e-08,0.00000000000000e+00,6.00000000000000e-01,3.17293197023213e-04,6.00000000000000e-01
5.52240000000000e-08,0.00000000000000e+00,6.00000000000000e-01,2.84764339801326e-04,6.00000000000000e-01
5.52560000000000e-08,0.00000000000000e+00,6.00000000000000e-01,2.14386577446199e-04,6.00000000000000e-01
5.53200000000000e-08,0.00000000000000e+00,6.00000000000000e-01,-3.69161123517557e-04,6.00000000000000e-01
5.54480000000000e-08,0.00000000000000e+00,6.00000000000000e-01,-1.24648417215621e-03,6.00000000000000e-01
5.57040000000000e-08,0.00000000000000e+00,6.00000000000000e-01,-3.63082826510978e-04,6.00000000000000e-01
5.61436020709543e-08,0.00000000000000e+00,6.00000000000000e-01,2.48733735715514e-04,6.00000000000000e-01
5.68207692150863e-08,0.00000000000000e+00,6.00000000000000e-01,-2.32486385127545e-04,6.00000000000000e-01
5.77674747695535e-08,0.00000000000000e+00,6.00000000000000e-01,2.54652991761951e-04,6.00000000000000e-01
5.95704149474094e-08,0.00000000000000e+00,6.00000000000000e-01,-1.84948122989154e-04,6.00000000000000e-01
6.19719261672005e-08,0.00000000000000e+00,6.00000000000000e-01,2.04906363102203e-04,6.00000000000000e-01
6.50000000000000e-08,0.00000000000000e+00,6.00000000000000e-01,-1.50324885780345e-04,6.00000000000000e-01
6.50100000000000e-08,5.99999999999886e-02,6.00000000000000e-01,-3.94089701679437e-05,6.00000000000000e-01
6.50300000000000e-08,1.79999999999966e-01,6.00000000000000e-01,1.59309243242152e-04,6.00000000000000e-01
6.50700000000000e-08,4.19999999999920e-01,6.00000000000000e-01,4.49741153290092e-04,6.00000000000000e-01
6.51000000000000e-08,5.99999999999966e-01,6.00000000000000e-01,5.06545771752333e-04,6.00000000000000e-01
6.51080000000000e-08,6.00000000000000e-01,6.00000000000000e-01,4.29863442256019e-04,6.00000000000000e-01
6.51240000000000e-08,6.00000000000000e-01,6.00000000000000e-01,2.40006898576672e-04,6.00000000000000e-01
6.51560000000000e-08,6.00000000000000e-01,6.00000000000000e-01,-3.48017980549432e-04,6.00000000000000e-01
6.52200000000000e-08,6.00000000000000e-01,6.00000000000000e-01,-1.92442875583074e-03,6.00000000000000e-01
6.53480000000000e-08,6.00000000000000e-01,6.00000000000000e-01,-4.19350694653824e-03,6.00000000000000e-01
6.56040000000000e-08,6.00000000000000e-01,6.00000000000000e-01,4.40536946428703e-02,6.00000000000000e-01
6.61159999999999e-08,6.00000000000000e-01,6.00000000000000e-01,5.33407148847673e-01,6.00000000000000e-01
6.71399999999999e-08,6.00000000000000e-01,6.00000000000000e-01,6.16473531709898e-01,6.00000000000000e-01
6.81564954802475e-08,6.00000000000000e-01,6.00000000000000e-01,5.83553543686344e-01,6.00000000000000e-01
7.01894864407428e-08,6.00000000000000e-01,6.00000000000000e-01,6.15027964431919e-01,6.00000000000000e-01
7.34033611773806e-08,6.00000000000000e-01,6.00000000000000e-01,5.84393341743011e-01,6.00000000000000e-01
7.51000000000000e-08,6.00000000000000e-01,6.00000000000000e-01,6.14208975156120e-01,6.00000000000000e-01
7.51100000000000e-08,5.40000000000061e-01,6.00000000000000e-01,6.08451402145128e-01,6.00000000000000e-01
7.51300000000000e-08,4.20000000000084e-01,6.00000000000000e-01,6.01564489665422e-01,6.00000000000000e-01
7.51700000000000e-08,1.80000000000129e-01,6.00000000000000e-01,6.00254094559282e-01,6.00000000000000e-01
7.52000000000000e-08,8.40438829641244e-14,6.00000000000000e-01,6.02186333888803e-01,6.00000000000000e-01
7.52080000000000e-08,0.00000000000000e+00,6.00000000000000e-01,6.02628788311929e-01,6.00000000000000e-01
7.52240000000000e-08,0.00000000000000e+00,6.00000000000000e-01,6.03145468792377e-01,6.00000000000000e-01
7.52560000000000e-08,0.00000000000000e+00,6.00000000000000e-01,6.02308999183066e-01,6.00000000000000e-01
7.53200000000000e-08,0.00000000000000e+00,6.00000000000000e-01,5.92542536612698e-01,6.00000000000000e-01
7.54480000000000e-08,0.00000000000000e+00,6.00000000000000e-01,5.81643734024306e-01,6.00000000000000e-01
7.57040000000000e-08,0.00000000000000e+00,6.00000000000000e-01,5.97922296514259e-01,6.00000000000000e-01
7.62045046160944e-08,0.00000000000000e+00,6.00000000000000e-01,5.99999009210902e-01,6.00000000000000e-01
7.68568920254421e-08,0.00000000000000e+00,6.00000000000000e-01,5.99176958357242e-01,6.00000000000000e-01
7.81616668441375e-08,0.00000000000000e+00,6.00000000000000e-01,6.00201958544752e-01,6.00000000000000e-01
8.07712164815282e-08,0.00000000000000e+00,6.00000000000000e-01,5.99499120293549e-01,6.00000000000000e-01
8.45712164815282e-08,0.00000000000000e+00,6.00000000000000e-01,6.00289132218502e-01,6.00000000000000e-01
8.50000000000000e-08,0.00000000000000e+00,6.00000000000000e-01,5.99654822839999e-01,6.00000000000000e-01
8.50100000000000e-08,5.99999999999886e-02,6.00000000000000e-01,5.99646811551524e-01,5.40000000000011e-01
8.50300000000000e-08,1.79999999999966e-01,6.00000000000000e-01,5.99619993403425e-01,4.20000000000034e-01
8.50700000000000e-08,4.19999999999920e-01,6.00000000000000e-01,6.01376883251856e-01,1.80000000000080e-01
8.51000000000000e-08,5.99999999999966e-01,6.00000000000000e-01,6.06631659441021e-01,3.44169137633799e-14
8.51080000000000e-08,6.00000000000000e-01,6.00000000000000e-01,6.08529852755729e-01,0.00000000000000e+00
8.51240000000000e-08,6.00000000000000e-01,6.00000000000000e-01,6.11971652713559e-01,0.00000000000000e+00
8.51560000000000e-08,6.00000000000000e-01,6.00000000000000e-01,6.18725361742655e-01,0.00000000000000e+00
8.52200000000000e-08,6.00000000000000e-01,6.00000000000000e-01,6.30498933849894e-01,0.00000000000000e+00
8.53480000000000e-08,6.00000000000000e-01,6.00000000000000e-01,5.34340510390769e-01,0.00000000000000e+00
8.56040000000000e-08,6.00000000000000e-01,6.00000000000000e-01,1.65835656206497e-01,0.00000000000000e+00
8.60370167056745e-08,6.00000000000000e-01,6.00000000000000e-01,-2.13369619077331e-02,0.00000000000000e+00
8.67364124067503e-08,6.00000000000000e-01,6.00000000000000e-01,1.18929829697553e-02,0.00000000000000e+00
8.79817377774679e-08,6.00000000000000e-01,6.00000000000000e-01,-8.28437294250888e-03,0.00000000000000e+00
8.97056403082499e-08,6.00000000000000e-01,6.00000000000000e-01,6.83970265763439e-03,0.00000000000000e+00
9.01000000000000e-08,6.00000000000000e-01,5.99999999999966e-01,-2.75126839494224e-03,0.00000000000000e+00
9.04114454513367e-08,6.00000000000000e-01,6.00000000000000e-01,-3.40238194695561e-04,0.00000000000000e+00
9.10343363540102e-08,6.00000000000000e-01,6.00000000000000e-01,2.12882226844773e-04,0.00000000000000e+00
9.22801181593572e-08,6.00000000000000e-01,6.00000000000000e-01,-1.35666109914952e-04,0.00000000000000e+00
9.47716817700512e-08,6.00000000000000e-01,6.00000000000000e-01,1.57246955180337e-04,0.00000000000000e+00
9.51000000000000e-08,6.00000000000000e-01,6.00000000000000e-01,-4.55981417168336e-05,0.00000000000000e+00
9.51100000000000e-08,5.40000000000061e-01,6.00000000000000e-01,1.52228065369152e-04,5.99999999999390e-02
9.51300000000000e-08,4.20000000000084e-01,6.00000000000000e-01,3.55292298710758e-04,1.79999999999916e-01
9.51700000000000e-08,1.80000000000129e-01,6.00000000000000e-01,3.40840139031406e-04,4.19999999999871e-01
9.52000000000000e-08,8.40438829641244e-14,6.00000000000000e-01,3.37330945021870e-04,5.99999999999916e-01
9.52080000000000e-08,0.00000000000000e+00,6.00000000000000e-01,3.17201111704406e-04,6.00000000000000e-01
9.52240000000000e-08,0.00000000000000e+00,6.00000000000000e-01,2.84683546204416e-04,6.00000000000000e-01
9.52560000000000e-08,0.00000000000000e+00,6.00000000000000e-01,2.14324012713318e-04,6.00000000000000e-01
9.53200000000000e-08,0.00000000000000e+00,6.00000000000000e-01,-3.69202289524230e-04,6.00000000000000e-01
9.54480000000000e-08,0.00000000000000e+00,6.00000000000000e-01,-1.24650749223000e-03,6.00000000000000e-01
9.57040000000000e-08,0.00000000000000e+00,6.00000000000000e-01,-3.63088858642446e-04,6.00000000000000e-01
9.61435987112329e-08,0.00000000000000e+00,6.00000000000000e-01,2.48740004129822e-04,6.00000000000000e-01
9.68207673274272e-08,0.00000000000000e+00,6.00000000000000e-01,-2.32492894791663e-04,6.00000000000000e-01
9.77674669811006e-08,0.00000000000000e+00,6.00000000000000e-01,2.54656479435029e-04,6.00000000000000e-01
9.95704120066368e-08,0.00000000000000e+00,6.00000000000000e-01,-1.84950055650834e-04,6.00000000000000e-01
1.01971898655415e-07,0.00000000000000e+00,6.00000000000000e-01,2.04907410537908e-04,6.00000000000000e-01
1.05000000000000e-07,0.00000000000000e+00,6.00000000000000e-01,-1.50325614876721e-04,6.00000000000000e-01
1.05010000000000e-07,5.99999999999886e-02,6.00000000000000e-01,-3.94098994551881e-05,6.00000000000000e-01
1.05030000000000e-07,1.79999999999966e-01,6.00000000000000e-01,1.59308003580258e-04,6.00000000000000e-01
1.05070000000000e-07,4.19999999999920e-01,6.00000000000000e-01,4.49739976494556e-04,6.00000000000000e-01
1.05100000000000e-07,5.99999999999966e-01,6.00000000000000e-01,5.06544800952559e-04,6.00000000000000e-01
1.05108000000000e-07,6.00000000000000e-01,6.00000000000000e-01,4.29862491127850e-04,6.00000000000000e-01
1.05124000000000e-07,6.00000000000000e-01,6.00000000000000e-01,2.40005937764409e-04,6.00000000000000e-01
1.05156000000000e-07,6.00000000000000e-01,6.00000000000000e-01,-3.48019043630049e-04,6.00000000000000e-01
1.05220000000000e-07,6.00000000000000e-01,6.00000000000000e-01,-1.92442975087596e-03,6.00000000000000e-01
1.05348000000000e-07,6.00000000000000e-01,6.00000000000000e-01,-4.19350733635206e-03,6.00000000000000e-01
1.05604000000000e-07,6.00000000000000e-01,6.00000000000000e-01,4.40537007595548e-02,6.00000000000000e-01
1.06116000000000e-07,6.00000000000000e-01,6.00000000000000e-01,5.33407152596717e-01,6.00000000000000e-01
1.07140000000000e-07,6.00000000000000e-01,6.00000000000000e-01,6.16473531110074e-01,6.00000000000000e-01
1.08156495490704e-07,6.00000000000000e-01,6.00000000000000e-01,5.83553544253832e-01,6.00000000000000e-01
1.10189486472113e-07,6.00000000000000e-01,6.00000000000000e-01,6.15027963938686e-01,6.00000000000000e-01
1.13403361194852e-07,6.00000000000000e-01,6.00000000000000e-01,5.84393342274336e-01,6.00000000000000e-01
1.15100000000000e-07,6.00000000000000e-01,6.00000000000000e-01,6.14208974668643e-01,6.00000000000000e-01
1.15110000000000e-07,5.40000000000061e-01,6.00000000000000e-01,6.08451401836549e-01,6.00000000000000e-01
1.15130000000000e-07,4.20000000000084e-01,6.00000000000000e-01,6.01564489595540e-01,6.00000000000000e-01
1.15170000000000e-07,1.80000000000129e-01,6.00000000000000e-01,6.00254094584044e-01,6.00000000000000e-01
1.15200000000000e-07,8.40438829641244e-14,6.00000000000000e-01,6.02186333884448e-01,6.00000000000000e-01
1.15208000000000e-07,0.00000000000000e+00,6.00000000000000e-01,6.02628788307128e-01,6.00000000000000e-01
1.15224000000000e-07,0.00000000000000e+00,6.00000000000000e-01,6.03145468786983e-01,6.00000000000000e-01
