Time,v(clk),v(data),v(out)
1.00000000000000e-08,6.00000000000000e-01,0.00000000000000e+00,8.13857038190341e-05
1.00100000000000e-08,6.00000000000000e-01,5.99999999999986e-02,8.56809273140635e-05
1.00300000000000e-08,6.00000000000000e-01,1.79999999999996e-01,8.55752583835689e-05
1.00700000000000e-08,6.00000000000000e-01,4.19999999999990e-01,6.80812896180633e-05
1.01000000000000e-08,6.00000000000000e-01,5.99999999999995e-01,4.11861498535032e-05
1.01080000000000e-08,6.00000000000000e-01,6.00000000000000e-01,3.27191819767536e-05
1.01240000000000e-08,6.00000000000000e-01,6.00000000000000e-01,2.42337452993346e-05
1.01560000000000e-08,6.00000000000000e-01,6.00000000000000e-01,2.55183548726473e-05
1.02200000000000e-08,6.00000000000000e-01,6.00000000000000e-01,4.51377960693083e-05
1.03480000000000e-08,6.00000000000000e-01,6.00000000000000e-01,5.98565713262472e-05
1.06040000000000e-08,6.00000000000000e-01,6.00000000000000e-01,5.30116865384705e-05
1.11160000000000e-08,6.00000000000000e-01,6.00000000000000e-01,4.96220964520122e-05
1.20156533635689e-08,6.00000000000000e-01,6.00000000000000e-01,5.15241678209696e-05
1.38149600907069e-08,6.00000000000000e-01,6.00000000000000e-01,4.95521477082497e-05
1.51000000000000e-08,6.00000000000000e-01,6.00000000000000e-01,5.01493272070386e-05
1.51100000000000e-08,5.39999999999992e-01,6.00000000000000e-01,-7.44591060467953e-05
1.51300000000000e-08,4.19999999999994e-01,6.00000000000000e-01,-3.35650460782475e-04
1.51700000000000e-08,1.80000000000000e-01,6.00000000000000e-01,-5.37961176716520e-04
1.52000000000000e-08,0.00000000000000e+00,6.00000000000000e-01,6.89505150510833e-05
1.52080000000000e-08,0.00000000000000e+00,6.00000000000000e-01,4.79689680780479e-04
1.52240000000000e-08,0.00000000000000e+00,6.00000000000000e-01,1.10508875699465e-03
1.52560000000000e-08,0.00000000000000e+00,6.00000000000000e-01,1.62527220180840e-03
1.53200000000000e-08,0.00000000000000e+00,6.00000000000000e-01,1.58900065805902e-03
1.54480000000000e-08,0.00000000000000e+00,6.00000000000000e-01,-2.94053147380582e-04
1.57040000000000e-08,0.00000000000000e+00,6.00000000000000e-01,-7.67223846350917e-04
1.61954513215662e-08,0.00000000000000e+00,6.00000000000000e-01,4.65014891008503e-04
1.67813158226070e-08,0.00000000000000e+00,6.00000000000000e-01,-4.06314321230949e-04
1.78206615162132e-08,0.00000000000000e+00,6.00000000000000e-01,4.41864520923013e-04
1.93458142055800e-08,0.00000000000000e+00,6.00000000000000e-01,-2.47290571695112e-04
2.11021672421401e-08,0.00000000000000e+00,6.00000000000000e-01,2.69626669453814e-04
2.46148733152602e-08,0.00000000000000e+00,6.00000000000000e-01,-1.48237813269897e-04
2.50000000000000e-08,0.00000000000000e+00,6.00000000000000e-01,9.40941373019366e-05
2.50100000000000e-08,5.99999999999886e-02,6.00000000000000e-01,4.34312378656834e-04
2.50300000000000e-08,1.80000000000006e-01,6.00000000000000e-01,1.02029071498329e-03
2.50700000000000e-08,4.20000000000000e-01,6.00000000000000e-01,1.90434412070217e-03
2.51000000000000e-08,6.00000000000000e-01,6.00000000000000e-01,2.13214768757264e-03
2.51080000000000e-08,6.00000000000000e-01,6.00000000000000e-01,1.95722452953519e-03
2.51240000000000e-08,6.00000000000000e-01,6.00000000000000e-01,1.61952390446106e-03
2.51560000000000e-08,6.00000000000000e-01,6.00000000000000e-01,8.73812463005413e-04
2.52200000000000e-08,6.00000000000000e-01,6.00000000000000e-01,-8.31961787275320e-04
2.53480000000000e-08,6.00000000000000e-01,6.00000000000000e-01,-3.57296077911376e-03
2.56040000000000e-08,6.00000000000000e-01,6.00000000000000e-01,-1.38734657978078e-03
2.61160000000000e-08,6.00000000000000e-01,6.00000000000000e-01,2.79416992004738e-01
2.71400000000000e-08,6.00000000000000e-01,6.00000000000000e-01,6.06579355998092e-01
2.81938863805052e-08,6.00000000000000e-01,6.00000000000000e-01,5.94105393016711e-01
3.01000000000000e-08,6.00000000000000e-01,6.00000000000000e-01,6.05663390901553e-01
3.01100000000000e-08,6.00000000000000e-01,5.40000000000031e-01,6.03881890604950e-01
3.01300000000000e-08,6.00000000000000e-01,4.20000000000014e-01,6.01469410811284e-01
3.01700000000000e-08,6.00000000000000e-01,1.80000000000020e-01,6.00064671815028e-01
3.02000000000000e-08,6.00000000000000e-01,1.44328993201270e-14,6.00029341178314e-01
3.02080000000000e-08,6.00000000000000e-01,0.00000000000000e+00,6.00033275559294e-01
3.02240000000000e-08,6.00000000000000e-01,0.00000000000000e+00,6.00022999295232e-01
3.02560000000000e-08,6.00000000000000e-01,0.00000000000000e+00,5.99982741567348e-01
3.03200000000000e-08,6.00000000000000e-01,0.00000000000000e+00,5.99940856478299e-01
3.04480000000000e-08,6.00000000000000e-01,0.00000000000000e+00,5.99853355693048e-01
3.07040000000000e-08,6.00000000000000e-01,0.00000000000000e+00,6.00020482385590e-01
3.11583980029178e-08,6.00000000000000e-01,0.00000000000000e+00,5.99954491479626e-01
3.17645551367537e-08,6.00000000000000e-01,0.00000000000000e+00,5.99986350074465e-01
3.28551156858466e-08,6.00000000000000e-01,0.00000000000000e+00,5.99974924790805e-01
3.50362367840323e-08,6.00000000000000e-01,0.00000000000000e+00,5.99985138782847e-01
3.51000000000000e-08,5.99999999999970e-01,0.00000000000000e+00,5.99994980869156e-01
3.51100000000000e-08,5.39999999999982e-01,0.00000000000000e+00,5.99856038196892e-01
3.51300000000000e-08,4.19999999999965e-01,0.00000000000000e+00,5.99664519511541e-01
3.51700000000000e-08,1.79999999999970e-01,0.00000000000000e+00,6.00631761213244e-01
3.52000000000000e-08,0.00000000000000e+00,0.00000000000000e+00,6.03582383901973e-01
3.52080000000000e-08,0.00000000000000e+00,0.00000000000000e+00,6.04548479009634e-01
3.52240000000000e-08,0.00000000000000e+00,0.00000000000000e+00,6.05971983024104e-01
3.52560000000000e-08,0.00000000000000e+00,0.00000000000000e+00,6.07164131813054e-01
3.53200000000000e-08,0.00000000000000e+00,0.00000000000000e+00,6.06194296707755e-01
3.54480000000000e-08,0.00000000000000e+00,0.00000000000000e+00,5.93284597112602e-01
3.57040000000000e-08,0.00000000000000e+00,0.00000000000000e+00,5.90085482608282e-01
3.61547709208315e-08,0.00000000000000e+00,0.00000000000000e+00,6.03396462742336e-01
3.68118414262555e-08,0.00000000000000e+00,0.00000000000000e+00,5.96508052235928e-01
3.78035408223509e-08,0.00000000000000e+00,0.00000000000000e+00,6.02291272942147e-01
3.91000000000000e-08,0.00000000000000e+00,0.00000000000000e+00,5.97639632008985e-01
3.92524794810932e-08,0.00000000000000e+00,0.00000000000000e+00,5.99311696313019e-01
3.95574384432796e-08,0.00000000000000e+00,0.00000000000000e+00,6.00129754139980e-01
4.01673563676524e-08,0.00000000000000e+00,0.00000000000000e+00,5.99668214843236e-01
4.13871922163981e-08,0.00000000000000e+00,0.00000000000000e+00,6.00062321161803e-01
4.38268639138893e-08,0.00000000000000e+00,0.00000000000000e+00,5.99757579528553e-01
4.50000000000000e-08,0.00000000000000e+00,0.00000000000000e+00,6.00057322265695e-01
4.50100000000000e-08,5.99999999999886e-02,0.00000000000000e+00,6.00252995854303e-01
4.50300000000000e-08,1.80000000000006e-01,0.00000000000000e+00,6.00484400543412e-01
4.50700000000000e-08,4.20000000000000e-01,0.00000000000000e+00,6.00524727799268e-01
4.51000000000000e-08,6.00000000000000e-01,0.00000000000000e+00,6.00228803415476e-01
4.51080000000000e-08,6.00000000000000e-01,0.00000000000000e+00,6.00039541408093e-01
4.51240000000000e-08,6.00000000000000e-01,0.00000000000000e+00,5.99779129722342e-01
4.51560000000000e-08,6.00000000000000e-01,0.00000000000000e+00,5.99568096829120e-01
4.52200000000000e-08,6.00000000000000e-01,0.00000000000000e+00,5.99572271256726e-01
4.53480000000000e-08,6.00000000000000e-01,0.00000000000000e+00,5.99730748583283e-01
4.56040000000000e-08,6.00000000000000e-01,0.00000000000000e+00,6.00298894071243e-01
4.61160000000000e-08,6.00000000000000e-01,0.00000000000000e+00,6.20044094251216e-01
4.71400000000000e-08,6.00000000000000e-01,0.00000000000000e+00,1.48291501662632e-01
4.81716514879485e-08,6.00000000000000e-01,0.00000000000000e+00,-5.15207814452820e-02
5.00000000000000e-08,6.00000000000000e-01,0.00000000000000e+00,4.09833259287805e-02
5.00100000000000e-08,6.00000000000000e-01,5.99999999999886e-02,3.78987155997387e-02
5.00300000000000e-08,6.00000000000000e-01,1.79999999999966e-01,3.26261154466305e-02
5.00700000000000e-08,6.00000000000000e-01,4.20000000000000e-01,2.52177832591164e-02
5.01000000000000e-08,6.00000000000000e-01,6.00000000000000e-01,2.10977264774787e-02
5.01080000000000e-08,6.00000000000000e-01,6.00000000000000e-01,2.01394708615647e-02
5.01240000000000e-08,6.00000000000000e-01,6.00000000000000e-01,1.82639989656553e-02
5.01560000000000e-08,6.00000000000000e-01,6.00000000000000e-01,1.51232089426523e-02
5.02200000000000e-08,6.00000000000000e-01,6.00000000000000e-01,1.03402864409149e-02
5.03480000000000e-08,6.00000000000000e-01,6.00000000000000e-01,4.68050009193959e-03
5.06040000000000e-08,6.00000000000000e-01,6.00000000000000e-01,6.60698267182930e-04
5.11160000000001e-08,6.00000000000000e-01,6.00000000000000e-01,-9.20072362403171e-05
5.20624650684687e-08,6.00000000000000e-01,6.00000000000000e-01,1.04656154883549e-04
5.39553952054058e-08,6.00000000000000e-01,6.00000000000000e-01,-3.72630716248198e-06
5.51000000000000e-08,6.00000000000000e-01,6.00000000000000e-01,6.60250397052746e-05
5.51100000000000e-08,5.40000000000021e-01,6.00000000000000e-01,-5.99744554149184e-05
5.51300000000000e-08,4.20000000000004e-01,6.00000000000000e-01,-3.24135702164108e-04
5.51700000000000e-08,1.80000000000010e-01,6.00000000000000e-01,-5.31082359412266e-04
5.52000000000000e-08,0.00000000000000e+00,6.00000000000000e-01,7.24867436857485e-05
5.52080000000000e-08,0.00000000000000e+00,6.00000000000000e-01,4.81705578332131e-04
5.52240000000000e-08,0.00000000000000e+00,6.00000000000000e-01,1.10066991230295e-03
5.52560000000000e-08,0.00000000000000e+00,6.00000000000000e-01,1.58838136710454e-03
5.53200000000000e-08,0.00000000000000e+00,6.00000000000000e-01,1.28095887367392e-03
5.54480000000000e-08,0.00000000000000e+00,6.00000000000000e-01,-1.70624315557928e-03
5.57040000000000e-08,0.00000000000000e+00,6.00000000000000e-01,-2.11156415792023e-03
5.61449270490060e-08,0.00000000000000e+00,6.00000000000000e-01,5.92878779193298e-04
5.67482100245168e-08,0.00000000000000e+00,6.00000000000000e-01,-4.31130949214063e-04
5.78422428347717e-08,0.00000000000000e+00,6.00000000000000e-01,4.31499683498458e-04
5.92570954323576e-08,0.00000000000000e+00,6.00000000000000e-01,-1.92403495441057e-04
6.11840972925800e-08,0.00000000000000e+00,6.00000000000000e-01,2.19468396529508e-04
6.49840972925800e-08,0.00000000000000e+00,6.00000000000000e-01,-1.00901954723497e-04
6.50000000000000e-08,0.00000000000000e+00,6.00000000000000e-01,-6.42104584616249e-05
6.50100000000000e-08,5.99999999999886e-02,6.00000000000000e-01,2.81716778483945e-04
6.50300000000000e-08,1.79999999999966e-01,6.00000000000000e-01,8.85132845236544e-04
6.50700000000000e-08,4.19999999999920e-01,6.00000000000000e-01,1.80978753118874e-03
6.51000000000000e-08,5.99999999999966e-01,6.00000000000000e-01,2.07235995953953e-03
6.51080000000000e-08,6.00000000000000e-01,6.00000000000000e-01,1.91072792672825e-03
6.51240000000000e-08,6.00000000000000e-01,6.00000000000000e-01,1.61206893065176e-03
6.51560000000000e-08,6.00000000000000e-01,6.00000000000000e-01,9.74150169873594e-04
6.52200000000000e-08,6.00000000000000e-01,6.00000000000000e-01,-6.12692267532841e-04
6.53480000000000e-08,6.00000000000000e-01,6.00000000000000e-01,-3.42543874663530e-03
6.56040000000000e-08,6.00000000000000e-01,6.00000000000000e-01,-2.01712888661978e-03
6.61159999999999e-08,6.00000000000000e-01,6.00000000000000e-01,2.68244375316004e-01
6.71399999999999e-08,6.00000000000000e-01,6.00000000000000e-01,6.05237220363212e-01
6.82204425154747e-08,6.00000000000000e-01,6.00000000000000e-01,5.94938071433015e-01
7.01000000000000e-08,6.00000000000000e-01,6.00000000000000e-01,6.04901987734094e-01
7.01100000000000e-08,6.00000000000000e-01,5.40000000000011e-01,6.03344983175013e-01
7.01300000000000e-08,6.00000000000000e-01,4.20000000000034e-01,6.01241248196036e-01
7.01700000000000e-08,6.00000000000000e-01,1.80000000000080e-01,6.00025268206646e-01
7.02000000000000e-08,6.00000000000000e-01,3.44169137633799e-14,6.00013686287121e-01
7.02080000000000e-08,6.00000000000000e-01,0.00000000000000e+00,6.00019877834796e-01
7.02240000000000e-08,6.00000000000000e-01,0.00000000000000e+00,6.00013216427137e-01
7.02560000000000e-08,6.00000000000000e-01,0.00000000000000e+00,5.99976978489634e-01
7.03200000000000e-08,6.00000000000000e-01,0.00000000000000e+00,5.99935719195187e-01
7.04480000000000e-08,6.00000000000000e-01,0.00000000000000e+00,5.99848811241192e-01
7.07040000000000e-08,6.00000000000000e-01,0.00000000000000e+00,6.00018433333275e-01
7.11571491408268e-08,6.00000000000000e-01,0.00000000000000e+00,5.99955009731987e-01
7.17638484910782e-08,6.00000000000000e-01,0.00000000000000e+00,5.99985770303505e-01
7.28492201527570e-08,6.00000000000000e-01,0.00000000000000e+00,5.99975412220727e-01
7.50199634761145e-08,6.00000000000000e-01,0.00000000000000e+00,5.99984751054857e-01
7.51000000000000e-08,6.00000000000000e-01,0.00000000000000e+00,5.99995065264414e-01
7.51100000000000e-08,5.40000000000061e-01,0.00000000000000e+00,5.99856758197369e-01
7.51300000000000e-08,4.20000000000084e-01,0.00000000000000e+00,5.99666711619045e-01
7.51700000000000e-08,1.80000000000129e-01,0.00000000000000e+00,6.00634315834082e-01
7.52000000000000e-08,8.40438829641244e-14,0.00000000000000e+00,6.03583133583915e-01
7.52080000000000e-08,0.00000000000000e+00,0.00000000000000e+00,6.04549739379067e-01
7.52240000000000e-08,0.00000000000000e+00,0.00000000000000e+00,6.05973914235439e-01
7.52560000000000e-08,0.00000000000000e+00,0.00000000000000e+00,6.07164285530385e-01
7.53200000000000e-08,0.00000000000000e+00,0.00000000000000e+00,6.06195104872861e-01
7.54480000000000e-08,0.00000000000000e+00,0.00000000000000e+00,5.93285549556253e-01
7.57040000000000e-08,0.00000000000000e+00,0.00000000000000e+00,5.90084147334132e-01
7.61547831100024e-08,0.00000000000000e+00,0.00000000000000e+00,6.03396468610304e-01
7.68118574861647e-08,0.00000000000000e+00,0.00000000000000e+00,5.96507926423849e-01
7.78035898301240e-08,0.00000000000000e+00,0.00000000000000e+00,6.02291530297485e-01
7.81000000000000e-08,0.00000000000000e+00,0.00000000000000e+00,5.98444483361923e-01
7.82524797266220e-08,0.00000000000000e+00,0.00000000000000e+00,5.99467327211000e-01
7.85574391798659e-08,0.00000000000000e+00,0.00000000000000e+00,5.99983513719745e-01
7.91673580863538e-08,0.00000000000000e+00,0.00000000000000e+00,5.99717320217725e-01
8.03871958993296e-08,0.00000000000000e+00,0.00000000000000e+00,5.99975645492758e-01
8.28268715252811e-08,0.00000000000000e+00,0.00000000000000e+00,5.99814386108455e-01
8.50000000000000e-08,0.00000000000000e+00,0.00000000000000e+00,6.00008246163681e-01
8.50100000000000e-08,5.99999999999886e-02,0.00000000000000e+00,6.00210885137493e-01
8.50300000000000e-08,1.79999999999966e-01,0.00000000000000e+00,6.00453420194468e-01
8.50700000000000e-08,4.19999999999920e-01,0.00000000000000e+00,6.00515068989046e-01
8.51000000000000e-08,5.99999999999966e-01,0.00000000000000e+00,6.00201914430755e-01
8.51080000000000e-08,6.00000000000000e-01,0.00000000000000e+00,6.00025618656084e-01
8.51240000000000e-08,6.00000000000000e-01,0.00000000000000e+00,5.99791381470537e-01
8.51560000000000e-08,6.00000000000000e-01,0.00000000000000e+00,5.99559076552893e-01
8.52200000000000e-08,6.00000000000000e-01,0.00000000000000e+00,5.99526080750707e-01
8.53480000000000e-08,6.00000000000000e-01,0.00000000000000e+00,5.99755089499729e-01
8.56040000000000e-08,6.00000000000000e-01,0.00000000000000e+00,6.00300685557968e-01
8.61159999999999e-08,6.00000000000000e-01,0.00000000000000e+00,6.20046810789047e-01
8.71399999999999e-08,6.00000000000000e-01,0.00000000000000e+00,1.48287822137947e-01
8.81722701439005e-08,6.00000000000000e-01,0.00000000000000e+00,-5.15449365555371e-02
9.00000000000000e-08,6.00000000000000e-01,0.00000000000000e+00,4.09998117047819e-02
9.00100000000000e-08,6.00000000000000e-01,5.99999999999886e-02,3.79146259635312e-02
9.00300000000000e-08,6.00000000000000e-01,1.79999999999966e-01,3.26403717705882e-02
9.00700000000000e-08,6.00000000000000e-01,4.19999999999920e-01,2.52292697112841e-02
9.01000000000000e-08,6.00000000000000e-01,5.99999999999966e-01,2.11074391011087e-02
9.01080000000000e-08,6.00000000000000e-01,6.00000000000000e-01,2.01487623860361e-02
9.01240000000000e-08,6.00000000000000e-01,6.00000000000000e-01,1.82724608756447e-02
9.01560000000000e-08,6.00000000000000e-01,6.00000000000000e-01,1.51302534227436e-02
9.02200000000000e-08,6.00000000000000e-01,6.00000000000000e-01,1.03451287621661e-02
9.03480000000000e-08,6.00000000000000e-01,6.00000000000000e-01,4.68269498436377e-03
9.06040000000000e-08,6.00000000000000e-01,6.00000000000000e-01,6.60990792522617e-04
9.11159999999999e-08,6.00000000000000e-01,6.00000000000000e-01,-9.20786852453559e-05
9.20626082498438e-08,6.00000000000000e-01,6.00000000000000e-01,1.04686691906587e-04
9.39558247495316e-08,6.00000000000000e-01,6.00000000000000e-01,-3.76302628136635e-06
9.51000000000000e-08,6.00000000000000e-01,6.00000000000000e-01,6.60284384831657e-05
9.51100000000000e-08,5.40000000000061e-01,6.00000000000000e-01,-5.99717316838583e-05
9.51300000000000e-08,4.20000000000084e-01,6.00000000000000e-01,-3.24133987143246e-04
9.51700000000000e-08,1.80000000000129e-01,6.00000000000000e-01,-5.31082696428362e-04
9.52000000000000e-08,8.40438829641244e-14,6.00000000000000e-01,7.24834073907443e-05
9.52080000000000e-08,0.00000000000000e+00,6.00000000000000e-01,4.81700566280871e-04
9.52240000000000e-08,0.00000000000000e+00,6.00000000000000e-01,1.10065965192313e-03
9.52560000000000e-08,0.00000000000000e+00,6.00000000000000e-01,1.58834025178486e-03
9.53200000000000e-08,0.00000000000000e+00,6.00000000000000e-01,1.28074641643168e-03
9.54480000000000e-08,0.00000000000000e+00,6.00000000000000e-01,-1.70690634866265e-03
9.57040000000000e-08,0.00000000000000e+00,6.00000000000000e-01,-2.11256075593935e-03
9.61448914912365e-08,0.00000000000000e+00,6.00000000000000e-01,5.92591411816536e-04
9.67481900310740e-08,0.00000000000000e+00,6.00000000000000e-01,-4.30875895074963e-04
9.78419416369304e-08,0.00000000000000e+00,6.00000000000000e-01,4.31251923451555e-04
9.92567582634191e-08,0.00000000000000e+00,6.00000000000000e-01,-1.92223615312227e-04
1.01183612920803e-07,0.00000000000000e+00,6.00000000000000e-01,2.19288932419386e-04
1.04983612920803e-07,0.00000000000000e+00,6.00000000000000e-01,-1.00728016204445e-04
1.05000000000000e-07,0.00000000000000e+00,6.00000000000000e-01,-6.33525877001551e-05
1.05010000000000e-07,5.99999999999886e-02,6.00000000000000e-01,2.82292072338236e-04
1.05030000000000e-07,1.79999999999966e-01,6.00000000000000e-01,8.85421530883487e-04
1.05070000000000e-07,4.19999999999920e-01,6.00000000000000e-01,1.80992978776351e-03
1.05100000000000e-07,5.99999999999966e-01,6.00000000000000e-01,2.07242884660791e-03
1.05108000000000e-07,6.00000000000000e-01,6.00000000000000e-01,1.91078062842051e-03
1.05124000000000e-07,6.00000000000000e-01,6.00000000000000e-01,1.61207592760215e-03
1.05156000000000e-07,6.00000000000000e-01,6.00000000000000e-01,9.74060036697200e-04
1.05220000000000e-07,6.00000000000000e-01,6.00000000000000e-01,-6.12903366699974e-04
1.05348000000000e-07,6.00000000000000e-01,6.00000000000000e-01,-3.42558991825412e-03
1.05604000000000e-07,6.00000000000000e-01,6.00000000000000e-01,-2.01638027494555e-03
1.06116000000000e-07,6.00000000000000e-01,6.00000000000000e-01,2.68258241323743e-01
1.07140000000000e-07,6.00000000000000e-01,6.00000000000000e-01,6.05238913770442e-01
1.08220408024032e-07,6.00000000000000e-01,6.00000000000000e-01,5.94937032375881e-01
1.10100000000000e-07,6.00000000000000e-01,6.00000000000000e-01,6.04902940201401e-01
1.10110000000000e-07,6.00000000000000e-01,5.40000000000091e-01,6.03345650647402e-01
1.10130000000000e-07,6.00000000000000e-01,4.20000000000114e-01,6.01241532673835e-01
1.10170000000000e-07,6.00000000000000e-01,1.80000000000159e-01,6.00025318057099e-01
