Time,v(clk),v(data),v(out)
1.00000000000000e-08,6.00000000000000e-01,0.00000000000000e+00,8.13950860895987e-05
1.00100000000000e-08,6.00000000000000e-01,5.99999999999986e-02,8.56880250050818e-05
1.00300000000000e-08,6.00000000000000e-01,1.79999999999996e-01,8.55795130302733e-05
1.00700000000000e-08,6.00000000000000e-01,4.19999999999990e-01,6.80826607964424e-05
1.01000000000000e-08,6.00000000000000e-01,5.99999999999995e-01,4.11864641360615e-05
1.01080000000000e-08,6.00000000000000e-01,6.00000000000000e-01,3.27192534958914e-05
1.01240000000000e-08,6.00000000000000e-01,6.00000000000000e-01,2.42334389373433e-05
1.01560000000000e-08,6.00000000000000e-01,6.00000000000000e-01,2.55173379573453e-05
1.02200000000000e-08,6.00000000000000e-01,6.00000000000000e-01,4.51375568072954e-05
1.03480000000000e-08,6.00000000000000e-01,6.00000000000000e-01,5.98580417434796e-05
1.06040000000000e-08,6.00000000000000e-01,6.00000000000000e-01,5.30126786034285e-05
1.11160000000000e-08,6.00000000000000e-01,6.00000000000000e-01,4.96211929264037e-05
1.20153946916044e-08,6.00000000000000e-01,6.00000000000000e-01,5.15244692498029e-05
1.38141840748131e-08,6.00000000000000e-01,6.00000000000000e-01,4.95523189127135e-05
1.51000000000000e-08,6.00000000000000e-01,6.00000000000000e-01,5.01493966403276e-05
1.51100000000000e-08,5.39999999999992e-01,6.00000000000000e-01,-7.44595269966258e-05
1.51300000000000e-08,4.19999999999994e-01,6.00000000000000e-01,-3.35650488074907e-04
1.51700000000000e-08,1.80000000000000e-01,6.00000000000000e-01,-5.37960967127923e-04
1.52000000000000e-08,0.00000000000000e+00,6.00000000000000e-01,6.89506878459173e-05
1.52080000000000e-08,0.00000000000000e+00,6.00000000000000e-01,4.79689835396091e-04
1.52240000000000e-08,0.00000000000000e+00,6.00000000000000e-01,1.10508887742564e-03
1.52560000000000e-08,0.00000000000000e+00,6.00000000000000e-01,1.62527225103257e-03
1.53200000000000e-08,0.00000000000000e+00,6.00000000000000e-01,1.58900069012841e-03
1.54480000000000e-08,0.00000000000000e+00,6.00000000000000e-01,-2.94053084146012e-04
1.57040000000000e-08,0.00000000000000e+00,6.00000000000000e-01,-7.67224089220295e-04
1.61954513755974e-08,0.00000000000000e+00,6.00000000000000e-01,4.65015010296034e-04
1.67813159050264e-08,0.00000000000000e+00,6.00000000000000e-01,-4.06314392989750e-04
1.78206615169230e-08,0.00000000000000e+00,6.00000000000000e-01,4.41864612408444e-04
1.93458144731425e-08,0.00000000000000e+00,6.00000000000000e-01,-2.47290751834332e-04
2.11021673433436e-08,0.00000000000000e+00,6.00000000000000e-01,2.69626830058507e-04
2.46148730837459e-08,0.00000000000000e+00,6.00000000000000e-01,-1.48237964713090e-04
2.50000000000000e-08,0.00000000000000e+00,6.00000000000000e-01,9.40942738799355e-05
2.50100000000000e-08,5.99999999999886e-02,6.00000000000000e-01,4.34312506892770e-04
2.50300000000000e-08,1.80000000000006e-01,6.00000000000000e-01,1.02029082479449e-03
2.50700000000000e-08,4.20000000000000e-01,6.00000000000000e-01,1.90434420313849e-03
2.51000000000000e-08,6.00000000000000e-01,6.00000000000000e-01,2.13214774239917e-03
2.51080000000000e-08,6.00000000000000e-01,6.00000000000000e-01,1.95722456752216e-03
2.51240000000000e-08,6.00000000000000e-01,6.00000000000000e-01,1.61952389410065e-03
2.51560000000000e-08,6.00000000000000e-01,6.00000000000000e-01,8.73812327477713e-04
2.52200000000000e-08,6.00000000000000e-01,6.00000000000000e-01,-8.31962039562054e-04
2.53480000000000e-08,6.00000000000000e-01,6.00000000000000e-01,-3.57296093923372e-03
2.56040000000000e-08,6.00000000000000e-01,6.00000000000000e-01,-1.38734599014166e-03
2.61160000000000e-08,6.00000000000000e-01,6.00000000000000e-01,2.79417002371201e-01
2.71400000000000e-08,6.00000000000000e-01,6.00000000000000e-01,6.06579357216794e-01
2.81938863568730e-08,6.00000000000000e-01,6.00000000000000e-01,5.94105392247159e-01
3.03016590706189e-08,6.00000000000000e-01,6.00000000000000e-01,6.05690013112299e-01
3.26964655554303e-08,6.00000000000000e-01,6.00000000000000e-01,5.94486383851822e-01
3.51000000000000e-08,5.99999999999970e-01,6.00000000000000e-01,6.05263118341249e-01
3.51100000000000e-08,5.39999999999982e-01,6.00000000000000e-01,6.03488819724279e-01
3.51300000000000e-08,4.19999999999965e-01,6.00000000000000e-01,6.01035899768755e-01
3.51700000000000e-08,1.79999999999970e-01,6.00000000000000e-01,6.00699755220104e-01
3.52000000000000e-08,0.00000000000000e+00,6.00000000000000e-01,6.03573876249410e-01
3.52080000000000e-08,0.00000000000000e+00,6.00000000000000e-01,6.04529433119535e-01
3.52240000000000e-08,0.00000000000000e+00,6.00000000000000e-01,6.05944118661096e-01
3.52560000000000e-08,0.00000000000000e+00,6.00000000000000e-01,6.07116476572803e-01
3.53200000000000e-08,0.00000000000000e+00,6.00000000000000e-01,6.06201663614973e-01
3.54480000000000e-08,0.00000000000000e+00,6.00000000000000e-01,5.93270238897941e-01
3.57040000000000e-08,0.00000000000000e+00,6.00000000000000e-01,5.89918103291882e-01
3.62160000000000e-08,0.00000000000000e+00,6.00000000000000e-01,6.03735741303849e-01
3.68534100450282e-08,0.00000000000000e+00,6.00000000000000e-01,5.96476303657838e-01
3.78746504127092e-08,0.00000000000000e+00,6.00000000000000e-01,6.02379053845703e-01
3.99171311480712e-08,0.00000000000000e+00,6.00000000000000e-01,5.97492504267071e-01
4.37171311480712e-08,0.00000000000000e+00,6.00000000000000e-01,6.02166175225838e-01
4.50000000000000e-08,0.00000000000000e+00,6.00000000000000e-01,5.97972566602758e-01
4.50100000000000e-08,5.99999999999886e-02,6.00000000000000e-01,5.98551066436903e-01
4.50300000000000e-08,1.80000000000006e-01,6.00000000000000e-01,5.99450042675709e-01
4.50700000000000e-08,4.20000000000000e-01,6.00000000000000e-01,6.00437431615725e-01
4.51000000000000e-08,6.00000000000000e-01,6.00000000000000e-01,6.00520057813156e-01
4.51080000000000e-08,6.00000000000000e-01,5.52000000000025e-01,6.00358071439066e-01
4.51240000000000e-08,6.00000000000000e-01,4.55999999999996e-01,6.00045933296316e-01
4.51560000000000e-08,6.00000000000000e-01,2.64000000000016e-01,5.99604250059194e-01
4.52000000000000e-08,6.00000000000000e-01,3.44169137633799e-14,5.99185039074858e-01
4.52064000000000e-08,6.00000000000000e-01,0.00000000000000e+00,5.99145536189046e-01
4.52192000000000e-08,6.00000000000000e-01,0.00000000000000e+00,5.99065495195856e-01
4.52448000000000e-08,6.00000000000000e-01,0.00000000000000e+00,5.98928508714903e-01
4.52960000000000e-08,6.00000000000000e-01,0.00000000000000e+00,5.98716591853111e-01
4.53984000000000e-08,6.00000000000000e-01,0.00000000000000e+00,5.98551877235554e-01
4.56032000000000e-08,6.00000000000000e-01,0.00000000000000e+00,5.99061389807697e-01
4.60128000000000e-08,6.00000000000000e-01,0.00000000000000e+00,6.01711631104417e-01
4.65565101698173e-08,6.00000000000000e-01,0.00000000000000e+00,6.11112739583702e-01
4.73864849240810e-08,6.00000000000000e-01,0.00000000000000e+00,2.27732640481042e-01
4.89555637613297e-08,6.00000000000000e-01,0.00000000000000e+00,-7.40076465650708e-02
5.05170442803826e-08,6.00000000000000e-01,0.00000000000000e+00,5.92179428445096e-02
5.32922351552598e-08,6.00000000000000e-01,0.00000000000000e+00,-3.88494747107041e-02
5.51000000000000e-08,6.00000000000000e-01,0.00000000000000e+00,2.99783119494660e-02
5.51100000000000e-08,5.40000000000021e-01,0.00000000000000e+00,2.82854286503974e-02
5.51300000000000e-08,4.20000000000004e-01,0.00000000000000e+00,2.51359622170759e-02
5.51700000000000e-08,1.80000000000010e-01,0.00000000000000e+00,1.98162322956304e-02
5.52000000000000e-08,0.00000000000000e+00,0.00000000000000e+00,1.72602673979067e-02
5.52080000000000e-08,0.00000000000000e+00,0.00000000000000e+00,1.69110185923436e-02
5.52240000000000e-08,0.00000000000000e+00,0.00000000000000e+00,1.60801432568507e-02
5.52560000000000e-08,0.00000000000000e+00,0.00000000000000e+00,1.40044215144578e-02
5.53200000000000e-08,0.00000000000000e+00,0.00000000000000e+00,9.77949938109376e-03
5.54480000000000e-08,0.00000000000000e+00,0.00000000000000e+00,2.31065886248295e-03
5.57040000000000e-08,0.00000000000000e+00,0.00000000000000e+00,-1.25881842297092e-03
5.61786299555857e-08,0.00000000000000e+00,0.00000000000000e+00,5.12358093648885e-04
5.67667674430312e-08,0.00000000000000e+00,0.00000000000000e+00,-1.67487149958505e-04
5.79430424179223e-08,0.00000000000000e+00,0.00000000000000e+00,2.23996561582684e-04
6.02955923677045e-08,0.00000000000000e+00,0.00000000000000e+00,-1.15059625410040e-04
6.40955923677044e-08,0.00000000000000e+00,0.00000000000000e+00,1.99129872516213e-04
6.50000000000000e-08,0.00000000000000e+00,0.00000000000000e+00,-7.38143436696537e-05
6.50100000000000e-08,5.99999999999886e-02,0.00000000000000e+00,2.39363262799400e-04
6.50300000000000e-08,1.79999999999966e-01,0.00000000000000e+00,7.27246956539113e-04
6.50700000000000e-08,4.19999999999920e-01,0.00000000000000e+00,1.14383073102715e-03
6.51000000000000e-08,5.99999999999966e-01,0.00000000000000e+00,9.11835349411416e-04
6.51080000000000e-08,6.00000000000000e-01,0.00000000000000e+00,6.82145684972837e-04
6.51240000000000e-08,6.00000000000000e-01,0.00000000000000e+00,2.87930272967390e-04
6.51560000000000e-08,6.00000000000000e-01,0.00000000000000e+00,-1.93083213282916e-04
6.52200000000000e-08,6.00000000000000e-01,0.00000000000000e+00,-5.16202304727917e-04
6.53480000000000e-08,6.00000000000000e-01,0.00000000000000e+00,-3.86016789650431e-04
6.56040000000000e-08,6.00000000000000e-01,0.00000000000000e+00,-8.81814080457011e-05
6.61159999999999e-08,6.00000000000000e-01,0.00000000000000e+00,1.38327852139526e-04
6.71399999999999e-08,6.00000000000000e-01,0.00000000000000e+00,9.48303532843225e-05
6.91879999999998e-08,6.00000000000000e-01,0.00000000000000e+00,1.60107971536802e-05
7.22828472456156e-08,6.00000000000000e-01,0.00000000000000e+00,8.46710965373663e-05
7.51000000000000e-08,6.00000000000000e-01,0.00000000000000e+00,1.76953725023361e-05
7.51100000000000e-08,5.40000000000061e-01,0.00000000000000e+00,-1.00658746663249e-04
7.51300000000000e-08,4.20000000000084e-01,0.00000000000000e+00,-3.53844468865022e-04
7.51700000000000e-08,1.80000000000129e-01,0.00000000000000e+00,-5.46200590354901e-04
7.52000000000000e-08,8.40438829641244e-14,0.00000000000000e+00,6.41666823581466e-05
7.52080000000000e-08,0.00000000000000e+00,0.00000000000000e+00,4.74794754019875e-04
7.52240000000000e-08,0.00000000000000e+00,0.00000000000000e+00,1.10034826329176e-03
7.52560000000000e-08,0.00000000000000e+00,0.00000000000000e+00,1.62245245444229e-03
7.53200000000000e-08,0.00000000000000e+00,0.00000000000000e+00,1.59948114112107e-03
7.54480000000000e-08,0.00000000000000e+00,0.00000000000000e+00,-2.90567009591666e-04
7.57040000000000e-08,0.00000000000000e+00,0.00000000000000e+00,-7.74473194667044e-04
7.61903358930984e-08,0.00000000000000e+00,0.00000000000000e+00,3.77562281038121e-04
7.67766644459815e-08,0.00000000000000e+00,0.00000000000000e+00,-1.30473262941376e-04
7.79493215517477e-08,0.00000000000000e+00,0.00000000000000e+00,1.79186974696474e-04
8.02946357632801e-08,0.00000000000000e+00,0.00000000000000e+00,-6.84095045468090e-05
8.40946357632801e-08,0.00000000000000e+00,0.00000000000000e+00,1.52102711580785e-04
8.50000000000000e-08,0.00000000000000e+00,0.00000000000000e+00,-2.61737257302927e-05
8.50100000000000e-08,5.99999999999886e-02,0.00000000000000e+00,2.65661572291534e-04
8.50300000000000e-08,1.79999999999966e-01,0.00000000000000e+00,7.30037472053996e-04
8.50700000000000e-08,4.19999999999920e-01,0.00000000000000e+00,1.14226365873497e-03
8.51000000000000e-08,5.99999999999966e-01,0.00000000000000e+00,9.11023793252461e-04
8.51080000000000e-08,6.00000000000000e-01,0.00000000000000e+00,6.81269668388981e-04
8.51240000000000e-08,6.00000000000000e-01,0.00000000000000e+00,2.86975613166429e-04
8.51560000000000e-08,6.00000000000000e-01,0.00000000000000e+00,-1.94061939093201e-04
8.52200000000000e-08,6.00000000000000e-01,0.00000000000000e+00,-5.17009872943383e-04
8.53480000000000e-08,6.00000000000000e-01,0.00000000000000e+00,-3.86344125824653e-04
8.56040000000000e-08,6.00000000000000e-01,0.00000000000000e+00,-8.82131485870075e-05
8.61159999999999e-08,6.00000000000000e-01,0.00000000000000e+00,1.38278020249183e-04
8.71399999999999e-08,6.00000000000000e-01,0.00000000000000e+00,9.48815134474319e-05
8.91879999999998e-08,6.00000000000000e-01,0.00000000000000e+00,1.59714349636901e-05
9.00000000000000e-08,6.00000000000000e-01,0.00000000000000e+00,8.09458162091894e-05
9.00100000000000e-08,6.00000000000000e-01,5.99999999999886e-02,8.52762970326992e-05
9.00300000000000e-08,6.00000000000000e-01,1.79999999999966e-01,8.52103196047199e-05
9.00700000000000e-08,6.00000000000000e-01,4.19999999999920e-01,6.80433796805130e-05
9.01000000000000e-08,6.00000000000000e-01,5.99999999999966e-01,4.13256324641176e-05
9.01080000000000e-08,6.00000000000000e-01,6.00000000000000e-01,3.28878120768733e-05
9.01240000000000e-08,6.00000000000000e-01,6.00000000000000e-01,2.44740079302780e-05
9.01560000000000e-08,6.00000000000000e-01,6.00000000000000e-01,2.58496345045822e-05
9.02200000000000e-08,6.00000000000000e-01,6.00000000000000e-01,4.52529282923275e-05
9.03480000000000e-08,6.00000000000000e-01,6.00000000000000e-01,5.96285428123289e-05
9.06040000000000e-08,6.00000000000000e-01,6.00000000000000e-01,5.28542994287368e-05
9.11159999999999e-08,6.00000000000000e-01,6.00000000000000e-01,4.97625535534479e-05
9.20645584871137e-08,6.00000000000000e-01,6.00000000000000e-01,5.14743835471343e-05
9.39616754613412e-08,6.00000000000000e-01,6.00000000000000e-01,4.95146358554834e-05
9.51000000000000e-08,6.00000000000000e-01,6.00000000000000e-01,5.01362962138444e-05
9.51100000000000e-08,5.40000000000061e-01,6.00000000000000e-01,-7.44223964821294e-05
9.51300000000000e-08,4.20000000000084e-01,6.00000000000000e-01,-3.35658338462871e-04
9.51700000000000e-08,1.80000000000129e-01,6.00000000000000e-01,-5.37994310257833e-04
9.52000000000000e-08,8.40438829641244e-14,6.00000000000000e-01,6.89234891846219e-05
9.52080000000000e-08,0.00000000000000e+00,6.00000000000000e-01,4.79665203161006e-04
9.52240000000000e-08,0.00000000000000e+00,6.00000000000000e-01,1.10506942148413e-03
9.52560000000000e-08,0.00000000000000e+00,6.00000000000000e-01,1.62526087437548e-03
9.53200000000000e-08,0.00000000000000e+00,6.00000000000000e-01,1.58898410501505e-03
9.54480000000000e-08,0.00000000000000e+00,6.00000000000000e-01,-2.94084318754564e-04
9.57040000000000e-08,0.00000000000000e+00,6.00000000000000e-01,-7.67204083443537e-04
9.61954445061843e-08,0.00000000000000e+00,6.00000000000000e-01,4.65003128482536e-04
9.67813056657316e-08,0.00000000000000e+00,6.00000000000000e-01,-4.06306419469503e-04
9.78206637910501e-08,0.00000000000000e+00,6.00000000000000e-01,4.41853232405223e-04
9.93457807675978e-08,0.00000000000000e+00,6.00000000000000e-01,-2.47266790636063e-04
1.01102158783632e-07,0.00000000000000e+00,6.00000000000000e-01,2.69605482807831e-04
1.04614914815700e-07,0.00000000000000e+00,6.00000000000000e-01,-1.48217876301329e-04
1.05000000000000e-07,0.00000000000000e+00,6.00000000000000e-01,9.40733643947714e-05
1.05010000000000e-07,5.99999999999886e-02,6.00000000000000e-01,4.34292885917301e-04
1.05030000000000e-07,1.79999999999966e-01,6.00000000000000e-01,1.02027403411632e-03
1.05070000000000e-07,4.19999999999920e-01,6.00000000000000e-01,1.90433180486349e-03
1.05100000000000e-07,5.99999999999966e-01,6.00000000000000e-01,2.13213953349628e-03
1.05108000000000e-07,6.00000000000000e-01,6.00000000000000e-01,1.95721876437112e-03
1.05124000000000e-07,6.00000000000000e-01,6.00000000000000e-01,1.61952495725967e-03
1.05156000000000e-07,6.00000000000000e-01,6.00000000000000e-01,8.73831100505831e-04
1.05220000000000e-07,6.00000000000000e-01,6.00000000000000e-01,-8.31926677846165e-04
1.05348000000000e-07,6.00000000000000e-01,6.00000000000000e-01,-3.57293858101765e-03
1.05604000000000e-07,6.00000000000000e-01,6.00000000000000e-01,-1.38743756608277e-03
1.06116000000000e-07,6.00000000000000e-01,6.00000000000000e-01,2.79415475202061e-01
1.07140000000000e-07,6.00000000000000e-01,6.00000000000000e-01,6.06579177490890e-01
1.08193889819545e-07,6.00000000000000e-01,6.00000000000000e-01,5.94105505032453e-01
1.10301669458634e-07,6.00000000000000e-01,6.00000000000000e-01,6.05689910958420e-01
1.12696478094958e-07,6.00000000000000e-01,6.00000000000000e-01,5.94486483254267e-01
1.15100000000000e-07,6.00000000000000e-01,6.00000000000000e-01,6.05263024716551e-01
1.15110000000000e-07,5.40000000000061e-01,6.00000000000000e-01,6.03488753632262e-01
1.15130000000000e-07,4.20000000000084e-01,6.00000000000000e-01,6.01035872352139e-01
1.15170000000000e-07,1.80000000000129e-01,6.00000000000000e-01,6.00699753061375e-01
1.15200000000000e-07,8.40438829641244e-14,6.00000000000000e-01,6.03573875460347e-01
1.15208000000000e-07,0.00000000000000e+00,6.00000000000000e-01,6.04529432472860e-01
1.15224000000000e-07,0.00000000000000e+00,6.00000000000000e-01,6.05944118238605e-01
1.15256000000000e-07,0.00000000000000e+00,6.00000000000000e-01,6.07116476432502e-01
1.15320000000000e-07,0.00000000000000e+00,6.00000000000000e-01,6.06201663675890e-01
1.15448000000000e-07,0.00000000000000e+00,6.00000000000000e-01,5.93270238854982e-01
1.15704000000000e-07,0.00000000000000e+00,6.00000000000000e-01,5.89918103019654e-01
1.16216000000000e-07,0.00000000000000e+00,6.00000000000000e-01,6.03735741271322e-01
1.16853410049276e-07,0.00000000000000e+00,6.00000000000000e-01,5.96476303648586e-01
1.17874650425616e-07,0.00000000000000e+00,6.00000000000000e-01,6.02379053907953e-01
1.19917131178295e-07,0.00000000000000e+00,6.00000000000000e-01,5.97492504212736e-01
1.23717131178295e-07,0.00000000000000e+00,6.00000000000000e-01,6.02166175280886e-01
1.25000000000000e-07,0.00000000000000e+00,6.00000000000000e-01,5.97972566559571e-01
1.25010000000000e-07,5.99999999999092e-02,6.00000000000000e-01,5.98551066403159e-01
1.25030000000000e-07,1.79999999999886e-01,6.00000000000000e-01,5.99450042655568e-01
1.25070000000000e-07,4.19999999999841e-01,6.00000000000000e-01,6.00437431609724e-01
1.25100000000000e-07,5.99999999999886e-01,6.00000000000000e-01,6.00520057822171e-01
1.25108000000000e-07,6.00000000000000e-01,5.51999999999946e-01,6.00358071452721e-01
1.25124000000000e-07,6.00000000000000e-01,4.55999999999996e-01,6.00045933316002e-01
1.25156000000000e-07,6.00000000000000e-01,2.63999999999937e-01,5.99604250078925e-01
1.25200000000000e-07,6.00000000000000e-01,0.00000000000000e+00,5.99185039090502e-01
1.25206400000000e-07,6.00000000000000e-01,0.00000000000000e+00,5.99145536203658e-01
1.25219200000000e-07,6.00000000000000e-01,0.00000000000000e+00,5.99065495208705e-01
1.25244800000000e-07,6.00000000000000e-01,0.00000000000000e+00,5.98928508723090e-01
1.25296000000000e-07,6.00000000000000e-01,0.00000000000000e+00,5.98716591859523e-01
1.25398400000000e-07,6.00000000000000e-01,0.00000000000000e+00,5.98551877254576e-01
1.25603200000000e-07,6.00000000000000e-01,0.00000000000000e+00,5.99061389867300e-01
1.26012800000000e-07,6.00000000000000e-01,0.00000000000000e+00,6.01711630954080e-01
1.26556510169376e-07,6.00000000000000e-01,0.00000000000000e+00,6.11112737520721e-01
1.27386484919219e-07,6.00000000000000e-01,0.00000000000000e+00,2.27732652105633e-01
1.28955563867647e-07,6.00000000000000e-01,0.00000000000000e+00,-7.40076494936128e-02
1.30517044330402e-07,6.00000000000000e-01,0.00000000000000e+00,5.92179447324400e-02
1.33292235369816e-07,6.00000000000000e-01,0.00000000000000e+00,-3.88494759689354e-02
1.35100000000000e-07,5.99999999999891e-01,0.00000000000000e+00,2.99783115104584e-02
1.35110000000000e-07,5.39999999999823e-01,0.00000000000000e+00,2.82854284358521e-02
1.35130000000000e-07,4.19999999999846e-01,0.00000000000000e+00,2.51359622878346e-02
1.35170000000000e-07,1.79999999999891e-01,0.00000000000000e+00,1.98162325027920e-02
1.35200000000000e-07,0.00000000000000e+00,0.00000000000000e+00,1.72602676071422e-02
1.35208000000000e-07,0.00000000000000e+00,0.00000000000000e+00,1.69110187959518e-02
1.35224000000000e-07,0.00000000000000e+00,0.00000000000000e+00,1.60801434431226e-02
1.35256000000000e-07,0.00000000000000e+00,0.00000000000000e+00,1.40044216791316e-02
