Time,v(clk),v(data),v(out),v(reset)
1.00000000000000e-08,6.00000000000000e-01,0.00000000000000e+00,6.63300188071082e-04,0.00000000000000e+00
1.00100000000000e-08,6.00000000000000e-01,5.99999999999986e-02,7.04458025083579e-04,0.00000000000000e+00
1.00300000000000e-08,6.00000000000000e-01,1.79999999999996e-01,7.15164908276181e-04,0.00000000000000e+00
1.00700000000000e-08,6.00000000000000e-01,4.19999999999990e-01,5.89565553607257e-04,0.00000000000000e+00
1.01000000000000e-08,6.00000000000000e-01,5.99999999999995e-01,4.87394649739112e-04,0.00000000000000e+00
1.01080000000000e-08,6.00000000000000e-01,6.00000000000000e-01,4.64585809017093e-04,0.00000000000000e+00
1.01240000000000e-08,6.00000000000000e-01,6.00000000000000e-01,4.26090710777066e-04,0.00000000000000e+00
1.01560000000000e-08,6.00000000000000e-01,6.00000000000000e-01,3.66190147861073e-04,0.00000000000000e+00
1.02200000000000e-08,6.00000000000000e-01,6.00000000000000e-01,2.65171336161926e-04,0.00000000000000e+00
1.03480000000000e-08,6.00000000000000e-01,6.00000000000000e-01,1.47743423043967e-04,0.00000000000000e+00
1.06040000000000e-08,6.00000000000000e-01,6.00000000000000e-01,5.97047242366783e-05,0.00000000000000e+00
1.11160000000000e-08,6.00000000000000e-01,6.00000000000000e-01,4.68734443978686e-05,0.00000000000000e+00
1.21400000000000e-08,6.00000000000000e-01,6.00000000000000e-01,4.85200300567035e-05,0.00000000000000e+00
1.41880000000000e-08,6.00000000000000e-01,6.00000000000000e-01,4.81349246455633e-05,0.00000000000000e+00
1.51000000000000e-08,6.00000000000000e-01,6.00000000000000e-01,4.74689136412826e-05,0.00000000000000e+00
1.51100000000000e-08,5.39999999999992e-01,6.00000000000000e-01,9.57580787669943e-04,6.00000000000085e-02
1.51300000000000e-08,4.19999999999994e-01,6.00000000000000e-01,2.11568507085040e-03,1.80000000000006e-01
1.51700000000000e-08,1.80000000000000e-01,6.00000000000000e-01,2.45173778181437e-03,4.20000000000000e-01
1.52000000000000e-08,0.00000000000000e+00,6.00000000000000e-01,1.76461480820946e-03,6.00000000000000e-01
1.52080000000000e-08,0.00000000000000e+00,6.00000000000000e-01,1.49085051034159e-03,6.00000000000000e-01
1.52240000000000e-08,0.00000000000000e+00,6.00000000000000e-01,1.08143908825192e-03,6.00000000000000e-01
1.52560000000000e-08,0.00000000000000e+00,6.00000000000000e-01,7.55375545074391e-04,6.00000000000000e-01
1.53200000000000e-08,0.00000000000000e+00,6.00000000000000e-01,5.54871332389142e-04,6.00000000000000e-01
1.54480000000000e-08,0.00000000000000e+00,6.00000000000000e-01,-8.97146733355711e-04,6.00000000000000e-01
1.57040000000000e-08,0.00000000000000e+00,6.00000000000000e-01,-8.75773182474310e-04,6.00000000000000e-01
1.61565618899548e-08,0.00000000000000e+00,6.00000000000000e-01,4.69734910039883e-04,6.00000000000000e-01
1.67623532568722e-08,0.00000000000000e+00,6.00000000000000e-01,-3.81528546687167e-04,6.00000000000000e-01
1.79639507104177e-08,0.00000000000000e+00,6.00000000000000e-01,3.79473659057168e-04,6.00000000000000e-01
1.93494876078127e-08,0.00000000000000e+00,6.00000000000000e-01,-1.26288830345857e-04,6.00000000000000e-01
2.14385086098044e-08,0.00000000000000e+00,6.00000000000000e-01,1.57374437737553e-04,6.00000000000000e-01
2.50000000000000e-08,0.00000000000000e+00,6.00000000000000e-01,-3.75384696448960e-05,6.00000000000000e-01
2.50100000000000e-08,5.99999999999886e-02,6.00000000000000e-01,2.99132487349377e-04,6.00000000000000e-01
2.50300000000000e-08,1.80000000000006e-01,6.00000000000000e-01,8.92475428789452e-04,6.00000000000000e-01
2.50700000000000e-08,4.20000000000000e-01,6.00000000000000e-01,1.81950147473521e-03,6.00000000000000e-01
2.51000000000000e-08,6.00000000000000e-01,6.00000000000000e-01,2.09081597536032e-03,6.00000000000000e-01
2.51080000000000e-08,6.00000000000000e-01,6.00000000000000e-01,1.93324181619141e-03,6.00000000000000e-01
2.51240000000000e-08,6.00000000000000e-01,6.00000000000000e-01,1.64814444297141e-03,6.00000000000000e-01
2.51560000000000e-08,6.00000000000000e-01,6.00000000000000e-01,1.08087398110876e-03,6.00000000000000e-01
2.52200000000000e-08,6.00000000000000e-01,6.00000000000000e-01,-4.01978969383085e-04,6.00000000000000e-01
2.53480000000000e-08,6.00000000000000e-01,6.00000000000000e-01,-3.27188529715998e-03,6.00000000000000e-01
2.56040000000000e-08,6.00000000000000e-01,6.00000000000000e-01,-2.50736508885289e-03,6.00000000000000e-01
2.61160000000000e-08,6.00000000000000e-01,6.00000000000000e-01,2.58878445554841e-01,6.00000000000000e-01
2.71400000000000e-08,6.00000000000000e-01,6.00000000000000e-01,6.04080995649504e-01,6.00000000000000e-01
2.82444289536875e-08,6.00000000000000e-01,6.00000000000000e-01,5.95640541142937e-01,6.00000000000000e-01
3.04532868610626e-08,6.00000000000000e-01,6.00000000000000e-01,6.04285182670423e-01,6.00000000000000e-01
3.28781164464906e-08,6.00000000000000e-01,6.00000000000000e-01,5.95844110390823e-01,6.00000000000000e-01
3.51000000000000e-08,5.99999999999970e-01,6.00000000000000e-01,6.03981864783642e-01,6.00000000000000e-01
3.51100000000000e-08,5.39999999999982e-01,6.00000000000000e-01,6.02584006270639e-01,6.00000000000000e-01
3.51300000000000e-08,4.19999999999965e-01,6.00000000000000e-01,6.00660404845864e-01,6.00000000000000e-01
3.51700000000000e-08,1.79999999999970e-01,6.00000000000000e-01,6.00644737821152e-01,6.00000000000000e-01
3.52000000000000e-08,0.00000000000000e+00,6.00000000000000e-01,6.03559454978052e-01,6.00000000000000e-01
3.52080000000000e-08,0.00000000000000e+00,6.00000000000000e-01,6.04518149325723e-01,6.00000000000000e-01
3.52240000000000e-08,0.00000000000000e+00,6.00000000000000e-01,6.05937827693252e-01,6.00000000000000e-01
3.52560000000000e-08,0.00000000000000e+00,6.00000000000000e-01,6.07114933785381e-01,6.00000000000000e-01
3.53200000000000e-08,0.00000000000000e+00,6.00000000000000e-01,6.06201394105929e-01,6.00000000000000e-01
3.54480000000000e-08,0.00000000000000e+00,6.00000000000000e-01,5.93264914418089e-01,6.00000000000000e-01
3.57040000000000e-08,0.00000000000000e+00,6.00000000000000e-01,5.89916262334642e-01,6.00000000000000e-01
3.62160000000000e-08,0.00000000000000e+00,6.00000000000000e-01,6.03736110792048e-01,6.00000000000000e-01
3.68534287319974e-08,0.00000000000000e+00,6.00000000000000e-01,5.96475544140849e-01,6.00000000000000e-01
3.78748761506702e-08,0.00000000000000e+00,6.00000000000000e-01,6.02380040872977e-01,6.00000000000000e-01
3.99177709880157e-08,0.00000000000000e+00,6.00000000000000e-01,5.97491542495288e-01,6.00000000000000e-01
4.37177709880157e-08,0.00000000000000e+00,6.00000000000000e-01,6.02167124542428e-01,6.00000000000000e-01
4.50000000000000e-08,0.00000000000000e+00,6.00000000000000e-01,5.97971855916489e-01,6.00000000000000e-01
4.50100000000000e-08,5.99999999999886e-02,6.00000000000000e-01,5.98162245751320e-01,5.40000000000011e-01
4.50300000000000e-08,1.80000000000006e-01,6.00000000000000e-01,5.98436148394837e-01,4.19999999999994e-01
4.50700000000000e-08,4.20000000000000e-01,6.00000000000000e-01,6.01676735419438e-01,1.80000000000000e-01
4.51000000000000e-08,6.00000000000000e-01,6.00000000000000e-01,6.10369863493883e-01,0.00000000000000e+00
4.51080000000000e-08,6.00000000000000e-01,6.00000000000000e-01,6.13667379783049e-01,0.00000000000000e+00
4.51240000000000e-08,6.00000000000000e-01,6.00000000000000e-01,6.19536857320081e-01,0.00000000000000e+00
4.51560000000000e-08,6.00000000000000e-01,6.00000000000000e-01,6.29400540378239e-01,0.00000000000000e+00
4.52200000000000e-08,6.00000000000000e-01,6.00000000000000e-01,6.50646555229404e-01,0.00000000000000e+00
4.53480000000000e-08,6.00000000000000e-01,6.00000000000000e-01,6.08278128541044e-01,0.00000000000000e+00
4.56040000000000e-08,6.00000000000000e-01,6.00000000000000e-01,2.99533388629904e-01,0.00000000000000e+00
4.60324822824647e-08,6.00000000000000e-01,6.00000000000000e-01,2.84784899321805e-02,0.00000000000000e+00
4.66082475919633e-08,6.00000000000000e-01,6.00000000000000e-01,-4.39910917527121e-03,0.00000000000000e+00
4.76567069821739e-08,6.00000000000000e-01,6.00000000000000e-01,1.27722566555310e-03,0.00000000000000e+00
4.91093371737064e-08,6.00000000000000e-01,6.00000000000000e-01,1.94886419429129e-04,0.00000000000000e+00
5.01000000000000e-08,6.00000000000000e-01,5.99999999999966e-01,-1.08561913682411e-03,0.00000000000000e+00
5.03905260383065e-08,6.00000000000000e-01,6.00000000000000e-01,4.02265143607583e-04,0.00000000000000e+00
5.09715781149195e-08,6.00000000000000e-01,6.00000000000000e-01,2.52473740764564e-05,0.00000000000000e+00
5.21336822681456e-08,6.00000000000000e-01,6.00000000000000e-01,5.31839601550579e-06,0.00000000000000e+00
5.44578905745977e-08,6.00000000000000e-01,6.00000000000000e-01,1.01321236167996e-04,0.00000000000000e+00
5.51000000000000e-08,6.00000000000000e-01,6.00000000000000e-01,-3.16317393990254e-05,0.00000000000000e+00
5.51100000000000e-08,5.40000000000021e-01,6.00000000000000e-01,9.21431577258200e-04,5.99999999999787e-02
5.51300000000000e-08,4.20000000000004e-01,6.00000000000000e-01,2.12139808479564e-03,1.79999999999996e-01
5.51700000000000e-08,1.80000000000010e-01,6.00000000000000e-01,2.46667849274256e-03,4.19999999999990e-01
5.52000000000000e-08,0.00000000000000e+00,6.00000000000000e-01,1.77014970214866e-03,6.00000000000000e-01
5.52080000000000e-08,0.00000000000000e+00,6.00000000000000e-01,1.49348136358565e-03,6.00000000000000e-01
5.52240000000000e-08,0.00000000000000e+00,6.00000000000000e-01,1.08190005853379e-03,6.00000000000000e-01
5.52560000000000e-08,0.00000000000000e+00,6.00000000000000e-01,7.55633889776328e-04,6.00000000000000e-01
5.53200000000000e-08,0.00000000000000e+00,6.00000000000000e-01,4.56926445290287e-04,6.00000000000000e-01
5.54480000000000e-08,0.00000000000000e+00,6.00000000000000e-01,-1.53283905037931e-03,6.00000000000000e-01
5.57040000000000e-08,0.00000000000000e+00,6.00000000000000e-01,-1.41808020304317e-03,6.00000000000000e-01
5.61411495428842e-08,0.00000000000000e+00,6.00000000000000e-01,5.97847881963882e-04,6.00000000000000e-01
5.67543860054915e-08,0.00000000000000e+00,6.00000000000000e-01,-3.36147639177983e-04,6.00000000000000e-01
5.79808589307063e-08,0.00000000000000e+00,6.00000000000000e-01,2.94974374130470e-04,6.00000000000000e-01
5.93328176695135e-08,0.00000000000000e+00,6.00000000000000e-01,-1.01453773364922e-04,6.00000000000000e-01
6.15330204764324e-08,0.00000000000000e+00,6.00000000000000e-01,1.58404445238474e-04,6.00000000000000e-01
6.50000000000000e-08,0.00000000000000e+00,6.00000000000000e-01,-4.69740128663278e-05,6.00000000000000e-01
6.50100000000000e-08,5.99999999999886e-02,6.00000000000000e-01,3.08763882988616e-04,6.00000000000000e-01
6.50300000000000e-08,1.79999999999966e-01,6.00000000000000e-01,9.22564210267832e-04,6.00000000000000e-01
6.50700000000000e-08,4.19999999999920e-01,6.00000000000000e-01,1.84708730846167e-03,6.00000000000000e-01
6.51000000000000e-08,5.99999999999966e-01,6.00000000000000e-01,2.08640227164217e-03,6.00000000000000e-01
6.51080000000000e-08,6.00000000000000e-01,6.00000000000000e-01,1.90591752001652e-03,6.00000000000000e-01
6.51240000000000e-08,6.00000000000000e-01,6.00000000000000e-01,1.54919683088674e-03,6.00000000000000e-01
6.51560000000000e-08,6.00000000000000e-01,6.00000000000000e-01,7.44028186012158e-04,6.00000000000000e-01
6.52200000000000e-08,6.00000000000000e-01,6.00000000000000e-01,-1.00476677007776e-03,6.00000000000000e-01
6.53480000000000e-08,6.00000000000000e-01,6.00000000000000e-01,-3.67225029285560e-03,6.00000000000000e-01
6.56040000000000e-08,6.00000000000000e-01,6.00000000000000e-01,-1.03191400253916e-03,6.00000000000000e-01
6.61159999999999e-08,6.00000000000000e-01,6.00000000000000e-01,2.85211034242314e-01,6.00000000000000e-01
6.71399999999999e-08,6.00000000000000e-01,6.00000000000000e-01,6.07255319172465e-01,6.00000000000000e-01
6.81810732308727e-08,6.00000000000000e-01,6.00000000000000e-01,5.93679249047157e-01,6.00000000000000e-01
7.02632196926182e-08,6.00000000000000e-01,6.00000000000000e-01,6.06075051566804e-01,6.00000000000000e-01
7.26499757547145e-08,6.00000000000000e-01,6.00000000000000e-01,5.94111151286615e-01,6.00000000000000e-01
7.51000000000000e-08,6.00000000000000e-01,6.00000000000000e-01,6.05616305063019e-01,6.00000000000000e-01
7.51100000000000e-08,5.40000000000061e-01,6.00000000000000e-01,6.03737939567237e-01,6.00000000000000e-01
7.51300000000000e-08,4.20000000000084e-01,6.00000000000000e-01,6.01139073476297e-01,6.00000000000000e-01
7.51700000000000e-08,1.80000000000129e-01,6.00000000000000e-01,6.00708517089986e-01,6.00000000000000e-01
7.52000000000000e-08,8.40438829641244e-14,6.00000000000000e-01,6.03576532980679e-01,6.00000000000000e-01
7.52080000000000e-08,0.00000000000000e+00,6.00000000000000e-01,6.04531610414115e-01,6.00000000000000e-01
7.52240000000000e-08,0.00000000000000e+00,6.00000000000000e-01,6.05945527140769e-01,6.00000000000000e-01
7.52560000000000e-08,0.00000000000000e+00,6.00000000000000e-01,6.07117084116051e-01,6.00000000000000e-01
7.53200000000000e-08,0.00000000000000e+00,6.00000000000000e-01,6.06201489288898e-01,6.00000000000000e-01
7.54480000000000e-08,0.00000000000000e+00,6.00000000000000e-01,5.93270619849566e-01,6.00000000000000e-01
7.57040000000000e-08,0.00000000000000e+00,6.00000000000000e-01,5.89919216201015e-01,6.00000000000000e-01
7.62159999999999e-08,0.00000000000000e+00,6.00000000000000e-01,6.03735597592804e-01,6.00000000000000e-01
7.68534037329912e-08,0.00000000000000e+00,6.00000000000000e-01,5.96476578748959e-01,6.00000000000000e-01
7.78745913862086e-08,0.00000000000000e+00,6.00000000000000e-01,6.02378674754188e-01,6.00000000000000e-01
7.99169666926434e-08,0.00000000000000e+00,6.00000000000000e-01,5.97492868853179e-01,6.00000000000000e-01
8.37169666926434e-08,0.00000000000000e+00,6.00000000000000e-01,6.02165814335993e-01,6.00000000000000e-01
8.50000000000000e-08,0.00000000000000e+00,6.00000000000000e-01,5.97972855157854e-01,6.00000000000000e-01
8.50100000000000e-08,5.99999999999886e-02,6.00000000000000e-01,5.98163043812266e-01,5.40000000000011e-01
8.50300000000000e-08,1.79999999999966e-01,6.00000000000000e-01,5.98436624505114e-01,4.20000000000034e-01
8.50700000000000e-08,4.19999999999920e-01,6.00000000000000e-01,6.01676858357670e-01,1.80000000000080e-01
8.51000000000000e-08,5.99999999999966e-01,6.00000000000000e-01,6.10369903405463e-01,3.44169137633799e-14
8.51080000000000e-08,6.00000000000000e-01,6.00000000000000e-01,6.13667342154039e-01,0.00000000000000e+00
8.51240000000000e-08,6.00000000000000e-01,6.00000000000000e-01,6.19536708895530e-01,0.00000000000000e+00
8.51560000000000e-08,6.00000000000000e-01,6.00000000000000e-01,6.29400338451556e-01,0.00000000000000e+00
8.52200000000000e-08,6.00000000000000e-01,6.00000000000000e-01,6.50646419222892e-01,0.00000000000000e+00
8.53480000000000e-08,6.00000000000000e-01,6.00000000000000e-01,6.08281371856602e-01,0.00000000000000e+00
8.56040000000000e-08,6.00000000000000e-01,6.00000000000000e-01,2.99538137412574e-01,0.00000000000000e+00
8.60335627175359e-08,6.00000000000000e-01,6.00000000000000e-01,2.81861518988960e-02,0.00000000000000e+00
8.66089235836848e-08,6.00000000000000e-01,6.00000000000000e-01,-4.32647241181872e-03,0.00000000000000e+00
8.76629224245133e-08,6.00000000000000e-01,6.00000000000000e-01,1.25029629643015e-03,0.00000000000000e+00
8.91140129483672e-08,6.00000000000000e-01,6.00000000000000e-01,2.14412925638972e-04,0.00000000000000e+00
9.01000000000000e-08,6.00000000000000e-01,5.99999999999966e-01,-1.10051021981646e-03,0.00000000000000e+00
9.03902181047708e-08,6.00000000000000e-01,6.00000000000000e-01,3.98110117953265e-04,0.00000000000000e+00
9.09706543143123e-08,6.00000000000000e-01,6.00000000000000e-01,2.67906700496812e-05,0.00000000000000e+00
9.21315267333954e-08,6.00000000000000e-01,6.00000000000000e-01,4.25819833474797e-06,0.00000000000000e+00
9.44532715715617e-08,6.00000000000000e-01,6.00000000000000e-01,1.02184955152244e-04,0.00000000000000e+00
9.51000000000000e-08,6.00000000000000e-01,6.00000000000000e-01,-3.19557027454592e-05,0.00000000000000e+00
9.51100000000000e-08,5.40000000000061e-01,6.00000000000000e-01,9.21251195258432e-04,5.99999999999390e-02
9.51300000000000e-08,4.20000000000084e-01,6.00000000000000e-01,2.12134770449625e-03,1.79999999999916e-01
9.51700000000000e-08,1.80000000000129e-01,6.00000000000000e-01,2.46667171184270e-03,4.19999999999871e-01
9.52000000000000e-08,8.40438829641244e-14,6.00000000000000e-01,1.77013994036301e-03,5.99999999999916e-01
9.52080000000000e-08,0.00000000000000e+00,6.00000000000000e-01,1.49347180191775e-03,6.00000000000000e-01
9.52240000000000e-08,0.00000000000000e+00,6.00000000000000e-01,1.08189149602392e-03,6.00000000000000e-01
9.52560000000000e-08,0.00000000000000e+00,6.00000000000000e-01,7.55626645214488e-04,6.00000000000000e-01
9.53200000000000e-08,0.00000000000000e+00,6.00000000000000e-01,4.56919998000141e-04,6.00000000000000e-01
9.54480000000000e-08,0.00000000000000e+00,6.00000000000000e-01,-1.53274223907310e-03,6.00000000000000e-01
9.57040000000000e-08,0.00000000000000e+00,6.00000000000000e-01,-1.41800390486060e-03,6.00000000000000e-01
9.61411676724669e-08,0.00000000000000e+00,6.00000000000000e-01,5.97891564341570e-04,6.00000000000000e-01
9.67543928627789e-08,0.00000000000000e+00,6.00000000000000e-01,-3.36227743471688e-04,6.00000000000000e-01
9.79808432434030e-08,0.00000000000000e+00,6.00000000000000e-01,2.95053214125596e-04,6.00000000000000e-01
9.93328635725850e-08,0.00000000000000e+00,6.00000000000000e-01,-1.01528727219229e-04,6.00000000000000e-01
1.01532863898609e-07,0.00000000000000e+00,6.00000000000000e-01,1.58468108714085e-04,6.00000000000000e-01
1.05000000000000e-07,0.00000000000000e+00,6.00000000000000e-01,-4.70337121301519e-05,6.00000000000000e-01
1.05010000000000e-07,5.99999999999886e-02,6.00000000000000e-01,3.08706743434140e-04,6.00000000000000e-01
1.05030000000000e-07,1.79999999999966e-01,6.00000000000000e-01,9.22512325635200e-04,6.00000000000000e-01
1.05070000000000e-07,4.19999999999920e-01,6.00000000000000e-01,1.84704508527975e-03,6.00000000000000e-01
1.05100000000000e-07,5.99999999999966e-01,6.00000000000000e-01,2.08636410744710e-03,6.00000000000000e-01
1.05108000000000e-07,6.00000000000000e-01,6.00000000000000e-01,1.90588163683528e-03,6.00000000000000e-01
1.05124000000000e-07,6.00000000000000e-01,6.00000000000000e-01,1.54916651248917e-03,6.00000000000000e-01
1.05156000000000e-07,6.00000000000000e-01,6.00000000000000e-01,7.44009213423047e-04,6.00000000000000e-01
1.05220000000000e-07,6.00000000000000e-01,6.00000000000000e-01,-1.00477210220462e-03,6.00000000000000e-01
1.05348000000000e-07,6.00000000000000e-01,6.00000000000000e-01,-3.67225023623942e-03,6.00000000000000e-01
1.05604000000000e-07,6.00000000000000e-01,6.00000000000000e-01,-1.03187699768544e-03,6.00000000000000e-01
1.06116000000000e-07,6.00000000000000e-01,6.00000000000000e-01,2.85211580919669e-01,6.00000000000000e-01
1.07140000000000e-07,6.00000000000000e-01,6.00000000000000e-01,6.07255381503709e-01,6.00000000000000e-01
1.08181072032945e-07,6.00000000000000e-01,6.00000000000000e-01,5.93679209391355e-01,6.00000000000000e-01
1.10263216098835e-07,6.00000000000000e-01,6.00000000000000e-01,6.06075087229680e-01,6.00000000000000e-01
1.12649971405522e-07,6.00000000000000e-01,6.00000000000000e-01,5.94111116464194e-01,6.00000000000000e-01
1.15100000000000e-07,6.00000000000000e-01,6.00000000000000e-01,6.05616337780531e-01,6.00000000000000e-01
1.15110000000000e-07,5.40000000000061e-01,6.00000000000000e-01,6.03737962818154e-01,6.00000000000000e-01
1.15130000000000e-07,4.20000000000084e-01,6.00000000000000e-01,6.01139083267566e-01,6.00000000000000e-01
1.15170000000000e-07,1.80000000000129e-01,6.00000000000000e-01,6.00708517811508e-01,6.00000000000000e-01
1.15200000000000e-07,8.40438829641244e-14,6.00000000000000e-01,6.03576533117887e-01,6.00000000000000e-01
1.15208000000000e-07,0.00000000000000e+00,6.00000000000000e-01,6.04531610539646e-01,6.00000000000000e-01
1.15224000000000e-07,0.00000000000000e+00,6.00000000000000e-01,6.05945527207779e-01,6.00000000000000e-01
