Time,v(clk),v(data),v(out)
1.00000000000000e-08,6.00000000000000e-01,0.00000000000000e+00,2.74607654206002e-05
1.00100000000000e-08,6.00000000000000e-01,5.99999999999986e-02,2.64797724771823e-05
1.00300000000000e-08,6.00000000000000e-01,1.79999999999996e-01,2.49015247863540e-05
1.00700000000000e-08,6.00000000000000e-01,4.19999999999990e-01,2.21971332485388e-05
1.01000000000000e-08,6.00000000000000e-01,5.99999999999995e-01,1.98798701527350e-05
1.01080000000000e-08,6.00000000000000e-01,6.00000000000000e-01,1.91888434914328e-05
1.01240000000000e-08,6.00000000000000e-01,6.00000000000000e-01,1.88698953715871e-05
1.01560000000000e-08,6.00000000000000e-01,6.00000000000000e-01,2.07468881909187e-05
1.02200000000000e-08,6.00000000000000e-01,6.00000000000000e-01,2.43986008616887e-05
1.03480000000000e-08,6.00000000000000e-01,6.00000000000000e-01,2.51835508037479e-05
1.06040000000000e-08,6.00000000000000e-01,6.00000000000000e-01,2.47064998043674e-05
1.11160000000000e-08,6.00000000000000e-01,6.00000000000000e-01,2.34770308925117e-05
1.20148995085155e-08,6.00000000000000e-01,6.00000000000000e-01,2.41610831043688e-05
1.38126985255464e-08,6.00000000000000e-01,6.00000000000000e-01,2.26088887464657e-05
1.51000000000000e-08,6.00000000000000e-01,6.00000000000000e-01,2.30740355678417e-05
1.51100000000000e-08,5.39999999999992e-01,6.00000000000000e-01,-3.52912887198256e-05
1.51300000000000e-08,4.19999999999994e-01,6.00000000000000e-01,-1.34826883952749e-04
1.51700000000000e-08,1.80000000000000e-01,6.00000000000000e-01,-1.50447076760846e-04
1.52000000000000e-08,0.00000000000000e+00,6.00000000000000e-01,9.50193321089532e-05
1.52080000000000e-08,0.00000000000000e+00,6.00000000000000e-01,2.32400878564507e-04
1.52240000000000e-08,0.00000000000000e+00,6.00000000000000e-01,4.21033237671675e-04
1.52560000000000e-08,0.00000000000000e+00,6.00000000000000e-01,4.98733522676841e-04
1.53200000000000e-08,0.00000000000000e+00,6.00000000000000e-01,2.26855784372065e-04
1.54480000000000e-08,0.00000000000000e+00,6.00000000000000e-01,-2.91594496696475e-04
1.57040000000000e-08,0.00000000000000e+00,6.00000000000000e-01,-6.40033791938638e-05
1.61580645660575e-08,0.00000000000000e+00,6.00000000000000e-01,-8.56527391044151e-05
1.68293237220159e-08,0.00000000000000e+00,6.00000000000000e-01,9.06982030309707e-05
1.78343725973114e-08,0.00000000000000e+00,6.00000000000000e-01,9.47668516700501e-05
1.95556692613356e-08,0.00000000000000e+00,6.00000000000000e-01,-9.73845975591470e-05
2.22445846775778e-08,0.00000000000000e+00,6.00000000000000e-01,1.52966056885831e-04
2.50000000000000e-08,0.00000000000000e+00,6.00000000000000e-01,-1.24399924286303e-04
2.50100000000000e-08,5.99999999999886e-02,6.00000000000000e-01,4.50818854109275e-06
2.50300000000000e-08,1.80000000000006e-01,6.00000000000000e-01,2.23475900014536e-04
2.50700000000000e-08,4.20000000000000e-01,6.00000000000000e-01,5.08682829265576e-04
2.51000000000000e-08,6.00000000000000e-01,6.00000000000000e-01,5.59957041063326e-04
2.51080000000000e-08,6.00000000000000e-01,6.00000000000000e-01,4.86153534700141e-04
2.51240000000000e-08,6.00000000000000e-01,6.00000000000000e-01,3.09616744342968e-04
2.51560000000000e-08,6.00000000000000e-01,6.00000000000000e-01,-2.39615737504924e-04
2.52200000000000e-08,6.00000000000000e-01,6.00000000000000e-01,-1.79319691741841e-03
2.53480000000000e-08,6.00000000000000e-01,6.00000000000000e-01,-4.15065614796749e-03
2.56040000000000e-08,6.00000000000000e-01,6.00000000000000e-01,4.19234799847552e-02
2.61160000000000e-08,6.00000000000000e-01,6.00000000000000e-01,5.31999423860545e-01
2.71400000000000e-08,6.00000000000000e-01,6.00000000000000e-01,6.16672669650384e-01
2.81531633582390e-08,6.00000000000000e-01,6.00000000000000e-01,5.83368571650022e-01
3.01000000000000e-08,6.00000000000000e-01,6.00000000000000e-01,6.15179452399407e-01
3.01100000000000e-08,6.00000000000000e-01,5.40000000000031e-01,6.09078876028422e-01
3.01300000000000e-08,6.00000000000000e-01,4.20000000000014e-01,6.01790620684611e-01
3.01700000000000e-08,6.00000000000000e-01,1.80000000000020e-01,5.99745470499188e-01
3.02000000000000e-08,6.00000000000000e-01,1.44328993201270e-14,5.99959330445241e-01
3.02080000000000e-08,6.00000000000000e-01,0.00000000000000e+00,5.99962934944670e-01
3.02240000000000e-08,6.00000000000000e-01,0.00000000000000e+00,5.99967134199703e-01
3.02560000000000e-08,6.00000000000000e-01,0.00000000000000e+00,5.99949481590176e-01
3.03200000000000e-08,6.00000000000000e-01,0.00000000000000e+00,5.99940203949974e-01
3.04480000000000e-08,6.00000000000000e-01,0.00000000000000e+00,5.99972949412186e-01
3.07040000000000e-08,6.00000000000000e-01,0.00000000000000e+00,5.99971844292238e-01
3.11579953172534e-08,6.00000000000000e-01,0.00000000000000e+00,5.99970863025207e-01
3.18239737812841e-08,6.00000000000000e-01,0.00000000000000e+00,5.99974082618144e-01
3.30249061022860e-08,6.00000000000000e-01,0.00000000000000e+00,5.99975220885533e-01
3.51000000000000e-08,5.99999999999970e-01,0.00000000000000e+00,5.99979921968980e-01
3.51100000000000e-08,5.39999999999982e-01,0.00000000000000e+00,5.99927465379784e-01
3.51300000000000e-08,4.19999999999965e-01,0.00000000000000e+00,5.99869201322613e-01
3.51700000000000e-08,1.79999999999970e-01,0.00000000000000e+00,6.00495576051409e-01
3.52000000000000e-08,0.00000000000000e+00,0.00000000000000e+00,6.02181515003347e-01
3.52080000000000e-08,0.00000000000000e+00,0.00000000000000e+00,6.02615724381053e-01
3.52240000000000e-08,0.00000000000000e+00,0.00000000000000e+00,6.03112342159844e-01
3.52560000000000e-08,0.00000000000000e+00,0.00000000000000e+00,6.02264680058639e-01
3.53200000000000e-08,0.00000000000000e+00,0.00000000000000e+00,5.92672219293492e-01
3.54480000000000e-08,0.00000000000000e+00,0.00000000000000e+00,5.81770693211587e-01
3.57040000000000e-08,0.00000000000000e+00,0.00000000000000e+00,5.97820371689341e-01
3.61893760410617e-08,0.00000000000000e+00,0.00000000000000e+00,6.00082464081116e-01
3.68161703031020e-08,0.00000000000000e+00,0.00000000000000e+00,5.99064235450854e-01
3.80697588271825e-08,0.00000000000000e+00,0.00000000000000e+00,6.00287865843732e-01
3.91000000000000e-08,0.00000000000000e+00,0.00000000000000e+00,5.99398458206950e-01
3.92692206272423e-08,0.00000000000000e+00,0.00000000000000e+00,5.99770652078822e-01
3.96076618817268e-08,0.00000000000000e+00,0.00000000000000e+00,5.99903472630173e-01
4.02845443906958e-08,0.00000000000000e+00,0.00000000000000e+00,5.99828874008116e-01
4.16383094086339e-08,0.00000000000000e+00,0.00000000000000e+00,5.99929722046073e-01
4.43458394445101e-08,0.00000000000000e+00,0.00000000000000e+00,5.99881686502520e-01
4.50000000000000e-08,0.00000000000000e+00,0.00000000000000e+00,5.99949375942757e-01
4.50100000000000e-08,5.99999999999886e-02,0.00000000000000e+00,5.99994125542636e-01
4.50300000000000e-08,1.80000000000006e-01,0.00000000000000e+00,6.00036628952836e-01
4.50700000000000e-08,4.20000000000000e-01,0.00000000000000e+00,5.99994264492813e-01
4.51000000000000e-08,6.00000000000000e-01,0.00000000000000e+00,5.99915773706347e-01
4.51080000000000e-08,6.00000000000000e-01,0.00000000000000e+00,5.99868051169163e-01
4.51240000000000e-08,6.00000000000000e-01,0.00000000000000e+00,5.99808363210958e-01
4.51560000000000e-08,6.00000000000000e-01,0.00000000000000e+00,5.99803540884081e-01
4.52200000000000e-08,6.00000000000000e-01,0.00000000000000e+00,5.99854083335031e-01
4.53480000000000e-08,6.00000000000000e-01,0.00000000000000e+00,5.99877234154313e-01
4.56040000000000e-08,6.00000000000000e-01,0.00000000000000e+00,6.01165057695684e-01
4.61160000000000e-08,6.00000000000000e-01,0.00000000000000e+00,3.75114473756894e-01
4.71400000000000e-08,6.00000000000000e-01,0.00000000000000e+00,-4.17413281074597e-02
4.81642350418190e-08,6.00000000000000e-01,0.00000000000000e+00,2.92820378008591e-02
5.00000000000000e-08,6.00000000000000e-01,0.00000000000000e+00,-1.79071748788586e-02
5.00100000000000e-08,6.00000000000000e-01,5.99999999999886e-02,-1.78567056458825e-02
5.00300000000000e-08,6.00000000000000e-01,1.79999999999966e-01,-1.66716998161577e-02
5.00700000000000e-08,6.00000000000000e-01,4.20000000000000e-01,-1.23267484705389e-02
5.01000000000000e-08,6.00000000000000e-01,6.00000000000000e-01,-9.53863993099081e-03
5.01080000000000e-08,6.00000000000000e-01,6.00000000000000e-01,-8.94526003894455e-03
5.01240000000000e-08,6.00000000000000e-01,6.00000000000000e-01,-7.82468329345887e-03
5.01560000000000e-08,6.00000000000000e-01,6.00000000000000e-01,-5.98986317271469e-03
5.02200000000000e-08,6.00000000000000e-01,6.00000000000000e-01,-3.46855928369209e-03
5.03480000000000e-08,6.00000000000000e-01,6.00000000000000e-01,-1.05879495023403e-03
5.06040000000000e-08,6.00000000000000e-01,6.00000000000000e-01,4.49693556386493e-05
5.11160000000001e-08,6.00000000000000e-01,6.00000000000000e-01,8.13919250597372e-06
5.20621697674866e-08,6.00000000000000e-01,6.00000000000000e-01,2.17793050037371e-05
5.39545093024598e-08,6.00000000000000e-01,6.00000000000000e-01,1.41743572431045e-05
5.51000000000000e-08,6.00000000000000e-01,6.00000000000000e-01,2.01526202249416e-05
5.51100000000000e-08,5.40000000000021e-01,6.00000000000000e-01,-3.74784062605049e-05
5.51300000000000e-08,4.20000000000004e-01,6.00000000000000e-01,-1.33216565520844e-04
5.51700000000000e-08,1.80000000000010e-01,6.00000000000000e-01,-1.40617202374384e-04
5.52000000000000e-08,0.00000000000000e+00,6.00000000000000e-01,9.44547611547511e-05
5.52080000000000e-08,0.00000000000000e+00,6.00000000000000e-01,2.28877465287679e-04
5.52240000000000e-08,0.00000000000000e+00,6.00000000000000e-01,4.06991830956674e-04
5.52560000000000e-08,0.00000000000000e+00,6.00000000000000e-01,4.33405072220942e-04
5.53200000000000e-08,0.00000000000000e+00,6.00000000000000e-01,-2.14107857581781e-04
5.54480000000000e-08,0.00000000000000e+00,6.00000000000000e-01,-1.11578805638374e-03
5.57040000000000e-08,0.00000000000000e+00,6.00000000000000e-01,-3.06511284044634e-04
5.61565137759608e-08,0.00000000000000e+00,6.00000000000000e-01,2.17058050659760e-05
5.68297666810926e-08,0.00000000000000e+00,6.00000000000000e-01,2.82717086725892e-05
5.78313316517548e-08,0.00000000000000e+00,6.00000000000000e-01,1.35657894927355e-04
5.95531178582368e-08,0.00000000000000e+00,6.00000000000000e-01,-1.29734861903245e-04
6.22392708776668e-08,0.00000000000000e+00,6.00000000000000e-01,1.80451822154149e-04
6.50000000000000e-08,0.00000000000000e+00,6.00000000000000e-01,-1.47799150099531e-04
6.50100000000000e-08,5.99999999999886e-02,6.00000000000000e-01,-1.95300802363352e-05
6.50300000000000e-08,1.79999999999966e-01,6.00000000000000e-01,2.01184932402267e-04
6.50700000000000e-08,4.19999999999920e-01,6.00000000000000e-01,4.94704851421286e-04
6.51000000000000e-08,5.99999999999966e-01,6.00000000000000e-01,5.50353604421773e-04
6.51080000000000e-08,6.00000000000000e-01,6.00000000000000e-01,4.77433635743631e-04
6.51240000000000e-08,6.00000000000000e-01,6.00000000000000e-01,3.02568626164727e-04
6.51560000000000e-08,6.00000000000000e-01,6.00000000000000e-01,-2.43975335156459e-04
6.52200000000000e-08,6.00000000000000e-01,6.00000000000000e-01,-1.79448245624126e-03
6.53480000000000e-08,6.00000000000000e-01,6.00000000000000e-01,-4.15068026162600e-03
6.56040000000000e-08,6.00000000000000e-01,6.00000000000000e-01,4.19022951331084e-02
6.61159999999999e-08,6.00000000000000e-01,6.00000000000000e-01,5.31985238468337e-01
6.71399999999999e-08,6.00000000000000e-01,6.00000000000000e-01,6.16674645099679e-01
6.81531312126834e-08,6.00000000000000e-01,6.00000000000000e-01,5.83366727685491e-01
7.01000000000000e-08,6.00000000000000e-01,6.00000000000000e-01,6.15181146543962e-01
7.01100000000000e-08,6.00000000000000e-01,5.40000000000011e-01,6.09079831010076e-01
7.01300000000000e-08,6.00000000000000e-01,4.20000000000034e-01,6.01790866582062e-01
7.01700000000000e-08,6.00000000000000e-01,1.80000000000080e-01,5.99745426240921e-01
7.02000000000000e-08,6.00000000000000e-01,3.44169137633799e-14,5.99959311300278e-01
7.02080000000000e-08,6.00000000000000e-01,0.00000000000000e+00,5.99962920285109e-01
7.02240000000000e-08,6.00000000000000e-01,0.00000000000000e+00,5.99967124910802e-01
7.02560000000000e-08,6.00000000000000e-01,0.00000000000000e+00,5.99949480478267e-01
7.03200000000000e-08,6.00000000000000e-01,0.00000000000000e+00,5.99940202270497e-01
7.04480000000000e-08,6.00000000000000e-01,0.00000000000000e+00,5.99972939596314e-01
7.07040000000000e-08,6.00000000000000e-01,0.00000000000000e+00,5.99971850982545e-01
7.11580053583817e-08,6.00000000000000e-01,0.00000000000000e+00,5.99970856659705e-01
7.18239079254742e-08,6.00000000000000e-01,0.00000000000000e+00,5.99974086625047e-01
7.30246932348559e-08,6.00000000000000e-01,0.00000000000000e+00,5.99975216343322e-01
7.51000000000000e-08,6.00000000000000e-01,0.00000000000000e+00,5.99979925688463e-01
7.51100000000000e-08,5.40000000000061e-01,0.00000000000000e+00,5.99927470976172e-01
7.51300000000000e-08,4.20000000000084e-01,0.00000000000000e+00,5.99869200857890e-01
7.51700000000000e-08,1.80000000000129e-01,0.00000000000000e+00,6.00495568878280e-01
7.52000000000000e-08,8.40438829641244e-14,0.00000000000000e+00,6.02181515541600e-01
7.52080000000000e-08,0.00000000000000e+00,0.00000000000000e+00,6.02615723990551e-01
7.52240000000000e-08,0.00000000000000e+00,0.00000000000000e+00,6.03112340237187e-01
7.52560000000000e-08,0.00000000000000e+00,0.00000000000000e+00,6.02264676755306e-01
7.53200000000000e-08,0.00000000000000e+00,0.00000000000000e+00,5.92672214042073e-01
7.54480000000000e-08,0.00000000000000e+00,0.00000000000000e+00,5.81770691563430e-01
7.57040000000000e-08,0.00000000000000e+00,0.00000000000000e+00,5.97820373986699e-01
7.61893758114817e-08,0.00000000000000e+00,0.00000000000000e+00,6.00082463116721e-01
7.68161700670158e-08,0.00000000000000e+00,0.00000000000000e+00,5.99064236157266e-01
7.80697585780841e-08,0.00000000000000e+00,0.00000000000000e+00,6.00304744778250e-01
7.81000000000000e-08,0.00000000000000e+00,0.00000000000000e+00,6.00340431773370e-01
7.81604828438319e-08,0.00000000000000e+00,0.00000000000000e+00,5.99906747193834e-01
7.82814485314956e-08,0.00000000000000e+00,0.00000000000000e+00,5.99680969358775e-01
7.85233799068231e-08,0.00000000000000e+00,0.00000000000000e+00,5.99832314187196e-01
7.90072426574780e-08,0.00000000000000e+00,0.00000000000000e+00,5.99800725979335e-01
7.99749681587879e-08,0.00000000000000e+00,0.00000000000000e+00,5.99892125628291e-01
8.19104191614077e-08,0.00000000000000e+00,0.00000000000000e+00,5.99868586402341e-01
8.50000000000000e-08,0.00000000000000e+00,0.00000000000000e+00,5.99947644138378e-01
8.50100000000000e-08,5.99999999999886e-02,0.00000000000000e+00,5.99987901657953e-01
8.50300000000000e-08,1.79999999999966e-01,0.00000000000000e+00,6.00025632859195e-01
8.50700000000000e-08,4.19999999999920e-01,0.00000000000000e+00,5.99988365879951e-01
8.51000000000000e-08,5.99999999999966e-01,0.00000000000000e+00,5.99913115072823e-01
8.51080000000000e-08,6.00000000000000e-01,0.00000000000000e+00,5.99864892632132e-01
8.51240000000000e-08,6.00000000000000e-01,0.00000000000000e+00,5.99804941648318e-01
8.51560000000000e-08,6.00000000000000e-01,0.00000000000000e+00,5.99802480345072e-01
8.52200000000000e-08,6.00000000000000e-01,0.00000000000000e+00,5.99855387478356e-01
8.53480000000000e-08,6.00000000000000e-01,0.00000000000000e+00,5.99879659906928e-01
8.56040000000000e-08,6.00000000000000e-01,0.00000000000000e+00,6.01165852054248e-01
8.61159999999999e-08,6.00000000000000e-01,0.00000000000000e+00,3.75147516710149e-01
8.71399999999999e-08,6.00000000000000e-01,0.00000000000000e+00,-4.17291644864674e-02
8.81644249173201e-08,6.00000000000000e-01,0.00000000000000e+00,2.92755990816516e-02
9.00000000000000e-08,6.00000000000000e-01,0.00000000000000e+00,-1.79018090539528e-02
9.00100000000000e-08,6.00000000000000e-01,5.99999999999886e-02,-1.78519136050953e-02
9.00300000000000e-08,6.00000000000000e-01,1.79999999999966e-01,-1.66681444612786e-02
9.00700000000000e-08,6.00000000000000e-01,4.19999999999920e-01,-1.23243533727309e-02
9.01000000000000e-08,6.00000000000000e-01,5.99999999999966e-01,-9.53676696949579e-03
9.01080000000000e-08,6.00000000000000e-01,6.00000000000000e-01,-8.94350529978147e-03
9.01240000000000e-08,6.00000000000000e-01,6.00000000000000e-01,-7.82314885724095e-03
9.01560000000000e-08,6.00000000000000e-01,6.00000000000000e-01,-5.98868930340303e-03
9.02200000000000e-08,6.00000000000000e-01,6.00000000000000e-01,-3.46788133191225e-03
9.03480000000000e-08,6.00000000000000e-01,6.00000000000000e-01,-1.05858721443151e-03
9.06040000000000e-08,6.00000000000000e-01,6.00000000000000e-01,4.49636617017822e-05
9.11159999999999e-08,6.00000000000000e-01,6.00000000000000e-01,8.14094811988145e-06
9.20627886047573e-08,6.00000000000000e-01,6.00000000000000e-01,2.17811718772627e-05
9.39563658142721e-08,6.00000000000000e-01,6.00000000000000e-01,1.41722240120934e-05
9.51000000000000e-08,6.00000000000000e-01,6.00000000000000e-01,2.01519719436570e-05
9.51100000000000e-08,5.40000000000061e-01,6.00000000000000e-01,-3.74803549830632e-05
9.51300000000000e-08,4.20000000000084e-01,6.00000000000000e-01,-1.33222458714007e-04
9.51700000000000e-08,1.80000000000129e-01,6.00000000000000e-01,-1.40626709771476e-04
9.52000000000000e-08,8.40438829641244e-14,6.00000000000000e-01,9.44472300475271e-05
9.52080000000000e-08,0.00000000000000e+00,6.00000000000000e-01,2.28870207382506e-04
9.52240000000000e-08,0.00000000000000e+00,6.00000000000000e-01,4.06984794840130e-04
9.52560000000000e-08,0.00000000000000e+00,6.00000000000000e-01,4.33395143974009e-04
9.53200000000000e-08,0.00000000000000e+00,6.00000000000000e-01,-2.14155239550477e-04
9.54480000000000e-08,0.00000000000000e+00,6.00000000000000e-01,-1.11591259237474e-03
9.57040000000000e-08,0.00000000000000e+00,6.00000000000000e-01,-3.06571872362882e-04
9.61565136921743e-08,0.00000000000000e+00,6.00000000000000e-01,2.17342913053815e-05
9.68297666828936e-08,0.00000000000000e+00,6.00000000000000e-01,2.82538450149250e-05
9.78313314436229e-08,0.00000000000000e+00,6.00000000000000e-01,1.35671189250583e-04
9.95531177095671e-08,0.00000000000000e+00,6.00000000000000e-01,-1.29746335572641e-04
1.02239270517818e-07,0.00000000000000e+00,6.00000000000000e-01,1.80462241266032e-04
1.05000000000000e-07,0.00000000000000e+00,6.00000000000000e-01,-1.47808669752121e-04
1.05010000000000e-07,5.99999999999886e-02,6.00000000000000e-01,-1.95374229554415e-05
1.05030000000000e-07,1.79999999999966e-01,6.00000000000000e-01,2.01180300653490e-04
1.05070000000000e-07,4.19999999999920e-01,6.00000000000000e-01,4.94702105978274e-04
1.05100000000000e-07,5.99999999999966e-01,6.00000000000000e-01,5.50351682497334e-04
1.05108000000000e-07,6.00000000000000e-01,6.00000000000000e-01,4.77431884128299e-04
1.05124000000000e-07,6.00000000000000e-01,6.00000000000000e-01,3.02567187585645e-04
1.05156000000000e-07,6.00000000000000e-01,6.00000000000000e-01,-2.43976304383588e-04
1.05220000000000e-07,6.00000000000000e-01,6.00000000000000e-01,-1.79448287306559e-03
1.05348000000000e-07,6.00000000000000e-01,6.00000000000000e-01,-4.15068031820108e-03
1.05604000000000e-07,6.00000000000000e-01,6.00000000000000e-01,4.19022944614601e-02
1.06116000000000e-07,6.00000000000000e-01,6.00000000000000e-01,5.31985238015970e-01
1.07140000000000e-07,6.00000000000000e-01,6.00000000000000e-01,6.16674645163043e-01
1.08153131211729e-07,6.00000000000000e-01,6.00000000000000e-01,5.83366727624794e-01
1.10100000000000e-07,6.00000000000000e-01,6.00000000000000e-01,6.15181146598964e-01
1.10110000000000e-07,6.00000000000000e-01,5.40000000000091e-01,6.09079831038665e-01
1.10130000000000e-07,6.00000000000000e-01,4.20000000000114e-01,6.01790866584090e-01
1.10170000000000e-07,6.00000000000000e-01,1.80000000000159e-01,5.99745426240419e-01
1.10200000000000e-07,6.00000000000000e-01,1.13686837721616e-13,5.99959311300106e-01
1.10208000000000e-07,6.00000000000000e-01,0.00000000000000e+00,5.99962920284944e-01
1.10224000000000e-07,6.00000000000000e-01,0.00000000000000e+00,5.99967124910648e-01
1.10256000000000e-07,6.00000000000000e-01,0.00000000000000e+00,5.99949480478264e-01
