Time,v(clk),v(data),v(out),v(reset)
1.00000000000000e-08,6.00000000000000e-01,0.00000000000000e+00,1.08518564999896e-04,0.00000000000000e+00
1.00100000000000e-08,6.00000000000000e-01,5.99999999999986e-02,1.20184040583143e-04,0.00000000000000e+00
1.00300000000000e-08,6.00000000000000e-01,1.79999999999996e-01,1.38571440108134e-04,0.00000000000000e+00
1.00700000000000e-08,6.00000000000000e-01,4.19999999999990e-01,1.48082335881691e-04,0.00000000000000e+00
1.01000000000000e-08,6.00000000000000e-01,5.99999999999995e-01,1.25269204809139e-04,0.00000000000000e+00
1.01080000000000e-08,6.00000000000000e-01,6.00000000000000e-01,1.12617387481320e-04,0.00000000000000e+00
1.01240000000000e-08,6.00000000000000e-01,6.00000000000000e-01,9.34804425381658e-05,0.00000000000000e+00
1.01560000000000e-08,6.00000000000000e-01,6.00000000000000e-01,7.14572282978637e-05,0.00000000000000e+00
1.02200000000000e-08,6.00000000000000e-01,6.00000000000000e-01,6.40545131945225e-05,0.00000000000000e+00
1.03480000000000e-08,6.00000000000000e-01,6.00000000000000e-01,9.28529266561451e-05,0.00000000000000e+00
1.06040000000000e-08,6.00000000000000e-01,6.00000000000000e-01,1.12533905985715e-04,0.00000000000000e+00
1.11160000000000e-08,6.00000000000000e-01,6.00000000000000e-01,9.22082288406095e-05,0.00000000000000e+00
1.21400000000000e-08,6.00000000000000e-01,6.00000000000000e-01,8.76878852336324e-05,0.00000000000000e+00
1.41880000000000e-08,6.00000000000000e-01,6.00000000000000e-01,8.30728754944617e-05,0.00000000000000e+00
1.51000000000000e-08,6.00000000000000e-01,6.00000000000000e-01,7.92757015685985e-05,0.00000000000000e+00
1.51100000000000e-08,5.39999999999992e-01,6.00000000000000e-01,1.05700616741450e-03,6.00000000000085e-02
1.51300000000000e-08,4.19999999999994e-01,6.00000000000000e-01,2.58533579013530e-03,1.80000000000006e-01
1.51700000000000e-08,1.80000000000000e-01,6.00000000000000e-01,4.15987985011451e-03,4.20000000000000e-01
1.52000000000000e-08,0.00000000000000e+00,6.00000000000000e-01,3.79810376670887e-03,6.00000000000000e-01
1.52080000000000e-08,0.00000000000000e+00,6.00000000000000e-01,3.40520603413584e-03,6.00000000000000e-01
1.52240000000000e-08,0.00000000000000e+00,6.00000000000000e-01,2.71083819062505e-03,6.00000000000000e-01
1.52560000000000e-08,0.00000000000000e+00,6.00000000000000e-01,1.70284237231567e-03,6.00000000000000e-01
1.53200000000000e-08,0.00000000000000e+00,6.00000000000000e-01,6.34084147740188e-04,6.00000000000000e-01
1.54480000000000e-08,0.00000000000000e+00,6.00000000000000e-01,1.89646188065898e-04,6.00000000000000e-01
1.57040000000000e-08,0.00000000000000e+00,6.00000000000000e-01,4.13709382862129e-04,6.00000000000000e-01
1.62160000000000e-08,0.00000000000000e+00,6.00000000000000e-01,-4.74117795705421e-04,6.00000000000000e-01
1.71832287127157e-08,0.00000000000000e+00,6.00000000000000e-01,2.52745710570615e-05,6.00000000000000e-01
1.88023489200499e-08,0.00000000000000e+00,6.00000000000000e-01,-1.08037909680097e-04,6.00000000000000e-01
2.06976690713768e-08,0.00000000000000e+00,6.00000000000000e-01,3.03565812567404e-04,6.00000000000000e-01
2.42494706411691e-08,0.00000000000000e+00,6.00000000000000e-01,-8.92415323759110e-05,6.00000000000000e-01
2.50000000000000e-08,0.00000000000000e+00,6.00000000000000e-01,3.64817639750270e-06,6.00000000000000e-01
2.50100000000000e-08,5.99999999999886e-02,6.00000000000000e-01,5.04793561614064e-04,6.00000000000000e-01
2.50300000000000e-08,1.80000000000006e-01,6.00000000000000e-01,1.47591032735347e-03,6.00000000000000e-01
2.50700000000000e-08,4.20000000000000e-01,6.00000000000000e-01,3.11088431846755e-03,6.00000000000000e-01
2.51000000000000e-08,6.00000000000000e-01,6.00000000000000e-01,3.67512270247720e-03,6.00000000000000e-01
2.51080000000000e-08,6.00000000000000e-01,6.00000000000000e-01,3.45112445276234e-03,6.00000000000000e-01
2.51240000000000e-08,6.00000000000000e-01,6.00000000000000e-01,3.00286507596806e-03,6.00000000000000e-01
2.51560000000000e-08,6.00000000000000e-01,6.00000000000000e-01,2.11132568538618e-03,6.00000000000000e-01
2.52200000000000e-08,6.00000000000000e-01,6.00000000000000e-01,1.59275620471896e-04,6.00000000000000e-01
2.53480000000000e-08,6.00000000000000e-01,6.00000000000000e-01,-3.70590871274126e-03,6.00000000000000e-01
2.56040000000000e-08,6.00000000000000e-01,6.00000000000000e-01,-7.64649024331748e-03,6.00000000000000e-01
2.61160000000000e-08,6.00000000000000e-01,6.00000000000000e-01,3.36294865168292e-02,6.00000000000000e-01
2.71400000000000e-08,6.00000000000000e-01,6.00000000000000e-01,4.63542589188586e-01,6.00000000000000e-01
2.73960000000000e-08,6.00000000000000e-01,6.00000000000000e-01,5.45509261292591e-01,6.00000000000000e-01
2.79080000000000e-08,6.00000000000000e-01,6.00000000000000e-01,5.96337005480018e-01,6.00000000000000e-01
2.89320000000000e-08,6.00000000000000e-01,6.00000000000000e-01,5.97614383678301e-01,6.00000000000000e-01
3.09076828737409e-08,6.00000000000000e-01,6.00000000000000e-01,6.02007779175522e-01,6.00000000000000e-01
3.35181794043674e-08,6.00000000000000e-01,6.00000000000000e-01,5.98167225308828e-01,6.00000000000000e-01
3.51000000000000e-08,5.99999999999970e-01,6.00000000000000e-01,6.01415918611691e-01,6.00000000000000e-01
3.51100000000000e-08,5.39999999999982e-01,6.00000000000000e-01,6.01093409064736e-01,6.00000000000000e-01
3.51300000000000e-08,4.19999999999965e-01,6.00000000000000e-01,6.00464468098553e-01,6.00000000000000e-01
3.51700000000000e-08,1.79999999999970e-01,6.00000000000000e-01,5.99962052846626e-01,6.00000000000000e-01
3.52000000000000e-08,0.00000000000000e+00,6.00000000000000e-01,6.00825582862483e-01,6.00000000000000e-01
3.52080000000000e-08,0.00000000000000e+00,6.00000000000000e-01,6.01328198648014e-01,6.00000000000000e-01
3.52240000000000e-08,0.00000000000000e+00,6.00000000000000e-01,6.02259840787967e-01,6.00000000000000e-01
3.52560000000000e-08,0.00000000000000e+00,6.00000000000000e-01,6.03735140037717e-01,6.00000000000000e-01
3.53200000000000e-08,0.00000000000000e+00,6.00000000000000e-01,6.05512947152716e-01,6.00000000000000e-01
3.54480000000000e-08,0.00000000000000e+00,6.00000000000000e-01,6.06694657809849e-01,6.00000000000000e-01
3.57040000000000e-08,0.00000000000000e+00,6.00000000000000e-01,6.03496350629040e-01,6.00000000000000e-01
3.62160000000000e-08,0.00000000000000e+00,6.00000000000000e-01,5.89341876582781e-01,6.00000000000000e-01
3.72400000000000e-08,0.00000000000000e+00,6.00000000000000e-01,5.91104847727113e-01,6.00000000000000e-01
3.90763996949543e-08,0.00000000000000e+00,6.00000000000000e-01,6.04186590848625e-01,6.00000000000000e-01
4.15348144143485e-08,0.00000000000000e+00,6.00000000000000e-01,5.96337650109367e-01,6.00000000000000e-01
4.50000000000000e-08,0.00000000000000e+00,6.00000000000000e-01,6.02540304321408e-01,6.00000000000000e-01
4.50100000000000e-08,5.99999999999886e-02,6.00000000000000e-01,6.02307149411809e-01,5.40000000000011e-01
4.50300000000000e-08,1.80000000000006e-01,6.00000000000000e-01,6.01681013773388e-01,4.19999999999994e-01
4.50700000000000e-08,4.20000000000000e-01,6.00000000000000e-01,6.01546542875578e-01,1.80000000000000e-01
4.51000000000000e-08,6.00000000000000e-01,6.00000000000000e-01,6.04000272692413e-01,0.00000000000000e+00
4.51080000000000e-08,6.00000000000000e-01,6.00000000000000e-01,6.05317373590947e-01,0.00000000000000e+00
4.51240000000000e-08,6.00000000000000e-01,6.00000000000000e-01,6.07812486471018e-01,0.00000000000000e+00
4.51560000000000e-08,6.00000000000000e-01,6.00000000000000e-01,6.12035050574872e-01,0.00000000000000e+00
4.52200000000000e-08,6.00000000000000e-01,6.00000000000000e-01,6.18413307690907e-01,0.00000000000000e+00
4.53480000000000e-08,6.00000000000000e-01,6.00000000000000e-01,6.27740236916015e-01,0.00000000000000e+00
4.56040000000000e-08,6.00000000000000e-01,6.00000000000000e-01,6.40878313210414e-01,0.00000000000000e+00
4.61160000000000e-08,6.00000000000000e-01,6.00000000000000e-01,3.75065246173456e-01,0.00000000000000e+00
4.71400000000000e-08,6.00000000000000e-01,6.00000000000000e-01,-1.96167829903794e-02,0.00000000000000e+00
4.84259081682292e-08,6.00000000000000e-01,6.00000000000000e-01,1.18777040337036e-02,0.00000000000000e+00
5.01000000000000e-08,6.00000000000000e-01,5.99999999999966e-01,-7.78824759858443e-03,0.00000000000000e+00
5.03270484956416e-08,6.00000000000000e-01,6.00000000000000e-01,-2.87455973243640e-03,0.00000000000000e+00
5.07811454869248e-08,6.00000000000000e-01,6.00000000000000e-01,4.74550375256733e-04,0.00000000000000e+00
5.16893394694911e-08,6.00000000000000e-01,6.00000000000000e-01,-1.76116472140816e-04,0.00000000000000e+00
5.35057274346239e-08,6.00000000000000e-01,6.00000000000000e-01,2.51153522435051e-04,0.00000000000000e+00
5.51000000000000e-08,6.00000000000000e-01,6.00000000000000e-01,-8.74307061431469e-05,0.00000000000000e+00
5.51100000000000e-08,5.40000000000021e-01,6.00000000000000e-01,9.46453137421185e-04,5.99999999999787e-02
5.51300000000000e-08,4.20000000000004e-01,6.00000000000000e-01,2.49097671549860e-03,1.79999999999996e-01
5.51700000000000e-08,1.80000000000010e-01,6.00000000000000e-01,4.10726393621090e-03,4.19999999999990e-01
5.52000000000000e-08,0.00000000000000e+00,6.00000000000000e-01,3.71857763575371e-03,6.00000000000000e-01
5.52080000000000e-08,0.00000000000000e+00,6.00000000000000e-01,3.31060850261286e-03,6.00000000000000e-01
5.52240000000000e-08,0.00000000000000e+00,6.00000000000000e-01,2.59978389527868e-03,6.00000000000000e-01
5.52560000000000e-08,0.00000000000000e+00,6.00000000000000e-01,1.56339013347651e-03,6.00000000000000e-01
5.53200000000000e-08,0.00000000000000e+00,6.00000000000000e-01,4.36240897477541e-04,6.00000000000000e-01
5.54480000000000e-08,0.00000000000000e+00,6.00000000000000e-01,-1.78271167864910e-04,6.00000000000000e-01
5.57040000000000e-08,0.00000000000000e+00,6.00000000000000e-01,-7.75386074840470e-04,6.00000000000000e-01
5.62160000000000e-08,0.00000000000000e+00,6.00000000000000e-01,-1.54546423209784e-03,6.00000000000000e-01
5.70601532479341e-08,0.00000000000000e+00,6.00000000000000e-01,3.35164750971617e-04,6.00000000000000e-01
5.85604387511623e-08,0.00000000000000e+00,6.00000000000000e-01,-1.51165335716158e-04,6.00000000000000e-01
6.06095205074157e-08,0.00000000000000e+00,6.00000000000000e-01,1.23492201911986e-04,6.00000000000000e-01
6.36824019103657e-08,0.00000000000000e+00,6.00000000000000e-01,1.00011447947877e-04,6.00000000000000e-01
6.50000000000000e-08,0.00000000000000e+00,6.00000000000000e-01,-7.37515470014966e-05,6.00000000000000e-01
6.50100000000000e-08,5.99999999999886e-02,6.00000000000000e-01,4.33280609572428e-04,6.00000000000000e-01
6.50300000000000e-08,1.79999999999966e-01,6.00000000000000e-01,1.41822925474556e-03,6.00000000000000e-01
6.50700000000000e-08,4.19999999999920e-01,6.00000000000000e-01,3.07133124238465e-03,6.00000000000000e-01
6.51000000000000e-08,5.99999999999966e-01,6.00000000000000e-01,3.63379516059653e-03,6.00000000000000e-01
6.51080000000000e-08,6.00000000000000e-01,6.00000000000000e-01,3.40499635920301e-03,6.00000000000000e-01
6.51240000000000e-08,6.00000000000000e-01,6.00000000000000e-01,2.94519790771455e-03,6.00000000000000e-01
6.51560000000000e-08,6.00000000000000e-01,6.00000000000000e-01,1.98175096097906e-03,6.00000000000000e-01
6.52200000000000e-08,6.00000000000000e-01,6.00000000000000e-01,-1.16391612740407e-04,6.00000000000000e-01
6.53480000000000e-08,6.00000000000000e-01,6.00000000000000e-01,-4.01629494060332e-03,6.00000000000000e-01
6.56040000000000e-08,6.00000000000000e-01,6.00000000000000e-01,-7.60096837781055e-03,6.00000000000000e-01
6.61159999999999e-08,6.00000000000000e-01,6.00000000000000e-01,3.66096928677361e-02,6.00000000000000e-01
6.71399999999999e-08,6.00000000000000e-01,6.00000000000000e-01,4.67109234007037e-01,6.00000000000000e-01
6.73959999999999e-08,6.00000000000000e-01,6.00000000000000e-01,5.47017755991098e-01,6.00000000000000e-01
6.79079999999998e-08,6.00000000000000e-01,6.00000000000000e-01,5.96484663116475e-01,6.00000000000000e-01
6.89319999999998e-08,6.00000000000000e-01,6.00000000000000e-01,5.97630631522311e-01,6.00000000000000e-01
7.09072246743475e-08,6.00000000000000e-01,6.00000000000000e-01,6.01998041491068e-01,6.00000000000000e-01
7.35258801944294e-08,6.00000000000000e-01,6.00000000000000e-01,5.98174137696338e-01,6.00000000000000e-01
7.51000000000000e-08,6.00000000000000e-01,6.00000000000000e-01,6.01409126972585e-01,6.00000000000000e-01
7.51100000000000e-08,5.40000000000061e-01,6.00000000000000e-01,6.01087854458440e-01,6.00000000000000e-01
7.51300000000000e-08,4.20000000000084e-01,6.00000000000000e-01,6.00461976905263e-01,6.00000000000000e-01
7.51700000000000e-08,1.80000000000129e-01,6.00000000000000e-01,5.99960198991607e-01,6.00000000000000e-01
7.52000000000000e-08,8.40438829641244e-14,6.00000000000000e-01,6.00824663190356e-01,6.00000000000000e-01
7.52080000000000e-08,0.00000000000000e+00,6.00000000000000e-01,6.01327877619499e-01,6.00000000000000e-01
7.52240000000000e-08,0.00000000000000e+00,6.00000000000000e-01,6.02260656737401e-01,6.00000000000000e-01
7.52560000000000e-08,0.00000000000000e+00,6.00000000000000e-01,6.03735649753190e-01,6.00000000000000e-01
7.53200000000000e-08,0.00000000000000e+00,6.00000000000000e-01,6.05513186315733e-01,6.00000000000000e-01
7.54480000000000e-08,0.00000000000000e+00,6.00000000000000e-01,6.06694884254487e-01,6.00000000000000e-01
7.57040000000000e-08,0.00000000000000e+00,6.00000000000000e-01,6.03497755274810e-01,6.00000000000000e-01
7.62159999999999e-08,0.00000000000000e+00,6.00000000000000e-01,5.89343969387977e-01,6.00000000000000e-01
7.72399999999999e-08,0.00000000000000e+00,6.00000000000000e-01,5.91104413143013e-01,6.00000000000000e-01
7.90766996422147e-08,0.00000000000000e+00,6.00000000000000e-01,6.04186430287587e-01,6.00000000000000e-01
8.15351631714802e-08,0.00000000000000e+00,6.00000000000000e-01,5.96337963752937e-01,6.00000000000000e-01
8.50000000000000e-08,0.00000000000000e+00,6.00000000000000e-01,6.02540025812713e-01,6.00000000000000e-01
8.50100000000000e-08,5.99999999999886e-02,6.00000000000000e-01,6.02306903923979e-01,5.40000000000011e-01
8.50300000000000e-08,1.79999999999966e-01,6.00000000000000e-01,6.01680788414878e-01,4.20000000000034e-01
8.50700000000000e-08,4.19999999999920e-01,6.00000000000000e-01,6.01546353354053e-01,1.80000000000080e-01
8.51000000000000e-08,5.99999999999966e-01,6.00000000000000e-01,6.04000005721598e-01,3.44169137633799e-14
8.51080000000000e-08,6.00000000000000e-01,6.00000000000000e-01,6.05317062412849e-01,0.00000000000000e+00
8.51240000000000e-08,6.00000000000000e-01,6.00000000000000e-01,6.07812095924886e-01,0.00000000000000e+00
8.51560000000000e-08,6.00000000000000e-01,6.00000000000000e-01,6.12034560808400e-01,0.00000000000000e+00
8.52200000000000e-08,6.00000000000000e-01,6.00000000000000e-01,6.18412764401062e-01,0.00000000000000e+00
8.53480000000000e-08,6.00000000000000e-01,6.00000000000000e-01,6.27739818496143e-01,0.00000000000000e+00
8.56040000000000e-08,6.00000000000000e-01,6.00000000000000e-01,6.40878971786947e-01,0.00000000000000e+00
8.61159999999999e-08,6.00000000000000e-01,6.00000000000000e-01,3.75064734755707e-01,0.00000000000000e+00
8.71399999999999e-08,6.00000000000000e-01,6.00000000000000e-01,-1.96177775524852e-02,0.00000000000000e+00
8.84258855446720e-08,6.00000000000000e-01,6.00000000000000e-01,1.18785087384790e-02,0.00000000000000e+00
9.01000000000000e-08,6.00000000000000e-01,5.99999999999966e-01,-7.78890617657934e-03,0.00000000000000e+00
9.03270520669512e-08,6.00000000000000e-01,6.00000000000000e-01,-2.87464134435105e-03,0.00000000000000e+00
9.07811562008536e-08,6.00000000000000e-01,6.00000000000000e-01,4.74636909244798e-04,0.00000000000000e+00
9.16893644686584e-08,6.00000000000000e-01,6.00000000000000e-01,-1.76184847629775e-04,0.00000000000000e+00
9.35057810042681e-08,6.00000000000000e-01,6.00000000000000e-01,2.51214045480442e-04,0.00000000000000e+00
9.51000000000000e-08,6.00000000000000e-01,6.00000000000000e-01,-8.74834396831364e-05,0.00000000000000e+00
9.51100000000000e-08,5.40000000000061e-01,6.00000000000000e-01,9.46404747296514e-04,5.99999999999390e-02
9.51300000000000e-08,4.20000000000084e-01,6.00000000000000e-01,2.49094304972458e-03,1.79999999999916e-01
9.51700000000000e-08,1.80000000000129e-01,6.00000000000000e-01,4.10724582467312e-03,4.19999999999871e-01
9.52000000000000e-08,8.40438829641244e-14,6.00000000000000e-01,3.71856462186657e-03,5.99999999999916e-01
9.52080000000000e-08,0.00000000000000e+00,6.00000000000000e-01,3.31059650527162e-03,6.00000000000000e-01
9.52240000000000e-08,0.00000000000000e+00,6.00000000000000e-01,2.59977434307371e-03,6.00000000000000e-01
9.52560000000000e-08,0.00000000000000e+00,6.00000000000000e-01,1.56338688485896e-03,6.00000000000000e-01
9.53200000000000e-08,0.00000000000000e+00,6.00000000000000e-01,4.36246301620202e-04,6.00000000000000e-01
9.54480000000000e-08,0.00000000000000e+00,6.00000000000000e-01,-1.78271287169268e-04,6.00000000000000e-01
9.57040000000000e-08,0.00000000000000e+00,6.00000000000000e-01,-7.75426260868045e-04,6.00000000000000e-01
9.62159999999999e-08,0.00000000000000e+00,6.00000000000000e-01,-1.54566340053992e-03,6.00000000000000e-01
9.70603121119628e-08,0.00000000000000e+00,6.00000000000000e-01,3.35412860515909e-04,6.00000000000000e-01
9.85607801174572e-08,0.00000000000000e+00,6.00000000000000e-01,-1.51424611153066e-04,6.00000000000000e-01
1.00609548149035e-07,0.00000000000000e+00,6.00000000000000e-01,1.23735494849179e-04,6.00000000000000e-01
1.03683103993201e-07,0.00000000000000e+00,6.00000000000000e-01,9.97613194150641e-05,6.00000000000000e-01
1.05000000000000e-07,0.00000000000000e+00,6.00000000000000e-01,-7.36610140008136e-05,6.00000000000000e-01
1.05010000000000e-07,5.99999999999886e-02,6.00000000000000e-01,4.33373089152117e-04,6.00000000000000e-01
1.05030000000000e-07,1.79999999999966e-01,6.00000000000000e-01,1.41832305383650e-03,6.00000000000000e-01
1.05070000000000e-07,4.19999999999920e-01,6.00000000000000e-01,3.07142406580407e-03,6.00000000000000e-01
1.05100000000000e-07,5.99999999999966e-01,6.00000000000000e-01,3.63389107565398e-03,6.00000000000000e-01
1.05108000000000e-07,6.00000000000000e-01,6.00000000000000e-01,3.40509394860744e-03,6.00000000000000e-01
1.05124000000000e-07,6.00000000000000e-01,6.00000000000000e-01,2.94530087848224e-03,6.00000000000000e-01
1.05156000000000e-07,6.00000000000000e-01,6.00000000000000e-01,1.98187424964794e-03,6.00000000000000e-01
1.05220000000000e-07,6.00000000000000e-01,6.00000000000000e-01,-1.16234493159464e-04,6.00000000000000e-01
1.05348000000000e-07,6.00000000000000e-01,6.00000000000000e-01,-4.01615196542053e-03,6.00000000000000e-01
1.05604000000000e-07,6.00000000000000e-01,6.00000000000000e-01,-7.60099045187879e-03,6.00000000000000e-01
1.06116000000000e-07,6.00000000000000e-01,6.00000000000000e-01,3.66083520258885e-02,6.00000000000000e-01
1.07140000000000e-07,6.00000000000000e-01,6.00000000000000e-01,4.67107665017813e-01,6.00000000000000e-01
1.07396000000000e-07,6.00000000000000e-01,6.00000000000000e-01,5.47017100325358e-01,6.00000000000000e-01
1.07908000000000e-07,6.00000000000000e-01,6.00000000000000e-01,5.96484600636072e-01,6.00000000000000e-01
1.08932000000000e-07,6.00000000000000e-01,6.00000000000000e-01,5.97630623612818e-01,6.00000000000000e-01
1.10907224294867e-07,6.00000000000000e-01,6.00000000000000e-01,6.01998046398457e-01,6.00000000000000e-01
1.13525876139907e-07,6.00000000000000e-01,6.00000000000000e-01,5.98174134099048e-01,6.00000000000000e-01
1.15100000000000e-07,6.00000000000000e-01,6.00000000000000e-01,6.01409130540194e-01,6.00000000000000e-01
1.15110000000000e-07,5.40000000000061e-01,6.00000000000000e-01,6.01087857397733e-01,6.00000000000000e-01
1.15130000000000e-07,4.20000000000084e-01,6.00000000000000e-01,6.00461978396793e-01,6.00000000000000e-01
1.15170000000000e-07,1.80000000000129e-01,6.00000000000000e-01,5.99960200048045e-01,6.00000000000000e-01
1.15200000000000e-07,8.40438829641244e-14,6.00000000000000e-01,6.00824663812673e-01,6.00000000000000e-01
