Time,v(clk),v(data),v(out)
1.00000000000000e-08,6.00000000000000e-01,0.00000000000000e+00,-6.63963097029610e-06
1.00100000000000e-08,6.00000000000000e-01,5.99999999999986e-02,-1.07427043752328e-06
1.00300000000000e-08,6.00000000000000e-01,1.79999999999996e-01,5.86188731900583e-06
1.00700000000000e-08,6.00000000000000e-01,4.19999999999990e-01,-1.95931863371246e-06
1.01000000000000e-08,6.00000000000000e-01,5.99999999999995e-01,-3.80892749137773e-05
1.01080000000000e-08,6.00000000000000e-01,6.00000000000000e-01,-4.68801986464595e-05
1.01240000000000e-08,6.00000000000000e-01,6.00000000000000e-01,-5.48445575878076e-05
1.01560000000000e-08,6.00000000000000e-01,6.00000000000000e-01,-5.09697871259041e-05
1.02200000000000e-08,6.00000000000000e-01,6.00000000000000e-01,-1.97768588555969e-05
1.03480000000000e-08,6.00000000000000e-01,6.00000000000000e-01,1.26066862318336e-05
1.06040000000000e-08,6.00000000000000e-01,6.00000000000000e-01,3.60243521809606e-06
1.11081995583727e-08,6.00000000000000e-01,6.00000000000000e-01,-1.85549046642641e-06
1.21165986751180e-08,6.00000000000000e-01,6.00000000000000e-01,5.08849690013247e-06
1.41333969086088e-08,6.00000000000000e-01,6.00000000000000e-01,-9.39034744363784e-07
1.51000000000000e-08,6.00000000000000e-01,6.00000000000000e-01,3.88547748427989e-06
1.51100000000000e-08,5.39999999999992e-01,6.00000000000000e-01,-1.28852321469655e-04
1.51300000000000e-08,4.19999999999994e-01,6.00000000000000e-01,-3.80435695507511e-04
1.51700000000000e-08,1.80000000000000e-01,6.00000000000000e-01,-8.21353950293147e-04
1.52000000000000e-08,0.00000000000000e+00,6.00000000000000e-01,-5.71058876211478e-04
1.52080000000000e-08,0.00000000000000e+00,6.00000000000000e-01,-2.03463462005574e-04
1.52240000000000e-08,0.00000000000000e+00,6.00000000000000e-01,4.05419994366829e-04
1.52560000000000e-08,0.00000000000000e+00,6.00000000000000e-01,1.00675953053581e-03
1.53200000000000e-08,0.00000000000000e+00,6.00000000000000e-01,1.16948387865251e-03
1.54480000000000e-08,0.00000000000000e+00,6.00000000000000e-01,6.44256144487640e-04
1.57040000000000e-08,0.00000000000000e+00,6.00000000000000e-01,-7.82895465687689e-04
1.62160000000000e-08,0.00000000000000e+00,6.00000000000000e-01,1.73559965882149e-04
1.71451176416756e-08,0.00000000000000e+00,6.00000000000000e-01,-2.16045622037631e-04
1.82556093946274e-08,0.00000000000000e+00,6.00000000000000e-01,1.92289891430580e-04
2.04765929005309e-08,0.00000000000000e+00,6.00000000000000e-01,-1.28063443370135e-04
2.26292738330329e-08,0.00000000000000e+00,6.00000000000000e-01,7.92181926950273e-05
2.50000000000000e-08,0.00000000000000e+00,6.00000000000000e-01,-4.35373960388698e-05
2.50100000000000e-08,5.99999999999886e-02,6.00000000000000e-01,3.26522384929889e-04
2.50300000000000e-08,1.80000000000006e-01,6.00000000000000e-01,9.71916141237608e-04
2.50700000000000e-08,4.20000000000000e-01,6.00000000000000e-01,1.84193468053769e-03
2.51000000000000e-08,6.00000000000000e-01,6.00000000000000e-01,1.75151752183027e-03
2.51080000000000e-08,6.00000000000000e-01,6.00000000000000e-01,1.50648374961357e-03
2.51240000000000e-08,6.00000000000000e-01,6.00000000000000e-01,9.60239898456575e-04
2.51560000000000e-08,6.00000000000000e-01,6.00000000000000e-01,-3.78054885054713e-04
2.52200000000000e-08,6.00000000000000e-01,6.00000000000000e-01,-2.95019900091696e-03
2.53480000000000e-08,6.00000000000000e-01,6.00000000000000e-01,-5.84714412765791e-03
2.56040000000000e-08,6.00000000000000e-01,6.00000000000000e-01,7.52061036401819e-03
2.61160000000000e-08,6.00000000000000e-01,6.00000000000000e-01,3.82759886522861e-01
2.71400000000000e-08,6.00000000000000e-01,6.00000000000000e-01,6.22701668105585e-01
2.80870339605015e-08,6.00000000000000e-01,6.00000000000000e-01,5.81258479232958e-01
2.99811018815046e-08,6.00000000000000e-01,6.00000000000000e-01,6.17498921607090e-01
3.22548405792328e-08,6.00000000000000e-01,6.00000000000000e-01,5.83457981903648e-01
3.51000000000000e-08,5.99999999999970e-01,6.00000000000000e-01,6.15453498370334e-01
3.51100000000000e-08,5.39999999999982e-01,6.00000000000000e-01,6.11995837617673e-01
3.51300000000000e-08,4.19999999999965e-01,6.00000000000000e-01,6.06555191669099e-01
3.51700000000000e-08,1.79999999999970e-01,6.00000000000000e-01,6.01880548097929e-01
3.52000000000000e-08,0.00000000000000e+00,6.00000000000000e-01,6.02512222084997e-01
3.52080000000000e-08,0.00000000000000e+00,6.00000000000000e-01,6.03157321232814e-01
3.52240000000000e-08,0.00000000000000e+00,6.00000000000000e-01,6.04182463432474e-01
3.52560000000000e-08,0.00000000000000e+00,6.00000000000000e-01,6.05336267164269e-01
3.53200000000000e-08,0.00000000000000e+00,6.00000000000000e-01,6.06049283566432e-01
3.54480000000000e-08,0.00000000000000e+00,6.00000000000000e-01,6.02474315728179e-01
3.57040000000000e-08,0.00000000000000e+00,6.00000000000000e-01,5.85971269683231e-01
3.62160000000000e-08,0.00000000000000e+00,6.00000000000000e-01,5.93038008096069e-01
3.72400000000000e-08,0.00000000000000e+00,6.00000000000000e-01,6.04231006972774e-01
3.84858648664765e-08,0.00000000000000e+00,6.00000000000000e-01,5.96368099173486e-01
4.07044610136265e-08,0.00000000000000e+00,6.00000000000000e-01,6.02825123478729e-01
4.45044610136265e-08,0.00000000000000e+00,6.00000000000000e-01,5.97196284573605e-01
4.50000000000000e-08,0.00000000000000e+00,6.00000000000000e-01,6.01321581281810e-01
4.50100000000000e-08,5.99999999999886e-02,6.00000000000000e-01,6.01433664768761e-01
4.50300000000000e-08,1.80000000000006e-01,6.00000000000000e-01,6.01600719204538e-01
4.50700000000000e-08,4.20000000000000e-01,6.00000000000000e-01,6.01713890495741e-01
4.51000000000000e-08,6.00000000000000e-01,6.00000000000000e-01,6.01277294310971e-01
4.51080000000000e-08,6.00000000000000e-01,5.52000000000025e-01,6.00989117274189e-01
4.51240000000000e-08,6.00000000000000e-01,4.55999999999996e-01,6.00400446228255e-01
4.51560000000000e-08,6.00000000000000e-01,2.64000000000016e-01,5.99318449932767e-01
4.52000000000000e-08,6.00000000000000e-01,3.44169137633799e-14,5.98182784066220e-01
4.52064000000000e-08,6.00000000000000e-01,0.00000000000000e+00,5.98069212860155e-01
4.52192000000000e-08,6.00000000000000e-01,0.00000000000000e+00,5.97849902936497e-01
4.52448000000000e-08,6.00000000000000e-01,0.00000000000000e+00,5.97479654624300e-01
4.52960000000000e-08,6.00000000000000e-01,0.00000000000000e+00,5.96952180793663e-01
4.53984000000000e-08,6.00000000000000e-01,0.00000000000000e+00,5.96242367950137e-01
4.56032000000000e-08,6.00000000000000e-01,0.00000000000000e+00,5.95620604692238e-01
4.60128000000000e-08,6.00000000000000e-01,0.00000000000000e+00,5.97714548069109e-01
4.65161660421357e-08,6.00000000000000e-01,0.00000000000000e+00,5.99672099788330e-01
4.75228981264069e-08,6.00000000000000e-01,0.00000000000000e+00,5.99931151103728e-01
4.86657611027258e-08,6.00000000000000e-01,0.00000000000000e+00,6.00131903959717e-01
5.09514870553637e-08,6.00000000000000e-01,0.00000000000000e+00,5.99863737334188e-01
5.47514870553637e-08,6.00000000000000e-01,0.00000000000000e+00,6.00136373247594e-01
5.51000000000000e-08,6.00000000000000e-01,0.00000000000000e+00,5.99901555477531e-01
5.51100000000000e-08,5.40000000000021e-01,0.00000000000000e+00,5.99737658927134e-01
5.51300000000000e-08,4.20000000000004e-01,0.00000000000000e+00,5.99479649981017e-01
5.51700000000000e-08,1.80000000000010e-01,0.00000000000000e+00,5.99721084021067e-01
5.52000000000000e-08,0.00000000000000e+00,0.00000000000000e+00,6.01626041605329e-01
5.52080000000000e-08,0.00000000000000e+00,0.00000000000000e+00,6.02464061001466e-01
5.52240000000000e-08,0.00000000000000e+00,0.00000000000000e+00,6.03809884139328e-01
5.52560000000000e-08,0.00000000000000e+00,0.00000000000000e+00,6.05309767487149e-01
5.53200000000000e-08,0.00000000000000e+00,0.00000000000000e+00,6.06671425124730e-01
5.54480000000000e-08,0.00000000000000e+00,0.00000000000000e+00,6.08314557322856e-01
5.57040000000000e-08,0.00000000000000e+00,0.00000000000000e+00,6.04155158902163e-01
5.62160000000000e-08,0.00000000000000e+00,0.00000000000000e+00,5.98484470496694e-01
5.69057172329633e-08,0.00000000000000e+00,0.00000000000000e+00,6.00750089166467e-01
5.80026280194054e-08,0.00000000000000e+00,0.00000000000000e+00,5.99298415914781e-01
5.95238895837427e-08,0.00000000000000e+00,0.00000000000000e+00,6.00408049672774e-01
6.25664127124171e-08,0.00000000000000e+00,0.00000000000000e+00,5.99508755413019e-01
6.50000000000000e-08,0.00000000000000e+00,0.00000000000000e+00,6.00310814678797e-01
6.50100000000000e-08,5.99999999999886e-02,0.00000000000000e+00,6.00534713932988e-01
6.50300000000000e-08,1.79999999999966e-01,0.00000000000000e+00,6.00875046294113e-01
6.50700000000000e-08,4.19999999999920e-01,0.00000000000000e+00,6.01070277259167e-01
6.51000000000000e-08,5.99999999999966e-01,0.00000000000000e+00,6.00655537589302e-01
6.51080000000000e-08,6.00000000000000e-01,0.00000000000000e+00,6.00429742362348e-01
6.51240000000000e-08,6.00000000000000e-01,0.00000000000000e+00,6.00042565190239e-01
6.51560000000000e-08,6.00000000000000e-01,0.00000000000000e+00,5.99592762777827e-01
6.52200000000000e-08,6.00000000000000e-01,0.00000000000000e+00,5.99221878979562e-01
6.53480000000000e-08,6.00000000000000e-01,0.00000000000000e+00,5.99394583249554e-01
6.56040000000000e-08,6.00000000000000e-01,0.00000000000000e+00,6.02029116438002e-01
6.61159999999999e-08,6.00000000000000e-01,0.00000000000000e+00,5.74562539573440e-01
6.71399999999999e-08,6.00000000000000e-01,0.00000000000000e+00,5.52431834073989e-02
6.81531649470673e-08,6.00000000000000e-01,0.00000000000000e+00,-3.39622468571709e-02
7.01696561807609e-08,6.00000000000000e-01,0.00000000000000e+00,3.02796092101217e-02
7.25438557537060e-08,6.00000000000000e-01,0.00000000000000e+00,-2.46300993914031e-02
7.51000000000000e-08,6.00000000000000e-01,0.00000000000000e+00,2.25252821843843e-02
7.51100000000000e-08,5.40000000000061e-01,0.00000000000000e+00,1.92891644399747e-02
7.51300000000000e-08,4.20000000000084e-01,0.00000000000000e+00,1.42586153811495e-02
7.51700000000000e-08,1.80000000000129e-01,0.00000000000000e+00,8.37615259357784e-03
7.52000000000000e-08,8.40438829641244e-14,0.00000000000000e+00,6.13285616453364e-03
7.52080000000000e-08,0.00000000000000e+00,0.00000000000000e+00,5.98536258420693e-03
7.52240000000000e-08,0.00000000000000e+00,0.00000000000000e+00,5.66259740414779e-03
7.52560000000000e-08,0.00000000000000e+00,0.00000000000000e+00,4.80733956683144e-03
7.53200000000000e-08,0.00000000000000e+00,0.00000000000000e+00,3.12088913052237e-03
7.54480000000000e-08,0.00000000000000e+00,0.00000000000000e+00,6.64018083323129e-04
7.57040000000000e-08,0.00000000000000e+00,0.00000000000000e+00,-2.12030279829161e-03
7.62159999999999e-08,0.00000000000000e+00,0.00000000000000e+00,3.65730448456218e-04
7.68965710592569e-08,0.00000000000000e+00,0.00000000000000e+00,2.60301335290834e-05
7.81266289148822e-08,0.00000000000000e+00,0.00000000000000e+00,-1.09518010620573e-04
8.00276512182725e-08,0.00000000000000e+00,0.00000000000000e+00,1.41820134027949e-04
8.36590674135281e-08,0.00000000000000e+00,0.00000000000000e+00,-1.49108728506455e-04
8.50000000000000e-08,0.00000000000000e+00,0.00000000000000e+00,1.66263505788730e-04
8.50100000000000e-08,5.99999999999886e-02,0.00000000000000e+00,4.45657809019603e-04
8.50300000000000e-08,1.79999999999966e-01,0.00000000000000e+00,9.01996021741736e-04
8.50700000000000e-08,4.19999999999920e-01,0.00000000000000e+00,1.29523237909046e-03
8.51000000000000e-08,5.99999999999966e-01,0.00000000000000e+00,8.68982273154129e-04
8.51080000000000e-08,6.00000000000000e-01,0.00000000000000e+00,6.14651640815006e-04
8.51240000000000e-08,6.00000000000000e-01,0.00000000000000e+00,1.66363551393142e-04
8.51560000000000e-08,6.00000000000000e-01,0.00000000000000e+00,-4.03971034848988e-04
8.52200000000000e-08,6.00000000000000e-01,0.00000000000000e+00,-7.86815685678219e-04
8.53480000000000e-08,6.00000000000000e-01,0.00000000000000e+00,-5.87191440746399e-04
8.56040000000000e-08,6.00000000000000e-01,0.00000000000000e+00,-1.10079363207921e-04
8.61159999999999e-08,6.00000000000000e-01,0.00000000000000e+00,2.77794463334924e-04
8.71399999999999e-08,6.00000000000000e-01,0.00000000000000e+00,-1.06739636537779e-04
8.91879999999998e-08,6.00000000000000e-01,0.00000000000000e+00,7.24114654239646e-05
9.00000000000000e-08,6.00000000000000e-01,0.00000000000000e+00,-1.36298557346856e-05
9.00100000000000e-08,6.00000000000000e-01,5.99999999999886e-02,-6.25049425141688e-06
9.00300000000000e-08,6.00000000000000e-01,1.79999999999966e-01,3.35989724571661e-06
9.00700000000000e-08,6.00000000000000e-01,4.19999999999920e-01,-2.21374206704761e-06
9.01000000000000e-08,6.00000000000000e-01,5.99999999999966e-01,-3.72756158407567e-05
9.01080000000000e-08,6.00000000000000e-01,6.00000000000000e-01,-4.59309402339597e-05
9.01240000000000e-08,6.00000000000000e-01,6.00000000000000e-01,-5.36798264948873e-05
9.01560000000000e-08,6.00000000000000e-01,6.00000000000000e-01,-4.65497343331012e-05
9.02200000000000e-08,6.00000000000000e-01,6.00000000000000e-01,-1.86516541164500e-05
9.03480000000000e-08,6.00000000000000e-01,6.00000000000000e-01,9.74010676550729e-06
9.06040000000000e-08,6.00000000000000e-01,6.00000000000000e-01,4.29744994169534e-06
9.11159999999999e-08,6.00000000000000e-01,6.00000000000000e-01,-1.90627374357238e-06
9.21399999999999e-08,6.00000000000000e-01,6.00000000000000e-01,5.26186992823308e-06
9.41879999999998e-08,6.00000000000000e-01,6.00000000000000e-01,-1.18255784666357e-06
9.51000000000000e-08,6.00000000000000e-01,6.00000000000000e-01,4.20758360130530e-06
9.51100000000000e-08,5.40000000000061e-01,6.00000000000000e-01,-1.27703198363985e-04
9.51300000000000e-08,4.20000000000084e-01,6.00000000000000e-01,-3.80125356552560e-04
9.51700000000000e-08,1.80000000000129e-01,6.00000000000000e-01,-8.21306404152955e-04
9.52000000000000e-08,8.40438829641244e-14,6.00000000000000e-01,-5.71246831462924e-04
9.52080000000000e-08,0.00000000000000e+00,6.00000000000000e-01,-2.03707794340494e-04
9.52240000000000e-08,0.00000000000000e+00,6.00000000000000e-01,4.05126286042057e-04
9.52560000000000e-08,0.00000000000000e+00,6.00000000000000e-01,1.00646139854745e-03
9.53200000000000e-08,0.00000000000000e+00,6.00000000000000e-01,1.16929816647911e-03
9.54480000000000e-08,0.00000000000000e+00,6.00000000000000e-01,6.44187938824869e-04
9.57040000000000e-08,0.00000000000000e+00,6.00000000000000e-01,-7.82963415584946e-04
9.62159999999999e-08,0.00000000000000e+00,6.00000000000000e-01,1.73742330208872e-04
9.71449982330644e-08,0.00000000000000e+00,6.00000000000000e-01,-2.16223841850011e-04
9.82554186442789e-08,0.00000000000000e+00,6.00000000000000e-01,1.92455286204544e-04
1.00476259466708e-07,0.00000000000000e+00,6.00000000000000e-01,-1.28220279873978e-04
1.02628668552493e-07,0.00000000000000e+00,6.00000000000000e-01,7.93598485625806e-05
1.05000000000000e-07,0.00000000000000e+00,6.00000000000000e-01,-4.36760725766750e-05
1.05010000000000e-07,5.99999999999886e-02,6.00000000000000e-01,3.26398895469995e-04
1.05030000000000e-07,1.79999999999966e-01,6.00000000000000e-01,9.71813514898889e-04
1.05070000000000e-07,4.19999999999920e-01,6.00000000000000e-01,1.84186322849382e-03
1.05100000000000e-07,5.99999999999966e-01,6.00000000000000e-01,1.75144385494580e-03
1.05108000000000e-07,6.00000000000000e-01,6.00000000000000e-01,1.50639502771940e-03
1.05124000000000e-07,6.00000000000000e-01,6.00000000000000e-01,9.60109549415347e-04
1.05156000000000e-07,6.00000000000000e-01,6.00000000000000e-01,-3.78246189021825e-04
1.05220000000000e-07,6.00000000000000e-01,6.00000000000000e-01,-2.95036248075610e-03
1.05348000000000e-07,6.00000000000000e-01,6.00000000000000e-01,-5.84719043494229e-03
1.05604000000000e-07,6.00000000000000e-01,6.00000000000000e-01,7.52184064114783e-03
1.06116000000000e-07,6.00000000000000e-01,6.00000000000000e-01,3.82764984854840e-01
1.07140000000000e-07,6.00000000000000e-01,6.00000000000000e-01,6.22701984370694e-01
1.08087031359175e-07,6.00000000000000e-01,6.00000000000000e-01,5.81258162616008e-01
1.09981094077524e-07,6.00000000000000e-01,6.00000000000000e-01,6.17499150141079e-01
1.12254834643890e-07,6.00000000000000e-01,6.00000000000000e-01,5.83457738556810e-01
1.15100000000000e-07,6.00000000000000e-01,6.00000000000000e-01,6.15453699857580e-01
1.15110000000000e-07,5.40000000000061e-01,6.00000000000000e-01,6.11996001930729e-01
1.15130000000000e-07,4.20000000000084e-01,6.00000000000000e-01,6.06555293620087e-01
1.15170000000000e-07,1.80000000000129e-01,6.00000000000000e-01,6.01880583797391e-01
1.15200000000000e-07,8.40438829641244e-14,6.00000000000000e-01,6.02512241783682e-01
1.15208000000000e-07,0.00000000000000e+00,6.00000000000000e-01,6.03157338595318e-01
1.15224000000000e-07,0.00000000000000e+00,6.00000000000000e-01,6.04182476929228e-01
1.15256000000000e-07,0.00000000000000e+00,6.00000000000000e-01,6.05336276193355e-01
1.15320000000000e-07,0.00000000000000e+00,6.00000000000000e-01,6.06049290213544e-01
1.15448000000000e-07,0.00000000000000e+00,6.00000000000000e-01,6.02474329236282e-01
1.15704000000000e-07,0.00000000000000e+00,6.00000000000000e-01,5.85971278333246e-01
1.16216000000000e-07,0.00000000000000e+00,6.00000000000000e-01,5.93038003169287e-01
1.17240000000000e-07,0.00000000000000e+00,6.00000000000000e-01,6.04231010738381e-01
1.18485864892965e-07,0.00000000000000e+00,6.00000000000000e-01,5.96368096139636e-01
1.20704460970689e-07,0.00000000000000e+00,6.00000000000000e-01,6.02825126148065e-01
1.24504460970689e-07,0.00000000000000e+00,6.00000000000000e-01,5.97196282087238e-01
1.25000000000000e-07,0.00000000000000e+00,6.00000000000000e-01,6.01321582796238e-01
1.25010000000000e-07,5.99999999999092e-02,6.00000000000000e-01,6.01433666077128e-01
1.25030000000000e-07,1.79999999999886e-01,6.00000000000000e-01,6.01600720153894e-01
1.25070000000000e-07,4.19999999999841e-01,6.00000000000000e-01,6.01713890975312e-01
1.25100000000000e-07,5.99999999999886e-01,6.00000000000000e-01,6.01277294530574e-01
1.25108000000000e-07,6.00000000000000e-01,5.51999999999946e-01,6.00989117438763e-01
1.25124000000000e-07,6.00000000000000e-01,4.55999999999996e-01,6.00400446303878e-01
1.25156000000000e-07,6.00000000000000e-01,2.63999999999937e-01,5.99318449918926e-01
1.25200000000000e-07,6.00000000000000e-01,0.00000000000000e+00,5.98182784001904e-01
1.25206400000000e-07,6.00000000000000e-01,0.00000000000000e+00,5.98069212796118e-01
1.25219200000000e-07,6.00000000000000e-01,0.00000000000000e+00,5.97849902872712e-01
1.25244800000000e-07,6.00000000000000e-01,0.00000000000000e+00,5.97479654564692e-01
1.25296000000000e-07,6.00000000000000e-01,0.00000000000000e+00,5.96952180735443e-01
1.25398400000000e-07,6.00000000000000e-01,0.00000000000000e+00,5.96242367879497e-01
1.25603200000000e-07,6.00000000000000e-01,0.00000000000000e+00,5.95620604758645e-01
1.26012800000000e-07,6.00000000000000e-01,0.00000000000000e+00,5.97714548193653e-01
1.26516166344545e-07,6.00000000000000e-01,0.00000000000000e+00,5.99672100305263e-01
1.27522899033635e-07,6.00000000000000e-01,0.00000000000000e+00,5.99931151173936e-01
1.28665763299116e-07,6.00000000000000e-01,0.00000000000000e+00,6.00131903911635e-01
1.30951491830079e-07,6.00000000000000e-01,0.00000000000000e+00,5.99863737347518e-01
1.34751491830079e-07,6.00000000000000e-01,0.00000000000000e+00,6.00136373252889e-01
1.35100000000000e-07,5.99999999999891e-01,0.00000000000000e+00,5.99901555981641e-01
1.35110000000000e-07,5.39999999999823e-01,0.00000000000000e+00,5.99737659356813e-01
1.35130000000000e-07,4.19999999999846e-01,0.00000000000000e+00,5.99479650222033e-01
1.35170000000000e-07,1.79999999999891e-01,0.00000000000000e+00,5.99721084059609e-01
1.35200000000000e-07,0.00000000000000e+00,0.00000000000000e+00,6.01626041620191e-01
1.35208000000000e-07,0.00000000000000e+00,0.00000000000000e+00,6.02464061019781e-01
1.35224000000000e-07,0.00000000000000e+00,0.00000000000000e+00,6.03809884154276e-01
1.35256000000000e-07,0.00000000000000e+00,0.00000000000000e+00,6.05309767505716e-01
1.35320000000000e-07,0.00000000000000e+00,0.00000000000000e+00,6.06671425165133e-01
