Time,v(clk),v(data),v(out),v(reset)
1.00000000000000e-08,6.00000000000000e-01,0.00000000000000e+00,-1.71695862715603e-03,0.00000000000000e+00
1.00100000000000e-08,6.00000000000000e-01,5.99999999999986e-02,-1.18287218166942e-03,0.00000000000000e+00
1.00300000000000e-08,6.00000000000000e-01,1.79999999999996e-01,-5.61894319248496e-04,0.00000000000000e+00
1.00700000000000e-08,6.00000000000000e-01,4.19999999999990e-01,-3.59043958760977e-04,0.00000000000000e+00
1.01000000000000e-08,6.00000000000000e-01,5.99999999999995e-01,-2.80170353478701e-04,0.00000000000000e+00
1.01080000000000e-08,6.00000000000000e-01,6.00000000000000e-01,-2.62410463498536e-04,0.00000000000000e+00
1.01240000000000e-08,6.00000000000000e-01,6.00000000000000e-01,-2.24590410773579e-04,0.00000000000000e+00
1.01560000000000e-08,6.00000000000000e-01,6.00000000000000e-01,-1.55736297114045e-04,0.00000000000000e+00
1.02200000000000e-08,6.00000000000000e-01,6.00000000000000e-01,-6.82074396963356e-05,0.00000000000000e+00
1.03480000000000e-08,6.00000000000000e-01,6.00000000000000e-01,-1.54849449553324e-05,0.00000000000000e+00
1.06040000000000e-08,6.00000000000000e-01,6.00000000000000e-01,2.68726793890839e-06,0.00000000000000e+00
1.11160000000000e-08,6.00000000000000e-01,6.00000000000000e-01,4.17611910795423e-07,0.00000000000000e+00
1.21400000000000e-08,6.00000000000000e-01,6.00000000000000e-01,4.30273330865455e-06,0.00000000000000e+00
1.41880000000000e-08,6.00000000000000e-01,6.00000000000000e-01,-2.43069573909425e-06,0.00000000000000e+00
1.51000000000000e-08,6.00000000000000e-01,6.00000000000000e-01,2.80827169545084e-06,0.00000000000000e+00
1.51100000000000e-08,5.39999999999992e-01,6.00000000000000e-01,1.01524426762017e-03,6.00000000000085e-02
1.51300000000000e-08,4.19999999999994e-01,6.00000000000000e-01,2.44865332326337e-03,1.80000000000006e-01
1.51700000000000e-08,1.80000000000000e-01,6.00000000000000e-01,2.77231106610688e-03,4.20000000000000e-01
1.52000000000000e-08,0.00000000000000e+00,6.00000000000000e-01,1.31459018383698e-03,6.00000000000000e-01
1.52080000000000e-08,0.00000000000000e+00,6.00000000000000e-01,9.68385916408174e-04,6.00000000000000e-01
1.52240000000000e-08,0.00000000000000e+00,6.00000000000000e-01,4.15683677771603e-04,6.00000000000000e-01
1.52560000000000e-08,0.00000000000000e+00,6.00000000000000e-01,-1.05643255016191e-04,6.00000000000000e-01
1.53200000000000e-08,0.00000000000000e+00,6.00000000000000e-01,-2.35478256927948e-04,6.00000000000000e-01
1.54480000000000e-08,0.00000000000000e+00,6.00000000000000e-01,-2.64727432947323e-04,6.00000000000000e-01
1.57040000000000e-08,0.00000000000000e+00,6.00000000000000e-01,-1.50427780869718e-03,6.00000000000000e-01
1.62160000000000e-08,0.00000000000000e+00,6.00000000000000e-01,3.27269752540479e-04,6.00000000000000e-01
1.70755574168199e-08,0.00000000000000e+00,6.00000000000000e-01,-2.49208217416173e-04,6.00000000000000e-01
1.82184077749799e-08,0.00000000000000e+00,6.00000000000000e-01,1.50421056926704e-04,6.00000000000000e-01
2.02864484558455e-08,0.00000000000000e+00,6.00000000000000e-01,-4.52310224585625e-05,6.00000000000000e-01
2.24487878273461e-08,0.00000000000000e+00,6.00000000000000e-01,-2.21560604419420e-05,6.00000000000000e-01
2.50000000000000e-08,0.00000000000000e+00,6.00000000000000e-01,6.52809854930561e-05,6.00000000000000e-01
2.50100000000000e-08,5.99999999999886e-02,6.00000000000000e-01,4.02803208632257e-04,6.00000000000000e-01
2.50300000000000e-08,1.80000000000006e-01,6.00000000000000e-01,1.00205322839998e-03,6.00000000000000e-01
2.50700000000000e-08,4.20000000000000e-01,6.00000000000000e-01,1.84007153908183e-03,6.00000000000000e-01
2.51000000000000e-08,6.00000000000000e-01,6.00000000000000e-01,1.76336447699844e-03,6.00000000000000e-01
2.51080000000000e-08,6.00000000000000e-01,6.00000000000000e-01,1.53818599592560e-03,6.00000000000000e-01
2.51240000000000e-08,6.00000000000000e-01,6.00000000000000e-01,1.04893260850174e-03,6.00000000000000e-01
2.51560000000000e-08,6.00000000000000e-01,6.00000000000000e-01,-1.89837171535007e-04,6.00000000000000e-01
2.52200000000000e-08,6.00000000000000e-01,6.00000000000000e-01,-2.76559468944451e-03,6.00000000000000e-01
2.53480000000000e-08,6.00000000000000e-01,6.00000000000000e-01,-5.79093752400314e-03,6.00000000000000e-01
2.56040000000000e-08,6.00000000000000e-01,6.00000000000000e-01,6.11126397529808e-03,6.00000000000000e-01
2.61160000000000e-08,6.00000000000000e-01,6.00000000000000e-01,3.76700051070085e-01,6.00000000000000e-01
2.71400000000000e-08,6.00000000000000e-01,6.00000000000000e-01,6.22306478399226e-01,6.00000000000000e-01
2.80903873715338e-08,6.00000000000000e-01,6.00000000000000e-01,5.81648267638179e-01,6.00000000000000e-01
2.99911621146014e-08,6.00000000000000e-01,6.00000000000000e-01,6.17214640875931e-01,6.00000000000000e-01
3.22632181741079e-08,6.00000000000000e-01,6.00000000000000e-01,5.83758634285923e-01,6.00000000000000e-01
3.51000000000000e-08,5.99999999999970e-01,6.00000000000000e-01,6.15204214601456e-01,6.00000000000000e-01
3.51100000000000e-08,5.39999999999982e-01,6.00000000000000e-01,6.11792029022508e-01,6.00000000000000e-01
3.51300000000000e-08,4.19999999999965e-01,6.00000000000000e-01,6.06428705721710e-01,6.00000000000000e-01
3.51700000000000e-08,1.79999999999970e-01,6.00000000000000e-01,6.01838105782018e-01,6.00000000000000e-01
3.52000000000000e-08,0.00000000000000e+00,6.00000000000000e-01,6.02488794945356e-01,6.00000000000000e-01
3.52080000000000e-08,0.00000000000000e+00,6.00000000000000e-01,6.03136560388978e-01,6.00000000000000e-01
3.52240000000000e-08,0.00000000000000e+00,6.00000000000000e-01,6.04166110894750e-01,6.00000000000000e-01
3.52560000000000e-08,0.00000000000000e+00,6.00000000000000e-01,6.05325295604576e-01,6.00000000000000e-01
3.53200000000000e-08,0.00000000000000e+00,6.00000000000000e-01,6.06041303871608e-01,6.00000000000000e-01
3.54480000000000e-08,0.00000000000000e+00,6.00000000000000e-01,6.02458604287903e-01,6.00000000000000e-01
3.57040000000000e-08,0.00000000000000e+00,6.00000000000000e-01,5.85961025981352e-01,6.00000000000000e-01
3.62160000000000e-08,0.00000000000000e+00,6.00000000000000e-01,5.93044256078875e-01,6.00000000000000e-01
3.72400000000000e-08,0.00000000000000e+00,6.00000000000000e-01,6.04226351896936e-01,6.00000000000000e-01
3.84858343613864e-08,0.00000000000000e+00,6.00000000000000e-01,5.96371816080283e-01,6.00000000000000e-01
4.07046687212408e-08,0.00000000000000e+00,6.00000000000000e-01,6.02821890036594e-01,6.00000000000000e-01
4.45046687212408e-08,0.00000000000000e+00,6.00000000000000e-01,5.97199315929999e-01,6.00000000000000e-01
4.50000000000000e-08,0.00000000000000e+00,6.00000000000000e-01,6.01319448397458e-01,6.00000000000000e-01
4.50100000000000e-08,5.99999999999886e-02,6.00000000000000e-01,6.00944288756140e-01,5.40000000000011e-01
4.50300000000000e-08,1.80000000000006e-01,6.00000000000000e-01,6.00266386018409e-01,4.19999999999994e-01
4.50700000000000e-08,4.20000000000000e-01,6.00000000000000e-01,6.00513914318029e-01,1.80000000000000e-01
4.51000000000000e-08,6.00000000000000e-01,6.00000000000000e-01,6.04789727366502e-01,0.00000000000000e+00
4.51080000000000e-08,6.00000000000000e-01,6.00000000000000e-01,6.06913536913314e-01,0.00000000000000e+00
4.51240000000000e-08,6.00000000000000e-01,6.00000000000000e-01,6.10590887515739e-01,0.00000000000000e+00
4.51560000000000e-08,6.00000000000000e-01,6.00000000000000e-01,6.15881878070475e-01,0.00000000000000e+00
4.52200000000000e-08,6.00000000000000e-01,6.00000000000000e-01,6.24468721659339e-01,0.00000000000000e+00
4.53480000000000e-08,6.00000000000000e-01,6.00000000000000e-01,6.46173261054895e-01,0.00000000000000e+00
4.56040000000000e-08,6.00000000000000e-01,6.00000000000000e-01,4.13020010337282e-01,0.00000000000000e+00
4.61160000000000e-08,6.00000000000000e-01,6.00000000000000e-01,-1.29137666809235e-03,0.00000000000000e+00
4.67834119107453e-08,6.00000000000000e-01,6.00000000000000e-01,1.24660906058708e-03,0.00000000000000e+00
4.79816102244897e-08,6.00000000000000e-01,6.00000000000000e-01,-1.24431557019555e-03,0.00000000000000e+00
4.93663356793601e-08,6.00000000000000e-01,6.00000000000000e-01,1.08917122121489e-03,0.00000000000000e+00
5.01000000000000e-08,6.00000000000000e-01,5.99999999999966e-01,-1.02658770626214e-03,0.00000000000000e+00
5.03769450909741e-08,6.00000000000000e-01,6.00000000000000e-01,-6.26915326001135e-05,0.00000000000000e+00
5.09308352729223e-08,6.00000000000000e-01,6.00000000000000e-01,5.36849555110193e-05,0.00000000000000e+00
5.20386156368187e-08,6.00000000000000e-01,6.00000000000000e-01,-4.35316087231477e-05,0.00000000000000e+00
5.42541763646114e-08,6.00000000000000e-01,6.00000000000000e-01,4.29270690218645e-05,0.00000000000000e+00
5.51000000000000e-08,6.00000000000000e-01,6.00000000000000e-01,-3.65504333357039e-05,0.00000000000000e+00
5.51100000000000e-08,5.40000000000021e-01,6.00000000000000e-01,9.91170062077454e-04,5.99999999999787e-02
5.51300000000000e-08,4.20000000000004e-01,6.00000000000000e-01,2.43782965086972e-03,1.79999999999996e-01
5.51700000000000e-08,1.80000000000010e-01,6.00000000000000e-01,2.76762533755034e-03,4.19999999999990e-01
5.52000000000000e-08,0.00000000000000e+00,6.00000000000000e-01,1.31033117891378e-03,6.00000000000000e-01
5.52080000000000e-08,0.00000000000000e+00,6.00000000000000e-01,9.62223573536966e-04,6.00000000000000e-01
5.52240000000000e-08,0.00000000000000e+00,6.00000000000000e-01,4.09920342204731e-04,6.00000000000000e-01
5.52560000000000e-08,0.00000000000000e+00,6.00000000000000e-01,-1.09226987320507e-04,6.00000000000000e-01
5.53200000000000e-08,0.00000000000000e+00,6.00000000000000e-01,-2.27495652724910e-04,6.00000000000000e-01
5.54480000000000e-08,0.00000000000000e+00,6.00000000000000e-01,-2.15586269818879e-04,6.00000000000000e-01
5.57040000000000e-08,0.00000000000000e+00,6.00000000000000e-01,-1.33390905268251e-03,6.00000000000000e-01
5.61657816316808e-08,0.00000000000000e+00,6.00000000000000e-01,2.30888982861180e-04,6.00000000000000e-01
5.69440210758314e-08,0.00000000000000e+00,6.00000000000000e-01,-7.09364684094507e-05,6.00000000000000e-01
5.80765776206663e-08,0.00000000000000e+00,6.00000000000000e-01,-5.80487583992026e-05,6.00000000000000e-01
5.98329785354765e-08,0.00000000000000e+00,6.00000000000000e-01,1.15056977799450e-04,6.00000000000000e-01
6.21073829251335e-08,0.00000000000000e+00,6.00000000000000e-01,-1.35445049857838e-04,6.00000000000000e-01
6.50000000000000e-08,0.00000000000000e+00,6.00000000000000e-01,1.45900952393915e-04,6.00000000000000e-01
6.50100000000000e-08,5.99999999999886e-02,6.00000000000000e-01,4.91084669739072e-04,6.00000000000000e-01
6.50300000000000e-08,1.79999999999966e-01,6.00000000000000e-01,1.09672149276642e-03,6.00000000000000e-01
6.50700000000000e-08,4.19999999999920e-01,6.00000000000000e-01,1.91791175838493e-03,6.00000000000000e-01
6.51000000000000e-08,5.99999999999966e-01,6.00000000000000e-01,1.74412768826145e-03,6.00000000000000e-01
6.51080000000000e-08,6.00000000000000e-01,6.00000000000000e-01,1.44367990480990e-03,6.00000000000000e-01
6.51240000000000e-08,6.00000000000000e-01,6.00000000000000e-01,7.76677487995842e-04,6.00000000000000e-01
6.51560000000000e-08,6.00000000000000e-01,6.00000000000000e-01,-7.11420420920497e-04,6.00000000000000e-01
6.52200000000000e-08,6.00000000000000e-01,6.00000000000000e-01,-3.24253732685412e-03,6.00000000000000e-01
6.53480000000000e-08,6.00000000000000e-01,6.00000000000000e-01,-5.93149343853752e-03,6.00000000000000e-01
6.56040000000000e-08,6.00000000000000e-01,6.00000000000000e-01,9.72673959459529e-03,6.00000000000000e-01
6.61159999999999e-08,6.00000000000000e-01,6.00000000000000e-01,3.91409148634788e-01,6.00000000000000e-01
6.71399999999999e-08,6.00000000000000e-01,6.00000000000000e-01,6.23198263314063e-01,6.00000000000000e-01
6.80832116965617e-08,6.00000000000000e-01,6.00000000000000e-01,5.80782632174946e-01,6.00000000000000e-01
6.99696350896854e-08,6.00000000000000e-01,6.00000000000000e-01,6.17865625316122e-01,6.00000000000000e-01
7.22480278223205e-08,6.00000000000000e-01,6.00000000000000e-01,5.83065460252301e-01,6.00000000000000e-01
7.51000000000000e-08,6.00000000000000e-01,6.00000000000000e-01,6.15753637200238e-01,6.00000000000000e-01
7.51100000000000e-08,5.40000000000061e-01,6.00000000000000e-01,6.12244427438045e-01,6.00000000000000e-01
7.51300000000000e-08,4.20000000000084e-01,6.00000000000000e-01,6.06710121925648e-01,6.00000000000000e-01
7.51700000000000e-08,1.80000000000129e-01,6.00000000000000e-01,6.01939011954576e-01,6.00000000000000e-01
7.52000000000000e-08,8.40438829641244e-14,6.00000000000000e-01,6.02543840170410e-01,6.00000000000000e-01
7.52080000000000e-08,0.00000000000000e+00,6.00000000000000e-01,6.03185045790996e-01,6.00000000000000e-01
7.52240000000000e-08,0.00000000000000e+00,6.00000000000000e-01,6.04203724457140e-01,6.00000000000000e-01
7.52560000000000e-08,0.00000000000000e+00,6.00000000000000e-01,6.05350399378113e-01,6.00000000000000e-01
7.53200000000000e-08,0.00000000000000e+00,6.00000000000000e-01,6.06060225712432e-01,6.00000000000000e-01
7.54480000000000e-08,0.00000000000000e+00,6.00000000000000e-01,6.02498891246256e-01,6.00000000000000e-01
7.57040000000000e-08,0.00000000000000e+00,6.00000000000000e-01,5.85987300219237e-01,6.00000000000000e-01
7.62159999999999e-08,0.00000000000000e+00,6.00000000000000e-01,5.93028629166358e-01,6.00000000000000e-01
7.72399999999999e-08,0.00000000000000e+00,6.00000000000000e-01,6.04238248616115e-01,6.00000000000000e-01
7.84859293241786e-08,0.00000000000000e+00,6.00000000000000e-01,5.96362294224917e-01,6.00000000000000e-01
8.07044227024228e-08,0.00000000000000e+00,6.00000000000000e-01,6.02830269137367e-01,6.00000000000000e-01
8.45044227024228e-08,0.00000000000000e+00,6.00000000000000e-01,5.97191467348573e-01,6.00000000000000e-01
8.50000000000000e-08,0.00000000000000e+00,6.00000000000000e-01,6.01324419385156e-01,6.00000000000000e-01
8.50100000000000e-08,5.99999999999886e-02,6.00000000000000e-01,6.00948576814492e-01,5.40000000000011e-01
8.50300000000000e-08,1.79999999999966e-01,6.00000000000000e-01,6.00271134340964e-01,4.20000000000034e-01
8.50700000000000e-08,4.19999999999920e-01,6.00000000000000e-01,6.00516329360260e-01,1.80000000000080e-01
8.51000000000000e-08,5.99999999999966e-01,6.00000000000000e-01,6.04791055766821e-01,3.44169137633799e-14
8.51080000000000e-08,6.00000000000000e-01,6.00000000000000e-01,6.06914672183051e-01,0.00000000000000e+00
8.51240000000000e-08,6.00000000000000e-01,6.00000000000000e-01,6.10591728527318e-01,0.00000000000000e+00
8.51560000000000e-08,6.00000000000000e-01,6.00000000000000e-01,6.15882470049992e-01,0.00000000000000e+00
8.52200000000000e-08,6.00000000000000e-01,6.00000000000000e-01,6.24469318151415e-01,0.00000000000000e+00
8.53480000000000e-08,6.00000000000000e-01,6.00000000000000e-01,6.46174583943614e-01,0.00000000000000e+00
8.56040000000000e-08,6.00000000000000e-01,6.00000000000000e-01,4.13028061524506e-01,0.00000000000000e+00
8.61159999999999e-08,6.00000000000000e-01,6.00000000000000e-01,-1.28460741214362e-03,0.00000000000000e+00
8.67872088697693e-08,6.00000000000000e-01,6.00000000000000e-01,1.24391891813070e-03,0.00000000000000e+00
8.79849220759500e-08,6.00000000000000e-01,6.00000000000000e-01,-1.24356058889446e-03,0.00000000000000e+00
8.93731909849635e-08,6.00000000000000e-01,6.00000000000000e-01,1.08941001142288e-03,0.00000000000000e+00
9.01000000000000e-08,6.00000000000000e-01,5.99999999999966e-01,-1.02655176199215e-03,0.00000000000000e+00
9.03776537818027e-08,6.00000000000000e-01,6.00000000000000e-01,-6.22487113518047e-05,0.00000000000000e+00
9.09329613454081e-08,6.00000000000000e-01,6.00000000000000e-01,5.34992919537652e-05,0.00000000000000e+00
9.20435764726190e-08,6.00000000000000e-01,6.00000000000000e-01,-4.34301870019284e-05,0.00000000000000e+00
9.42648067270407e-08,6.00000000000000e-01,6.00000000000000e-01,4.28471641066592e-05,0.00000000000000e+00
9.51000000000000e-08,6.00000000000000e-01,6.00000000000000e-01,-3.64437875326890e-05,0.00000000000000e+00
9.51100000000000e-08,5.40000000000061e-01,6.00000000000000e-01,9.91266692821541e-04,5.99999999999390e-02
9.51300000000000e-08,4.20000000000084e-01,6.00000000000000e-01,2.43788229181190e-03,1.79999999999916e-01
9.51700000000000e-08,1.80000000000129e-01,6.00000000000000e-01,2.76764922239568e-03,4.19999999999871e-01
9.52000000000000e-08,8.40438829641244e-14,6.00000000000000e-01,1.31034174625298e-03,5.99999999999916e-01
9.52080000000000e-08,0.00000000000000e+00,6.00000000000000e-01,9.62233947705615e-04,6.00000000000000e-01
9.52240000000000e-08,0.00000000000000e+00,6.00000000000000e-01,4.09936778852538e-04,6.00000000000000e-01
9.52560000000000e-08,0.00000000000000e+00,6.00000000000000e-01,-1.09195627978509e-04,6.00000000000000e-01
9.53200000000000e-08,0.00000000000000e+00,6.00000000000000e-01,-2.27495357948276e-04,6.00000000000000e-01
9.54480000000000e-08,0.00000000000000e+00,6.00000000000000e-01,-2.15690301631585e-04,6.00000000000000e-01
9.57040000000000e-08,0.00000000000000e+00,6.00000000000000e-01,-1.33426952095202e-03,6.00000000000000e-01
9.61662808562403e-08,0.00000000000000e+00,6.00000000000000e-01,2.31956909889496e-04,6.00000000000000e-01
9.69455860862428e-08,0.00000000000000e+00,6.00000000000000e-01,-7.22273997905525e-05,6.00000000000000e-01
9.80781207691286e-08,0.00000000000000e+00,6.00000000000000e-01,-5.67206303886507e-05,6.00000000000000e-01
9.98377862413579e-08,0.00000000000000e+00,6.00000000000000e-01,1.13800203020247e-04,6.00000000000000e-01
1.02110667002627e-07,0.00000000000000e+00,6.00000000000000e-01,-1.34368621008360e-04,6.00000000000000e-01
1.05000000000000e-07,0.00000000000000e+00,6.00000000000000e-01,1.44950601786648e-04,6.00000000000000e-01
1.05010000000000e-07,5.99999999999886e-02,6.00000000000000e-01,4.90160493533259e-04,6.00000000000000e-01
1.05030000000000e-07,1.79999999999966e-01,6.00000000000000e-01,1.09586987160745e-03,6.00000000000000e-01
1.05070000000000e-07,4.19999999999920e-01,6.00000000000000e-01,1.91718307347212e-03,6.00000000000000e-01
1.05100000000000e-07,5.99999999999966e-01,6.00000000000000e-01,1.74343084707440e-03,6.00000000000000e-01
1.05108000000000e-07,6.00000000000000e-01,6.00000000000000e-01,1.44297852808586e-03,6.00000000000000e-01
1.05124000000000e-07,6.00000000000000e-01,6.00000000000000e-01,7.75965426400446e-04,6.00000000000000e-01
1.05156000000000e-07,6.00000000000000e-01,6.00000000000000e-01,-7.12080927564113e-04,6.00000000000000e-01
1.05220000000000e-07,6.00000000000000e-01,6.00000000000000e-01,-3.24297352978188e-03,6.00000000000000e-01
1.05348000000000e-07,6.00000000000000e-01,6.00000000000000e-01,-5.93162773572724e-03,6.00000000000000e-01
1.05604000000000e-07,6.00000000000000e-01,6.00000000000000e-01,9.73089053532850e-03,6.00000000000000e-01
1.06116000000000e-07,6.00000000000000e-01,6.00000000000000e-01,3.91424648492812e-01,6.00000000000000e-01
1.07140000000000e-07,6.00000000000000e-01,6.00000000000000e-01,6.23199083824840e-01,6.00000000000000e-01
1.08083205790815e-07,6.00000000000000e-01,6.00000000000000e-01,5.80781773295935e-01,6.00000000000000e-01
1.09969617372446e-07,6.00000000000000e-01,6.00000000000000e-01,6.17866226165725e-01,6.00000000000000e-01
1.12248020080672e-07,6.00000000000000e-01,6.00000000000000e-01,5.83064807605969e-01,6.00000000000000e-01
1.15100000000000e-07,6.00000000000000e-01,6.00000000000000e-01,6.15754156346006e-01,6.00000000000000e-01
1.15110000000000e-07,5.40000000000061e-01,6.00000000000000e-01,6.12244855497976e-01,6.00000000000000e-01
1.15130000000000e-07,4.20000000000084e-01,6.00000000000000e-01,6.06710388719936e-01,6.00000000000000e-01
1.15170000000000e-07,1.80000000000129e-01,6.00000000000000e-01,6.01939118662832e-01,6.00000000000000e-01
1.15200000000000e-07,8.40438829641244e-14,6.00000000000000e-01,6.02543895338713e-01,6.00000000000000e-01
1.15208000000000e-07,0.00000000000000e+00,6.00000000000000e-01,6.03185094357579e-01,6.00000000000000e-01
1.15224000000000e-07,0.00000000000000e+00,6.00000000000000e-01,6.04203761979492e-01,6.00000000000000e-01
