Time,v(clk),v(data),v(out)
1.00000000000000e-08,6.00000000000000e-01,0.00000000000000e+00,1.13305649231583e-04
1.00100000000000e-08,6.00000000000000e-01,5.99999999999986e-02,1.22505509790788e-04
1.00300000000000e-08,6.00000000000000e-01,1.79999999999996e-01,1.39475479483134e-04
1.00700000000000e-08,6.00000000000000e-01,4.19999999999990e-01,1.45518562633049e-04
1.01000000000000e-08,6.00000000000000e-01,5.99999999999995e-01,9.74637743522688e-05
1.01080000000000e-08,6.00000000000000e-01,6.00000000000000e-01,7.45731912145248e-05
1.01240000000000e-08,6.00000000000000e-01,6.00000000000000e-01,3.93927844879183e-05
1.01560000000000e-08,6.00000000000000e-01,6.00000000000000e-01,-4.77553044263279e-06
1.02200000000000e-08,6.00000000000000e-01,6.00000000000000e-01,-2.63571955564923e-05
1.03480000000000e-08,6.00000000000000e-01,6.00000000000000e-01,3.12953149640693e-06
1.06040000000000e-08,6.00000000000000e-01,6.00000000000000e-01,3.00260134620881e-05
1.11160000000000e-08,6.00000000000000e-01,6.00000000000000e-01,1.04009763263191e-06
1.19986677588054e-08,6.00000000000000e-01,6.00000000000000e-01,-6.67368335201951e-07
1.37640032764162e-08,6.00000000000000e-01,6.00000000000000e-01,3.97752369817213e-06
1.51000000000000e-08,6.00000000000000e-01,6.00000000000000e-01,6.45895615238729e-07
1.51100000000000e-08,5.39999999999992e-01,6.00000000000000e-01,-1.52126758795529e-04
1.51300000000000e-08,4.19999999999994e-01,6.00000000000000e-01,-5.74210722490462e-04
1.51700000000000e-08,1.80000000000000e-01,6.00000000000000e-01,-1.79320468248546e-03
1.52000000000000e-08,0.00000000000000e+00,6.00000000000000e-01,-2.27846300391510e-03
1.52080000000000e-08,0.00000000000000e+00,6.00000000000000e-01,-1.99680252133887e-03
1.52240000000000e-08,0.00000000000000e+00,6.00000000000000e-01,-1.45758891490659e-03
1.52560000000000e-08,0.00000000000000e+00,6.00000000000000e-01,-5.33192385131845e-04
1.53200000000000e-08,0.00000000000000e+00,6.00000000000000e-01,5.49154497993642e-04
1.54480000000000e-08,0.00000000000000e+00,6.00000000000000e-01,1.09631910177735e-03
1.57040000000000e-08,0.00000000000000e+00,6.00000000000000e-01,6.76713523187711e-04
1.62160000000000e-08,0.00000000000000e+00,6.00000000000000e-01,3.59512866313083e-06
1.72400000000000e-08,0.00000000000000e+00,6.00000000000000e-01,-3.12319694424541e-04
1.92880000000000e-08,0.00000000000000e+00,6.00000000000000e-01,5.72105382400882e-05
2.17123646142443e-08,0.00000000000000e+00,6.00000000000000e-01,-5.35412633275584e-05
2.50000000000000e-08,0.00000000000000e+00,6.00000000000000e-01,1.86369436746700e-04
2.50100000000000e-08,5.99999999999886e-02,6.00000000000000e-01,6.83690110776722e-04
2.50300000000000e-08,1.80000000000006e-01,6.00000000000000e-01,1.62779608671257e-03
2.50700000000000e-08,4.20000000000000e-01,6.00000000000000e-01,3.14206475581180e-03
2.51000000000000e-08,6.00000000000000e-01,6.00000000000000e-01,3.22907559222851e-03
2.51080000000000e-08,6.00000000000000e-01,6.00000000000000e-01,2.93522450763689e-03
2.51240000000000e-08,6.00000000000000e-01,6.00000000000000e-01,2.37772997153035e-03
2.51560000000000e-08,6.00000000000000e-01,6.00000000000000e-01,1.35228985525551e-03
2.52200000000000e-08,6.00000000000000e-01,6.00000000000000e-01,-1.19706145138891e-03
2.53480000000000e-08,6.00000000000000e-01,6.00000000000000e-01,-6.38516101495759e-03
2.56040000000000e-08,6.00000000000000e-01,6.00000000000000e-01,-1.01713535748707e-02
2.61074004477799e-08,6.00000000000000e-01,6.00000000000000e-01,6.30504061221163e-02
2.71142013433396e-08,6.00000000000000e-01,6.00000000000000e-01,4.53145672331995e-01
2.91278031344590e-08,6.00000000000000e-01,6.00000000000000e-01,6.24905364018747e-01
3.01000000000000e-08,6.00000000000000e-01,6.00000000000000e-01,5.86711691289180e-01
3.01100000000000e-08,6.00000000000000e-01,5.40000000000031e-01,5.87479383134309e-01
3.01300000000000e-08,6.00000000000000e-01,4.20000000000014e-01,5.88919640132126e-01
3.01700000000000e-08,6.00000000000000e-01,1.80000000000020e-01,5.91266440101052e-01
3.02000000000000e-08,6.00000000000000e-01,1.44328993201270e-14,5.92741471613199e-01
3.02080000000000e-08,6.00000000000000e-01,0.00000000000000e+00,5.93087817060544e-01
3.02240000000000e-08,6.00000000000000e-01,0.00000000000000e+00,5.93738777613137e-01
3.02560000000000e-08,6.00000000000000e-01,0.00000000000000e+00,5.94861036223918e-01
3.03200000000000e-08,6.00000000000000e-01,0.00000000000000e+00,5.96533038732367e-01
3.04480000000000e-08,6.00000000000000e-01,0.00000000000000e+00,5.98464023642943e-01
3.07040000000000e-08,6.00000000000000e-01,0.00000000000000e+00,5.99711908147471e-01
3.12160000000000e-08,6.00000000000000e-01,0.00000000000000e+00,5.99948646716727e-01
3.22400000000000e-08,6.00000000000000e-01,0.00000000000000e+00,5.99992553308927e-01
3.38079979703654e-08,6.00000000000000e-01,0.00000000000000e+00,6.00055911500487e-01
3.51000000000000e-08,5.99999999999970e-01,0.00000000000000e+00,5.99923193863771e-01
3.51100000000000e-08,5.39999999999982e-01,0.00000000000000e+00,5.99744565906048e-01
3.51300000000000e-08,4.19999999999965e-01,0.00000000000000e+00,5.99336225980116e-01
3.51700000000000e-08,1.79999999999970e-01,0.00000000000000e+00,5.98659746894693e-01
3.52000000000000e-08,0.00000000000000e+00,0.00000000000000e+00,5.98928460857015e-01
3.52080000000000e-08,0.00000000000000e+00,0.00000000000000e+00,5.99269632600006e-01
3.52240000000000e-08,0.00000000000000e+00,0.00000000000000e+00,5.99906906380776e-01
3.52560000000000e-08,0.00000000000000e+00,0.00000000000000e+00,6.01206015783727e-01
3.53200000000000e-08,0.00000000000000e+00,0.00000000000000e+00,6.03117149678868e-01
3.54480000000000e-08,0.00000000000000e+00,0.00000000000000e+00,6.05065745301489e-01
3.57040000000000e-08,0.00000000000000e+00,0.00000000000000e+00,6.06338069973292e-01
3.62160000000000e-08,0.00000000000000e+00,0.00000000000000e+00,6.02823802226296e-01
3.72400000000000e-08,0.00000000000000e+00,0.00000000000000e+00,5.85543796704607e-01
3.91000000000000e-08,0.00000000000000e+00,0.00000000000000e+00,5.93456133672195e-01
3.93048000000000e-08,0.00000000000000e+00,0.00000000000000e+00,5.96051330024260e-01
3.97144000000000e-08,0.00000000000000e+00,0.00000000000000e+00,5.99089238071347e-01
4.05336000000000e-08,0.00000000000000e+00,0.00000000000000e+00,5.99975318570598e-01
4.21720000000000e-08,0.00000000000000e+00,0.00000000000000e+00,5.99885223973944e-01
4.50000000000000e-08,0.00000000000000e+00,0.00000000000000e+00,5.99920547818548e-01
4.50100000000000e-08,5.99999999999886e-02,0.00000000000000e+00,6.00184847775628e-01
4.50300000000000e-08,1.80000000000006e-01,0.00000000000000e+00,6.00679529711969e-01
4.50700000000000e-08,4.20000000000000e-01,0.00000000000000e+00,6.01415326130665e-01
4.51000000000000e-08,6.00000000000000e-01,0.00000000000000e+00,6.01426838119985e-01
4.51080000000000e-08,6.00000000000000e-01,0.00000000000000e+00,6.01258950562968e-01
4.51240000000000e-08,6.00000000000000e-01,0.00000000000000e+00,6.00928704984552e-01
4.51560000000000e-08,6.00000000000000e-01,0.00000000000000e+00,6.00295115265274e-01
4.52200000000000e-08,6.00000000000000e-01,0.00000000000000e+00,5.99357349906970e-01
4.53480000000000e-08,6.00000000000000e-01,0.00000000000000e+00,5.98360718286771e-01
4.56040000000000e-08,6.00000000000000e-01,0.00000000000000e+00,5.98964112485699e-01
4.61160000000000e-08,6.00000000000000e-01,0.00000000000000e+00,6.12362332326924e-01
4.71400000000000e-08,6.00000000000000e-01,0.00000000000000e+00,2.53353148303551e-01
4.91041340955161e-08,6.00000000000000e-01,0.00000000000000e+00,-4.74657013779880e-02
5.00000000000000e-08,6.00000000000000e-01,0.00000000000000e+00,3.09705862060654e-02
5.00100000000000e-08,6.00000000000000e-01,5.99999999999886e-02,2.89595696278337e-02
5.00300000000000e-08,6.00000000000000e-01,1.79999999999966e-01,2.51331723557631e-02
5.00700000000000e-08,6.00000000000000e-01,4.20000000000000e-01,1.87388360271061e-02
5.01000000000000e-08,6.00000000000000e-01,6.00000000000000e-01,1.49727651150225e-02
5.01080000000000e-08,6.00000000000000e-01,6.00000000000000e-01,1.41215819055869e-02
5.01240000000000e-08,6.00000000000000e-01,6.00000000000000e-01,1.25223985445689e-02
5.01560000000000e-08,6.00000000000000e-01,6.00000000000000e-01,9.84064176508950e-03
5.02200000000000e-08,6.00000000000000e-01,6.00000000000000e-01,5.89754900246313e-03
5.03480000000000e-08,6.00000000000000e-01,6.00000000000000e-01,2.24012588752039e-03
5.06040000000000e-08,6.00000000000000e-01,6.00000000000000e-01,2.15234373521556e-04
5.11160000000001e-08,6.00000000000000e-01,6.00000000000000e-01,-8.40413562287756e-06
5.21180949119603e-08,6.00000000000000e-01,6.00000000000000e-01,-5.00721391730533e-06
5.41222847358806e-08,6.00000000000000e-01,6.00000000000000e-01,8.39228454685252e-06
5.51000000000000e-08,6.00000000000000e-01,6.00000000000000e-01,-6.15120081103732e-06
5.51100000000000e-08,5.40000000000021e-01,6.00000000000000e-01,-1.56183421773967e-04
5.51300000000000e-08,4.20000000000004e-01,6.00000000000000e-01,-5.62432720104450e-04
5.51700000000000e-08,1.80000000000010e-01,6.00000000000000e-01,-1.78709393712287e-03
5.52000000000000e-08,0.00000000000000e+00,6.00000000000000e-01,-2.27588220749599e-03
5.52080000000000e-08,0.00000000000000e+00,6.00000000000000e-01,-1.99451531540168e-03
5.52240000000000e-08,0.00000000000000e+00,6.00000000000000e-01,-1.45493509942797e-03
5.52560000000000e-08,0.00000000000000e+00,6.00000000000000e-01,-5.29717713131719e-04
5.53200000000000e-08,0.00000000000000e+00,6.00000000000000e-01,5.46888184822195e-04
5.54480000000000e-08,0.00000000000000e+00,6.00000000000000e-01,1.08397036439484e-03
5.57040000000000e-08,0.00000000000000e+00,6.00000000000000e-01,6.16232552758687e-04
5.62160000000000e-08,0.00000000000000e+00,6.00000000000000e-01,-6.84578800484573e-04
5.72400000000000e-08,0.00000000000000e+00,6.00000000000000e-01,-9.07698857636856e-05
5.92583215988677e-08,0.00000000000000e+00,6.00000000000000e-01,-8.43147791844100e-05
6.16942471888068e-08,0.00000000000000e+00,6.00000000000000e-01,3.07014384384758e-05
6.50000000000000e-08,0.00000000000000e+00,6.00000000000000e-01,1.38424859670271e-04
6.50100000000000e-08,5.99999999999886e-02,6.00000000000000e-01,6.18691248336592e-04
6.50300000000000e-08,1.79999999999966e-01,6.00000000000000e-01,1.53795628306935e-03
6.50700000000000e-08,4.19999999999920e-01,6.00000000000000e-01,3.04615982685646e-03
6.51000000000000e-08,5.99999999999966e-01,6.00000000000000e-01,3.14132371470269e-03
6.51080000000000e-08,6.00000000000000e-01,6.00000000000000e-01,2.85029939654204e-03
6.51240000000000e-08,6.00000000000000e-01,6.00000000000000e-01,2.29945695444940e-03
6.51560000000000e-08,6.00000000000000e-01,6.00000000000000e-01,1.29495796094196e-03
6.52200000000000e-08,6.00000000000000e-01,6.00000000000000e-01,-1.21066997775435e-03
6.53480000000000e-08,6.00000000000000e-01,6.00000000000000e-01,-6.36953247265666e-03
6.56040000000000e-08,6.00000000000000e-01,6.00000000000000e-01,-1.01788797895960e-02
6.61053158469006e-08,6.00000000000000e-01,6.00000000000000e-01,6.19501930334668e-02
6.71079475407018e-08,6.00000000000000e-01,6.00000000000000e-01,4.51093942173821e-01
6.91132109283042e-08,6.00000000000000e-01,6.00000000000000e-01,6.24946035652182e-01
7.01000000000000e-08,6.00000000000000e-01,6.00000000000000e-01,5.86481333526997e-01
7.01100000000000e-08,6.00000000000000e-01,5.40000000000011e-01,5.87267990500813e-01
7.01300000000000e-08,6.00000000000000e-01,4.20000000000034e-01,5.88737372200196e-01
7.01700000000000e-08,6.00000000000000e-01,1.80000000000080e-01,5.91137290796281e-01
7.02000000000000e-08,6.00000000000000e-01,3.44169137633799e-14,5.92641598012322e-01
7.02080000000000e-08,6.00000000000000e-01,0.00000000000000e+00,5.92997829234833e-01
7.02240000000000e-08,6.00000000000000e-01,0.00000000000000e+00,5.93661691229180e-01
7.02560000000000e-08,6.00000000000000e-01,0.00000000000000e+00,5.94805627001339e-01
7.03200000000000e-08,6.00000000000000e-01,0.00000000000000e+00,5.96507103313077e-01
7.04480000000000e-08,6.00000000000000e-01,0.00000000000000e+00,5.98466376620055e-01
7.07040000000000e-08,6.00000000000000e-01,0.00000000000000e+00,5.99718058871190e-01
7.12159999999999e-08,6.00000000000000e-01,0.00000000000000e+00,5.99950052856207e-01
7.22399999999999e-08,6.00000000000000e-01,0.00000000000000e+00,5.99990645905559e-01
7.38083636634651e-08,6.00000000000000e-01,0.00000000000000e+00,6.00057244667817e-01
7.51000000000000e-08,6.00000000000000e-01,0.00000000000000e+00,5.99921960391455e-01
7.51100000000000e-08,5.40000000000061e-01,0.00000000000000e+00,5.99743395917839e-01
7.51300000000000e-08,4.20000000000084e-01,0.00000000000000e+00,5.99335193962839e-01
7.51700000000000e-08,1.80000000000129e-01,0.00000000000000e+00,5.98658930318197e-01
7.52000000000000e-08,8.40438829641244e-14,0.00000000000000e+00,5.98927796140217e-01
7.52080000000000e-08,0.00000000000000e+00,0.00000000000000e+00,5.99269005790565e-01
7.52240000000000e-08,0.00000000000000e+00,0.00000000000000e+00,5.99906596743689e-01
7.52560000000000e-08,0.00000000000000e+00,0.00000000000000e+00,6.01205601457799e-01
7.53200000000000e-08,0.00000000000000e+00,0.00000000000000e+00,6.03116846983926e-01
7.54480000000000e-08,0.00000000000000e+00,0.00000000000000e+00,6.05065138295613e-01
7.57040000000000e-08,0.00000000000000e+00,0.00000000000000e+00,6.06327484929046e-01
7.62159999999999e-08,0.00000000000000e+00,0.00000000000000e+00,6.02700128834375e-01
7.72399999999999e-08,0.00000000000000e+00,0.00000000000000e+00,5.85469424656053e-01
7.81000000000000e-08,0.00000000000000e+00,0.00000000000000e+00,5.90302454693234e-01
7.83048000000000e-08,0.00000000000000e+00,0.00000000000000e+00,5.93273430061483e-01
7.87144000000000e-08,0.00000000000000e+00,0.00000000000000e+00,5.96971171885132e-01
7.95335999999999e-08,0.00000000000000e+00,0.00000000000000e+00,5.98714492419449e-01
8.11719999999998e-08,0.00000000000000e+00,0.00000000000000e+00,5.99317922456462e-01
8.44487999999996e-08,0.00000000000000e+00,0.00000000000000e+00,5.99643971231334e-01
8.50000000000000e-08,0.00000000000000e+00,0.00000000000000e+00,5.99695216743581e-01
8.50100000000000e-08,5.99999999999886e-02,0.00000000000000e+00,5.99938388828743e-01
8.50300000000000e-08,1.79999999999966e-01,0.00000000000000e+00,6.00412846366342e-01
8.50700000000000e-08,4.19999999999920e-01,0.00000000000000e+00,6.01170254220232e-01
8.51000000000000e-08,5.99999999999966e-01,0.00000000000000e+00,6.01137120770802e-01
8.51080000000000e-08,6.00000000000000e-01,0.00000000000000e+00,6.00958156020272e-01
8.51240000000000e-08,6.00000000000000e-01,0.00000000000000e+00,6.00606364986866e-01
8.51560000000000e-08,6.00000000000000e-01,0.00000000000000e+00,5.99998987969269e-01
8.52200000000000e-08,6.00000000000000e-01,0.00000000000000e+00,5.99038992930529e-01
8.53480000000000e-08,6.00000000000000e-01,0.00000000000000e+00,5.98065664053814e-01
8.56040000000000e-08,6.00000000000000e-01,0.00000000000000e+00,5.98773600932349e-01
8.61159999999999e-08,6.00000000000000e-01,0.00000000000000e+00,6.12325469242735e-01
8.71399999999999e-08,6.00000000000000e-01,0.00000000000000e+00,2.43125516005106e-01
8.91177229001805e-08,6.00000000000000e-01,0.00000000000000e+00,-4.93855160723688e-02
9.00000000000000e-08,6.00000000000000e-01,0.00000000000000e+00,3.21589311343668e-02
9.00100000000000e-08,6.00000000000000e-01,5.99999999999886e-02,3.00330140364501e-02
9.00300000000000e-08,6.00000000000000e-01,1.79999999999966e-01,2.60155950921370e-02
9.00700000000000e-08,6.00000000000000e-01,4.19999999999920e-01,1.93790219804594e-02
9.01000000000000e-08,6.00000000000000e-01,5.99999999999966e-01,1.54857593549349e-02
9.01080000000000e-08,6.00000000000000e-01,6.00000000000000e-01,1.46057310164086e-02
9.01240000000000e-08,6.00000000000000e-01,6.00000000000000e-01,1.29521495213734e-02
9.01560000000000e-08,6.00000000000000e-01,6.00000000000000e-01,1.01783137021943e-02
9.02200000000000e-08,6.00000000000000e-01,6.00000000000000e-01,6.09838417467588e-03
9.03480000000000e-08,6.00000000000000e-01,6.00000000000000e-01,2.31280749263739e-03
9.06040000000000e-08,6.00000000000000e-01,6.00000000000000e-01,2.19426070922298e-04
9.11159999999999e-08,6.00000000000000e-01,6.00000000000000e-01,-8.45333484954941e-06
9.21183180553888e-08,6.00000000000000e-01,6.00000000000000e-01,-5.33123352183112e-06
9.41229541661665e-08,6.00000000000000e-01,6.00000000000000e-01,8.69760204164072e-06
9.51000000000000e-08,6.00000000000000e-01,6.00000000000000e-01,-6.41124539653773e-06
9.51100000000000e-08,5.40000000000061e-01,6.00000000000000e-01,-1.56335638418686e-04
9.51300000000000e-08,4.20000000000084e-01,6.00000000000000e-01,-5.62434953169835e-04
9.51700000000000e-08,1.80000000000129e-01,6.00000000000000e-01,-1.78709025605918e-03
9.52000000000000e-08,8.40438829641244e-14,6.00000000000000e-01,-2.27588584172844e-03
9.52080000000000e-08,0.00000000000000e+00,6.00000000000000e-01,-1.99451864551151e-03
9.52240000000000e-08,0.00000000000000e+00,6.00000000000000e-01,-1.45493449033809e-03
9.52560000000000e-08,0.00000000000000e+00,6.00000000000000e-01,-5.29719040015628e-04
9.53200000000000e-08,0.00000000000000e+00,6.00000000000000e-01,5.46884353465171e-04
9.54480000000000e-08,0.00000000000000e+00,6.00000000000000e-01,1.08395822697616e-03
9.57040000000000e-08,0.00000000000000e+00,6.00000000000000e-01,6.16120339393303e-04
9.62159999999999e-08,0.00000000000000e+00,6.00000000000000e-01,-6.92012896396567e-04
9.72399999999999e-08,0.00000000000000e+00,6.00000000000000e-01,-8.88829623350400e-05
9.92496906579886e-08,0.00000000000000e+00,6.00000000000000e-01,-8.59632545798551e-05
1.01687812105498e-07,0.00000000000000e+00,6.00000000000000e-01,3.11171983977190e-05
1.05000000000000e-07,0.00000000000000e+00,6.00000000000000e-01,1.38683745708404e-04
1.05010000000000e-07,5.99999999999886e-02,6.00000000000000e-01,6.18709738849532e-04
1.05030000000000e-07,1.79999999999966e-01,6.00000000000000e-01,1.53758423840822e-03
1.05070000000000e-07,4.19999999999920e-01,6.00000000000000e-01,3.04555738306270e-03
1.05100000000000e-07,5.99999999999966e-01,6.00000000000000e-01,3.14079550383556e-03
1.05108000000000e-07,6.00000000000000e-01,6.00000000000000e-01,2.84977337758265e-03
1.05124000000000e-07,6.00000000000000e-01,6.00000000000000e-01,2.29915148062451e-03
1.05156000000000e-07,6.00000000000000e-01,6.00000000000000e-01,1.29696918145848e-03
1.05220000000000e-07,6.00000000000000e-01,6.00000000000000e-01,-1.20272249008434e-03
1.05348000000000e-07,6.00000000000000e-01,6.00000000000000e-01,-6.36112570244168e-03
1.05604000000000e-07,6.00000000000000e-01,6.00000000000000e-01,-1.01810773443245e-02
1.06104794543617e-07,6.00000000000000e-01,6.00000000000000e-01,6.16722112355635e-02
1.07106383630851e-07,6.00000000000000e-01,6.00000000000000e-01,4.50575849865545e-01
1.09109561805320e-07,6.00000000000000e-01,6.00000000000000e-01,6.24956449132342e-01
1.10100000000000e-07,6.00000000000000e-01,6.00000000000000e-01,5.86424160472709e-01
1.10110000000000e-07,6.00000000000000e-01,5.40000000000091e-01,5.87215579559280e-01
1.10130000000000e-07,6.00000000000000e-01,4.20000000000114e-01,5.88692336963998e-01
1.10170000000000e-07,6.00000000000000e-01,1.80000000000159e-01,5.91105503132396e-01
1.10200000000000e-07,6.00000000000000e-01,1.13686837721616e-13,5.92617149797320e-01
1.10208000000000e-07,6.00000000000000e-01,0.00000000000000e+00,5.92974775075398e-01
1.10224000000000e-07,6.00000000000000e-01,0.00000000000000e+00,5.93641990386501e-01
1.10256000000000e-07,6.00000000000000e-01,0.00000000000000e+00,5.94791510822543e-01
1.10320000000000e-07,6.00000000000000e-01,0.00000000000000e+00,5.96506938375571e-01
1.10448000000000e-07,6.00000000000000e-01,0.00000000000000e+00,5.98466234926048e-01
1.10704000000000e-07,6.00000000000000e-01,0.00000000000000e+00,5.99719657667463e-01
1.11216000000000e-07,6.00000000000000e-01,0.00000000000000e+00,5.99950094700819e-01
1.12240000000000e-07,6.00000000000000e-01,0.00000000000000e+00,5.99990462837453e-01
1.13808331501873e-07,6.00000000000000e-01,0.00000000000000e+00,6.00057309005868e-01
1.15100000000000e-07,6.00000000000000e-01,0.00000000000000e+00,5.99921864992904e-01
