Time,v(clk),v(data),v(out),v(reset)
1.00000000000000e-08,6.00000000000000e-01,0.00000000000000e+00,-3.03218340328169e-03,0.00000000000000e+00
1.00100000000000e-08,6.00000000000000e-01,5.99999999999986e-02,-2.57171675309671e-03,0.00000000000000e+00
1.00300000000000e-08,6.00000000000000e-01,1.79999999999996e-01,-1.79963280449427e-03,0.00000000000000e+00
1.00700000000000e-08,6.00000000000000e-01,4.19999999999990e-01,-1.06971338315646e-03,0.00000000000000e+00
1.01000000000000e-08,6.00000000000000e-01,5.99999999999995e-01,-7.22498049632821e-04,0.00000000000000e+00
1.01080000000000e-08,6.00000000000000e-01,6.00000000000000e-01,-6.55740346535434e-04,0.00000000000000e+00
1.01240000000000e-08,6.00000000000000e-01,6.00000000000000e-01,-5.33790089562114e-04,0.00000000000000e+00
1.01560000000000e-08,6.00000000000000e-01,6.00000000000000e-01,-3.50461447505043e-04,0.00000000000000e+00
1.02200000000000e-08,6.00000000000000e-01,6.00000000000000e-01,-1.44776653887867e-04,0.00000000000000e+00
1.03480000000000e-08,6.00000000000000e-01,6.00000000000000e-01,4.89433740466748e-05,0.00000000000000e+00
1.06040000000000e-08,6.00000000000000e-01,6.00000000000000e-01,-1.19786101736540e-05,0.00000000000000e+00
1.11160000000000e-08,6.00000000000000e-01,6.00000000000000e-01,9.49306855653129e-06,0.00000000000000e+00
1.21400000000000e-08,6.00000000000000e-01,6.00000000000000e-01,-5.10880935547346e-06,0.00000000000000e+00
1.41880000000000e-08,6.00000000000000e-01,6.00000000000000e-01,7.11989245590159e-06,0.00000000000000e+00
1.51000000000000e-08,6.00000000000000e-01,6.00000000000000e-01,-3.43903901941015e-06,0.00000000000000e+00
1.51100000000000e-08,5.39999999999992e-01,6.00000000000000e-01,1.92139820557907e-04,6.00000000000085e-02
1.51300000000000e-08,4.19999999999994e-01,6.00000000000000e-01,4.36681248381622e-04,1.80000000000006e-01
1.51700000000000e-08,1.80000000000000e-01,6.00000000000000e-01,3.84721230665935e-04,4.20000000000000e-01
1.52000000000000e-08,0.00000000000000e+00,6.00000000000000e-01,2.25573518867546e-04,6.00000000000000e-01
1.52080000000000e-08,0.00000000000000e+00,6.00000000000000e-01,1.79330970172135e-04,6.00000000000000e-01
1.52240000000000e-08,0.00000000000000e+00,6.00000000000000e-01,1.10622112081779e-04,6.00000000000000e-01
1.52560000000000e-08,0.00000000000000e+00,6.00000000000000e-01,5.81198037783726e-05,6.00000000000000e-01
1.53200000000000e-08,0.00000000000000e+00,6.00000000000000e-01,3.65407601086026e-05,6.00000000000000e-01
1.54480000000000e-08,0.00000000000000e+00,6.00000000000000e-01,-9.52073852360305e-05,6.00000000000000e-01
1.57040000000000e-08,0.00000000000000e+00,6.00000000000000e-01,-1.79202610508414e-04,6.00000000000000e-01
1.61506934345503e-08,0.00000000000000e+00,6.00000000000000e-01,-3.19970957263736e-06,6.00000000000000e-01
1.69897169330859e-08,0.00000000000000e+00,6.00000000000000e-01,-2.85825848186164e-05,6.00000000000000e-01
1.79602497432678e-08,0.00000000000000e+00,6.00000000000000e-01,1.32496869979204e-04,6.00000000000000e-01
1.99013153636317e-08,0.00000000000000e+00,6.00000000000000e-01,-1.51917452593779e-04,6.00000000000000e-01
2.22403877246319e-08,0.00000000000000e+00,6.00000000000000e-01,1.58753375766008e-04,6.00000000000000e-01
2.50000000000000e-08,0.00000000000000e+00,6.00000000000000e-01,-1.59640792693876e-04,6.00000000000000e-01
2.50100000000000e-08,5.99999999999886e-02,6.00000000000000e-01,-2.98130416310077e-05,6.00000000000000e-01
2.50300000000000e-08,1.80000000000006e-01,6.00000000000000e-01,1.89361749317517e-04,6.00000000000000e-01
2.50700000000000e-08,4.20000000000000e-01,6.00000000000000e-01,4.32749612603540e-04,6.00000000000000e-01
2.51000000000000e-08,6.00000000000000e-01,6.00000000000000e-01,3.48461277866245e-04,6.00000000000000e-01
2.51080000000000e-08,6.00000000000000e-01,6.00000000000000e-01,1.91643605396183e-04,6.00000000000000e-01
2.51240000000000e-08,6.00000000000000e-01,6.00000000000000e-01,-2.22088128798398e-04,6.00000000000000e-01
2.51560000000000e-08,6.00000000000000e-01,6.00000000000000e-01,-1.40277114254436e-03,6.00000000000000e-01
2.52200000000000e-08,6.00000000000000e-01,6.00000000000000e-01,-3.65466553772478e-03,6.00000000000000e-01
2.53480000000000e-08,6.00000000000000e-01,6.00000000000000e-01,-5.60036837464101e-03,6.00000000000000e-01
2.56040000000000e-08,6.00000000000000e-01,6.00000000000000e-01,1.31557544315671e-01,6.00000000000000e-01
2.61160000000000e-08,6.00000000000000e-01,6.00000000000000e-01,5.65078244604463e-01,6.00000000000000e-01
2.71400000000000e-08,6.00000000000000e-01,6.00000000000000e-01,6.11407233483503e-01,6.00000000000000e-01
2.83502732058083e-08,6.00000000000000e-01,6.00000000000000e-01,5.87916978378985e-01,6.00000000000000e-01
3.04138076759152e-08,6.00000000000000e-01,6.00000000000000e-01,6.09831606915761e-01,6.00000000000000e-01
3.31516836782371e-08,6.00000000000000e-01,6.00000000000000e-01,5.89534314161186e-01,6.00000000000000e-01
3.51000000000000e-08,5.99999999999970e-01,6.00000000000000e-01,6.08907804442284e-01,6.00000000000000e-01
3.51100000000000e-08,5.39999999999982e-01,6.00000000000000e-01,6.06455511779895e-01,6.00000000000000e-01
3.51300000000000e-08,4.19999999999965e-01,6.00000000000000e-01,6.02830126882513e-01,6.00000000000000e-01
3.51700000000000e-08,1.79999999999970e-01,6.00000000000000e-01,6.00641480154181e-01,6.00000000000000e-01
3.52000000000000e-08,0.00000000000000e+00,6.00000000000000e-01,6.01610875159579e-01,6.00000000000000e-01
3.52080000000000e-08,0.00000000000000e+00,6.00000000000000e-01,6.02023355367140e-01,6.00000000000000e-01
3.52240000000000e-08,0.00000000000000e+00,6.00000000000000e-01,6.02630924526233e-01,6.00000000000000e-01
3.52560000000000e-08,0.00000000000000e+00,6.00000000000000e-01,6.03050035954520e-01,6.00000000000000e-01
3.53200000000000e-08,0.00000000000000e+00,6.00000000000000e-01,6.01541293561361e-01,6.00000000000000e-01
3.54480000000000e-08,0.00000000000000e+00,6.00000000000000e-01,5.85787875021969e-01,6.00000000000000e-01
3.57040000000000e-08,0.00000000000000e+00,6.00000000000000e-01,5.80453758089947e-01,6.00000000000000e-01
3.62160000000000e-08,0.00000000000000e+00,6.00000000000000e-01,6.03470128906397e-01,6.00000000000000e-01
3.70825017319047e-08,0.00000000000000e+00,6.00000000000000e-01,5.96438241659050e-01,6.00000000000000e-01
3.83731074128784e-08,0.00000000000000e+00,6.00000000000000e-01,6.02498713423079e-01,6.00000000000000e-01
4.09543187748257e-08,0.00000000000000e+00,6.00000000000000e-01,5.97322577453683e-01,6.00000000000000e-01
4.47543187748257e-08,0.00000000000000e+00,6.00000000000000e-01,6.02307516300362e-01,6.00000000000000e-01
4.50000000000000e-08,0.00000000000000e+00,6.00000000000000e-01,5.98886810005924e-01,6.00000000000000e-01
4.50100000000000e-08,5.99999999999886e-02,6.00000000000000e-01,5.98970268806600e-01,5.40000000000011e-01
4.50300000000000e-08,1.80000000000006e-01,6.00000000000000e-01,5.99083775865357e-01,4.19999999999994e-01
4.50700000000000e-08,4.20000000000000e-01,6.00000000000000e-01,6.00101688163496e-01,1.80000000000000e-01
4.51000000000000e-08,6.00000000000000e-01,6.00000000000000e-01,6.03472169734199e-01,0.00000000000000e+00
4.51080000000000e-08,6.00000000000000e-01,6.00000000000000e-01,6.04776591637073e-01,0.00000000000000e+00
4.51240000000000e-08,6.00000000000000e-01,6.00000000000000e-01,6.07022455945015e-01,0.00000000000000e+00
4.51560000000000e-08,6.00000000000000e-01,6.00000000000000e-01,6.10355749968919e-01,0.00000000000000e+00
4.52200000000000e-08,6.00000000000000e-01,6.00000000000000e-01,6.16994180460613e-01,0.00000000000000e+00
4.53480000000000e-08,6.00000000000000e-01,6.00000000000000e-01,6.09949155151083e-01,0.00000000000000e+00
4.56040000000000e-08,6.00000000000000e-01,6.00000000000000e-01,2.54824979201685e-01,0.00000000000000e+00
4.60705531028809e-08,6.00000000000000e-01,6.00000000000000e-01,-4.93161420292962e-02,0.00000000000000e+00
4.66923787813765e-08,6.00000000000000e-01,6.00000000000000e-01,3.49777295378676e-02,0.00000000000000e+00
4.79360301383675e-08,6.00000000000000e-01,6.00000000000000e-01,-2.56443606037195e-02,0.00000000000000e+00
4.92863662944270e-08,6.00000000000000e-01,6.00000000000000e-01,2.25268873604575e-02,0.00000000000000e+00
5.01000000000000e-08,6.00000000000000e-01,5.99999999999966e-01,-1.55829552478919e-02,0.00000000000000e+00
5.03700672312119e-08,6.00000000000000e-01,6.00000000000000e-01,-2.64503071447623e-03,0.00000000000000e+00
5.09102016936357e-08,6.00000000000000e-01,6.00000000000000e-01,1.52296237601541e-03,0.00000000000000e+00
5.19904706184832e-08,6.00000000000000e-01,6.00000000000000e-01,-1.16490332920730e-03,0.00000000000000e+00
5.41510084681784e-08,6.00000000000000e-01,6.00000000000000e-01,1.02647260451566e-03,0.00000000000000e+00
5.51000000000000e-08,6.00000000000000e-01,6.00000000000000e-01,-7.66353340934762e-04,0.00000000000000e+00
5.51100000000000e-08,5.40000000000021e-01,6.00000000000000e-01,-4.36676016281154e-04,5.99999999999787e-02
5.51300000000000e-08,4.20000000000004e-01,6.00000000000000e-01,3.38105851933890e-06,1.79999999999996e-01
5.51700000000000e-08,1.80000000000010e-01,6.00000000000000e-01,1.30870400609197e-04,4.19999999999990e-01
5.52000000000000e-08,0.00000000000000e+00,6.00000000000000e-01,5.06470202863013e-05,6.00000000000000e-01
5.52080000000000e-08,0.00000000000000e+00,6.00000000000000e-01,1.94944242689274e-05,6.00000000000000e-01
5.52240000000000e-08,0.00000000000000e+00,6.00000000000000e-01,-2.15209023773505e-05,6.00000000000000e-01
5.52560000000000e-08,0.00000000000000e+00,6.00000000000000e-01,-3.45656580757470e-05,6.00000000000000e-01
5.53200000000000e-08,0.00000000000000e+00,6.00000000000000e-01,-5.34373832578316e-05,6.00000000000000e-01
5.54480000000000e-08,0.00000000000000e+00,6.00000000000000e-01,-8.11478079165741e-04,6.00000000000000e-01
5.57040000000000e-08,0.00000000000000e+00,6.00000000000000e-01,-5.73278038637388e-04,6.00000000000000e-01
5.61189291820892e-08,0.00000000000000e+00,6.00000000000000e-01,4.00862643516161e-04,6.00000000000000e-01
5.69487875462677e-08,0.00000000000000e+00,6.00000000000000e-01,-4.27409127572926e-04,6.00000000000000e-01
5.78886916168102e-08,0.00000000000000e+00,6.00000000000000e-01,3.77392883427159e-04,6.00000000000000e-01
5.97684997578950e-08,0.00000000000000e+00,6.00000000000000e-01,-3.24653302111129e-04,6.00000000000000e-01
6.20189918948704e-08,0.00000000000000e+00,6.00000000000000e-01,2.87530391254359e-04,6.00000000000000e-01
6.50000000000000e-08,0.00000000000000e+00,6.00000000000000e-01,-2.58575210862819e-04,6.00000000000000e-01
6.50100000000000e-08,5.99999999999886e-02,6.00000000000000e-01,-1.13056987806510e-04,6.00000000000000e-01
6.50300000000000e-08,1.79999999999966e-01,6.00000000000000e-01,1.21726544954605e-04,6.00000000000000e-01
6.50700000000000e-08,4.19999999999920e-01,6.00000000000000e-01,4.18832195287169e-04,6.00000000000000e-01
6.51000000000000e-08,5.99999999999966e-01,6.00000000000000e-01,3.48112023936996e-04,6.00000000000000e-01
6.51080000000000e-08,6.00000000000000e-01,6.00000000000000e-01,1.97818410877092e-04,6.00000000000000e-01
6.51240000000000e-08,6.00000000000000e-01,6.00000000000000e-01,-2.02460084943054e-04,6.00000000000000e-01
6.51560000000000e-08,6.00000000000000e-01,6.00000000000000e-01,-1.36781406226297e-03,6.00000000000000e-01
6.52200000000000e-08,6.00000000000000e-01,6.00000000000000e-01,-3.62309470691256e-03,6.00000000000000e-01
6.53480000000000e-08,6.00000000000000e-01,6.00000000000000e-01,-5.65352833160832e-03,6.00000000000000e-01
6.56040000000000e-08,6.00000000000000e-01,6.00000000000000e-01,1.28778947156641e-01,6.00000000000000e-01
6.61159999999999e-08,6.00000000000000e-01,6.00000000000000e-01,5.63725620212388e-01,6.00000000000000e-01
6.71399999999999e-08,6.00000000000000e-01,6.00000000000000e-01,6.11823151499818e-01,6.00000000000000e-01
6.83510980735253e-08,6.00000000000000e-01,6.00000000000000e-01,5.87454002326646e-01,6.00000000000000e-01
7.04178549625375e-08,6.00000000000000e-01,6.00000000000000e-01,6.10211631362581e-01,6.00000000000000e-01
7.31607822333692e-08,6.00000000000000e-01,6.00000000000000e-01,5.89118201137620e-01,6.00000000000000e-01
7.51000000000000e-08,6.00000000000000e-01,6.00000000000000e-01,6.09257698063691e-01,6.00000000000000e-01
7.51100000000000e-08,5.40000000000061e-01,6.00000000000000e-01,6.06705260238349e-01,6.00000000000000e-01
7.51300000000000e-08,4.20000000000084e-01,6.00000000000000e-01,6.02934842080265e-01,6.00000000000000e-01
7.51700000000000e-08,1.80000000000129e-01,6.00000000000000e-01,6.00651416251522e-01,6.00000000000000e-01
7.52000000000000e-08,8.40438829641244e-14,6.00000000000000e-01,6.01612523714184e-01,6.00000000000000e-01
7.52080000000000e-08,0.00000000000000e+00,6.00000000000000e-01,6.02024120739064e-01,6.00000000000000e-01
7.52240000000000e-08,0.00000000000000e+00,6.00000000000000e-01,6.02630292200017e-01,6.00000000000000e-01
7.52560000000000e-08,0.00000000000000e+00,6.00000000000000e-01,6.03048826401098e-01,6.00000000000000e-01
7.53200000000000e-08,0.00000000000000e+00,6.00000000000000e-01,6.01536906367745e-01,6.00000000000000e-01
7.54480000000000e-08,0.00000000000000e+00,6.00000000000000e-01,5.85776153452267e-01,6.00000000000000e-01
7.57040000000000e-08,0.00000000000000e+00,6.00000000000000e-01,5.80450081593151e-01,6.00000000000000e-01
7.62159999999999e-08,0.00000000000000e+00,6.00000000000000e-01,6.03473579417707e-01,6.00000000000000e-01
7.70824786699444e-08,0.00000000000000e+00,6.00000000000000e-01,5.96435192153657e-01,6.00000000000000e-01
7.83730786774370e-08,0.00000000000000e+00,6.00000000000000e-01,6.02500937658920e-01,6.00000000000000e-01
8.09542786924221e-08,0.00000000000000e+00,6.00000000000000e-01,5.97320412978890e-01,6.00000000000000e-01
8.47542786924221e-08,0.00000000000000e+00,6.00000000000000e-01,6.02309463641351e-01,6.00000000000000e-01
8.50000000000000e-08,0.00000000000000e+00,6.00000000000000e-01,5.98885859187032e-01,6.00000000000000e-01
8.50100000000000e-08,5.99999999999886e-02,6.00000000000000e-01,5.98969468910576e-01,5.40000000000011e-01
8.50300000000000e-08,1.79999999999966e-01,6.00000000000000e-01,5.99083255522584e-01,4.20000000000034e-01
8.50700000000000e-08,4.19999999999920e-01,6.00000000000000e-01,6.00101474565405e-01,1.80000000000080e-01
8.51000000000000e-08,5.99999999999966e-01,6.00000000000000e-01,6.03472103213397e-01,3.44169137633799e-14
8.51080000000000e-08,6.00000000000000e-01,6.00000000000000e-01,6.04776552895024e-01,0.00000000000000e+00
8.51240000000000e-08,6.00000000000000e-01,6.00000000000000e-01,6.07022454819963e-01,0.00000000000000e+00
8.51560000000000e-08,6.00000000000000e-01,6.00000000000000e-01,6.10355757040582e-01,0.00000000000000e+00
8.52200000000000e-08,6.00000000000000e-01,6.00000000000000e-01,6.16994136941410e-01,0.00000000000000e+00
8.53480000000000e-08,6.00000000000000e-01,6.00000000000000e-01,6.09948152133625e-01,0.00000000000000e+00
8.56040000000000e-08,6.00000000000000e-01,6.00000000000000e-01,2.54824157305134e-01,0.00000000000000e+00
8.60705557952645e-08,6.00000000000000e-01,6.00000000000000e-01,-4.93162597753475e-02,0.00000000000000e+00
8.66923827402525e-08,6.00000000000000e-01,6.00000000000000e-01,3.49778641018475e-02,0.00000000000000e+00
8.79360366302285e-08,6.00000000000000e-01,6.00000000000000e-01,-2.56443690267040e-02,0.00000000000000e+00
8.92863785013301e-08,6.00000000000000e-01,6.00000000000000e-01,2.25269453448415e-02,0.00000000000000e+00
9.01000000000000e-08,6.00000000000000e-01,5.99999999999966e-01,-1.55828503039892e-02,0.00000000000000e+00
9.03700683742203e-08,6.00000000000000e-01,6.00000000000000e-01,-2.64502194607088e-03,0.00000000000000e+00
9.09102051226609e-08,6.00000000000000e-01,6.00000000000000e-01,1.52295857480861e-03,0.00000000000000e+00
9.19904786195422e-08,6.00000000000000e-01,6.00000000000000e-01,-1.16490045731745e-03,0.00000000000000e+00
9.41510256133048e-08,6.00000000000000e-01,6.00000000000000e-01,1.02647020097616e-03,0.00000000000000e+00
9.51000000000000e-08,6.00000000000000e-01,6.00000000000000e-01,-7.66346265210315e-04,0.00000000000000e+00
9.51100000000000e-08,5.40000000000061e-01,6.00000000000000e-01,-4.36672851453386e-04,5.99999999999390e-02
9.51300000000000e-08,4.20000000000084e-01,6.00000000000000e-01,3.38240601330947e-06,1.79999999999916e-01
9.51700000000000e-08,1.80000000000129e-01,6.00000000000000e-01,1.30871406470411e-04,4.19999999999871e-01
9.52000000000000e-08,8.40438829641244e-14,6.00000000000000e-01,5.06475240064155e-05,5.99999999999916e-01
9.52080000000000e-08,0.00000000000000e+00,6.00000000000000e-01,1.94948035030507e-05,6.00000000000000e-01
9.52240000000000e-08,0.00000000000000e+00,6.00000000000000e-01,-2.15208828164837e-05,6.00000000000000e-01
9.52560000000000e-08,0.00000000000000e+00,6.00000000000000e-01,-3.45658119392314e-05,6.00000000000000e-01
9.53200000000000e-08,0.00000000000000e+00,6.00000000000000e-01,-5.34344338318921e-05,6.00000000000000e-01
9.54480000000000e-08,0.00000000000000e+00,6.00000000000000e-01,-8.11450833807820e-04,6.00000000000000e-01
9.57040000000000e-08,0.00000000000000e+00,6.00000000000000e-01,-5.73254738100090e-04,6.00000000000000e-01
9.61189015015034e-08,0.00000000000000e+00,6.00000000000000e-01,4.00848104264670e-04,6.00000000000000e-01
9.69487045045102e-08,0.00000000000000e+00,6.00000000000000e-01,-4.27401856099118e-04,6.00000000000000e-01
9.78885946468907e-08,0.00000000000000e+00,6.00000000000000e-01,3.77377969295300e-04,6.00000000000000e-01
9.97683749316516e-08,0.00000000000000e+00,6.00000000000000e-01,-3.24634835530039e-04,6.00000000000000e-01
1.02018745615223e-07,0.00000000000000e+00,6.00000000000000e-01,2.87509016392497e-04,6.00000000000000e-01
1.05000000000000e-07,0.00000000000000e+00,6.00000000000000e-01,-2.58555690013402e-04,6.00000000000000e-01
1.05010000000000e-07,5.99999999999886e-02,6.00000000000000e-01,-1.13041174673513e-04,6.00000000000000e-01
1.05030000000000e-07,1.79999999999966e-01,6.00000000000000e-01,1.21737201337228e-04,6.00000000000000e-01
1.05070000000000e-07,4.19999999999920e-01,6.00000000000000e-01,4.18838271246398e-04,6.00000000000000e-01
1.05100000000000e-07,5.99999999999966e-01,6.00000000000000e-01,3.48122585709251e-04,6.00000000000000e-01
1.05108000000000e-07,6.00000000000000e-01,6.00000000000000e-01,1.97833066161834e-04,6.00000000000000e-01
1.05124000000000e-07,6.00000000000000e-01,6.00000000000000e-01,-2.02436569417389e-04,6.00000000000000e-01
1.05156000000000e-07,6.00000000000000e-01,6.00000000000000e-01,-1.36778133228735e-03,6.00000000000000e-01
1.05220000000000e-07,6.00000000000000e-01,6.00000000000000e-01,-3.62306972968891e-03,6.00000000000000e-01
1.05348000000000e-07,6.00000000000000e-01,6.00000000000000e-01,-5.65354369467932e-03,6.00000000000000e-01
1.05604000000000e-07,6.00000000000000e-01,6.00000000000000e-01,1.28777956283796e-01,6.00000000000000e-01
1.06116000000000e-07,6.00000000000000e-01,6.00000000000000e-01,5.63725130474792e-01,6.00000000000000e-01
1.07140000000000e-07,6.00000000000000e-01,6.00000000000000e-01,6.11823301176098e-01,6.00000000000000e-01
1.08351098373115e-07,6.00000000000000e-01,6.00000000000000e-01,5.87453835546200e-01,6.00000000000000e-01
1.10417856462368e-07,6.00000000000000e-01,6.00000000000000e-01,6.10211768115405e-01,6.00000000000000e-01
1.13160785580545e-07,6.00000000000000e-01,6.00000000000000e-01,5.89118051263651e-01,6.00000000000000e-01
1.15100000000000e-07,6.00000000000000e-01,6.00000000000000e-01,6.09257823923006e-01,6.00000000000000e-01
1.15110000000000e-07,5.40000000000061e-01,6.00000000000000e-01,6.06705350075684e-01,6.00000000000000e-01
1.15130000000000e-07,4.20000000000084e-01,6.00000000000000e-01,6.02934879744646e-01,6.00000000000000e-01
1.15170000000000e-07,1.80000000000129e-01,6.00000000000000e-01,6.00651419828618e-01,6.00000000000000e-01
1.15200000000000e-07,8.40438829641244e-14,6.00000000000000e-01,6.01612524313765e-01,6.00000000000000e-01
1.15208000000000e-07,0.00000000000000e+00,6.00000000000000e-01,6.02024121022969e-01,6.00000000000000e-01
1.15224000000000e-07,0.00000000000000e+00,6.00000000000000e-01,6.02630291979569e-01,6.00000000000000e-01
