Time,v(clk),v(data),v(out)
1.00000000000000e-08,6.00000000000000e-01,0.00000000000000e+00,-6.64769452114050e-06
1.00100000000000e-08,6.00000000000000e-01,5.99999999999986e-02,-1.07946952974947e-06
1.00300000000000e-08,6.00000000000000e-01,1.79999999999996e-01,5.85954298083780e-06
1.00700000000000e-08,6.00000000000000e-01,4.19999999999990e-01,-1.96038052679981e-06
1.01000000000000e-08,6.00000000000000e-01,5.99999999999995e-01,-3.80897883759668e-05
1.01080000000000e-08,6.00000000000000e-01,6.00000000000000e-01,-4.68806180140280e-05
1.01240000000000e-08,6.00000000000000e-01,6.00000000000000e-01,-5.48448337153729e-05
1.01560000000000e-08,6.00000000000000e-01,6.00000000000000e-01,-5.09698513821294e-05
1.02200000000000e-08,6.00000000000000e-01,6.00000000000000e-01,-1.97769554631522e-05
1.03480000000000e-08,6.00000000000000e-01,6.00000000000000e-01,1.26064415048865e-05
1.06040000000000e-08,6.00000000000000e-01,6.00000000000000e-01,3.60242066148320e-06
1.11082057119926e-08,6.00000000000000e-01,6.00000000000000e-01,-1.85538962500786e-06
1.21166171359777e-08,6.00000000000000e-01,6.00000000000000e-01,5.08846549494499e-06
1.41334399839479e-08,6.00000000000000e-01,6.00000000000000e-01,-9.39028452717761e-07
1.51000000000000e-08,6.00000000000000e-01,6.00000000000000e-01,3.88548939864869e-06
1.51100000000000e-08,5.39999999999992e-01,6.00000000000000e-01,-1.28852087516507e-04
1.51300000000000e-08,4.19999999999994e-01,6.00000000000000e-01,-3.80435642780494e-04
1.51700000000000e-08,1.80000000000000e-01,6.00000000000000e-01,-8.21353941300507e-04
1.52000000000000e-08,0.00000000000000e+00,6.00000000000000e-01,-5.71058924651480e-04
1.52080000000000e-08,0.00000000000000e+00,6.00000000000000e-01,-2.03463524515349e-04
1.52240000000000e-08,0.00000000000000e+00,6.00000000000000e-01,4.05419917271790e-04
1.52560000000000e-08,0.00000000000000e+00,6.00000000000000e-01,1.00675945270494e-03
1.53200000000000e-08,0.00000000000000e+00,6.00000000000000e-01,1.16948385026096e-03
1.54480000000000e-08,0.00000000000000e+00,6.00000000000000e-01,6.44256282722161e-04
1.57040000000000e-08,0.00000000000000e+00,6.00000000000000e-01,-7.82895352398436e-04
1.62160000000000e-08,0.00000000000000e+00,6.00000000000000e-01,1.73559953915312e-04
1.71451176123782e-08,0.00000000000000e+00,6.00000000000000e-01,-2.16045628368550e-04
1.82556093465625e-08,0.00000000000000e+00,6.00000000000000e-01,1.92289905329268e-04
2.04765928149311e-08,0.00000000000000e+00,6.00000000000000e-01,-1.28063458943251e-04
2.26292736812657e-08,0.00000000000000e+00,6.00000000000000e-01,7.92182074636268e-05
2.50000000000000e-08,0.00000000000000e+00,6.00000000000000e-01,-4.35374125349677e-05
2.50100000000000e-08,5.99999999999886e-02,6.00000000000000e-01,3.26522368411714e-04
2.50300000000000e-08,1.80000000000006e-01,6.00000000000000e-01,9.71916125418693e-04
2.50700000000000e-08,4.20000000000000e-01,6.00000000000000e-01,1.84193466814814e-03
2.51000000000000e-08,6.00000000000000e-01,6.00000000000000e-01,1.75151750636411e-03
2.51080000000000e-08,6.00000000000000e-01,6.00000000000000e-01,1.50648373034955e-03
2.51240000000000e-08,6.00000000000000e-01,6.00000000000000e-01,9.60239868730547e-04
2.51560000000000e-08,6.00000000000000e-01,6.00000000000000e-01,-3.78054930272792e-04
2.52200000000000e-08,6.00000000000000e-01,6.00000000000000e-01,-2.95019904011848e-03
2.53480000000000e-08,6.00000000000000e-01,6.00000000000000e-01,-5.84714413867958e-03
2.56040000000000e-08,6.00000000000000e-01,6.00000000000000e-01,7.52061066405840e-03
2.61160000000000e-08,6.00000000000000e-01,6.00000000000000e-01,3.82759893576724e-01
2.71400000000000e-08,6.00000000000000e-01,6.00000000000000e-01,6.22701668638805e-01
2.80870339521595e-08,6.00000000000000e-01,6.00000000000000e-01,5.81258478640089e-01
2.99811018564785e-08,6.00000000000000e-01,6.00000000000000e-01,6.17498922050968e-01
3.01000000000000e-08,6.00000000000000e-01,6.00000000000000e-01,5.96030824363294e-01
3.01100000000000e-08,6.00000000000000e-01,5.40000000000031e-01,5.96702389121791e-01
3.01300000000000e-08,6.00000000000000e-01,4.20000000000014e-01,5.97783716202196e-01
3.01700000000000e-08,6.00000000000000e-01,1.80000000000020e-01,5.99004934248815e-01
3.02000000000000e-08,6.00000000000000e-01,1.44328993201270e-14,5.99448424576284e-01
3.02080000000000e-08,6.00000000000000e-01,0.00000000000000e+00,5.99524992893360e-01
3.02240000000000e-08,6.00000000000000e-01,0.00000000000000e+00,5.99643082191169e-01
3.02560000000000e-08,6.00000000000000e-01,0.00000000000000e+00,5.99756372041941e-01
3.03200000000000e-08,6.00000000000000e-01,0.00000000000000e+00,5.99840552215054e-01
3.04480000000000e-08,6.00000000000000e-01,0.00000000000000e+00,5.99870769103738e-01
3.07040000000000e-08,6.00000000000000e-01,0.00000000000000e+00,5.99897410031875e-01
3.12160000000000e-08,6.00000000000000e-01,0.00000000000000e+00,6.00054341229430e-01
3.19033121881442e-08,6.00000000000000e-01,0.00000000000000e+00,5.99917708799401e-01
3.31354954021097e-08,6.00000000000000e-01,0.00000000000000e+00,6.00020130698698e-01
3.51000000000000e-08,5.99999999999970e-01,0.00000000000000e+00,5.99943271406439e-01
3.51100000000000e-08,5.39999999999982e-01,0.00000000000000e+00,5.99777333142055e-01
3.51300000000000e-08,4.19999999999965e-01,0.00000000000000e+00,5.99505303730017e-01
3.51700000000000e-08,1.79999999999970e-01,0.00000000000000e+00,5.99733787943020e-01
3.52000000000000e-08,0.00000000000000e+00,0.00000000000000e+00,6.01618097205162e-01
3.52080000000000e-08,0.00000000000000e+00,0.00000000000000e+00,6.02449685469365e-01
3.52240000000000e-08,0.00000000000000e+00,0.00000000000000e+00,6.03783094550097e-01
3.52560000000000e-08,0.00000000000000e+00,0.00000000000000e+00,6.05226839082595e-01
3.53200000000000e-08,0.00000000000000e+00,0.00000000000000e+00,6.06151049274911e-01
3.54480000000000e-08,0.00000000000000e+00,0.00000000000000e+00,6.02460349378419e-01
3.57040000000000e-08,0.00000000000000e+00,0.00000000000000e+00,5.86215071992790e-01
3.62160000000000e-08,0.00000000000000e+00,0.00000000000000e+00,5.93350894009145e-01
3.69106143040911e-08,0.00000000000000e+00,0.00000000000000e+00,6.03445560755510e-01
3.80076784053192e-08,0.00000000000000e+00,0.00000000000000e+00,5.96850156169087e-01
3.91000000000000e-08,0.00000000000000e+00,0.00000000000000e+00,6.02019839221442e-01
3.92523572855269e-08,0.00000000000000e+00,0.00000000000000e+00,6.00519475598061e-01
3.95570718565805e-08,0.00000000000000e+00,0.00000000000000e+00,5.99595812868236e-01
4.01665009986879e-08,0.00000000000000e+00,0.00000000000000e+00,5.99993025214767e-01
4.13853592829027e-08,0.00000000000000e+00,0.00000000000000e+00,5.99771718258475e-01
4.38230758513322e-08,0.00000000000000e+00,0.00000000000000e+00,6.00001234175152e-01
4.50000000000000e-08,0.00000000000000e+00,0.00000000000000e+00,5.99846580125187e-01
4.50100000000000e-08,5.99999999999886e-02,0.00000000000000e+00,6.00107584560034e-01
4.50300000000000e-08,1.80000000000006e-01,0.00000000000000e+00,6.00517700580635e-01
4.50700000000000e-08,4.20000000000000e-01,0.00000000000000e+00,6.00826105548573e-01
4.51000000000000e-08,6.00000000000000e-01,0.00000000000000e+00,6.00464333921822e-01
4.51080000000000e-08,6.00000000000000e-01,0.00000000000000e+00,6.00251001156297e-01
4.51240000000000e-08,6.00000000000000e-01,0.00000000000000e+00,5.99897518805165e-01
4.51560000000000e-08,6.00000000000000e-01,0.00000000000000e+00,5.99486738989544e-01
4.52200000000000e-08,6.00000000000000e-01,0.00000000000000e+00,5.99153004263969e-01
4.53480000000000e-08,6.00000000000000e-01,0.00000000000000e+00,5.99361748475263e-01
4.56040000000000e-08,6.00000000000000e-01,0.00000000000000e+00,6.02035491198279e-01
4.61160000000000e-08,6.00000000000000e-01,0.00000000000000e+00,5.69101649245661e-01
4.71400000000000e-08,6.00000000000000e-01,0.00000000000000e+00,5.30002637296367e-02
4.81502867821970e-08,6.00000000000000e-01,0.00000000000000e+00,-3.28306011936039e-02
5.00000000000000e-08,6.00000000000000e-01,0.00000000000000e+00,2.87070647540009e-02
5.00100000000000e-08,6.00000000000000e-01,5.99999999999886e-02,2.50801717245986e-02
5.00300000000000e-08,6.00000000000000e-01,1.79999999999966e-01,1.92181064438931e-02
5.00700000000000e-08,6.00000000000000e-01,4.20000000000000e-01,1.21426367612809e-02
5.01000000000000e-08,6.00000000000000e-01,6.00000000000000e-01,8.80455457540688e-03
5.01080000000000e-08,6.00000000000000e-01,6.00000000000000e-01,8.12184124277342e-03
5.01240000000000e-08,6.00000000000000e-01,6.00000000000000e-01,6.89036320071860e-03
5.01560000000000e-08,6.00000000000000e-01,6.00000000000000e-01,4.99740037848899e-03
5.02200000000000e-08,6.00000000000000e-01,6.00000000000000e-01,2.64466283814942e-03
5.03480000000000e-08,6.00000000000000e-01,6.00000000000000e-01,6.65760535582843e-04
5.06040000000000e-08,6.00000000000000e-01,6.00000000000000e-01,-5.25238260838182e-05
5.11160000000001e-08,6.00000000000000e-01,6.00000000000000e-01,1.69229081983108e-05
5.21400000000002e-08,6.00000000000000e-01,6.00000000000000e-01,-1.11677415398116e-05
5.41880000000003e-08,6.00000000000000e-01,6.00000000000000e-01,7.71098383727312e-06
5.51000000000000e-08,6.00000000000000e-01,6.00000000000000e-01,-4.72672457433460e-06
5.51100000000000e-08,5.40000000000021e-01,6.00000000000000e-01,-1.36891329544989e-04
5.51300000000000e-08,4.20000000000004e-01,6.00000000000000e-01,-3.90041447465253e-04
5.51700000000000e-08,1.80000000000010e-01,6.00000000000000e-01,-8.27720832657308e-04
5.52000000000000e-08,0.00000000000000e+00,6.00000000000000e-01,-5.76736908499145e-04
5.52080000000000e-08,0.00000000000000e+00,6.00000000000000e-01,-2.09243186319805e-04
5.52240000000000e-08,0.00000000000000e+00,6.00000000000000e-01,3.99526805946779e-04
5.52560000000000e-08,0.00000000000000e+00,6.00000000000000e-01,9.98366642562795e-04
5.53200000000000e-08,0.00000000000000e+00,6.00000000000000e-01,1.13375167447610e-03
5.54480000000000e-08,0.00000000000000e+00,6.00000000000000e-01,1.83894510366045e-04
5.57040000000000e-08,0.00000000000000e+00,6.00000000000000e-01,-2.04265575270528e-03
5.62160000000000e-08,0.00000000000000e+00,6.00000000000000e-01,4.18721748601518e-04
5.69026238768275e-08,0.00000000000000e+00,6.00000000000000e-01,-2.19667460321923e-04
5.81211637928135e-08,0.00000000000000e+00,6.00000000000000e-01,1.04722529343949e-04
5.98000535756554e-08,0.00000000000000e+00,6.00000000000000e-01,3.78463798018092e-05
6.19388271366100e-08,0.00000000000000e+00,6.00000000000000e-01,-1.07658830720432e-04
6.50000000000000e-08,0.00000000000000e+00,6.00000000000000e-01,1.43633228010638e-04
6.50100000000000e-08,5.99999999999886e-02,6.00000000000000e-01,4.61747226132583e-04
6.50300000000000e-08,1.79999999999966e-01,6.00000000000000e-01,1.03339394422045e-03
6.50700000000000e-08,4.19999999999920e-01,6.00000000000000e-01,1.85330726489472e-03
6.51000000000000e-08,5.99999999999966e-01,6.00000000000000e-01,1.78404192894803e-03
6.51080000000000e-08,6.00000000000000e-01,6.00000000000000e-01,1.57418652137398e-03
6.51240000000000e-08,6.00000000000000e-01,6.00000000000000e-01,1.14519462429953e-03
6.51560000000000e-08,6.00000000000000e-01,6.00000000000000e-01,5.31523668421685e-05
6.52200000000000e-08,6.00000000000000e-01,6.00000000000000e-01,-2.49116894089146e-03
6.53480000000000e-08,6.00000000000000e-01,6.00000000000000e-01,-5.70991287971338e-03
6.56040000000000e-08,6.00000000000000e-01,6.00000000000000e-01,4.49748837928957e-03
6.61159999999999e-08,6.00000000000000e-01,6.00000000000000e-01,3.69152690377389e-01
6.71399999999999e-08,6.00000000000000e-01,6.00000000000000e-01,6.21761321424110e-01
6.80953037434079e-08,6.00000000000000e-01,6.00000000000000e-01,5.82169734012788e-01
7.00059112302239e-08,6.00000000000000e-01,6.00000000000000e-01,6.16826432096988e-01
7.01000000000000e-08,6.00000000000000e-01,6.00000000000000e-01,5.97983568834836e-01
7.01100000000000e-08,6.00000000000000e-01,5.40000000000011e-01,5.98295528143732e-01
7.01300000000000e-08,6.00000000000000e-01,4.20000000000034e-01,5.98783963499328e-01
7.01700000000000e-08,6.00000000000000e-01,1.80000000000080e-01,5.99357344321643e-01
7.02000000000000e-08,6.00000000000000e-01,3.44169137633799e-14,5.99599942760453e-01
7.02080000000000e-08,6.00000000000000e-01,0.00000000000000e+00,5.99643024365104e-01
7.02240000000000e-08,6.00000000000000e-01,0.00000000000000e+00,5.99702874460830e-01
7.02560000000000e-08,6.00000000000000e-01,0.00000000000000e+00,5.99754549279507e-01
7.03200000000000e-08,6.00000000000000e-01,0.00000000000000e+00,5.99832313949275e-01
7.04480000000000e-08,6.00000000000000e-01,0.00000000000000e+00,5.99851698516699e-01
7.07040000000000e-08,6.00000000000000e-01,0.00000000000000e+00,5.99890218295896e-01
7.12159999999999e-08,6.00000000000000e-01,0.00000000000000e+00,6.00057532431987e-01
7.18973619259094e-08,6.00000000000000e-01,0.00000000000000e+00,5.99915579167271e-01
7.31333448107818e-08,6.00000000000000e-01,0.00000000000000e+00,6.00021429005751e-01
7.50795135325020e-08,6.00000000000000e-01,0.00000000000000e+00,5.99941636281535e-01
7.51000000000000e-08,6.00000000000000e-01,0.00000000000000e+00,5.99949520267027e-01
7.51100000000000e-08,5.40000000000061e-01,0.00000000000000e+00,5.99784538317006e-01
7.51300000000000e-08,4.20000000000084e-01,0.00000000000000e+00,5.99511183264813e-01
7.51700000000000e-08,1.80000000000129e-01,0.00000000000000e+00,5.99734241852247e-01
7.52000000000000e-08,8.40438829641244e-14,0.00000000000000e+00,6.01618764518339e-01
7.52080000000000e-08,0.00000000000000e+00,0.00000000000000e+00,6.02450309971082e-01
7.52240000000000e-08,0.00000000000000e+00,0.00000000000000e+00,6.03783463924420e-01
7.52560000000000e-08,0.00000000000000e+00,0.00000000000000e+00,6.05226282590476e-01
7.53200000000000e-08,0.00000000000000e+00,0.00000000000000e+00,6.06146807702892e-01
7.54480000000000e-08,0.00000000000000e+00,0.00000000000000e+00,6.02442766965133e-01
7.57040000000000e-08,0.00000000000000e+00,0.00000000000000e+00,5.86203778154657e-01
7.62159999999999e-08,0.00000000000000e+00,0.00000000000000e+00,5.93356834283541e-01
7.69105676271093e-08,0.00000000000000e+00,0.00000000000000e+00,6.03441150174075e-01
7.80076153220455e-08,0.00000000000000e+00,0.00000000000000e+00,1.44338571123564e-01
7.81000000000000e-08,0.00000000000000e+00,0.00000000000000e+00,8.30447890432600e-02
7.81366815624887e-08,0.00000000000000e+00,0.00000000000000e+00,6.21545220764344e-02
7.82100446874660e-08,0.00000000000000e+00,0.00000000000000e+00,3.10425479614585e-02
7.83567709374206e-08,0.00000000000000e+00,0.00000000000000e+00,6.39622464800543e-03
7.86502234373298e-08,0.00000000000000e+00,0.00000000000000e+00,-7.79827125512868e-04
7.92371284371483e-08,0.00000000000000e+00,0.00000000000000e+00,3.58716001229633e-04
8.04109384367853e-08,0.00000000000000e+00,0.00000000000000e+00,-2.46885106674564e-04
8.27585584360592e-08,0.00000000000000e+00,0.00000000000000e+00,2.06915394228317e-04
8.50000000000000e-08,0.00000000000000e+00,0.00000000000000e+00,-1.70597667843837e-04
8.50100000000000e-08,5.99999999999886e-02,0.00000000000000e+00,1.78154592288773e-04
8.50300000000000e-08,1.79999999999966e-01,0.00000000000000e+00,7.33883731072679e-04
8.50700000000000e-08,4.19999999999920e-01,0.00000000000000e+00,1.22295673311203e-03
8.51000000000000e-08,5.99999999999966e-01,0.00000000000000e+00,8.30073824969108e-04
8.51080000000000e-08,6.00000000000000e-01,0.00000000000000e+00,5.80745303310592e-04
8.51240000000000e-08,6.00000000000000e-01,0.00000000000000e+00,1.41199748346713e-04
8.51560000000000e-08,6.00000000000000e-01,0.00000000000000e+00,-4.16156643667856e-04
8.52200000000000e-08,6.00000000000000e-01,0.00000000000000e+00,-7.85034155697695e-04
8.53480000000000e-08,6.00000000000000e-01,0.00000000000000e+00,-5.82178423714039e-04
8.56040000000000e-08,6.00000000000000e-01,0.00000000000000e+00,-1.09237051750546e-04
8.61159999999999e-08,6.00000000000000e-01,0.00000000000000e+00,2.75834023553870e-04
8.71399999999999e-08,6.00000000000000e-01,0.00000000000000e+00,-1.03890516887001e-04
8.91879999999998e-08,6.00000000000000e-01,0.00000000000000e+00,6.95548987189581e-05
9.00000000000000e-08,6.00000000000000e-01,0.00000000000000e+00,-1.10472508303844e-05
9.00100000000000e-08,6.00000000000000e-01,5.99999999999886e-02,-4.25172102107296e-06
9.00300000000000e-08,6.00000000000000e-01,1.79999999999966e-01,4.40509481000606e-06
9.00700000000000e-08,6.00000000000000e-01,4.19999999999920e-01,-1.80811566956318e-06
9.01000000000000e-08,6.00000000000000e-01,5.99999999999966e-01,-3.70895522727871e-05
9.01080000000000e-08,6.00000000000000e-01,6.00000000000000e-01,-4.58270950817186e-05
9.01240000000000e-08,6.00000000000000e-01,6.00000000000000e-01,-5.35822779399037e-05
9.01560000000000e-08,6.00000000000000e-01,6.00000000000000e-01,-4.64954606182316e-05
9.02200000000000e-08,6.00000000000000e-01,6.00000000000000e-01,-1.87228983615645e-05
9.03480000000000e-08,6.00000000000000e-01,6.00000000000000e-01,9.61853588694883e-06
9.06040000000000e-08,6.00000000000000e-01,6.00000000000000e-01,4.28333251728530e-06
9.11159999999999e-08,6.00000000000000e-01,6.00000000000000e-01,-1.87201102450768e-06
9.21399999999999e-08,6.00000000000000e-01,6.00000000000000e-01,5.23692916371693e-06
9.41879999999998e-08,6.00000000000000e-01,6.00000000000000e-01,-1.16526080140046e-06
9.51000000000000e-08,6.00000000000000e-01,6.00000000000000e-01,4.20223114817181e-06
9.51100000000000e-08,5.40000000000061e-01,6.00000000000000e-01,-1.27643073789693e-04
9.51300000000000e-08,4.20000000000084e-01,6.00000000000000e-01,-3.80114846340457e-04
9.51700000000000e-08,1.80000000000129e-01,6.00000000000000e-01,-8.21305636012931e-04
9.52000000000000e-08,8.40438829641244e-14,6.00000000000000e-01,-5.71261948869736e-04
9.52080000000000e-08,0.00000000000000e+00,6.00000000000000e-01,-2.03726804915177e-04
9.52240000000000e-08,0.00000000000000e+00,6.00000000000000e-01,4.05103969307083e-04
9.52560000000000e-08,0.00000000000000e+00,6.00000000000000e-01,1.00643871758668e-03
9.53200000000000e-08,0.00000000000000e+00,6.00000000000000e-01,1.16928116497626e-03
9.54480000000000e-08,0.00000000000000e+00,6.00000000000000e-01,6.44154084031609e-04
9.57040000000000e-08,0.00000000000000e+00,6.00000000000000e-01,-7.82992289102176e-04
9.62159999999999e-08,0.00000000000000e+00,6.00000000000000e-01,1.73766139300410e-04
9.71449894505311e-08,0.00000000000000e+00,6.00000000000000e-01,-2.16243863838509e-04
9.82554050051054e-08,0.00000000000000e+00,6.00000000000000e-01,1.92472363917454e-04
1.00476236114254e-07,0.00000000000000e+00,6.00000000000000e-01,-1.28235966922408e-04
1.02628625479848e-07,0.00000000000000e+00,6.00000000000000e-01,7.93738282894186e-05
1.05000000000000e-07,0.00000000000000e+00,6.00000000000000e-01,-4.36893384320926e-05
1.05010000000000e-07,5.99999999999886e-02,6.00000000000000e-01,3.26387404653683e-04
1.05030000000000e-07,1.79999999999966e-01,6.00000000000000e-01,9.71804324812961e-04
1.05070000000000e-07,4.19999999999920e-01,6.00000000000000e-01,1.84185685755116e-03
1.05100000000000e-07,5.99999999999966e-01,6.00000000000000e-01,1.75143772290920e-03
1.05108000000000e-07,6.00000000000000e-01,6.00000000000000e-01,1.50638792149067e-03
1.05124000000000e-07,6.00000000000000e-01,6.00000000000000e-01,9.60099682985160e-04
1.05156000000000e-07,6.00000000000000e-01,6.00000000000000e-01,-3.78260078169393e-04
1.05220000000000e-07,6.00000000000000e-01,6.00000000000000e-01,-2.95037416263294e-03
1.05348000000000e-07,6.00000000000000e-01,6.00000000000000e-01,-5.84719373755233e-03
1.05604000000000e-07,6.00000000000000e-01,6.00000000000000e-01,7.52192699934401e-03
1.06116000000000e-07,6.00000000000000e-01,6.00000000000000e-01,3.82765342234752e-01
1.07140000000000e-07,6.00000000000000e-01,6.00000000000000e-01,6.22702006468223e-01
1.08087031177374e-07,6.00000000000000e-01,6.00000000000000e-01,5.81258140469494e-01
1.09981093532123e-07,6.00000000000000e-01,6.00000000000000e-01,6.17499166088920e-01
1.10100000000000e-07,6.00000000000000e-01,6.00000000000000e-01,5.96030219909029e-01
1.10110000000000e-07,6.00000000000000e-01,5.40000000000091e-01,5.96701896080904e-01
