Time,v(clk),v(data),v(out)
1.00000000000000e-08,6.00000000000000e-01,0.00000000000000e+00,4.83856071152831e-05
1.00100000000000e-08,6.00000000000000e-01,5.99999999999986e-02,4.85410446819101e-05
1.00300000000000e-08,6.00000000000000e-01,1.79999999999996e-01,4.64003461100454e-05
1.00700000000000e-08,6.00000000000000e-01,4.19999999999990e-01,2.84968505848832e-05
1.01000000000000e-08,6.00000000000000e-01,5.99999999999995e-01,-1.15560887969240e-05
1.01080000000000e-08,6.00000000000000e-01,6.00000000000000e-01,-2.37393652122303e-05
1.01240000000000e-08,6.00000000000000e-01,6.00000000000000e-01,-3.67311302706119e-05
1.01560000000000e-08,6.00000000000000e-01,6.00000000000000e-01,-4.24532914783671e-05
1.02200000000000e-08,6.00000000000000e-01,6.00000000000000e-01,-2.19224518607786e-05
1.03480000000000e-08,6.00000000000000e-01,6.00000000000000e-01,1.21885985071846e-05
1.06040000000000e-08,6.00000000000000e-01,6.00000000000000e-01,1.10321419696177e-05
1.11160000000000e-08,6.00000000000000e-01,6.00000000000000e-01,-1.28802291020358e-06
1.20458854408482e-08,6.00000000000000e-01,6.00000000000000e-01,8.15978328921885e-06
1.39056563225446e-08,6.00000000000000e-01,6.00000000000000e-01,1.00011582519072e-06
1.51000000000000e-08,6.00000000000000e-01,6.00000000000000e-01,6.22998531205413e-06
1.51100000000000e-08,5.39999999999992e-01,6.00000000000000e-01,-1.28067749963476e-04
1.51300000000000e-08,4.19999999999994e-01,6.00000000000000e-01,-3.97562379609404e-04
1.51700000000000e-08,1.80000000000000e-01,6.00000000000000e-01,-8.76002167169598e-04
1.52000000000000e-08,0.00000000000000e+00,6.00000000000000e-01,-6.85636398833275e-04
1.52080000000000e-08,0.00000000000000e+00,6.00000000000000e-01,-3.33128840156821e-04
1.52240000000000e-08,0.00000000000000e+00,6.00000000000000e-01,2.66556646659713e-04
1.52560000000000e-08,0.00000000000000e+00,6.00000000000000e-01,9.20174818084124e-04
1.53200000000000e-08,0.00000000000000e+00,6.00000000000000e-01,1.22148132944254e-03
1.54480000000000e-08,0.00000000000000e+00,6.00000000000000e-01,8.13197363459112e-04
1.57040000000000e-08,0.00000000000000e+00,6.00000000000000e-01,-6.33741899241008e-04
1.62160000000000e-08,0.00000000000000e+00,6.00000000000000e-01,-1.09764575974239e-04
1.72400000000000e-08,0.00000000000000e+00,6.00000000000000e-01,2.62872961784913e-05
1.84558292507022e-08,0.00000000000000e+00,6.00000000000000e-01,-4.64747534396348e-05
2.06273024507114e-08,0.00000000000000e+00,6.00000000000000e-01,1.27971806759953e-04
2.33832000930798e-08,0.00000000000000e+00,6.00000000000000e-01,-1.60303162982557e-04
2.50000000000000e-08,0.00000000000000e+00,6.00000000000000e-01,1.89433290787248e-04
2.50100000000000e-08,5.99999999999886e-02,6.00000000000000e-01,5.41212898546306e-04
2.50300000000000e-08,1.80000000000006e-01,6.00000000000000e-01,1.16214693660351e-03
2.50700000000000e-08,4.20000000000000e-01,6.00000000000000e-01,2.04532636526551e-03
2.51000000000000e-08,6.00000000000000e-01,6.00000000000000e-01,2.06627965924665e-03
2.51080000000000e-08,6.00000000000000e-01,6.00000000000000e-01,1.85993524225496e-03
2.51240000000000e-08,6.00000000000000e-01,6.00000000000000e-01,1.43736679937216e-03
2.51560000000000e-08,6.00000000000000e-01,6.00000000000000e-01,4.26889986426954e-04
2.52200000000000e-08,6.00000000000000e-01,6.00000000000000e-01,-1.87540592151593e-03
2.53480000000000e-08,6.00000000000000e-01,6.00000000000000e-01,-5.04896753935853e-03
2.56040000000000e-08,6.00000000000000e-01,6.00000000000000e-01,-2.25718424989099e-03
2.61160000000000e-08,6.00000000000000e-01,6.00000000000000e-01,2.62338434738862e-01
2.71400000000000e-08,6.00000000000000e-01,6.00000000000000e-01,6.07265122948685e-01
2.83080641154180e-08,6.00000000000000e-01,6.00000000000000e-01,5.93024198540388e-01
3.01000000000000e-08,6.00000000000000e-01,6.00000000000000e-01,6.07229803117967e-01
3.01100000000000e-08,6.00000000000000e-01,5.40000000000031e-01,6.05669369480606e-01
3.01300000000000e-08,6.00000000000000e-01,4.20000000000014e-01,6.03210694206381e-01
3.01700000000000e-08,6.00000000000000e-01,1.80000000000020e-01,6.00802001803039e-01
3.02000000000000e-08,6.00000000000000e-01,1.44328993201270e-14,6.00175767059913e-01
3.02080000000000e-08,6.00000000000000e-01,0.00000000000000e+00,6.00087500724586e-01
3.02240000000000e-08,6.00000000000000e-01,0.00000000000000e+00,5.99934707856017e-01
3.02560000000000e-08,6.00000000000000e-01,0.00000000000000e+00,5.99744172029781e-01
3.03200000000000e-08,6.00000000000000e-01,0.00000000000000e+00,5.99645452985028e-01
3.04480000000000e-08,6.00000000000000e-01,0.00000000000000e+00,5.99692598243650e-01
3.07040000000000e-08,6.00000000000000e-01,0.00000000000000e+00,5.99843546764451e-01
3.12160000000000e-08,6.00000000000000e-01,0.00000000000000e+00,6.00034076096943e-01
3.18927747217402e-08,6.00000000000000e-01,0.00000000000000e+00,5.99939662677199e-01
3.32463241652206e-08,6.00000000000000e-01,0.00000000000000e+00,5.99986179083000e-01
3.49732924841430e-08,6.00000000000000e-01,0.00000000000000e+00,5.99967735632270e-01
3.51000000000000e-08,5.99999999999970e-01,0.00000000000000e+00,5.99956816733282e-01
3.51100000000000e-08,5.39999999999982e-01,0.00000000000000e+00,5.99800423960032e-01
3.51300000000000e-08,4.19999999999965e-01,0.00000000000000e+00,5.99515553660030e-01
3.51700000000000e-08,1.79999999999970e-01,0.00000000000000e+00,5.99716248628118e-01
3.52000000000000e-08,0.00000000000000e+00,0.00000000000000e+00,6.01505035730981e-01
3.52080000000000e-08,0.00000000000000e+00,0.00000000000000e+00,6.02314701702792e-01
3.52240000000000e-08,0.00000000000000e+00,0.00000000000000e+00,6.03637861011184e-01
3.52560000000000e-08,0.00000000000000e+00,0.00000000000000e+00,6.05138565702646e-01
3.53200000000000e-08,0.00000000000000e+00,0.00000000000000e+00,6.06252961269671e-01
3.54480000000000e-08,0.00000000000000e+00,0.00000000000000e+00,6.04047381254367e-01
3.57040000000000e-08,0.00000000000000e+00,0.00000000000000e+00,5.88345947319822e-01
3.62160000000000e-08,0.00000000000000e+00,0.00000000000000e+00,5.90486051768011e-01
3.69771311196839e-08,0.00000000000000e+00,0.00000000000000e+00,6.04470764069468e-01
3.80644588506467e-08,0.00000000000000e+00,0.00000000000000e+00,5.95857692145538e-01
3.91000000000000e-08,0.00000000000000e+00,0.00000000000000e+00,6.02445548985936e-01
3.92868856002526e-08,0.00000000000000e+00,0.00000000000000e+00,6.00548727063857e-01
3.96606568007578e-08,0.00000000000000e+00,0.00000000000000e+00,5.99447927358953e-01
4.04081992017683e-08,0.00000000000000e+00,0.00000000000000e+00,5.99995679079917e-01
4.19032840037892e-08,0.00000000000000e+00,0.00000000000000e+00,5.99682823254220e-01
4.48934536078310e-08,0.00000000000000e+00,0.00000000000000e+00,6.00021773374023e-01
4.50000000000000e-08,0.00000000000000e+00,0.00000000000000e+00,5.99918357775959e-01
4.50100000000000e-08,5.99999999999886e-02,0.00000000000000e+00,6.00172349201688e-01
4.50300000000000e-08,1.80000000000006e-01,0.00000000000000e+00,6.00569833764058e-01
4.50700000000000e-08,4.20000000000000e-01,0.00000000000000e+00,6.00902576348646e-01
4.51000000000000e-08,6.00000000000000e-01,0.00000000000000e+00,6.00605166214655e-01
4.51080000000000e-08,6.00000000000000e-01,0.00000000000000e+00,6.00392045417608e-01
4.51240000000000e-08,6.00000000000000e-01,0.00000000000000e+00,6.00023733521393e-01
4.51560000000000e-08,6.00000000000000e-01,0.00000000000000e+00,5.99581037638968e-01
4.52200000000000e-08,6.00000000000000e-01,0.00000000000000e+00,5.99175673223396e-01
4.53480000000000e-08,6.00000000000000e-01,0.00000000000000e+00,5.99267331412823e-01
4.56040000000000e-08,6.00000000000000e-01,0.00000000000000e+00,6.00747220477110e-01
4.61160000000000e-08,6.00000000000000e-01,0.00000000000000e+00,6.25158796185123e-01
4.71400000000000e-08,6.00000000000000e-01,0.00000000000000e+00,1.31126593574348e-01
4.83148564434397e-08,6.00000000000000e-01,0.00000000000000e+00,-6.00020083976836e-02
5.00000000000000e-08,6.00000000000000e-01,0.00000000000000e+00,5.20269182835628e-02
5.00100000000000e-08,6.00000000000000e-01,5.99999999999886e-02,4.79400755938715e-02
5.00300000000000e-08,6.00000000000000e-01,1.79999999999966e-01,4.05588712624774e-02
5.00700000000000e-08,6.00000000000000e-01,4.20000000000000e-01,2.93418607803837e-02
5.01000000000000e-08,6.00000000000000e-01,6.00000000000000e-01,2.31199211993159e-02
5.01080000000000e-08,6.00000000000000e-01,6.00000000000000e-01,2.17386034137996e-02
5.01240000000000e-08,6.00000000000000e-01,6.00000000000000e-01,1.91486844185854e-02
5.01560000000000e-08,6.00000000000000e-01,6.00000000000000e-01,1.48553375720541e-02
5.02200000000000e-08,6.00000000000000e-01,6.00000000000000e-01,8.88999224348580e-03
5.03480000000000e-08,6.00000000000000e-01,6.00000000000000e-01,2.96361735969930e-03
5.06040000000000e-08,6.00000000000000e-01,6.00000000000000e-01,6.40510338080491e-06
5.11160000000001e-08,6.00000000000000e-01,6.00000000000000e-01,-5.02486580485073e-06
5.21275519313059e-08,6.00000000000000e-01,6.00000000000000e-01,2.81601631794970e-06
5.41506557939175e-08,6.00000000000000e-01,6.00000000000000e-01,-2.53644115612642e-06
5.51000000000000e-08,6.00000000000000e-01,6.00000000000000e-01,1.77029711794993e-06
5.51100000000000e-08,5.40000000000021e-01,6.00000000000000e-01,-1.33087120521250e-04
5.51300000000000e-08,4.20000000000004e-01,6.00000000000000e-01,-4.05061029044654e-04
5.51700000000000e-08,1.80000000000010e-01,6.00000000000000e-01,-8.82633611434258e-04
5.52000000000000e-08,0.00000000000000e+00,6.00000000000000e-01,-6.91104843218063e-04
5.52080000000000e-08,0.00000000000000e+00,6.00000000000000e-01,-3.38627270575251e-04
5.52240000000000e-08,0.00000000000000e+00,6.00000000000000e-01,2.60991587855253e-04
5.52560000000000e-08,0.00000000000000e+00,6.00000000000000e-01,9.11813917994705e-04
5.53200000000000e-08,0.00000000000000e+00,6.00000000000000e-01,1.18842291017451e-03
5.54480000000000e-08,0.00000000000000e+00,6.00000000000000e-01,4.48500246310699e-04
5.57040000000000e-08,0.00000000000000e+00,6.00000000000000e-01,-2.01605342835771e-03
5.62160000000000e-08,0.00000000000000e+00,6.00000000000000e-01,-9.56211295157286e-05
5.68806410745550e-08,0.00000000000000e+00,6.00000000000000e-01,1.97412237577403e-04
5.82099232236648e-08,0.00000000000000e+00,6.00000000000000e-01,-2.93233093689754e-04
5.97290593315906e-08,0.00000000000000e+00,6.00000000000000e-01,4.52062004539500e-04
6.23618302023359e-08,0.00000000000000e+00,6.00000000000000e-01,-4.88002201348550e-04
6.50000000000000e-08,0.00000000000000e+00,6.00000000000000e-01,4.97800617059193e-04
6.50100000000000e-08,5.99999999999886e-02,6.00000000000000e-01,7.85892561949511e-04
6.50300000000000e-08,1.79999999999966e-01,6.00000000000000e-01,1.31740854211344e-03
6.50700000000000e-08,4.19999999999920e-01,6.00000000000000e-01,2.12878938576355e-03
6.51000000000000e-08,5.99999999999966e-01,6.00000000000000e-01,2.21739730973390e-03
6.51080000000000e-08,6.00000000000000e-01,6.00000000000000e-01,2.01151631646200e-03
6.51240000000000e-08,6.00000000000000e-01,6.00000000000000e-01,1.62987290162778e-03
6.51560000000000e-08,6.00000000000000e-01,6.00000000000000e-01,8.51245013097607e-04
6.52200000000000e-08,6.00000000000000e-01,6.00000000000000e-01,-1.24010025795394e-03
6.53480000000000e-08,6.00000000000000e-01,6.00000000000000e-01,-4.74450527716087e-03
6.56040000000000e-08,6.00000000000000e-01,6.00000000000000e-01,-3.66765534915185e-03
6.61159999999999e-08,6.00000000000000e-01,6.00000000000000e-01,2.46508762421205e-01
6.71399999999999e-08,6.00000000000000e-01,6.00000000000000e-01,6.04246588834491e-01
6.83526266033128e-08,6.00000000000000e-01,6.00000000000000e-01,5.94855581241005e-01
7.01000000000000e-08,6.00000000000000e-01,6.00000000000000e-01,6.05539986259710e-01
7.01100000000000e-08,6.00000000000000e-01,5.40000000000011e-01,6.04285897951864e-01
7.01300000000000e-08,6.00000000000000e-01,4.20000000000034e-01,6.02322655565646e-01
7.01700000000000e-08,6.00000000000000e-01,1.80000000000080e-01,6.00439849176560e-01
7.02000000000000e-08,6.00000000000000e-01,3.44169137633799e-14,5.99981311332042e-01
7.02080000000000e-08,6.00000000000000e-01,0.00000000000000e+00,5.99925143871498e-01
7.02240000000000e-08,6.00000000000000e-01,0.00000000000000e+00,5.99817121821026e-01
7.02560000000000e-08,6.00000000000000e-01,0.00000000000000e+00,5.99669864231679e-01
7.03200000000000e-08,6.00000000000000e-01,0.00000000000000e+00,5.99614225447228e-01
7.04480000000000e-08,6.00000000000000e-01,0.00000000000000e+00,5.99682351370004e-01
7.07040000000000e-08,6.00000000000000e-01,0.00000000000000e+00,5.99840765206024e-01
7.12159999999999e-08,6.00000000000000e-01,0.00000000000000e+00,6.00036416414817e-01
7.18866972025480e-08,6.00000000000000e-01,0.00000000000000e+00,5.99940251704924e-01
7.32280916076442e-08,6.00000000000000e-01,0.00000000000000e+00,5.99986378486207e-01
7.49311771348979e-08,6.00000000000000e-01,0.00000000000000e+00,5.99969771167000e-01
7.51000000000000e-08,6.00000000000000e-01,0.00000000000000e+00,5.99955431435868e-01
7.51100000000000e-08,5.40000000000061e-01,0.00000000000000e+00,5.99797605052636e-01
7.51300000000000e-08,4.20000000000084e-01,0.00000000000000e+00,5.99507847523559e-01
7.51700000000000e-08,1.80000000000129e-01,0.00000000000000e+00,5.99710032468937e-01
7.52000000000000e-08,8.40438829641244e-14,0.00000000000000e+00,6.01500613186054e-01
7.52080000000000e-08,0.00000000000000e+00,0.00000000000000e+00,6.02309629559509e-01
7.52240000000000e-08,0.00000000000000e+00,0.00000000000000e+00,6.03632114017037e-01
7.52560000000000e-08,0.00000000000000e+00,0.00000000000000e+00,6.05135340499187e-01
7.53200000000000e-08,0.00000000000000e+00,0.00000000000000e+00,6.06263451852033e-01
7.54480000000000e-08,0.00000000000000e+00,0.00000000000000e+00,6.04098492364540e-01
7.57040000000000e-08,0.00000000000000e+00,0.00000000000000e+00,5.88397883528609e-01
7.62159999999999e-08,0.00000000000000e+00,0.00000000000000e+00,5.90464995530033e-01
7.69771144085449e-08,0.00000000000000e+00,0.00000000000000e+00,6.04483486559329e-01
7.80644487597885e-08,0.00000000000000e+00,0.00000000000000e+00,5.95834713251262e-01
7.81000000000000e-08,0.00000000000000e+00,0.00000000000000e+00,5.98564610961768e-01
7.81494826337954e-08,0.00000000000000e+00,0.00000000000000e+00,5.98710763084728e-01
7.82484479013861e-08,0.00000000000000e+00,0.00000000000000e+00,5.99084255546869e-01
7.84255096349538e-08,0.00000000000000e+00,0.00000000000000e+00,5.99516274590593e-01
7.87796331020892e-08,0.00000000000000e+00,0.00000000000000e+00,5.99680839507171e-01
7.94878800363599e-08,0.00000000000000e+00,0.00000000000000e+00,5.99756349603820e-01
8.09043739049014e-08,0.00000000000000e+00,0.00000000000000e+00,5.99813492346197e-01
8.37373616419844e-08,0.00000000000000e+00,0.00000000000000e+00,5.99869320034513e-01
8.50000000000000e-08,0.00000000000000e+00,0.00000000000000e+00,5.99885345185875e-01
8.50100000000000e-08,5.99999999999886e-02,0.00000000000000e+00,6.00146278506226e-01
8.50300000000000e-08,1.79999999999966e-01,0.00000000000000e+00,6.00555123121831e-01
8.50700000000000e-08,4.19999999999920e-01,0.00000000000000e+00,6.00891658759911e-01
8.51000000000000e-08,5.99999999999966e-01,0.00000000000000e+00,6.00590606335226e-01
8.51080000000000e-08,6.00000000000000e-01,0.00000000000000e+00,6.00378967338646e-01
8.51240000000000e-08,6.00000000000000e-01,0.00000000000000e+00,6.00014602159134e-01
8.51560000000000e-08,6.00000000000000e-01,0.00000000000000e+00,5.99579805349460e-01
8.52200000000000e-08,6.00000000000000e-01,0.00000000000000e+00,5.99173387987611e-01
8.53480000000000e-08,6.00000000000000e-01,0.00000000000000e+00,5.99263651894606e-01
8.56040000000000e-08,6.00000000000000e-01,0.00000000000000e+00,6.00748690997213e-01
8.61159999999999e-08,6.00000000000000e-01,0.00000000000000e+00,6.25158722743735e-01
8.71399999999999e-08,6.00000000000000e-01,0.00000000000000e+00,1.31117701194055e-01
8.83147992858544e-08,6.00000000000000e-01,0.00000000000000e+00,-5.99994577763263e-02
9.00000000000000e-08,6.00000000000000e-01,0.00000000000000e+00,5.20247190132366e-02
9.00100000000000e-08,6.00000000000000e-01,5.99999999999886e-02,4.79377300294645e-02
9.00300000000000e-08,6.00000000000000e-01,1.79999999999966e-01,4.05564391701769e-02
9.00700000000000e-08,6.00000000000000e-01,4.19999999999920e-01,2.93397423294866e-02
9.01000000000000e-08,6.00000000000000e-01,5.99999999999966e-01,2.31181668570953e-02
9.01080000000000e-08,6.00000000000000e-01,6.00000000000000e-01,2.17369358063736e-02
9.01240000000000e-08,6.00000000000000e-01,6.00000000000000e-01,1.91471842307321e-02
9.01560000000000e-08,6.00000000000000e-01,6.00000000000000e-01,1.48541339897131e-02
9.02200000000000e-08,6.00000000000000e-01,6.00000000000000e-01,8.88923984728905e-03
9.03480000000000e-08,6.00000000000000e-01,6.00000000000000e-01,2.96335676644992e-03
9.06040000000000e-08,6.00000000000000e-01,6.00000000000000e-01,6.40552579819070e-06
9.11159999999999e-08,6.00000000000000e-01,6.00000000000000e-01,-5.02579129628422e-06
9.21273765866345e-08,6.00000000000000e-01,6.00000000000000e-01,2.81662859311083e-06
9.41501297599036e-08,6.00000000000000e-01,6.00000000000000e-01,-2.53693389316682e-06
9.51000000000000e-08,6.00000000000000e-01,6.00000000000000e-01,1.77100942131900e-06
9.51100000000000e-08,5.40000000000061e-01,6.00000000000000e-01,-1.33086870799271e-04
9.51300000000000e-08,4.20000000000084e-01,6.00000000000000e-01,-4.05060728566345e-04
9.51700000000000e-08,1.80000000000129e-01,6.00000000000000e-01,-8.82633336759517e-04
9.52000000000000e-08,8.40438829641244e-14,6.00000000000000e-01,-6.91104612942153e-04
9.52080000000000e-08,0.00000000000000e+00,6.00000000000000e-01,-3.38627052927656e-04
9.52240000000000e-08,0.00000000000000e+00,6.00000000000000e-01,2.60991781156461e-04
9.52560000000000e-08,0.00000000000000e+00,6.00000000000000e-01,9.11814070361325e-04
9.53200000000000e-08,0.00000000000000e+00,6.00000000000000e-01,1.18842308768560e-03
9.54480000000000e-08,0.00000000000000e+00,6.00000000000000e-01,4.48500950375672e-04
9.57040000000000e-08,0.00000000000000e+00,6.00000000000000e-01,-2.01605108277141e-03
9.62159999999999e-08,0.00000000000000e+00,6.00000000000000e-01,-9.56211043979804e-05
9.68806415547295e-08,0.00000000000000e+00,6.00000000000000e-01,1.97411124587779e-04
9.82099246641887e-08,0.00000000000000e+00,6.00000000000000e-01,-2.93232102016847e-04
9.97290613611727e-08,0.00000000000000e+00,6.00000000000000e-01,4.52061063329328e-04
1.02361834045869e-07,0.00000000000000e+00,6.00000000000000e-01,-4.88001335859987e-04
1.05000000000000e-07,0.00000000000000e+00,6.00000000000000e-01,4.97799870826361e-04
1.05010000000000e-07,5.99999999999886e-02,6.00000000000000e-01,7.85891921595491e-04
1.05030000000000e-07,1.79999999999966e-01,6.00000000000000e-01,1.31740806683943e-03
1.05070000000000e-07,4.19999999999920e-01,6.00000000000000e-01,2.12878907088433e-03
1.05100000000000e-07,5.99999999999966e-01,6.00000000000000e-01,2.21739710918203e-03
1.05108000000000e-07,6.00000000000000e-01,6.00000000000000e-01,2.01151613869423e-03
1.05124000000000e-07,6.00000000000000e-01,6.00000000000000e-01,1.62987280990842e-03
1.05156000000000e-07,6.00000000000000e-01,6.00000000000000e-01,8.51245415506754e-04
1.05220000000000e-07,6.00000000000000e-01,6.00000000000000e-01,-1.24009914259422e-03
1.05348000000000e-07,6.00000000000000e-01,6.00000000000000e-01,-4.74450464248469e-03
1.05604000000000e-07,6.00000000000000e-01,6.00000000000000e-01,-3.66765731277059e-03
1.06116000000000e-07,6.00000000000000e-01,6.00000000000000e-01,2.46508738066162e-01
1.07140000000000e-07,6.00000000000000e-01,6.00000000000000e-01,6.04246583980027e-01
1.08352626676194e-07,6.00000000000000e-01,6.00000000000000e-01,5.94855584122450e-01
1.10100000000000e-07,6.00000000000000e-01,6.00000000000000e-01,6.05539983579547e-01
1.10110000000000e-07,6.00000000000000e-01,5.40000000000091e-01,6.04285895760563e-01
1.10130000000000e-07,6.00000000000000e-01,4.20000000000114e-01,6.02322654164036e-01
1.10170000000000e-07,6.00000000000000e-01,1.80000000000159e-01,6.00439848604431e-01
1.10200000000000e-07,6.00000000000000e-01,1.13686837721616e-13,5.99981311054260e-01
