Time,v(clk),v(data),v(out)
1.00000000000000e-08,6.00000000000000e-01,0.00000000000000e+00,4.84019887378936e-05
1.00100000000000e-08,6.00000000000000e-01,5.99999999999986e-02,4.85542529417293e-05
1.00300000000000e-08,6.00000000000000e-01,1.79999999999996e-01,4.64094175929575e-05
1.00700000000000e-08,6.00000000000000e-01,4.19999999999990e-01,2.84998962079702e-05
1.01000000000000e-08,6.00000000000000e-01,5.99999999999995e-01,-1.15571961044197e-05
1.01080000000000e-08,6.00000000000000e-01,6.00000000000000e-01,-2.37400602211002e-05
1.01240000000000e-08,6.00000000000000e-01,6.00000000000000e-01,-3.67344529795671e-05
1.01560000000000e-08,6.00000000000000e-01,6.00000000000000e-01,-4.24593752558766e-05
1.02200000000000e-08,6.00000000000000e-01,6.00000000000000e-01,-2.19245352625769e-05
1.03480000000000e-08,6.00000000000000e-01,6.00000000000000e-01,1.21949350198880e-05
1.06040000000000e-08,6.00000000000000e-01,6.00000000000000e-01,1.10363419382406e-05
1.11160000000000e-08,6.00000000000000e-01,6.00000000000000e-01,-1.29353098399926e-06
1.20451188071068e-08,6.00000000000000e-01,6.00000000000000e-01,8.16276674545438e-06
1.39033564213203e-08,6.00000000000000e-01,6.00000000000000e-01,9.98442221133294e-07
1.51000000000000e-08,6.00000000000000e-01,6.00000000000000e-01,6.23291943073478e-06
1.51100000000000e-08,5.39999999999992e-01,6.00000000000000e-01,-1.28067437208515e-04
1.51300000000000e-08,4.19999999999994e-01,6.00000000000000e-01,-3.97561309637084e-04
1.51700000000000e-08,1.80000000000000e-01,6.00000000000000e-01,-8.76000849917055e-04
1.52000000000000e-08,0.00000000000000e+00,6.00000000000000e-01,-6.85635263542192e-04
1.52080000000000e-08,0.00000000000000e+00,6.00000000000000e-01,-3.33127779183873e-04
1.52240000000000e-08,0.00000000000000e+00,6.00000000000000e-01,2.66557553388155e-04
1.52560000000000e-08,0.00000000000000e+00,6.00000000000000e-01,9.20175457701317e-04
1.53200000000000e-08,0.00000000000000e+00,6.00000000000000e-01,1.22148161888304e-03
1.54480000000000e-08,0.00000000000000e+00,6.00000000000000e-01,8.13197588985917e-04
1.57040000000000e-08,0.00000000000000e+00,6.00000000000000e-01,-6.33741395994113e-04
1.62160000000000e-08,0.00000000000000e+00,6.00000000000000e-01,-1.09765157978926e-04
1.72400000000000e-08,0.00000000000000e+00,6.00000000000000e-01,2.62877971574267e-05
1.84558296880132e-08,0.00000000000000e+00,6.00000000000000e-01,-4.64752014188857e-05
2.06273025321118e-08,0.00000000000000e+00,6.00000000000000e-01,1.27972225175103e-04
2.33832012115212e-08,0.00000000000000e+00,6.00000000000000e-01,-1.60303540911197e-04
2.50000000000000e-08,0.00000000000000e+00,6.00000000000000e-01,1.89433617415056e-04
2.50100000000000e-08,5.99999999999886e-02,6.00000000000000e-01,5.41213205459912e-04
2.50300000000000e-08,1.80000000000006e-01,6.00000000000000e-01,1.16214720474381e-03
2.50700000000000e-08,4.20000000000000e-01,6.00000000000000e-01,2.04532657302459e-03
2.51000000000000e-08,6.00000000000000e-01,6.00000000000000e-01,2.06627985859600e-03
2.51080000000000e-08,6.00000000000000e-01,6.00000000000000e-01,1.85993546311922e-03
2.51240000000000e-08,6.00000000000000e-01,6.00000000000000e-01,1.43736712343090e-03
2.51560000000000e-08,6.00000000000000e-01,6.00000000000000e-01,4.26890612153036e-04
2.52200000000000e-08,6.00000000000000e-01,6.00000000000000e-01,-1.87540515777250e-03
2.53480000000000e-08,6.00000000000000e-01,6.00000000000000e-01,-5.04896721391240e-03
2.56040000000000e-08,6.00000000000000e-01,6.00000000000000e-01,-2.25718608019508e-03
2.61160000000000e-08,6.00000000000000e-01,6.00000000000000e-01,2.62338416912198e-01
2.71400000000000e-08,6.00000000000000e-01,6.00000000000000e-01,6.07265119733724e-01
2.83080641618182e-08,6.00000000000000e-01,6.00000000000000e-01,5.93024200539150e-01
3.06172418287022e-08,6.00000000000000e-01,6.00000000000000e-01,6.07327168987293e-01
3.30579344985532e-08,6.00000000000000e-01,6.00000000000000e-01,5.93202816964566e-01
3.51000000000000e-08,5.99999999999970e-01,6.00000000000000e-01,6.06544733063265e-01
3.51100000000000e-08,5.39999999999982e-01,6.00000000000000e-01,6.04994139128352e-01
3.51300000000000e-08,4.19999999999965e-01,6.00000000000000e-01,6.02531431942253e-01
3.51700000000000e-08,1.79999999999970e-01,6.00000000000000e-01,6.00666774858660e-01
3.52000000000000e-08,0.00000000000000e+00,6.00000000000000e-01,6.01878112731090e-01
3.52080000000000e-08,0.00000000000000e+00,6.00000000000000e-01,6.02587786290564e-01
3.52240000000000e-08,0.00000000000000e+00,6.00000000000000e-01,6.03744140228026e-01
3.52560000000000e-08,0.00000000000000e+00,6.00000000000000e-01,6.05107723438054e-01
3.53200000000000e-08,0.00000000000000e+00,6.00000000000000e-01,6.06100703648350e-01
3.54480000000000e-08,0.00000000000000e+00,6.00000000000000e-01,6.03975932626588e-01
3.57040000000000e-08,0.00000000000000e+00,6.00000000000000e-01,5.88154656914387e-01
3.62160000000000e-08,0.00000000000000e+00,6.00000000000000e-01,5.90217939211646e-01
3.72400000000000e-08,0.00000000000000e+00,6.00000000000000e-01,6.05222596022206e-01
3.85490468716585e-08,0.00000000000000e+00,6.00000000000000e-01,5.95401415750654e-01
4.05888422514816e-08,0.00000000000000e+00,6.00000000000000e-01,6.03416273587236e-01
4.43888422514817e-08,0.00000000000000e+00,6.00000000000000e-01,5.96581683992933e-01
4.50000000000000e-08,0.00000000000000e+00,6.00000000000000e-01,6.01743571567515e-01
4.50100000000000e-08,5.99999999999886e-02,6.00000000000000e-01,6.01818300010020e-01
4.50300000000000e-08,1.80000000000006e-01,6.00000000000000e-01,6.01924968201565e-01
4.50700000000000e-08,4.20000000000000e-01,6.00000000000000e-01,6.01960275960909e-01
4.51000000000000e-08,6.00000000000000e-01,6.00000000000000e-01,6.01552312337074e-01
4.51080000000000e-08,6.00000000000000e-01,5.52000000000025e-01,6.01278097297286e-01
4.51240000000000e-08,6.00000000000000e-01,4.55999999999996e-01,6.00735721890270e-01
4.51560000000000e-08,6.00000000000000e-01,2.64000000000016e-01,5.99715355604672e-01
4.52000000000000e-08,6.00000000000000e-01,3.44169137633799e-14,5.98612646246227e-01
4.52064000000000e-08,6.00000000000000e-01,0.00000000000000e+00,5.98475999143900e-01
4.52192000000000e-08,6.00000000000000e-01,0.00000000000000e+00,5.98248835687111e-01
4.52448000000000e-08,6.00000000000000e-01,0.00000000000000e+00,5.97857368837342e-01
4.52960000000000e-08,6.00000000000000e-01,0.00000000000000e+00,5.97285269543055e-01
4.53984000000000e-08,6.00000000000000e-01,0.00000000000000e+00,5.96573265690250e-01
4.56032000000000e-08,6.00000000000000e-01,0.00000000000000e+00,5.95942295225833e-01
4.60128000000000e-08,6.00000000000000e-01,0.00000000000000e+00,5.97228970785583e-01
4.65716755951573e-08,6.00000000000000e-01,0.00000000000000e+00,5.99282387913529e-01
4.76894267854720e-08,6.00000000000000e-01,0.00000000000000e+00,5.99917330226562e-01
4.88919417531590e-08,6.00000000000000e-01,0.00000000000000e+00,6.00159302782720e-01
5.12969716885330e-08,6.00000000000000e-01,0.00000000000000e+00,5.99842241524542e-01
5.50969716885330e-08,6.00000000000000e-01,0.00000000000000e+00,6.00153033321187e-01
5.51000000000000e-08,6.00000000000000e-01,0.00000000000000e+00,6.00163697374050e-01
5.51060566229340e-08,5.63660262396202e-01,0.00000000000000e+00,6.00033429232299e-01
5.51181698688019e-08,4.90980787188586e-01,0.00000000000000e+00,5.99826548341124e-01
5.51423963605378e-08,3.45621836773355e-01,0.00000000000000e+00,5.99524560142499e-01
5.51908493440095e-08,5.49039359428918e-02,0.00000000000000e+00,6.00890796847646e-01
5.52000000000000e-08,0.00000000000000e+00,0.00000000000000e+00,6.01635117117558e-01
5.52096905966943e-08,0.00000000000000e+00,0.00000000000000e+00,6.02570900087424e-01
5.52290717900830e-08,0.00000000000000e+00,0.00000000000000e+00,6.04041467318290e-01
5.52678341768604e-08,0.00000000000000e+00,0.00000000000000e+00,6.05612575900101e-01
5.53453589504152e-08,0.00000000000000e+00,0.00000000000000e+00,6.07014659045809e-01
5.55004084975248e-08,0.00000000000000e+00,0.00000000000000e+00,6.08613211034458e-01
5.58105075917440e-08,0.00000000000000e+00,0.00000000000000e+00,6.02703462678476e-01
5.64307057801823e-08,0.00000000000000e+00,0.00000000000000e+00,5.98799709947645e-01
5.72559086095410e-08,0.00000000000000e+00,0.00000000000000e+00,6.00496013493637e-01
5.86605236796860e-08,0.00000000000000e+00,0.00000000000000e+00,5.99375277245423e-01
6.03302789097351e-08,0.00000000000000e+00,0.00000000000000e+00,6.00283217404667e-01
6.36697893698334e-08,0.00000000000000e+00,0.00000000000000e+00,5.99556907866864e-01
6.50000000000000e-08,0.00000000000000e+00,0.00000000000000e+00,6.00180466387138e-01
6.50100000000000e-08,5.99999999999886e-02,0.00000000000000e+00,6.00406516662991e-01
6.50300000000000e-08,1.79999999999966e-01,0.00000000000000e+00,6.00754222190168e-01
6.50700000000000e-08,4.19999999999920e-01,0.00000000000000e+00,6.01044950811187e-01
6.51000000000000e-08,5.99999999999966e-01,0.00000000000000e+00,6.00703635521559e-01
6.51080000000000e-08,6.00000000000000e-01,0.00000000000000e+00,6.00503465199681e-01
6.51240000000000e-08,6.00000000000000e-01,0.00000000000000e+00,6.00119619953675e-01
6.51560000000000e-08,6.00000000000000e-01,0.00000000000000e+00,5.99632907750153e-01
6.52200000000000e-08,6.00000000000000e-01,0.00000000000000e+00,5.99247054237114e-01
6.53480000000000e-08,6.00000000000000e-01,0.00000000000000e+00,5.99316135349041e-01
6.56040000000000e-08,6.00000000000000e-01,0.00000000000000e+00,6.00756020133356e-01
6.61159999999999e-08,6.00000000000000e-01,0.00000000000000e+00,6.25456099496454e-01
6.71399999999999e-08,6.00000000000000e-01,0.00000000000000e+00,1.31607366221208e-01
6.83159963567279e-08,6.00000000000000e-01,0.00000000000000e+00,-6.01301064031962e-02
7.02032868096826e-08,6.00000000000000e-01,0.00000000000000e+00,5.39431276442491e-02
7.28323903091530e-08,6.00000000000000e-01,0.00000000000000e+00,-3.94377351828783e-02
7.51000000000000e-08,6.00000000000000e-01,0.00000000000000e+00,3.50165000693219e-02
7.51100000000000e-08,5.40000000000061e-01,0.00000000000000e+00,3.18760755385038e-02
7.51300000000000e-08,4.20000000000084e-01,0.00000000000000e+00,2.64336368594580e-02
7.51700000000000e-08,1.80000000000129e-01,0.00000000000000e+00,1.84187003499364e-02
7.52000000000000e-08,8.40438829641244e-14,0.00000000000000e+00,1.45301924401349e-02
7.52080000000000e-08,0.00000000000000e+00,0.00000000000000e+00,1.39792889791444e-02
7.52240000000000e-08,0.00000000000000e+00,0.00000000000000e+00,1.28727869689739e-02
7.52560000000000e-08,0.00000000000000e+00,0.00000000000000e+00,1.06790828218132e-02
7.53200000000000e-08,0.00000000000000e+00,0.00000000000000e+00,6.98840455259624e-03
7.54480000000000e-08,0.00000000000000e+00,0.00000000000000e+00,2.33612068353434e-03
7.57040000000000e-08,0.00000000000000e+00,0.00000000000000e+00,-2.04815293837564e-03
7.62159999999999e-08,0.00000000000000e+00,0.00000000000000e+00,-1.44421321112601e-04
7.68795008331476e-08,0.00000000000000e+00,0.00000000000000e+00,3.81037832887808e-04
7.82065024994430e-08,0.00000000000000e+00,0.00000000000000e+00,-3.57075780046859e-04
7.98815115034685e-08,0.00000000000000e+00,0.00000000000000e+00,3.56946161222779e-04
8.32315295115194e-08,0.00000000000000e+00,0.00000000000000e+00,-3.39448735601980e-04
8.50000000000000e-08,0.00000000000000e+00,0.00000000000000e+00,3.15543079180840e-04
8.50100000000000e-08,5.99999999999886e-02,0.00000000000000e+00,5.83079131955461e-04
8.50300000000000e-08,1.79999999999966e-01,0.00000000000000e+00,1.03313312719787e-03
8.50700000000000e-08,4.19999999999920e-01,0.00000000000000e+00,1.47497044283261e-03
8.51000000000000e-08,5.99999999999966e-01,0.00000000000000e+00,1.13973564599321e-03
8.51080000000000e-08,6.00000000000000e-01,0.00000000000000e+00,8.91485498028949e-04
8.51240000000000e-08,6.00000000000000e-01,0.00000000000000e+00,4.45447523272732e-04
8.51560000000000e-08,6.00000000000000e-01,0.00000000000000e+00,-1.74942283674678e-04
8.52200000000000e-08,6.00000000000000e-01,0.00000000000000e+00,-7.04902515601458e-04
8.53480000000000e-08,6.00000000000000e-01,0.00000000000000e+00,-6.85801070056599e-04
8.56040000000000e-08,6.00000000000000e-01,0.00000000000000e+00,-2.16994711688866e-04
8.61159999999999e-08,6.00000000000000e-01,0.00000000000000e+00,2.57703401855339e-04
8.71399999999999e-08,6.00000000000000e-01,0.00000000000000e+00,-2.18117549907366e-05
8.91879999999998e-08,6.00000000000000e-01,0.00000000000000e+00,-6.23485059240980e-09
9.00000000000000e-08,6.00000000000000e-01,0.00000000000000e+00,4.26136020256901e-05
9.00100000000000e-08,6.00000000000000e-01,5.99999999999886e-02,4.37216270453566e-05
9.00300000000000e-08,6.00000000000000e-01,1.79999999999966e-01,4.30847725449712e-05
9.00700000000000e-08,6.00000000000000e-01,4.19999999999920e-01,2.70907750831162e-05
9.01000000000000e-08,6.00000000000000e-01,5.99999999999966e-01,-1.19845508569916e-05
9.01080000000000e-08,6.00000000000000e-01,6.00000000000000e-01,-2.40256091403601e-05
9.01240000000000e-08,6.00000000000000e-01,6.00000000000000e-01,-3.67317855637928e-05
9.01560000000000e-08,6.00000000000000e-01,6.00000000000000e-01,-4.20637302518678e-05
9.02200000000000e-08,6.00000000000000e-01,6.00000000000000e-01,-2.18159045933808e-05
9.03480000000000e-08,6.00000000000000e-01,6.00000000000000e-01,1.16053643516439e-05
9.06040000000000e-08,6.00000000000000e-01,6.00000000000000e-01,1.07043757946179e-05
9.11159999999999e-08,6.00000000000000e-01,6.00000000000000e-01,-8.63233627072801e-07
9.21189964664848e-08,6.00000000000000e-01,6.00000000000000e-01,7.90445761027561e-06
9.41249893994544e-08,6.00000000000000e-01,6.00000000000000e-01,1.15469696239726e-06
9.51000000000000e-08,6.00000000000000e-01,6.00000000000000e-01,5.92724616414048e-06
9.51100000000000e-08,5.40000000000061e-01,6.00000000000000e-01,-1.28191245942030e-04
9.51300000000000e-08,4.20000000000084e-01,6.00000000000000e-01,-3.97701965836147e-04
9.51700000000000e-08,1.80000000000129e-01,6.00000000000000e-01,-8.76120608079012e-04
9.52000000000000e-08,8.40438829641244e-14,6.00000000000000e-01,-6.85730692135539e-04
9.52080000000000e-08,0.00000000000000e+00,6.00000000000000e-01,-3.33214543443192e-04
9.52240000000000e-08,0.00000000000000e+00,6.00000000000000e-01,2.66486602722091e-04
9.52560000000000e-08,0.00000000000000e+00,6.00000000000000e-01,9.20129073452208e-04
9.53200000000000e-08,0.00000000000000e+00,6.00000000000000e-01,1.22146634221226e-03
9.54480000000000e-08,0.00000000000000e+00,6.00000000000000e-01,8.13212737465513e-04
9.57040000000000e-08,0.00000000000000e+00,6.00000000000000e-01,-6.33737797272715e-04
9.62159999999999e-08,0.00000000000000e+00,6.00000000000000e-01,-1.09737028430507e-04
9.72399999999999e-08,0.00000000000000e+00,6.00000000000000e-01,2.62602237391732e-05
9.84558015680579e-08,0.00000000000000e+00,6.00000000000000e-01,-4.64487605541242e-05
1.00627297140029e-07,0.00000000000000e+00,6.00000000000000e-01,1.27946830472262e-04
1.03383129523081e-07,0.00000000000000e+00,6.00000000000000e-01,-1.60280263555112e-04
1.05000000000000e-07,0.00000000000000e+00,6.00000000000000e-01,1.89413010356659e-04
1.05010000000000e-07,5.99999999999886e-02,6.00000000000000e-01,5.41193895621753e-04
1.05030000000000e-07,1.79999999999966e-01,6.00000000000000e-01,1.16213052769994e-03
1.05070000000000e-07,4.19999999999920e-01,6.00000000000000e-01,2.04531406901726e-03
1.05100000000000e-07,5.99999999999966e-01,6.00000000000000e-01,2.06626789637418e-03
1.05108000000000e-07,6.00000000000000e-01,6.00000000000000e-01,1.85992209945858e-03
1.05124000000000e-07,6.00000000000000e-01,6.00000000000000e-01,1.43734709468045e-03
1.05156000000000e-07,6.00000000000000e-01,6.00000000000000e-01,4.26851103214443e-04
1.05220000000000e-07,6.00000000000000e-01,6.00000000000000e-01,-1.87545372836538e-03
1.05348000000000e-07,6.00000000000000e-01,6.00000000000000e-01,-5.04898792799738e-03
1.05604000000000e-07,6.00000000000000e-01,6.00000000000000e-01,-2.25706708117544e-03
1.06116000000000e-07,6.00000000000000e-01,6.00000000000000e-01,2.62339602174339e-01
1.07140000000000e-07,6.00000000000000e-01,6.00000000000000e-01,6.07265335598189e-01
1.08308061055547e-07,6.00000000000000e-01,6.00000000000000e-01,5.93024067243260e-01
1.10617240188779e-07,6.00000000000000e-01,6.00000000000000e-01,6.07327294348453e-01
1.13057928728822e-07,6.00000000000000e-01,6.00000000000000e-01,5.93202704096516e-01
1.15100000000000e-07,6.00000000000000e-01,6.00000000000000e-01,6.06544836097918e-01
1.15110000000000e-07,5.40000000000061e-01,6.00000000000000e-01,6.04994223191100e-01
1.15130000000000e-07,4.20000000000084e-01,6.00000000000000e-01,6.02531485133369e-01
1.15170000000000e-07,1.80000000000129e-01,6.00000000000000e-01,6.00666795288395e-01
1.15200000000000e-07,8.40438829641244e-14,6.00000000000000e-01,6.01878122748519e-01
1.15208000000000e-07,0.00000000000000e+00,6.00000000000000e-01,6.02587794900000e-01
1.15224000000000e-07,0.00000000000000e+00,6.00000000000000e-01,6.03744146457703e-01
1.15256000000000e-07,0.00000000000000e+00,6.00000000000000e-01,6.05107726750426e-01
1.15320000000000e-07,0.00000000000000e+00,6.00000000000000e-01,6.06100704227746e-01
1.15448000000000e-07,0.00000000000000e+00,6.00000000000000e-01,6.03975929300338e-01
1.15704000000000e-07,0.00000000000000e+00,6.00000000000000e-01,5.88154653369467e-01
1.16216000000000e-07,0.00000000000000e+00,6.00000000000000e-01,5.90217941016236e-01
1.17240000000000e-07,0.00000000000000e+00,6.00000000000000e-01,6.05222594768547e-01
1.18549046877537e-07,0.00000000000000e+00,6.00000000000000e-01,5.95401416791258e-01
1.20588842251714e-07,0.00000000000000e+00,6.00000000000000e-01,6.03416272729281e-01
1.24388842251714e-07,0.00000000000000e+00,6.00000000000000e-01,5.96581684812747e-01
1.25000000000000e-07,0.00000000000000e+00,6.00000000000000e-01,6.01743571097130e-01
1.25010000000000e-07,5.99999999999092e-02,6.00000000000000e-01,6.01818299597502e-01
1.25030000000000e-07,1.79999999999886e-01,6.00000000000000e-01,6.01924967887750e-01
1.25070000000000e-07,4.19999999999841e-01,6.00000000000000e-01,6.01960275785860e-01
1.25100000000000e-07,5.99999999999886e-01,6.00000000000000e-01,6.01552312200572e-01
1.25108000000000e-07,6.00000000000000e-01,5.51999999999946e-01,6.01278097163557e-01
1.25124000000000e-07,6.00000000000000e-01,4.55999999999996e-01,6.00735721763485e-01
1.25156000000000e-07,6.00000000000000e-01,2.63999999999937e-01,5.99715355509269e-01
1.25200000000000e-07,6.00000000000000e-01,0.00000000000000e+00,5.98612646182888e-01
1.25206400000000e-07,6.00000000000000e-01,0.00000000000000e+00,5.98475999085074e-01
1.25219200000000e-07,6.00000000000000e-01,0.00000000000000e+00,5.98248835634897e-01
1.25244800000000e-07,6.00000000000000e-01,0.00000000000000e+00,5.97857368797675e-01
1.25296000000000e-07,6.00000000000000e-01,0.00000000000000e+00,5.97285269520361e-01
1.25398400000000e-07,6.00000000000000e-01,0.00000000000000e+00,5.96573265678449e-01
1.25603200000000e-07,6.00000000000000e-01,0.00000000000000e+00,5.95942295231806e-01
1.26012800000000e-07,6.00000000000000e-01,0.00000000000000e+00,5.97228970823997e-01
1.26571675639892e-07,6.00000000000000e-01,0.00000000000000e+00,5.99282388004733e-01
1.27689426919677e-07,6.00000000000000e-01,0.00000000000000e+00,5.99917330248675e-01
1.28891942134382e-07,6.00000000000000e-01,0.00000000000000e+00,6.00159302777829e-01
1.31296972563793e-07,6.00000000000000e-01,0.00000000000000e+00,5.99842241520947e-01
1.35096972563793e-07,6.00000000000000e-01,0.00000000000000e+00,6.00153033328856e-01
1.35100000000000e-07,5.99999999999891e-01,0.00000000000000e+00,6.00163699439889e-01
1.35106054872414e-07,5.63670765515479e-01,0.00000000000000e+00,6.00033467666478e-01
1.35118164617242e-07,4.91012296546654e-01,0.00000000000000e+00,5.99826633290477e-01
1.35142384106899e-07,3.45695358609006e-01,0.00000000000000e+00,5.99524658378222e-01
1.35190823086211e-07,5.50614827337087e-02,0.00000000000000e+00,6.00888844590256e-01
1.35200000000000e-07,0.00000000000000e+00,0.00000000000000e+00,6.01635091305610e-01
1.35209687795863e-07,0.00000000000000e+00,0.00000000000000e+00,6.02570662556182e-01
1.35229063387588e-07,0.00000000000000e+00,0.00000000000000e+00,6.04040982772703e-01
