Time,v(clk),v(data),v(out),v(reset)
1.00000000000000e-08,6.00000000000000e-01,0.00000000000000e+00,-7.02628032618266e-06,0.00000000000000e+00
1.00100000000000e-08,6.00000000000000e-01,5.99999999999986e-02,-5.64136545695010e-06,0.00000000000000e+00
1.00300000000000e-08,6.00000000000000e-01,1.79999999999996e-01,-3.58358653114454e-06,0.00000000000000e+00
1.00700000000000e-08,6.00000000000000e-01,4.19999999999990e-01,-2.06632651806454e-06,0.00000000000000e+00
1.01000000000000e-08,6.00000000000000e-01,5.99999999999995e-01,-2.08942508819754e-06,0.00000000000000e+00
1.01080000000000e-08,6.00000000000000e-01,6.00000000000000e-01,-1.62608163372518e-06,0.00000000000000e+00
1.01240000000000e-08,6.00000000000000e-01,6.00000000000000e-01,-4.75588162518470e-07,0.00000000000000e+00
1.01560000000000e-08,6.00000000000000e-01,6.00000000000000e-01,1.57294710308870e-06,0.00000000000000e+00
1.02200000000000e-08,6.00000000000000e-01,6.00000000000000e-01,3.82819066423873e-06,0.00000000000000e+00
1.03480000000000e-08,6.00000000000000e-01,6.00000000000000e-01,4.90398659740848e-06,0.00000000000000e+00
1.06040000000000e-08,6.00000000000000e-01,6.00000000000000e-01,4.89117925591212e-06,0.00000000000000e+00
1.11160000000000e-08,6.00000000000000e-01,6.00000000000000e-01,4.58702156975674e-06,0.00000000000000e+00
1.21400000000000e-08,6.00000000000000e-01,6.00000000000000e-01,4.45935251807382e-06,0.00000000000000e+00
1.41880000000000e-08,6.00000000000000e-01,6.00000000000000e-01,3.78847059975471e-06,0.00000000000000e+00
1.51000000000000e-08,6.00000000000000e-01,6.00000000000000e-01,3.73527335865813e-06,0.00000000000000e+00
1.51100000000000e-08,5.39999999999992e-01,6.00000000000000e-01,1.98111026760317e-04,6.00000000000085e-02
1.51300000000000e-08,4.19999999999994e-01,6.00000000000000e-01,4.50878947336898e-04,1.80000000000006e-01
1.51700000000000e-08,1.80000000000000e-01,6.00000000000000e-01,4.50146604870999e-04,4.20000000000000e-01
1.52000000000000e-08,0.00000000000000e+00,6.00000000000000e-01,3.06449832101797e-04,6.00000000000000e-01
1.52080000000000e-08,0.00000000000000e+00,6.00000000000000e-01,2.52060100486964e-04,6.00000000000000e-01
1.52240000000000e-08,0.00000000000000e+00,6.00000000000000e-01,1.68557428264632e-04,6.00000000000000e-01
1.52560000000000e-08,0.00000000000000e+00,6.00000000000000e-01,9.22249070830980e-05,6.00000000000000e-01
1.53200000000000e-08,0.00000000000000e+00,6.00000000000000e-01,6.07539856772310e-05,6.00000000000000e-01
1.54480000000000e-08,0.00000000000000e+00,6.00000000000000e-01,-2.40750393096303e-05,6.00000000000000e-01
1.57040000000000e-08,0.00000000000000e+00,6.00000000000000e-01,-1.91802936607668e-04,6.00000000000000e-01
1.61853017705341e-08,0.00000000000000e+00,6.00000000000000e-01,-5.00745243952119e-06,6.00000000000000e-01
1.70631045994143e-08,0.00000000000000e+00,6.00000000000000e-01,-4.42560407064949e-05,6.00000000000000e-01
1.81356343966677e-08,0.00000000000000e+00,6.00000000000000e-01,1.38289810140597e-04,6.00000000000000e-01
2.02806939911744e-08,0.00000000000000e+00,6.00000000000000e-01,-1.39470480619372e-04,6.00000000000000e-01
2.27254948483258e-08,0.00000000000000e+00,6.00000000000000e-01,1.38720802316234e-04,6.00000000000000e-01
2.50000000000000e-08,0.00000000000000e+00,6.00000000000000e-01,-1.28735735570474e-04,6.00000000000000e-01
2.50100000000000e-08,5.99999999999886e-02,6.00000000000000e-01,-1.06867037054786e-05,6.00000000000000e-01
2.50300000000000e-08,1.80000000000006e-01,6.00000000000000e-01,1.97030338768348e-04,6.00000000000000e-01
2.50700000000000e-08,4.20000000000000e-01,6.00000000000000e-01,4.51805525251536e-04,6.00000000000000e-01
2.51000000000000e-08,6.00000000000000e-01,6.00000000000000e-01,4.22329319786009e-04,6.00000000000000e-01
2.51080000000000e-08,6.00000000000000e-01,6.00000000000000e-01,3.02084680834105e-04,6.00000000000000e-01
2.51240000000000e-08,6.00000000000000e-01,6.00000000000000e-01,-4.91609644311802e-06,6.00000000000000e-01
2.51560000000000e-08,6.00000000000000e-01,6.00000000000000e-01,-9.34082452625322e-04,6.00000000000000e-01
2.52200000000000e-08,6.00000000000000e-01,6.00000000000000e-01,-2.97374103095631e-03,6.00000000000000e-01
2.53480000000000e-08,6.00000000000000e-01,6.00000000000000e-01,-5.33754636180444e-03,6.00000000000000e-01
2.56040000000000e-08,6.00000000000000e-01,6.00000000000000e-01,6.90484137993080e-02,6.00000000000000e-01
2.61160000000000e-08,6.00000000000000e-01,6.00000000000000e-01,5.17806014808226e-01,6.00000000000000e-01
2.71400000000000e-08,6.00000000000000e-01,6.00000000000000e-01,6.21766228070164e-01,6.00000000000000e-01
2.82731959231093e-08,6.00000000000000e-01,6.00000000000000e-01,5.77927195972486e-01,6.00000000000000e-01
3.05395877693278e-08,6.00000000000000e-01,6.00000000000000e-01,6.18850012745075e-01,6.00000000000000e-01
3.35456965026902e-08,6.00000000000000e-01,6.00000000000000e-01,5.80193392701635e-01,6.00000000000000e-01
3.51000000000000e-08,5.99999999999970e-01,6.00000000000000e-01,6.16852446924543e-01,6.00000000000000e-01
3.51100000000000e-08,5.39999999999982e-01,6.00000000000000e-01,6.12416697418719e-01,6.00000000000000e-01
3.51300000000000e-08,4.19999999999965e-01,6.00000000000000e-01,6.05818356395848e-01,6.00000000000000e-01
3.51700000000000e-08,1.79999999999970e-01,6.00000000000000e-01,6.01192116872795e-01,6.00000000000000e-01
3.52000000000000e-08,0.00000000000000e+00,6.00000000000000e-01,6.01697336926679e-01,6.00000000000000e-01
3.52080000000000e-08,0.00000000000000e+00,6.00000000000000e-01,6.02051306990688e-01,6.00000000000000e-01
3.52240000000000e-08,0.00000000000000e+00,6.00000000000000e-01,6.02575763616570e-01,6.00000000000000e-01
3.52560000000000e-08,0.00000000000000e+00,6.00000000000000e-01,6.02961343438468e-01,6.00000000000000e-01
3.53200000000000e-08,0.00000000000000e+00,6.00000000000000e-01,6.01785115967841e-01,6.00000000000000e-01
3.54480000000000e-08,0.00000000000000e+00,6.00000000000000e-01,5.87933858319847e-01,6.00000000000000e-01
3.57040000000000e-08,0.00000000000000e+00,6.00000000000000e-01,5.78358154670618e-01,6.00000000000000e-01
3.62160000000000e-08,0.00000000000000e+00,6.00000000000000e-01,6.01005829735733e-01,6.00000000000000e-01
3.71551473367196e-08,0.00000000000000e+00,6.00000000000000e-01,5.98213900446044e-01,6.00000000000000e-01
3.84420381811442e-08,0.00000000000000e+00,6.00000000000000e-01,6.00916637056553e-01,6.00000000000000e-01
4.10158198699934e-08,0.00000000000000e+00,6.00000000000000e-01,5.98720896793217e-01,6.00000000000000e-01
4.48158198699934e-08,0.00000000000000e+00,6.00000000000000e-01,6.00938844834119e-01,6.00000000000000e-01
4.50000000000000e-08,0.00000000000000e+00,6.00000000000000e-01,5.99584213116916e-01,6.00000000000000e-01
4.50100000000000e-08,5.99999999999886e-02,6.00000000000000e-01,5.99538929176167e-01,5.40000000000011e-01
4.50300000000000e-08,1.80000000000006e-01,6.00000000000000e-01,5.99446980930972e-01,4.19999999999994e-01
4.50700000000000e-08,4.20000000000000e-01,6.00000000000000e-01,6.00248928680309e-01,1.80000000000000e-01
4.51000000000000e-08,6.00000000000000e-01,6.00000000000000e-01,6.03413203839481e-01,0.00000000000000e+00
4.51080000000000e-08,6.00000000000000e-01,6.00000000000000e-01,6.04655968060839e-01,0.00000000000000e+00
4.51240000000000e-08,6.00000000000000e-01,6.00000000000000e-01,6.06811352697199e-01,0.00000000000000e+00
4.51560000000000e-08,6.00000000000000e-01,6.00000000000000e-01,6.09992482513579e-01,0.00000000000000e+00
4.52200000000000e-08,6.00000000000000e-01,6.00000000000000e-01,6.15797439694211e-01,0.00000000000000e+00
4.53480000000000e-08,6.00000000000000e-01,6.00000000000000e-01,6.20007621743839e-01,0.00000000000000e+00
4.56040000000000e-08,6.00000000000000e-01,6.00000000000000e-01,3.32487982902973e-01,0.00000000000000e+00
4.61160000000000e-08,6.00000000000000e-01,6.00000000000000e-01,-3.62613389789635e-02,0.00000000000000e+00
4.67881105563866e-08,6.00000000000000e-01,6.00000000000000e-01,2.37316756833452e-02,0.00000000000000e+00
4.81305099055534e-08,6.00000000000000e-01,6.00000000000000e-01,-1.76479205148809e-02,0.00000000000000e+00
4.95489119180927e-08,6.00000000000000e-01,6.00000000000000e-01,1.47939248672575e-02,0.00000000000000e+00
5.01000000000000e-08,6.00000000000000e-01,5.99999999999966e-01,-8.45895376401994e-03,0.00000000000000e+00
5.03836804025079e-08,6.00000000000000e-01,6.00000000000000e-01,-1.41153399767993e-03,0.00000000000000e+00
5.09510412075236e-08,6.00000000000000e-01,6.00000000000000e-01,7.69066776223144e-04,0.00000000000000e+00
5.20857628175551e-08,6.00000000000000e-01,6.00000000000000e-01,-5.78481776058981e-04,0.00000000000000e+00
5.43552060376180e-08,6.00000000000000e-01,6.00000000000000e-01,5.05532041358030e-04,0.00000000000000e+00
5.51000000000000e-08,6.00000000000000e-01,6.00000000000000e-01,-3.37622865882728e-04,0.00000000000000e+00
5.51100000000000e-08,5.40000000000021e-01,6.00000000000000e-01,-7.00935908552261e-05,5.99999999999787e-02
5.51300000000000e-08,4.20000000000004e-01,6.00000000000000e-01,2.75214283597808e-04,1.79999999999996e-01
5.51700000000000e-08,1.80000000000010e-01,6.00000000000000e-01,3.41050821800734e-04,4.19999999999990e-01
5.52000000000000e-08,0.00000000000000e+00,6.00000000000000e-01,2.22194964526606e-04,6.00000000000000e-01
5.52080000000000e-08,0.00000000000000e+00,6.00000000000000e-01,1.72656061756184e-04,6.00000000000000e-01
5.52240000000000e-08,0.00000000000000e+00,6.00000000000000e-01,9.83611101018148e-05,6.00000000000000e-01
5.52560000000000e-08,0.00000000000000e+00,6.00000000000000e-01,3.36655031394628e-05,6.00000000000000e-01
5.53200000000000e-08,0.00000000000000e+00,6.00000000000000e-01,-1.64895747357535e-05,6.00000000000000e-01
5.54480000000000e-08,0.00000000000000e+00,6.00000000000000e-01,-6.89344228091346e-04,6.00000000000000e-01
5.57040000000000e-08,0.00000000000000e+00,6.00000000000000e-01,-7.73751520439455e-04,6.00000000000000e-01
5.61578567948772e-08,0.00000000000000e+00,6.00000000000000e-01,3.76401566570844e-04,6.00000000000000e-01
5.69740450065001e-08,0.00000000000000e+00,6.00000000000000e-01,-3.61186766996140e-04,6.00000000000000e-01
5.80458843102888e-08,0.00000000000000e+00,6.00000000000000e-01,3.00629235157220e-04,6.00000000000000e-01
6.01895629178662e-08,0.00000000000000e+00,6.00000000000000e-01,-2.39256784838805e-04,6.00000000000000e-01
6.25336014173861e-08,0.00000000000000e+00,6.00000000000000e-01,1.98332590625230e-04,6.00000000000000e-01
6.50000000000000e-08,0.00000000000000e+00,6.00000000000000e-01,-1.58261220630511e-04,6.00000000000000e-01
6.50100000000000e-08,5.99999999999886e-02,6.00000000000000e-01,-3.53012360555446e-05,6.00000000000000e-01
6.50300000000000e-08,1.79999999999966e-01,6.00000000000000e-01,1.71229587015195e-04,6.00000000000000e-01
6.50700000000000e-08,4.19999999999920e-01,6.00000000000000e-01,4.26701223609577e-04,6.00000000000000e-01
6.51000000000000e-08,5.99999999999966e-01,6.00000000000000e-01,4.08644315637204e-04,6.00000000000000e-01
6.51080000000000e-08,6.00000000000000e-01,6.00000000000000e-01,2.93617024889489e-04,6.00000000000000e-01
6.51240000000000e-08,6.00000000000000e-01,6.00000000000000e-01,-1.48709695228094e-06,6.00000000000000e-01
6.51560000000000e-08,6.00000000000000e-01,6.00000000000000e-01,-9.12013930186147e-04,6.00000000000000e-01
6.52200000000000e-08,6.00000000000000e-01,6.00000000000000e-01,-2.94574494604147e-03,6.00000000000000e-01
6.53480000000000e-08,6.00000000000000e-01,6.00000000000000e-01,-5.34735113948451e-03,6.00000000000000e-01
6.56040000000000e-08,6.00000000000000e-01,6.00000000000000e-01,6.68583948886269e-02,6.00000000000000e-01
6.61159999999999e-08,6.00000000000000e-01,6.00000000000000e-01,5.16088292923211e-01,6.00000000000000e-01
6.71399999999999e-08,6.00000000000000e-01,6.00000000000000e-01,6.22085607459877e-01,6.00000000000000e-01
6.82692352727611e-08,6.00000000000000e-01,6.00000000000000e-01,5.77622267713566e-01,6.00000000000000e-01
7.05277058182837e-08,6.00000000000000e-01,6.00000000000000e-01,6.19116161203692e-01,6.00000000000000e-01
7.35445963580429e-08,6.00000000000000e-01,6.00000000000000e-01,5.79911356531305e-01,6.00000000000000e-01
7.51000000000000e-08,6.00000000000000e-01,6.00000000000000e-01,6.17089222147513e-01,6.00000000000000e-01
7.51100000000000e-08,5.40000000000061e-01,6.00000000000000e-01,6.12589718688562e-01,6.00000000000000e-01
7.51300000000000e-08,4.20000000000084e-01,6.00000000000000e-01,6.05897985715899e-01,6.00000000000000e-01
7.51700000000000e-08,1.80000000000129e-01,6.00000000000000e-01,6.01203621883461e-01,6.00000000000000e-01
7.52000000000000e-08,8.40438829641244e-14,6.00000000000000e-01,6.01699983049260e-01,6.00000000000000e-01
7.52080000000000e-08,0.00000000000000e+00,6.00000000000000e-01,6.02052840228397e-01,6.00000000000000e-01
7.52240000000000e-08,0.00000000000000e+00,6.00000000000000e-01,6.02575448163721e-01,6.00000000000000e-01
7.52560000000000e-08,0.00000000000000e+00,6.00000000000000e-01,6.02958684605329e-01,6.00000000000000e-01
7.53200000000000e-08,0.00000000000000e+00,6.00000000000000e-01,6.01774429890611e-01,6.00000000000000e-01
7.54480000000000e-08,0.00000000000000e+00,6.00000000000000e-01,5.87906082824906e-01,6.00000000000000e-01
7.57040000000000e-08,0.00000000000000e+00,6.00000000000000e-01,5.78352697645685e-01,6.00000000000000e-01
7.62159999999999e-08,0.00000000000000e+00,6.00000000000000e-01,6.01014597552374e-01,6.00000000000000e-01
7.71551274435308e-08,0.00000000000000e+00,6.00000000000000e-01,5.98206154563092e-01,6.00000000000000e-01
7.84419948628036e-08,0.00000000000000e+00,6.00000000000000e-01,6.00922641418499e-01,6.00000000000000e-01
8.10157297013491e-08,0.00000000000000e+00,6.00000000000000e-01,5.98715222705804e-01,6.00000000000000e-01
8.48157297013491e-08,0.00000000000000e+00,6.00000000000000e-01,6.00944082892824e-01,6.00000000000000e-01
8.50000000000000e-08,0.00000000000000e+00,6.00000000000000e-01,5.99582682628954e-01,6.00000000000000e-01
8.50100000000000e-08,5.99999999999886e-02,6.00000000000000e-01,5.99537602553229e-01,5.40000000000011e-01
8.50300000000000e-08,1.79999999999966e-01,6.00000000000000e-01,5.99446048419418e-01,4.20000000000034e-01
8.50700000000000e-08,4.19999999999920e-01,6.00000000000000e-01,6.00248459858344e-01,1.80000000000080e-01
8.51000000000000e-08,5.99999999999966e-01,6.00000000000000e-01,6.03412982898310e-01,3.44169137633799e-14
8.51080000000000e-08,6.00000000000000e-01,6.00000000000000e-01,6.04655787947843e-01,0.00000000000000e+00
8.51240000000000e-08,6.00000000000000e-01,6.00000000000000e-01,6.06811235230067e-01,0.00000000000000e+00
8.51560000000000e-08,6.00000000000000e-01,6.00000000000000e-01,6.09992412048439e-01,0.00000000000000e+00
8.52200000000000e-08,6.00000000000000e-01,6.00000000000000e-01,6.15797353049594e-01,0.00000000000000e+00
8.53480000000000e-08,6.00000000000000e-01,6.00000000000000e-01,6.20006907526226e-01,0.00000000000000e+00
8.56040000000000e-08,6.00000000000000e-01,6.00000000000000e-01,3.32487447443072e-01,0.00000000000000e+00
8.61159999999999e-08,6.00000000000000e-01,6.00000000000000e-01,-3.62612484925209e-02,0.00000000000000e+00
8.67881125095907e-08,6.00000000000000e-01,6.00000000000000e-01,2.37316057691285e-02,0.00000000000000e+00
8.81304544538444e-08,6.00000000000000e-01,6.00000000000000e-01,-1.76476496989981e-02,0.00000000000000e+00
8.95488712368203e-08,6.00000000000000e-01,6.00000000000000e-01,1.47937172592599e-02,0.00000000000000e+00
9.01000000000000e-08,6.00000000000000e-01,5.99999999999966e-01,-8.45913633602562e-03,0.00000000000000e+00
9.03836833565952e-08,6.00000000000000e-01,6.00000000000000e-01,-1.41158807723662e-03,0.00000000000000e+00
9.09510500697855e-08,6.00000000000000e-01,6.00000000000000e-01,7.69097171718774e-04,0.00000000000000e+00
9.20857834961662e-08,6.00000000000000e-01,6.00000000000000e-01,-5.78503699479150e-04,0.00000000000000e+00
9.43552503489277e-08,6.00000000000000e-01,6.00000000000000e-01,5.05550495737139e-04,0.00000000000000e+00
9.51000000000000e-08,6.00000000000000e-01,6.00000000000000e-01,-3.37624397705405e-04,0.00000000000000e+00
9.51100000000000e-08,5.40000000000061e-01,6.00000000000000e-01,-7.00979421524028e-05,5.99999999999390e-02
9.51300000000000e-08,4.20000000000084e-01,6.00000000000000e-01,2.75209415242970e-04,1.79999999999916e-01
9.51700000000000e-08,1.80000000000129e-01,6.00000000000000e-01,3.41047743348810e-04,4.19999999999871e-01
9.52000000000000e-08,8.40438829641244e-14,6.00000000000000e-01,2.22192693554689e-04,5.99999999999916e-01
9.52080000000000e-08,0.00000000000000e+00,6.00000000000000e-01,1.72653931191771e-04,6.00000000000000e-01
9.52240000000000e-08,0.00000000000000e+00,6.00000000000000e-01,9.83591261538921e-05,6.00000000000000e-01
9.52560000000000e-08,0.00000000000000e+00,6.00000000000000e-01,3.36640667768992e-05,6.00000000000000e-01
9.53200000000000e-08,0.00000000000000e+00,6.00000000000000e-01,-1.64861590205984e-05,6.00000000000000e-01
9.54480000000000e-08,0.00000000000000e+00,6.00000000000000e-01,-6.89310342814366e-04,6.00000000000000e-01
9.57040000000000e-08,0.00000000000000e+00,6.00000000000000e-01,-7.73698142911929e-04,6.00000000000000e-01
9.61578322780478e-08,0.00000000000000e+00,6.00000000000000e-01,3.76374681506357e-04,6.00000000000000e-01
9.69739172108664e-08,0.00000000000000e+00,6.00000000000000e-01,-3.61165321410877e-04,6.00000000000000e-01
9.80457755475909e-08,0.00000000000000e+00,6.00000000000000e-01,3.00609834663580e-04,6.00000000000000e-01
1.00189492221040e-07,0.00000000000000e+00,6.00000000000000e-01,-2.39237926479458e-04,6.00000000000000e-01
1.02533387056961e-07,0.00000000000000e+00,6.00000000000000e-01,1.98309907161869e-04,6.00000000000000e-01
1.05000000000000e-07,0.00000000000000e+00,6.00000000000000e-01,-1.58243249167378e-04,6.00000000000000e-01
1.05010000000000e-07,5.99999999999886e-02,6.00000000000000e-01,-3.52836851860716e-05,6.00000000000000e-01
1.05030000000000e-07,1.79999999999966e-01,6.00000000000000e-01,1.71246353374260e-04,6.00000000000000e-01
1.05070000000000e-07,4.19999999999920e-01,6.00000000000000e-01,4.26715936810304e-04,6.00000000000000e-01
1.05100000000000e-07,5.99999999999966e-01,6.00000000000000e-01,4.08657176231918e-04,6.00000000000000e-01
1.05108000000000e-07,6.00000000000000e-01,6.00000000000000e-01,2.93629352620013e-04,6.00000000000000e-01
1.05124000000000e-07,6.00000000000000e-01,6.00000000000000e-01,-1.47584641174009e-06,6.00000000000000e-01
1.05156000000000e-07,6.00000000000000e-01,6.00000000000000e-01,-9.12005183051873e-04,6.00000000000000e-01
1.05220000000000e-07,6.00000000000000e-01,6.00000000000000e-01,-2.94574024179112e-03,6.00000000000000e-01
1.05348000000000e-07,6.00000000000000e-01,6.00000000000000e-01,-5.34735207230549e-03,6.00000000000000e-01
1.05604000000000e-07,6.00000000000000e-01,6.00000000000000e-01,6.68581333615234e-02,6.00000000000000e-01
1.06116000000000e-07,6.00000000000000e-01,6.00000000000000e-01,5.16088085781941e-01,6.00000000000000e-01
1.07140000000000e-07,6.00000000000000e-01,6.00000000000000e-01,6.22085645470492e-01,6.00000000000000e-01
1.08269234805928e-07,6.00000000000000e-01,6.00000000000000e-01,5.77622231468719e-01,6.00000000000000e-01
1.10527704417784e-07,6.00000000000000e-01,6.00000000000000e-01,6.19116192774849e-01,6.00000000000000e-01
1.13544596258930e-07,6.00000000000000e-01,6.00000000000000e-01,5.79911323040390e-01,6.00000000000000e-01
1.15100000000000e-07,6.00000000000000e-01,6.00000000000000e-01,6.17089250818639e-01,6.00000000000000e-01
1.15110000000000e-07,5.40000000000061e-01,6.00000000000000e-01,6.12589739479731e-01,6.00000000000000e-01
1.15130000000000e-07,4.20000000000084e-01,6.00000000000000e-01,6.05897995151009e-01,6.00000000000000e-01
1.15170000000000e-07,1.80000000000129e-01,6.00000000000000e-01,6.01203623343817e-01,6.00000000000000e-01
1.15200000000000e-07,8.40438829641244e-14,6.00000000000000e-01,6.01699983473832e-01,6.00000000000000e-01
1.15208000000000e-07,0.00000000000000e+00,6.00000000000000e-01,6.02052840476904e-01,6.00000000000000e-01
1.15224000000000e-07,0.00000000000000e+00,6.00000000000000e-01,6.02575448157154e-01,6.00000000000000e-01
