Time,v(clk),v(data),v(out)
1.00000000000000e-08,6.00000000000000e-01,0.00000000000000e+00,7.70765446700752e-05
1.00100000000000e-08,6.00000000000000e-01,5.99999999999986e-02,8.22122365328054e-05
1.00300000000000e-08,6.00000000000000e-01,1.79999999999996e-01,8.59021900163348e-05
1.00700000000000e-08,6.00000000000000e-01,4.19999999999990e-01,7.07805926636051e-05
1.01000000000000e-08,6.00000000000000e-01,5.99999999999995e-01,3.47279919768045e-05
1.01080000000000e-08,6.00000000000000e-01,6.00000000000000e-01,2.05802548170209e-05
1.01240000000000e-08,6.00000000000000e-01,6.00000000000000e-01,4.55233808589750e-06
1.01560000000000e-08,6.00000000000000e-01,6.00000000000000e-01,-1.26609952223744e-05
1.02200000000000e-08,6.00000000000000e-01,6.00000000000000e-01,-9.37095851860636e-06
1.03480000000000e-08,6.00000000000000e-01,6.00000000000000e-01,1.79022919501726e-05
1.06040000000000e-08,6.00000000000000e-01,6.00000000000000e-01,2.73200831735418e-05
1.11160000000000e-08,6.00000000000000e-01,6.00000000000000e-01,1.03335263621288e-05
1.20149716846385e-08,6.00000000000000e-01,6.00000000000000e-01,1.63823879834428e-05
1.38129150539156e-08,6.00000000000000e-01,6.00000000000000e-01,1.33106513317202e-05
1.51000000000000e-08,6.00000000000000e-01,6.00000000000000e-01,1.40762407102521e-05
1.51100000000000e-08,5.39999999999992e-01,6.00000000000000e-01,-1.22396772528122e-04
1.51300000000000e-08,4.19999999999994e-01,6.00000000000000e-01,-4.15643860559672e-04
1.51700000000000e-08,1.80000000000000e-01,6.00000000000000e-01,-9.37184971321475e-04
1.52000000000000e-08,0.00000000000000e+00,6.00000000000000e-01,-8.29484385917609e-04
1.52080000000000e-08,0.00000000000000e+00,6.00000000000000e-01,-5.03209349329153e-04
1.52240000000000e-08,0.00000000000000e+00,6.00000000000000e-01,6.92166870588651e-05
1.52560000000000e-08,0.00000000000000e+00,6.00000000000000e-01,7.66157483997956e-04
1.53200000000000e-08,0.00000000000000e+00,6.00000000000000e-01,1.24213456212342e-03
1.54480000000000e-08,0.00000000000000e+00,6.00000000000000e-01,1.02787636569417e-03
1.57040000000000e-08,0.00000000000000e+00,6.00000000000000e-01,-3.34346251907466e-04
1.62160000000000e-08,0.00000000000000e+00,6.00000000000000e-01,-5.18213699926350e-04
1.72400000000000e-08,0.00000000000000e+00,6.00000000000000e-01,3.38326110687990e-04
1.85195863317396e-08,0.00000000000000e+00,6.00000000000000e-01,-3.29709101299279e-04
2.04721050367326e-08,0.00000000000000e+00,6.00000000000000e-01,4.16940940275490e-04
2.36164636254093e-08,0.00000000000000e+00,6.00000000000000e-01,-4.02402712505575e-04
2.50000000000000e-08,0.00000000000000e+00,6.00000000000000e-01,3.72904473292999e-04
2.50100000000000e-08,5.99999999999886e-02,6.00000000000000e-01,7.15035939302555e-04
2.50300000000000e-08,1.80000000000006e-01,6.00000000000000e-01,1.33099197101938e-03
2.50700000000000e-08,4.20000000000000e-01,6.00000000000000e-01,2.25396059546247e-03
2.51000000000000e-08,6.00000000000000e-01,6.00000000000000e-01,2.40617527485970e-03
2.51080000000000e-08,6.00000000000000e-01,6.00000000000000e-01,2.21899070659677e-03
2.51240000000000e-08,6.00000000000000e-01,6.00000000000000e-01,1.84585488014878e-03
2.51560000000000e-08,6.00000000000000e-01,6.00000000000000e-01,1.01624965128122e-03
2.52200000000000e-08,6.00000000000000e-01,6.00000000000000e-01,-8.82518076231159e-04
2.53480000000000e-08,6.00000000000000e-01,6.00000000000000e-01,-3.90563927187297e-03
2.56040000000000e-08,6.00000000000000e-01,6.00000000000000e-01,-5.04381343490100e-03
2.61160000000000e-08,6.00000000000000e-01,6.00000000000000e-01,1.30980562294097e-01
2.71400000000000e-08,6.00000000000000e-01,6.00000000000000e-01,5.67842947695984e-01
2.91813227891390e-08,6.00000000000000e-01,6.00000000000000e-01,6.10405064411917e-01
3.01000000000000e-08,6.00000000000000e-01,6.00000000000000e-01,5.91931123257400e-01
3.01100000000000e-08,6.00000000000000e-01,5.40000000000031e-01,5.92974758351956e-01
3.01300000000000e-08,6.00000000000000e-01,4.20000000000014e-01,5.94751693834281e-01
3.01700000000000e-08,6.00000000000000e-01,1.80000000000020e-01,5.97103045233897e-01
3.02000000000000e-08,6.00000000000000e-01,1.44328993201270e-14,5.98175255740430e-01
3.02080000000000e-08,6.00000000000000e-01,0.00000000000000e+00,5.98359650036173e-01
3.02240000000000e-08,6.00000000000000e-01,0.00000000000000e+00,5.98676723427034e-01
3.02560000000000e-08,6.00000000000000e-01,0.00000000000000e+00,5.99141193057269e-01
3.03200000000000e-08,6.00000000000000e-01,0.00000000000000e+00,5.99590232657727e-01
3.04480000000000e-08,6.00000000000000e-01,0.00000000000000e+00,5.99803637565520e-01
3.07040000000000e-08,6.00000000000000e-01,0.00000000000000e+00,5.99812266244179e-01
3.12160000000000e-08,6.00000000000000e-01,0.00000000000000e+00,6.00003604783391e-01
3.19309981896864e-08,6.00000000000000e-01,0.00000000000000e+00,5.99948469349828e-01
3.33599548911926e-08,6.00000000000000e-01,0.00000000000000e+00,5.99947711582115e-01
3.50157125483568e-08,6.00000000000000e-01,0.00000000000000e+00,5.99978036032552e-01
3.51000000000000e-08,5.99999999999970e-01,0.00000000000000e+00,5.99952905131679e-01
3.51100000000000e-08,5.39999999999982e-01,0.00000000000000e+00,5.99801179340947e-01
3.51300000000000e-08,4.19999999999965e-01,0.00000000000000e+00,5.99521304963075e-01
3.51700000000000e-08,1.79999999999970e-01,0.00000000000000e+00,5.99680620212664e-01
3.52000000000000e-08,0.00000000000000e+00,0.00000000000000e+00,6.01315749803175e-01
3.52080000000000e-08,0.00000000000000e+00,0.00000000000000e+00,6.02073949765139e-01
3.52240000000000e-08,0.00000000000000e+00,0.00000000000000e+00,6.03383617274101e-01
3.52560000000000e-08,0.00000000000000e+00,0.00000000000000e+00,6.04988611972278e-01
3.53200000000000e-08,0.00000000000000e+00,0.00000000000000e+00,6.06306091804462e-01
3.54480000000000e-08,0.00000000000000e+00,0.00000000000000e+00,6.05420474243713e-01
3.57040000000000e-08,0.00000000000000e+00,0.00000000000000e+00,5.92098182666108e-01
3.62160000000000e-08,0.00000000000000e+00,0.00000000000000e+00,5.87441604514984e-01
3.70616752859490e-08,0.00000000000000e+00,0.00000000000000e+00,6.03996337787221e-01
3.82036007013891e-08,0.00000000000000e+00,0.00000000000000e+00,5.95905595443138e-01
3.91000000000000e-08,0.00000000000000e+00,0.00000000000000e+00,6.01852035676705e-01
3.92979046309433e-08,0.00000000000000e+00,0.00000000000000e+00,6.00340697779964e-01
3.96937138928299e-08,0.00000000000000e+00,0.00000000000000e+00,5.99397498927984e-01
4.04853324166030e-08,0.00000000000000e+00,0.00000000000000e+00,5.99837727962989e-01
4.20685694641494e-08,0.00000000000000e+00,0.00000000000000e+00,5.99651163920238e-01
4.50000000000000e-08,0.00000000000000e+00,0.00000000000000e+00,5.99910071267338e-01
4.50100000000000e-08,5.99999999999886e-02,0.00000000000000e+00,6.00176338526010e-01
4.50300000000000e-08,1.80000000000006e-01,0.00000000000000e+00,6.00605183872192e-01
4.50700000000000e-08,4.20000000000000e-01,0.00000000000000e+00,6.00948211263767e-01
4.51000000000000e-08,6.00000000000000e-01,0.00000000000000e+00,6.00731449674494e-01
4.51080000000000e-08,6.00000000000000e-01,0.00000000000000e+00,6.00541025756372e-01
4.51240000000000e-08,6.00000000000000e-01,0.00000000000000e+00,6.00173563552448e-01
4.51560000000000e-08,6.00000000000000e-01,0.00000000000000e+00,5.99683406150444e-01
4.52200000000000e-08,6.00000000000000e-01,0.00000000000000e+00,5.99227803841258e-01
4.53480000000000e-08,6.00000000000000e-01,0.00000000000000e+00,5.99149455818679e-01
4.56040000000000e-08,6.00000000000000e-01,0.00000000000000e+00,5.99857045194912e-01
4.61160000000000e-08,6.00000000000000e-01,0.00000000000000e+00,6.10499038801111e-01
4.71400000000000e-08,6.00000000000000e-01,0.00000000000000e+00,2.05451555600941e-01
4.87831264245135e-08,6.00000000000000e-01,0.00000000000000e+00,-7.09520955261012e-02
5.00000000000000e-08,6.00000000000000e-01,0.00000000000000e+00,5.00223977656518e-02
5.00100000000000e-08,6.00000000000000e-01,5.99999999999886e-02,4.77144767856258e-02
5.00300000000000e-08,6.00000000000000e-01,1.79999999999966e-01,4.30965325259465e-02
5.00700000000000e-08,6.00000000000000e-01,4.20000000000000e-01,3.45547174295990e-02
5.01000000000000e-08,6.00000000000000e-01,6.00000000000000e-01,2.90727799954250e-02
5.01080000000000e-08,6.00000000000000e-01,6.00000000000000e-01,2.77767218547106e-02
5.01240000000000e-08,6.00000000000000e-01,6.00000000000000e-01,2.52945379241439e-02
5.01560000000000e-08,6.00000000000000e-01,6.00000000000000e-01,2.09504131456239e-02
5.02200000000000e-08,6.00000000000000e-01,6.00000000000000e-01,1.42623363895281e-02
5.03480000000000e-08,6.00000000000000e-01,6.00000000000000e-01,6.35758548572200e-03
5.06040000000000e-08,6.00000000000000e-01,6.00000000000000e-01,8.09505898674567e-04
5.11160000000001e-08,6.00000000000000e-01,6.00000000000000e-01,-1.70183484857721e-04
5.20625688669324e-08,6.00000000000000e-01,6.00000000000000e-01,9.30878040408638e-05
5.39557066007971e-08,6.00000000000000e-01,6.00000000000000e-01,-5.18845680924189e-05
5.51000000000000e-08,6.00000000000000e-01,6.00000000000000e-01,4.11489828656721e-05
5.51100000000000e-08,5.40000000000021e-01,6.00000000000000e-01,-9.99851279075564e-05
5.51300000000000e-08,4.20000000000004e-01,6.00000000000000e-01,-3.95174344246324e-04
5.51700000000000e-08,1.80000000000010e-01,6.00000000000000e-01,-9.25648577652427e-04
5.52000000000000e-08,0.00000000000000e+00,6.00000000000000e-01,-8.20332987594499e-04
5.52080000000000e-08,0.00000000000000e+00,6.00000000000000e-01,-4.98417540246932e-04
5.52240000000000e-08,0.00000000000000e+00,6.00000000000000e-01,7.33511936242132e-05
5.52560000000000e-08,0.00000000000000e+00,6.00000000000000e-01,7.67278270022709e-04
5.53200000000000e-08,0.00000000000000e+00,6.00000000000000e-01,1.23025102909698e-03
5.54480000000000e-08,0.00000000000000e+00,6.00000000000000e-01,8.76007690354272e-04
5.57040000000000e-08,0.00000000000000e+00,6.00000000000000e-01,-1.16276166669116e-03
5.62160000000000e-08,0.00000000000000e+00,6.00000000000000e-01,-7.39166320422008e-04
5.70786122504971e-08,0.00000000000000e+00,6.00000000000000e-01,5.49692102027738e-04
5.84215992112243e-08,0.00000000000000e+00,6.00000000000000e-01,-5.51526901761162e-04
6.00765794212931e-08,0.00000000000000e+00,6.00000000000000e-01,6.33701380508601e-04
6.30690889732924e-08,0.00000000000000e+00,6.00000000000000e-01,-6.06762548627123e-04
6.50000000000000e-08,0.00000000000000e+00,6.00000000000000e-01,5.69067600876778e-04
6.50100000000000e-08,5.99999999999886e-02,6.00000000000000e-01,8.74842306231596e-04
6.50300000000000e-08,1.79999999999966e-01,6.00000000000000e-01,1.44207274440952e-03
6.50700000000000e-08,4.19999999999920e-01,6.00000000000000e-01,2.32203888641125e-03
6.51000000000000e-08,5.99999999999966e-01,6.00000000000000e-01,2.46128534310083e-03
6.51080000000000e-08,6.00000000000000e-01,6.00000000000000e-01,2.27303769563911e-03
6.51240000000000e-08,6.00000000000000e-01,6.00000000000000e-01,1.90255779091458e-03
6.51560000000000e-08,6.00000000000000e-01,6.00000000000000e-01,1.09413226077645e-03
6.52200000000000e-08,6.00000000000000e-01,6.00000000000000e-01,-7.84250492603153e-04
6.53480000000000e-08,6.00000000000000e-01,6.00000000000000e-01,-3.84673132556519e-03
6.56040000000000e-08,6.00000000000000e-01,6.00000000000000e-01,-5.13141959139339e-03
6.61159999999999e-08,6.00000000000000e-01,6.00000000000000e-01,1.28474990818218e-01
6.71399999999999e-08,6.00000000000000e-01,6.00000000000000e-01,5.66872357691863e-01
6.91879999999998e-08,6.00000000000000e-01,6.00000000000000e-01,6.10725844859935e-01
7.01000000000000e-08,6.00000000000000e-01,6.00000000000000e-01,5.91662524340785e-01
7.01100000000000e-08,6.00000000000000e-01,5.40000000000011e-01,5.92746754905792e-01
7.01300000000000e-08,6.00000000000000e-01,4.20000000000034e-01,5.94591848867883e-01
7.01700000000000e-08,6.00000000000000e-01,1.80000000000080e-01,5.97026375376866e-01
7.02000000000000e-08,6.00000000000000e-01,3.44169137633799e-14,5.98130674978425e-01
7.02080000000000e-08,6.00000000000000e-01,0.00000000000000e+00,5.98320941926300e-01
7.02240000000000e-08,6.00000000000000e-01,0.00000000000000e+00,5.98648149995443e-01
7.02560000000000e-08,6.00000000000000e-01,0.00000000000000e+00,5.99126089858998e-01
7.03200000000000e-08,6.00000000000000e-01,0.00000000000000e+00,5.99588001554363e-01
7.04480000000000e-08,6.00000000000000e-01,0.00000000000000e+00,5.99806473840415e-01
7.07040000000000e-08,6.00000000000000e-01,0.00000000000000e+00,5.99813472498004e-01
7.12159999999999e-08,6.00000000000000e-01,0.00000000000000e+00,6.00003126140798e-01
7.19301241596666e-08,6.00000000000000e-01,0.00000000000000e+00,5.99948596169546e-01
7.33583724790000e-08,6.00000000000000e-01,0.00000000000000e+00,5.99947201026956e-01
7.50109371549188e-08,6.00000000000000e-01,0.00000000000000e+00,5.99978154268832e-01
7.51000000000000e-08,6.00000000000000e-01,0.00000000000000e+00,5.99952003141265e-01
7.51100000000000e-08,5.40000000000061e-01,0.00000000000000e+00,5.99801021758080e-01
7.51300000000000e-08,4.20000000000084e-01,0.00000000000000e+00,5.99521757983679e-01
7.51700000000000e-08,1.80000000000129e-01,0.00000000000000e+00,5.99680564204083e-01
7.52000000000000e-08,8.40438829641244e-14,0.00000000000000e+00,6.01315590478739e-01
7.52080000000000e-08,0.00000000000000e+00,0.00000000000000e+00,6.02073722270037e-01
7.52240000000000e-08,0.00000000000000e+00,0.00000000000000e+00,6.03383363524551e-01
7.52560000000000e-08,0.00000000000000e+00,0.00000000000000e+00,6.04988189400903e-01
7.53200000000000e-08,0.00000000000000e+00,0.00000000000000e+00,6.06304898772885e-01
7.54480000000000e-08,0.00000000000000e+00,0.00000000000000e+00,6.05414017363340e-01
7.57040000000000e-08,0.00000000000000e+00,0.00000000000000e+00,5.92087407349302e-01
7.62159999999999e-08,0.00000000000000e+00,0.00000000000000e+00,5.87441775220536e-01
7.70616745921687e-08,0.00000000000000e+00,0.00000000000000e+00,6.03997615632918e-01
7.81000000000000e-08,0.00000000000000e+00,0.00000000000000e+00,5.95997866575970e-01
7.82141912977036e-08,0.00000000000000e+00,0.00000000000000e+00,5.97836448050440e-01
7.84425738931108e-08,0.00000000000000e+00,0.00000000000000e+00,5.99612118082661e-01
7.88993390839252e-08,0.00000000000000e+00,0.00000000000000e+00,5.99541186531725e-01
7.98128694655541e-08,0.00000000000000e+00,0.00000000000000e+00,5.99658313826845e-01
8.16399302288117e-08,0.00000000000000e+00,0.00000000000000e+00,5.99742026671077e-01
8.50000000000000e-08,0.00000000000000e+00,0.00000000000000e+00,5.99821114990099e-01
8.50100000000000e-08,5.99999999999886e-02,0.00000000000000e+00,6.00072608911797e-01
8.50300000000000e-08,1.79999999999966e-01,0.00000000000000e+00,6.00498019335094e-01
8.50700000000000e-08,4.19999999999920e-01,0.00000000000000e+00,6.00914249480254e-01
8.51000000000000e-08,5.99999999999966e-01,0.00000000000000e+00,6.00729282246426e-01
8.51080000000000e-08,6.00000000000000e-01,0.00000000000000e+00,6.00524208241698e-01
8.51240000000000e-08,6.00000000000000e-01,0.00000000000000e+00,6.00165263720482e-01
8.51560000000000e-08,6.00000000000000e-01,0.00000000000000e+00,5.99698761959656e-01
8.52200000000000e-08,6.00000000000000e-01,0.00000000000000e+00,5.99219864114717e-01
8.53480000000000e-08,6.00000000000000e-01,0.00000000000000e+00,5.99145699318471e-01
8.56040000000000e-08,6.00000000000000e-01,0.00000000000000e+00,5.99857367300156e-01
8.61159999999999e-08,6.00000000000000e-01,0.00000000000000e+00,6.10499162344524e-01
8.71399999999999e-08,6.00000000000000e-01,0.00000000000000e+00,2.05456421736046e-01
8.87837071916935e-08,6.00000000000000e-01,0.00000000000000e+00,-7.09659239401428e-02
9.00000000000000e-08,6.00000000000000e-01,0.00000000000000e+00,5.00199603775251e-02
9.00100000000000e-08,6.00000000000000e-01,5.99999999999886e-02,4.77122005053142e-02
9.00300000000000e-08,6.00000000000000e-01,1.79999999999966e-01,4.30945305489379e-02
9.00700000000000e-08,6.00000000000000e-01,4.19999999999920e-01,3.45531116101466e-02
9.01000000000000e-08,6.00000000000000e-01,5.99999999999966e-01,2.90714113388383e-02
9.01080000000000e-08,6.00000000000000e-01,6.00000000000000e-01,2.77754104052798e-02
9.01240000000000e-08,6.00000000000000e-01,6.00000000000000e-01,2.52933368603863e-02
9.01560000000000e-08,6.00000000000000e-01,6.00000000000000e-01,2.09494082887677e-02
9.02200000000000e-08,6.00000000000000e-01,6.00000000000000e-01,1.42616425714574e-02
9.03480000000000e-08,6.00000000000000e-01,6.00000000000000e-01,6.35727076241271e-03
9.06040000000000e-08,6.00000000000000e-01,6.00000000000000e-01,8.09463964884773e-04
9.11159999999999e-08,6.00000000000000e-01,6.00000000000000e-01,-1.70176755825542e-04
9.20624090263382e-08,6.00000000000000e-01,6.00000000000000e-01,9.30707276894614e-05
9.39552270790148e-08,6.00000000000000e-01,6.00000000000000e-01,-5.18711516823804e-05
9.51000000000000e-08,6.00000000000000e-01,6.00000000000000e-01,4.11480366168046e-05
9.51100000000000e-08,5.40000000000061e-01,6.00000000000000e-01,-9.99864937433065e-05
9.51300000000000e-08,4.20000000000084e-01,6.00000000000000e-01,-3.95175938277467e-04
9.51700000000000e-08,1.80000000000129e-01,6.00000000000000e-01,-9.25650120191329e-04
9.52000000000000e-08,8.40438829641244e-14,6.00000000000000e-01,-8.20334601331560e-04
9.52080000000000e-08,0.00000000000000e+00,6.00000000000000e-01,-4.98419181975893e-04
9.52240000000000e-08,0.00000000000000e+00,6.00000000000000e-01,7.33494134613488e-05
9.52560000000000e-08,0.00000000000000e+00,6.00000000000000e-01,7.67275661841552e-04
9.53200000000000e-08,0.00000000000000e+00,6.00000000000000e-01,1.23024249959700e-03
9.54480000000000e-08,0.00000000000000e+00,6.00000000000000e-01,8.75939367574560e-04
9.57040000000000e-08,0.00000000000000e+00,6.00000000000000e-01,-1.16321610295349e-03
9.62159999999999e-08,0.00000000000000e+00,6.00000000000000e-01,-7.39336841961272e-04
9.70783955716070e-08,0.00000000000000e+00,6.00000000000000e-01,5.49813210910133e-04
9.84214819931969e-08,0.00000000000000e+00,6.00000000000000e-01,-5.51668477500517e-04
1.00076083492819e-07,0.00000000000000e+00,6.00000000000000e-01,6.33869485368609e-04
1.03068436350742e-07,0.00000000000000e+00,6.00000000000000e-01,-6.06907392425656e-04
1.05000000000000e-07,0.00000000000000e+00,6.00000000000000e-01,5.69201187386424e-04
1.05010000000000e-07,5.99999999999886e-02,6.00000000000000e-01,8.74955932682400e-04
1.05030000000000e-07,1.79999999999966e-01,6.00000000000000e-01,1.44215797264063e-03
1.05070000000000e-07,4.19999999999920e-01,6.00000000000000e-01,2.32209917936774e-03
1.05100000000000e-07,5.99999999999966e-01,6.00000000000000e-01,2.46133964509197e-03
1.05108000000000e-07,6.00000000000000e-01,6.00000000000000e-01,2.27309291780728e-03
1.05124000000000e-07,6.00000000000000e-01,6.00000000000000e-01,1.90262077665740e-03
1.05156000000000e-07,6.00000000000000e-01,6.00000000000000e-01,1.09423077650610e-03
1.05220000000000e-07,6.00000000000000e-01,6.00000000000000e-01,-7.84114632258498e-04
1.05348000000000e-07,6.00000000000000e-01,6.00000000000000e-01,-3.84664469002065e-03
1.05604000000000e-07,6.00000000000000e-01,6.00000000000000e-01,-5.13152145956290e-03
1.06116000000000e-07,6.00000000000000e-01,6.00000000000000e-01,1.28471906523102e-01
1.07140000000000e-07,6.00000000000000e-01,6.00000000000000e-01,5.66871155648127e-01
1.09188000000000e-07,6.00000000000000e-01,6.00000000000000e-01,6.10726223348348e-01
1.10100000000000e-07,6.00000000000000e-01,6.00000000000000e-01,5.91662175188708e-01
1.10110000000000e-07,6.00000000000000e-01,5.40000000000091e-01,5.92746458370435e-01
1.10130000000000e-07,6.00000000000000e-01,4.20000000000114e-01,5.94591638348344e-01
1.10170000000000e-07,6.00000000000000e-01,1.80000000000159e-01,5.97026270814005e-01
1.10200000000000e-07,6.00000000000000e-01,1.13686837721616e-13,5.98130612296218e-01
1.10208000000000e-07,6.00000000000000e-01,0.00000000000000e+00,5.98320886650334e-01
1.10224000000000e-07,6.00000000000000e-01,0.00000000000000e+00,5.98648107949257e-01
1.10256000000000e-07,6.00000000000000e-01,0.00000000000000e+00,5.99126065635748e-01
1.10320000000000e-07,6.00000000000000e-01,0.00000000000000e+00,5.99587994760329e-01
