Time,v(clk),v(data),v(out)
1.00000000000000e-08,6.00000000000000e-01,0.00000000000000e+00,-6.05715025017162e-05
1.00100000000000e-08,6.00000000000000e-01,5.99999999999986e-02,-2.85521313153903e-05
1.00300000000000e-08,6.00000000000000e-01,1.79999999999996e-01,1.07482414977017e-05
1.00700000000000e-08,6.00000000000000e-01,4.19999999999990e-01,1.38050189504718e-05
1.01000000000000e-08,6.00000000000000e-01,5.99999999999995e-01,-1.25015552119440e-05
1.01080000000000e-08,6.00000000000000e-01,6.00000000000000e-01,-1.77585185103385e-05
1.01240000000000e-08,6.00000000000000e-01,6.00000000000000e-01,-1.95062163912546e-05
1.01560000000000e-08,6.00000000000000e-01,6.00000000000000e-01,-4.67799046401096e-06
1.02200000000000e-08,6.00000000000000e-01,6.00000000000000e-01,1.55814950407451e-05
1.03480000000000e-08,6.00000000000000e-01,6.00000000000000e-01,1.10371935624354e-05
1.06040000000000e-08,6.00000000000000e-01,6.00000000000000e-01,-3.20175208719242e-06
1.11160000000000e-08,6.00000000000000e-01,6.00000000000000e-01,5.60759274973940e-06
1.21400000000000e-08,6.00000000000000e-01,6.00000000000000e-01,-7.13032563139093e-07
1.41880000000000e-08,6.00000000000000e-01,6.00000000000000e-01,4.46471558862484e-06
1.51000000000000e-08,6.00000000000000e-01,6.00000000000000e-01,-2.09200443600233e-07
1.51100000000000e-08,5.39999999999992e-01,6.00000000000000e-01,-1.18335854707413e-04
1.51300000000000e-08,4.19999999999994e-01,6.00000000000000e-01,-3.29108550670823e-04
1.51700000000000e-08,1.80000000000000e-01,6.00000000000000e-01,-5.49076624596051e-04
1.52000000000000e-08,0.00000000000000e+00,6.00000000000000e-01,-2.92853884568817e-05
1.52080000000000e-08,0.00000000000000e+00,6.00000000000000e-01,3.52569507963918e-04
1.52240000000000e-08,0.00000000000000e+00,6.00000000000000e-01,8.92685032753499e-04
1.52560000000000e-08,0.00000000000000e+00,6.00000000000000e-01,1.17064711912704e-03
1.53200000000000e-08,0.00000000000000e+00,6.00000000000000e-01,8.43539735071494e-04
1.54480000000000e-08,0.00000000000000e+00,6.00000000000000e-01,-3.41861594723894e-04
1.57040000000000e-08,0.00000000000000e+00,6.00000000000000e-01,-4.55514471581459e-04
1.62160000000000e-08,0.00000000000000e+00,6.00000000000000e-01,3.06007675075590e-04
1.68778564205450e-08,0.00000000000000e+00,6.00000000000000e-01,-3.22281246373037e-04
1.78794571427063e-08,0.00000000000000e+00,6.00000000000000e-01,3.85618739663663e-04
1.94166455009227e-08,0.00000000000000e+00,6.00000000000000e-01,-3.99753960333052e-04
2.15127332837048e-08,0.00000000000000e+00,6.00000000000000e-01,3.94858597753256e-04
2.50000000000000e-08,0.00000000000000e+00,6.00000000000000e-01,-3.91086934226045e-04
2.50100000000000e-08,5.99999999999886e-02,6.00000000000000e-01,5.50360332485234e-06
2.50300000000000e-08,1.80000000000006e-01,6.00000000000000e-01,6.71920042032426e-04
2.50700000000000e-08,4.20000000000000e-01,6.00000000000000e-01,1.40338641964513e-03
2.51000000000000e-08,6.00000000000000e-01,6.00000000000000e-01,1.02314427093550e-03
2.51080000000000e-08,6.00000000000000e-01,6.00000000000000e-01,5.93946930857778e-04
2.51240000000000e-08,6.00000000000000e-01,6.00000000000000e-01,-3.96211170466593e-04
2.51560000000000e-08,6.00000000000000e-01,6.00000000000000e-01,-2.45367360970888e-03
2.52200000000000e-08,6.00000000000000e-01,6.00000000000000e-01,-5.11725621888666e-03
2.53480000000000e-08,6.00000000000000e-01,6.00000000000000e-01,-3.27419210957626e-03
2.56040000000000e-08,6.00000000000000e-01,6.00000000000000e-01,2.04976574650431e-01
2.61160000000000e-08,6.00000000000000e-01,6.00000000000000e-01,5.93103767035713e-01
2.67951622906101e-08,6.00000000000000e-01,6.00000000000000e-01,6.00256349767529e-01
2.79238679755866e-08,6.00000000000000e-01,6.00000000000000e-01,6.00333847935674e-01
2.92919128900911e-08,6.00000000000000e-01,6.00000000000000e-01,5.99341043382460e-01
3.14486691208249e-08,6.00000000000000e-01,6.00000000000000e-01,6.00791312710194e-01
3.51000000000000e-08,5.99999999999970e-01,6.00000000000000e-01,5.99156605843921e-01
3.51100000000000e-08,5.39999999999982e-01,6.00000000000000e-01,5.99454257489109e-01
3.51300000000000e-08,4.19999999999965e-01,6.00000000000000e-01,5.99765287781229e-01
3.51700000000000e-08,1.79999999999970e-01,6.00000000000000e-01,6.00534683823168e-01
3.52000000000000e-08,0.00000000000000e+00,6.00000000000000e-01,6.02963530602276e-01
3.52080000000000e-08,0.00000000000000e+00,6.00000000000000e-01,6.03839341561008e-01
3.52240000000000e-08,0.00000000000000e+00,6.00000000000000e-01,6.05145406211391e-01
3.52560000000000e-08,0.00000000000000e+00,6.00000000000000e-01,6.06288107455857e-01
3.53200000000000e-08,0.00000000000000e+00,6.00000000000000e-01,6.05601227124137e-01
3.54480000000000e-08,0.00000000000000e+00,6.00000000000000e-01,5.93356984377426e-01
3.57040000000000e-08,0.00000000000000e+00,6.00000000000000e-01,5.87375628791500e-01
3.62160000000000e-08,0.00000000000000e+00,6.00000000000000e-01,6.04706195042607e-01
3.68938547226717e-08,0.00000000000000e+00,6.00000000000000e-01,5.95905361552783e-01
3.78307643749846e-08,0.00000000000000e+00,6.00000000000000e-01,6.02936942238361e-01
3.97045836796104e-08,0.00000000000000e+00,6.00000000000000e-01,5.97067638099908e-01
4.34522222888619e-08,0.00000000000000e+00,6.00000000000000e-01,6.02605786307513e-01
4.50000000000000e-08,0.00000000000000e+00,6.00000000000000e-01,5.97561444844797e-01
4.50100000000000e-08,5.99999999999886e-02,6.00000000000000e-01,5.98224421166280e-01
4.50300000000000e-08,1.80000000000006e-01,6.00000000000000e-01,5.99264132554515e-01
4.50700000000000e-08,4.20000000000000e-01,6.00000000000000e-01,6.00402390387436e-01
4.51000000000000e-08,6.00000000000000e-01,6.00000000000000e-01,6.00150997774628e-01
4.51080000000000e-08,6.00000000000000e-01,5.52000000000025e-01,5.99805500542527e-01
4.51240000000000e-08,6.00000000000000e-01,4.55999999999996e-01,5.99120535212187e-01
4.51560000000000e-08,6.00000000000000e-01,2.64000000000016e-01,5.97969045905963e-01
4.52000000000000e-08,6.00000000000000e-01,3.44169137633799e-14,5.97056940182195e-01
4.52064000000000e-08,6.00000000000000e-01,0.00000000000000e+00,5.96974837572586e-01
4.52192000000000e-08,6.00000000000000e-01,0.00000000000000e+00,5.96797412997218e-01
4.52448000000000e-08,6.00000000000000e-01,0.00000000000000e+00,5.96437201819103e-01
4.52960000000000e-08,6.00000000000000e-01,0.00000000000000e+00,5.95737180219642e-01
4.53984000000000e-08,6.00000000000000e-01,0.00000000000000e+00,5.95091110921085e-01
4.56032000000000e-08,6.00000000000000e-01,0.00000000000000e+00,5.96968475018973e-01
4.59603960281577e-08,6.00000000000000e-01,0.00000000000000e+00,5.99784013335381e-01
4.65432995344134e-08,6.00000000000000e-01,0.00000000000000e+00,5.99852637196913e-01
4.72599374028380e-08,6.00000000000000e-01,0.00000000000000e+00,6.00184361069960e-01
4.86932131396872e-08,6.00000000000000e-01,0.00000000000000e+00,5.99822112971265e-01
5.15597646133857e-08,6.00000000000000e-01,0.00000000000000e+00,6.00173210057283e-01
5.51000000000000e-08,6.00000000000000e-01,0.00000000000000e+00,5.99831145557552e-01
5.51100000000000e-08,5.40000000000021e-01,0.00000000000000e+00,5.99712590089487e-01
5.51300000000000e-08,4.20000000000004e-01,0.00000000000000e+00,5.99550671683509e-01
5.51700000000000e-08,1.80000000000010e-01,0.00000000000000e+00,6.00180711073695e-01
5.52000000000000e-08,0.00000000000000e+00,0.00000000000000e+00,6.02721799274527e-01
5.52080000000000e-08,0.00000000000000e+00,0.00000000000000e+00,6.03629247891393e-01
5.52240000000000e-08,0.00000000000000e+00,0.00000000000000e+00,6.04998892474816e-01
5.52560000000000e-08,0.00000000000000e+00,0.00000000000000e+00,6.06366064409397e-01
5.53200000000000e-08,0.00000000000000e+00,0.00000000000000e+00,6.07745155218152e-01
5.54480000000000e-08,0.00000000000000e+00,0.00000000000000e+00,6.07496470195095e-01
5.57040000000000e-08,0.00000000000000e+00,0.00000000000000e+00,5.98754063886323e-01
5.61268578974660e-08,0.00000000000000e+00,0.00000000000000e+00,6.00659337728459e-01
5.66733693243781e-08,0.00000000000000e+00,0.00000000000000e+00,5.99392936348276e-01
5.76479017523185e-08,0.00000000000000e+00,0.00000000000000e+00,6.00325699770024e-01
5.88661972436389e-08,0.00000000000000e+00,0.00000000000000e+00,5.99600696249490e-01
6.13027882262798e-08,0.00000000000000e+00,0.00000000000000e+00,6.00236928110862e-01
6.50000000000000e-08,0.00000000000000e+00,0.00000000000000e+00,5.99680095937443e-01
6.50100000000000e-08,5.99999999999886e-02,0.00000000000000e+00,5.99904137477761e-01
6.50300000000000e-08,1.79999999999966e-01,0.00000000000000e+00,6.00241072862979e-01
6.50700000000000e-08,4.19999999999920e-01,0.00000000000000e+00,6.00439919513228e-01
6.51000000000000e-08,5.99999999999966e-01,0.00000000000000e+00,5.99997738649612e-01
6.51080000000000e-08,6.00000000000000e-01,0.00000000000000e+00,5.99814525226267e-01
6.51240000000000e-08,6.00000000000000e-01,0.00000000000000e+00,5.99530835447098e-01
6.51560000000000e-08,6.00000000000000e-01,0.00000000000000e+00,5.99242854488961e-01
6.52200000000000e-08,6.00000000000000e-01,0.00000000000000e+00,5.99297343963142e-01
6.53480000000000e-08,6.00000000000000e-01,0.00000000000000e+00,6.00560551466129e-01
6.56040000000000e-08,6.00000000000000e-01,0.00000000000000e+00,6.19234858285055e-01
6.61159999999999e-08,6.00000000000000e-01,0.00000000000000e+00,1.57262264279198e-01
6.67972854425219e-08,6.00000000000000e-01,0.00000000000000e+00,-6.47419685194199e-02
6.76732832678872e-08,6.00000000000000e-01,0.00000000000000e+00,5.68513054953028e-02
6.91726491714716e-08,6.00000000000000e-01,0.00000000000000e+00,-4.06807503262071e-02
7.09184106257699e-08,6.00000000000000e-01,0.00000000000000e+00,3.92233420448400e-02
7.42896715558451e-08,6.00000000000000e-01,0.00000000000000e+00,-3.25887121651878e-02
7.51000000000000e-08,6.00000000000000e-01,0.00000000000000e+00,2.55137553714247e-02
7.51100000000000e-08,5.40000000000061e-01,0.00000000000000e+00,2.21043616957018e-02
7.51300000000000e-08,4.20000000000084e-01,0.00000000000000e+00,1.60974452286110e-02
7.51700000000000e-08,1.80000000000129e-01,0.00000000000000e+00,8.22200048849556e-03
7.52000000000000e-08,8.40438829641244e-14,0.00000000000000e+00,5.51259220955561e-03
7.52080000000000e-08,0.00000000000000e+00,0.00000000000000e+00,5.28752097362895e-03
7.52240000000000e-08,0.00000000000000e+00,0.00000000000000e+00,4.76347740212928e-03
7.52560000000000e-08,0.00000000000000e+00,0.00000000000000e+00,3.51656060478497e-03
7.53200000000000e-08,0.00000000000000e+00,0.00000000000000e+00,1.47837459943660e-03
7.54480000000000e-08,0.00000000000000e+00,0.00000000000000e+00,-1.43611223515658e-03
7.57040000000000e-08,0.00000000000000e+00,0.00000000000000e+00,-5.87514622039993e-04
7.60646835569267e-08,0.00000000000000e+00,0.00000000000000e+00,5.38711100620946e-04
7.67860506707802e-08,0.00000000000000e+00,0.00000000000000e+00,-4.53029447445720e-04
7.76334786536416e-08,0.00000000000000e+00,0.00000000000000e+00,4.06443506171725e-04
7.93283346193645e-08,0.00000000000000e+00,0.00000000000000e+00,-3.78296536799176e-04
8.27180465508101e-08,0.00000000000000e+00,0.00000000000000e+00,3.68287989090184e-04
8.50000000000000e-08,0.00000000000000e+00,0.00000000000000e+00,-3.47357823934815e-04
8.50100000000000e-08,5.99999999999886e-02,0.00000000000000e+00,4.32906696983537e-05
8.50300000000000e-08,1.79999999999966e-01,0.00000000000000e+00,5.84967937482708e-04
8.50700000000000e-08,4.19999999999920e-01,0.00000000000000e+00,8.40896426682364e-04
8.51000000000000e-08,5.99999999999966e-01,0.00000000000000e+00,2.86651788838313e-04
8.51080000000000e-08,6.00000000000000e-01,0.00000000000000e+00,2.74329121702360e-05
8.51240000000000e-08,6.00000000000000e-01,0.00000000000000e+00,-3.68102909330051e-04
8.51560000000000e-08,6.00000000000000e-01,0.00000000000000e+00,-7.10697395119655e-04
8.52200000000000e-08,6.00000000000000e-01,0.00000000000000e+00,-6.62652006091849e-04
8.53480000000000e-08,6.00000000000000e-01,0.00000000000000e+00,-2.80180364914860e-04
8.56040000000000e-08,6.00000000000000e-01,0.00000000000000e+00,2.53111429335255e-04
8.61159999999999e-08,6.00000000000000e-01,0.00000000000000e+00,2.62953368882490e-05
8.71399999999999e-08,6.00000000000000e-01,0.00000000000000e+00,-4.61935832958230e-05
8.84424854509250e-08,6.00000000000000e-01,0.00000000000000e+00,6.07842298607029e-05
9.00000000000000e-08,6.00000000000000e-01,0.00000000000000e+00,-5.97913039719102e-05
9.00100000000000e-08,6.00000000000000e-01,5.99999999999886e-02,-2.79245501353109e-05
9.00300000000000e-08,6.00000000000000e-01,1.79999999999966e-01,1.11776987290757e-05
9.00700000000000e-08,6.00000000000000e-01,4.19999999999920e-01,1.41220298035677e-05
9.01000000000000e-08,6.00000000000000e-01,5.99999999999966e-01,-1.19292389711284e-05
9.01080000000000e-08,6.00000000000000e-01,6.00000000000000e-01,-1.71487751390309e-05
9.01240000000000e-08,6.00000000000000e-01,6.00000000000000e-01,-1.88902375524158e-05
9.01560000000000e-08,6.00000000000000e-01,6.00000000000000e-01,-4.59888810409870e-06
9.02200000000000e-08,6.00000000000000e-01,6.00000000000000e-01,1.51176553026405e-05
9.03480000000000e-08,6.00000000000000e-01,6.00000000000000e-01,1.07507073933699e-05
9.06040000000000e-08,6.00000000000000e-01,6.00000000000000e-01,-2.79762364584907e-06
9.11159999999999e-08,6.00000000000000e-01,6.00000000000000e-01,5.30296733030483e-06
9.21399999999999e-08,6.00000000000000e-01,6.00000000000000e-01,-4.38009667232467e-07
9.41879999999998e-08,6.00000000000000e-01,6.00000000000000e-01,4.20454793564548e-06
9.51000000000000e-08,6.00000000000000e-01,6.00000000000000e-01,4.42667934964086e-08
9.51100000000000e-08,5.40000000000061e-01,6.00000000000000e-01,-1.17169819749616e-04
9.51300000000000e-08,4.20000000000084e-01,6.00000000000000e-01,-3.30079645009113e-04
9.51700000000000e-08,1.80000000000129e-01,6.00000000000000e-01,-5.49363609938833e-04
9.52000000000000e-08,8.40438829641244e-14,6.00000000000000e-01,-2.98972790462176e-05
9.52080000000000e-08,0.00000000000000e+00,6.00000000000000e-01,3.52015821411741e-04
9.52240000000000e-08,0.00000000000000e+00,6.00000000000000e-01,8.92235320185036e-04
9.52560000000000e-08,0.00000000000000e+00,6.00000000000000e-01,1.17036623654988e-03
9.53200000000000e-08,0.00000000000000e+00,6.00000000000000e-01,8.43441806374440e-04
9.54480000000000e-08,0.00000000000000e+00,6.00000000000000e-01,-3.42098061581447e-04
9.57040000000000e-08,0.00000000000000e+00,6.00000000000000e-01,-4.55243158356225e-04
9.62159999999999e-08,0.00000000000000e+00,6.00000000000000e-01,3.05784748676492e-04
9.68779244782067e-08,0.00000000000000e+00,6.00000000000000e-01,-3.22085730050492e-04
9.78796355058920e-08,0.00000000000000e+00,6.00000000000000e-01,3.85453066304315e-04
9.94168540517738e-08,0.00000000000000e+00,6.00000000000000e-01,-3.99609481184809e-04
1.01513470448078e-07,0.00000000000000e+00,6.00000000000000e-01,3.94732624112371e-04
1.05000000000000e-07,0.00000000000000e+00,6.00000000000000e-01,-3.90968278854461e-04
1.05010000000000e-07,5.99999999999886e-02,6.00000000000000e-01,5.60803214362526e-06
1.05030000000000e-07,1.79999999999966e-01,6.00000000000000e-01,6.71999895377265e-04
1.05070000000000e-07,4.19999999999920e-01,6.00000000000000e-01,1.40343609350831e-03
1.05100000000000e-07,5.99999999999966e-01,6.00000000000000e-01,1.02329837913340e-03
1.05108000000000e-07,6.00000000000000e-01,6.00000000000000e-01,5.94163538399667e-04
1.05124000000000e-07,6.00000000000000e-01,6.00000000000000e-01,-3.95909388933399e-04
1.05156000000000e-07,6.00000000000000e-01,6.00000000000000e-01,-2.45338522500869e-03
1.05220000000000e-07,6.00000000000000e-01,6.00000000000000e-01,-5.11713592620340e-03
1.05348000000000e-07,6.00000000000000e-01,6.00000000000000e-01,-3.27479001551816e-03
1.05604000000000e-07,6.00000000000000e-01,6.00000000000000e-01,2.04969814766527e-01
1.06116000000000e-07,6.00000000000000e-01,6.00000000000000e-01,5.93102115955704e-01
1.06795176777330e-07,6.00000000000000e-01,6.00000000000000e-01,6.00257182781308e-01
1.07923863901802e-07,6.00000000000000e-01,6.00000000000000e-01,6.00333031489027e-01
1.09291934452979e-07,6.00000000000000e-01,6.00000000000000e-01,5.99341744612529e-01
1.11448668615502e-07,6.00000000000000e-01,6.00000000000000e-01,6.00790619761259e-01
1.15100000000000e-07,6.00000000000000e-01,6.00000000000000e-01,5.99157250350217e-01
1.15110000000000e-07,5.40000000000061e-01,6.00000000000000e-01,5.99454739985982e-01
1.15130000000000e-07,4.20000000000084e-01,6.00000000000000e-01,5.99765530796963e-01
1.15170000000000e-07,1.80000000000129e-01,6.00000000000000e-01,6.00534750062710e-01
1.15200000000000e-07,8.40438829641244e-14,6.00000000000000e-01,6.02963551605428e-01
1.15208000000000e-07,0.00000000000000e+00,6.00000000000000e-01,6.03839358709929e-01
1.15224000000000e-07,0.00000000000000e+00,6.00000000000000e-01,6.05145417461571e-01
1.15256000000000e-07,0.00000000000000e+00,6.00000000000000e-01,6.06288114441915e-01
1.15320000000000e-07,0.00000000000000e+00,6.00000000000000e-01,6.05601242755485e-01
1.15448000000000e-07,0.00000000000000e+00,6.00000000000000e-01,5.93357007380081e-01
1.15704000000000e-07,0.00000000000000e+00,6.00000000000000e-01,5.87375626811888e-01
1.16216000000000e-07,0.00000000000000e+00,6.00000000000000e-01,6.04706193598714e-01
1.16893854714278e-07,0.00000000000000e+00,6.00000000000000e-01,5.95905363005722e-01
1.17830764391946e-07,0.00000000000000e+00,6.00000000000000e-01,6.02936941221971e-01
1.19704583747282e-07,0.00000000000000e+00,6.00000000000000e-01,5.97067639098653e-01
1.23452222457954e-07,0.00000000000000e+00,6.00000000000000e-01,6.02605785395097e-01
1.25000000000000e-07,0.00000000000000e+00,6.00000000000000e-01,5.97561445706879e-01
1.25010000000000e-07,5.99999999999092e-02,6.00000000000000e-01,5.98224421883809e-01
1.25030000000000e-07,1.79999999999886e-01,6.00000000000000e-01,5.99264133030149e-01
1.25070000000000e-07,4.19999999999841e-01,6.00000000000000e-01,6.00402390613657e-01
1.25100000000000e-07,5.99999999999886e-01,6.00000000000000e-01,6.00150998048385e-01
1.25108000000000e-07,6.00000000000000e-01,5.51999999999946e-01,5.99805500820612e-01
1.25124000000000e-07,6.00000000000000e-01,4.55999999999996e-01,5.99120535521635e-01
1.25156000000000e-07,6.00000000000000e-01,2.63999999999937e-01,5.97969046139886e-01
1.25200000000000e-07,6.00000000000000e-01,0.00000000000000e+00,5.97056940302722e-01
1.25206400000000e-07,6.00000000000000e-01,0.00000000000000e+00,5.96974837689299e-01
1.25219200000000e-07,6.00000000000000e-01,0.00000000000000e+00,5.96797413107271e-01
1.25244800000000e-07,6.00000000000000e-01,0.00000000000000e+00,5.96437201931619e-01
1.25296000000000e-07,6.00000000000000e-01,0.00000000000000e+00,5.95737180329137e-01
1.25398400000000e-07,6.00000000000000e-01,0.00000000000000e+00,5.95091110898617e-01
1.25603200000000e-07,6.00000000000000e-01,0.00000000000000e+00,5.96968474840524e-01
1.25960396107115e-07,6.00000000000000e-01,0.00000000000000e+00,5.99784013625688e-01
1.26543299571475e-07,6.00000000000000e-01,0.00000000000000e+00,5.99852637127913e-01
1.27259936896452e-07,6.00000000000000e-01,0.00000000000000e+00,6.00184361089502e-01
1.28693211546405e-07,6.00000000000000e-01,0.00000000000000e+00,5.99822112979941e-01
1.31559760846312e-07,6.00000000000000e-01,0.00000000000000e+00,6.00173210034980e-01
1.35100000000000e-07,5.99999999999891e-01,0.00000000000000e+00,5.99831145579438e-01
1.35110000000000e-07,5.39999999999823e-01,0.00000000000000e+00,5.99712590096451e-01
1.35130000000000e-07,4.19999999999846e-01,0.00000000000000e+00,5.99550671669553e-01
1.35170000000000e-07,1.79999999999891e-01,0.00000000000000e+00,6.00180711060801e-01
1.35200000000000e-07,0.00000000000000e+00,0.00000000000000e+00,6.02721799273477e-01
1.35208000000000e-07,0.00000000000000e+00,0.00000000000000e+00,6.03629247882399e-01
1.35224000000000e-07,0.00000000000000e+00,0.00000000000000e+00,6.04998892477306e-01
1.35256000000000e-07,0.00000000000000e+00,0.00000000000000e+00,6.06366064412330e-01
1.35320000000000e-07,0.00000000000000e+00,0.00000000000000e+00,6.07745155225605e-01
1.35448000000000e-07,0.00000000000000e+00,0.00000000000000e+00,6.07496470181607e-01
