Time,v(clk),v(data),v(out)
1.00000000000000e-08,6.00000000000000e-01,0.00000000000000e+00,-6.05748064139086e-05
1.00100000000000e-08,6.00000000000000e-01,5.99999999999986e-02,-2.85585434456892e-05
1.00300000000000e-08,6.00000000000000e-01,1.79999999999996e-01,1.07408488536909e-05
1.00700000000000e-08,6.00000000000000e-01,4.19999999999990e-01,1.37985734170731e-05
1.01000000000000e-08,6.00000000000000e-01,5.99999999999995e-01,-1.25108435254789e-05
1.01080000000000e-08,6.00000000000000e-01,6.00000000000000e-01,-1.77681870797280e-05
1.01240000000000e-08,6.00000000000000e-01,6.00000000000000e-01,-1.95157852713318e-05
1.01560000000000e-08,6.00000000000000e-01,6.00000000000000e-01,-4.68018655414015e-06
1.02200000000000e-08,6.00000000000000e-01,6.00000000000000e-01,1.55876487901996e-05
1.03480000000000e-08,6.00000000000000e-01,6.00000000000000e-01,1.10418971979859e-05
1.06040000000000e-08,6.00000000000000e-01,6.00000000000000e-01,-3.20786485727420e-06
1.11160000000000e-08,6.00000000000000e-01,6.00000000000000e-01,5.61251770037768e-06
1.21400000000000e-08,6.00000000000000e-01,6.00000000000000e-01,-7.17176554369120e-07
1.41880000000000e-08,6.00000000000000e-01,6.00000000000000e-01,4.46889373790973e-06
1.51000000000000e-08,6.00000000000000e-01,6.00000000000000e-01,-2.12833859194669e-07
1.51100000000000e-08,5.39999999999992e-01,6.00000000000000e-01,-1.18340393952115e-04
1.51300000000000e-08,4.19999999999994e-01,6.00000000000000e-01,-3.29109702633570e-04
1.51700000000000e-08,1.80000000000000e-01,6.00000000000000e-01,-5.49076703421872e-04
1.52000000000000e-08,0.00000000000000e+00,6.00000000000000e-01,-2.92845325550323e-05
1.52080000000000e-08,0.00000000000000e+00,6.00000000000000e-01,3.52570321402262e-04
1.52240000000000e-08,0.00000000000000e+00,6.00000000000000e-01,8.92685772837479e-04
1.52560000000000e-08,0.00000000000000e+00,6.00000000000000e-01,1.17064785857023e-03
1.53200000000000e-08,0.00000000000000e+00,6.00000000000000e-01,8.43542967474575e-04
1.54480000000000e-08,0.00000000000000e+00,6.00000000000000e-01,-3.41854818984980e-04
1.57040000000000e-08,0.00000000000000e+00,6.00000000000000e-01,-4.55515916262909e-04
1.62160000000000e-08,0.00000000000000e+00,6.00000000000000e-01,3.06008242541133e-04
1.68778562460813e-08,0.00000000000000e+00,6.00000000000000e-01,-3.22281442810730e-04
1.78794567180188e-08,0.00000000000000e+00,6.00000000000000e-01,3.85618751064836e-04
1.94166449892619e-08,0.00000000000000e+00,6.00000000000000e-01,-3.99753869363846e-04
2.15127315416934e-08,0.00000000000000e+00,6.00000000000000e-01,3.94858438455111e-04
2.50000000000000e-08,0.00000000000000e+00,6.00000000000000e-01,-3.91086742973860e-04
2.50100000000000e-08,5.99999999999886e-02,6.00000000000000e-01,5.50360022272267e-06
2.50300000000000e-08,1.80000000000006e-01,6.00000000000000e-01,6.71919816007144e-04
2.50700000000000e-08,4.20000000000000e-01,6.00000000000000e-01,1.40338617165282e-03
2.51000000000000e-08,6.00000000000000e-01,6.00000000000000e-01,1.02314379113150e-03
2.51080000000000e-08,6.00000000000000e-01,6.00000000000000e-01,5.93946309146429e-04
2.51240000000000e-08,6.00000000000000e-01,6.00000000000000e-01,-3.96211984162301e-04
2.51560000000000e-08,6.00000000000000e-01,6.00000000000000e-01,-2.45367436458452e-03
2.52200000000000e-08,6.00000000000000e-01,6.00000000000000e-01,-5.11725653190773e-03
2.53480000000000e-08,6.00000000000000e-01,6.00000000000000e-01,-3.27419061392131e-03
2.56040000000000e-08,6.00000000000000e-01,6.00000000000000e-01,2.04976592194640e-01
2.61160000000000e-08,6.00000000000000e-01,6.00000000000000e-01,5.93103771347768e-01
2.67951622527897e-08,6.00000000000000e-01,6.00000000000000e-01,6.00256347586977e-01
2.79238679858417e-08,6.00000000000000e-01,6.00000000000000e-01,6.00333850073664e-01
2.92919128333805e-08,6.00000000000000e-01,6.00000000000000e-01,5.99341041546366e-01
3.01000000000000e-08,6.00000000000000e-01,6.00000000000000e-01,6.00931309366070e-01
3.01100000000000e-08,6.00000000000000e-01,5.40000000000031e-01,6.00441208124572e-01
3.01300000000000e-08,6.00000000000000e-01,4.20000000000014e-01,5.99887067438433e-01
3.01700000000000e-08,6.00000000000000e-01,1.80000000000020e-01,5.99768627310093e-01
3.02000000000000e-08,6.00000000000000e-01,1.44328993201270e-14,5.99837162377376e-01
3.02080000000000e-08,6.00000000000000e-01,0.00000000000000e+00,5.99848366896831e-01
3.02240000000000e-08,6.00000000000000e-01,0.00000000000000e+00,5.99876089128564e-01
3.02560000000000e-08,6.00000000000000e-01,0.00000000000000e+00,5.99886916426359e-01
3.03200000000000e-08,6.00000000000000e-01,0.00000000000000e+00,5.99875748933521e-01
3.04480000000000e-08,6.00000000000000e-01,0.00000000000000e+00,5.99879666528432e-01
3.07040000000000e-08,6.00000000000000e-01,0.00000000000000e+00,6.00031862670392e-01
3.10532407828341e-08,6.00000000000000e-01,0.00000000000000e+00,5.99984666396412e-01
3.17517223485022e-08,6.00000000000000e-01,0.00000000000000e+00,5.99966669718373e-01
3.25779771145838e-08,6.00000000000000e-01,0.00000000000000e+00,6.00011137401518e-01
3.42304866467472e-08,6.00000000000000e-01,0.00000000000000e+00,5.99958016713013e-01
3.51000000000000e-08,5.99999999999970e-01,0.00000000000000e+00,6.00018719647394e-01
3.51100000000000e-08,5.39999999999982e-01,0.00000000000000e+00,5.99848259414269e-01
3.51300000000000e-08,4.19999999999965e-01,0.00000000000000e+00,5.99601713718211e-01
3.51700000000000e-08,1.79999999999970e-01,0.00000000000000e+00,6.00188341838362e-01
3.52000000000000e-08,0.00000000000000e+00,0.00000000000000e+00,6.02706885937895e-01
3.52080000000000e-08,0.00000000000000e+00,0.00000000000000e+00,6.03608411993836e-01
3.52240000000000e-08,0.00000000000000e+00,0.00000000000000e+00,6.04951083055770e-01
3.52560000000000e-08,0.00000000000000e+00,0.00000000000000e+00,6.06157782891814e-01
3.53200000000000e-08,0.00000000000000e+00,0.00000000000000e+00,6.05489366716716e-01
3.54480000000000e-08,0.00000000000000e+00,0.00000000000000e+00,5.93303732888642e-01
3.57040000000000e-08,0.00000000000000e+00,0.00000000000000e+00,5.87710069978324e-01
3.61393583857766e-08,0.00000000000000e+00,0.00000000000000e+00,6.04213075294271e-01
3.66819823434853e-08,0.00000000000000e+00,0.00000000000000e+00,5.96121488443502e-01
3.76681435478442e-08,0.00000000000000e+00,0.00000000000000e+00,6.02653483415750e-01
3.88997931898289e-08,0.00000000000000e+00,0.00000000000000e+00,5.97388923299088e-01
3.91000000000000e-08,0.00000000000000e+00,0.00000000000000e+00,6.00715704076290e-01
3.93463299283969e-08,0.00000000000000e+00,0.00000000000000e+00,6.00011295014148e-01
3.98389897851908e-08,0.00000000000000e+00,0.00000000000000e+00,5.99794306986265e-01
4.08243094987786e-08,0.00000000000000e+00,0.00000000000000e+00,5.99977453373395e-01
4.27949489259542e-08,0.00000000000000e+00,0.00000000000000e+00,5.99860081524623e-01
4.50000000000000e-08,0.00000000000000e+00,0.00000000000000e+00,5.99998282281165e-01
4.50100000000000e-08,5.99999999999886e-02,0.00000000000000e+00,6.00220042921482e-01
4.50300000000000e-08,1.80000000000006e-01,0.00000000000000e+00,6.00496387244294e-01
4.50700000000000e-08,4.20000000000000e-01,0.00000000000000e+00,6.00548365433988e-01
4.51000000000000e-08,6.00000000000000e-01,0.00000000000000e+00,6.00066142246777e-01
4.51080000000000e-08,6.00000000000000e-01,0.00000000000000e+00,5.99863097166855e-01
4.51240000000000e-08,6.00000000000000e-01,0.00000000000000e+00,5.99552982863576e-01
4.51560000000000e-08,6.00000000000000e-01,0.00000000000000e+00,5.99243946963312e-01
4.52200000000000e-08,6.00000000000000e-01,0.00000000000000e+00,5.99285632326190e-01
4.53480000000000e-08,6.00000000000000e-01,0.00000000000000e+00,6.00531785207672e-01
4.56040000000000e-08,6.00000000000000e-01,0.00000000000000e+00,6.19112094802497e-01
4.61160000000000e-08,6.00000000000000e-01,0.00000000000000e+00,1.57118536956268e-01
4.67980501810392e-08,6.00000000000000e-01,0.00000000000000e+00,-6.47225620756998e-02
4.76758515411961e-08,6.00000000000000e-01,0.00000000000000e+00,5.68820697342734e-02
4.91753088030078e-08,6.00000000000000e-01,0.00000000000000e+00,-4.06911670685660e-02
5.00000000000000e-08,6.00000000000000e-01,0.00000000000000e+00,3.27477875725770e-02
5.00100000000000e-08,6.00000000000000e-01,5.99999999999886e-02,2.85550704122807e-02
5.00300000000000e-08,6.00000000000000e-01,1.79999999999966e-01,2.11684337081428e-02
5.00700000000000e-08,6.00000000000000e-01,4.20000000000000e-01,1.12921494533168e-02
5.01000000000000e-08,6.00000000000000e-01,6.00000000000000e-01,7.10341435268022e-03
5.01080000000000e-08,6.00000000000000e-01,6.00000000000000e-01,6.32648732734641e-03
5.01240000000000e-08,6.00000000000000e-01,6.00000000000000e-01,4.94095308026019e-03
5.01560000000000e-08,6.00000000000000e-01,6.00000000000000e-01,3.02092559829442e-03
5.02200000000000e-08,6.00000000000000e-01,6.00000000000000e-01,1.05710837857953e-03
5.03480000000000e-08,6.00000000000000e-01,6.00000000000000e-01,2.90013401431644e-05
5.06040000000000e-08,6.00000000000000e-01,6.00000000000000e-01,-1.27631436357897e-05
5.11160000000001e-08,6.00000000000000e-01,6.00000000000000e-01,7.26197766560965e-06
5.21400000000002e-08,6.00000000000000e-01,6.00000000000000e-01,-5.85523128903385e-06
5.41880000000003e-08,6.00000000000000e-01,6.00000000000000e-01,5.63597462883893e-06
5.51000000000000e-08,6.00000000000000e-01,6.00000000000000e-01,-4.05639959151147e-06
5.51100000000000e-08,5.40000000000021e-01,6.00000000000000e-01,-1.20808240468312e-04
5.51300000000000e-08,4.20000000000004e-01,6.00000000000000e-01,-3.27620377308782e-04
5.51700000000000e-08,1.80000000000010e-01,6.00000000000000e-01,-5.49668688744578e-04
5.52000000000000e-08,0.00000000000000e+00,6.00000000000000e-01,-3.37822319994158e-05
5.52080000000000e-08,0.00000000000000e+00,6.00000000000000e-01,3.47756392433979e-04
5.52240000000000e-08,0.00000000000000e+00,6.00000000000000e-01,8.86357016051331e-04
5.52560000000000e-08,0.00000000000000e+00,6.00000000000000e-01,1.15253462097575e-03
5.53200000000000e-08,0.00000000000000e+00,6.00000000000000e-01,6.55842132528325e-04
5.54480000000000e-08,0.00000000000000e+00,6.00000000000000e-01,-1.43654213929793e-03
5.57040000000000e-08,0.00000000000000e+00,6.00000000000000e-01,-5.46253010891437e-04
5.60668997719941e-08,0.00000000000000e+00,6.00000000000000e-01,4.71662594250646e-04
5.67926993159822e-08,0.00000000000000e+00,6.00000000000000e-01,-5.47104529289209e-04
5.75102439914628e-08,0.00000000000000e+00,6.00000000000000e-01,6.54175994750622e-04
5.89096129638201e-08,0.00000000000000e+00,6.00000000000000e-01,-6.59871466708071e-04
6.03994576492113e-08,0.00000000000000e+00,6.00000000000000e-01,6.36006348169075e-04
6.30289012970477e-08,0.00000000000000e+00,6.00000000000000e-01,-6.21292022664225e-04
6.50000000000000e-08,0.00000000000000e+00,6.00000000000000e-01,5.92422501814814e-04
6.50100000000000e-08,5.99999999999886e-02,6.00000000000000e-01,8.10955504056382e-04
6.50300000000000e-08,1.79999999999966e-01,6.00000000000000e-01,1.18154675001840e-03
6.50700000000000e-08,4.19999999999920e-01,6.00000000000000e-01,1.65047839420969e-03
6.51000000000000e-08,5.99999999999966e-01,6.00000000000000e-01,1.30568385732747e-03
6.51080000000000e-08,6.00000000000000e-01,6.00000000000000e-01,9.27967521188358e-04
6.51240000000000e-08,6.00000000000000e-01,6.00000000000000e-01,1.12975005065047e-05
6.51560000000000e-08,6.00000000000000e-01,6.00000000000000e-01,-2.07833654818496e-03
6.52200000000000e-08,6.00000000000000e-01,6.00000000000000e-01,-4.95227462823711e-03
6.53480000000000e-08,6.00000000000000e-01,6.00000000000000e-01,-4.34427146290810e-03
6.56040000000000e-08,6.00000000000000e-01,6.00000000000000e-01,1.91476069664360e-01
6.61159999999999e-08,6.00000000000000e-01,6.00000000000000e-01,5.89678279743724e-01
6.68268581690880e-08,6.00000000000000e-01,6.00000000000000e-01,6.01962262497551e-01
6.79200456959601e-08,6.00000000000000e-01,6.00000000000000e-01,5.98666511294401e-01
6.93437079616277e-08,6.00000000000000e-01,6.00000000000000e-01,6.00762385007768e-01
7.01000000000000e-08,6.00000000000000e-01,6.00000000000000e-01,5.99676310429580e-01
7.01100000000000e-08,6.00000000000000e-01,5.40000000000011e-01,5.99557890981023e-01
7.01300000000000e-08,6.00000000000000e-01,4.20000000000034e-01,5.99495282143467e-01
7.01700000000000e-08,6.00000000000000e-01,1.80000000000080e-01,5.99686135281141e-01
7.02000000000000e-08,6.00000000000000e-01,3.44169137633799e-14,5.99807043783719e-01
7.02080000000000e-08,6.00000000000000e-01,0.00000000000000e+00,5.99823926970525e-01
7.02240000000000e-08,6.00000000000000e-01,0.00000000000000e+00,5.99838345974377e-01
7.02560000000000e-08,6.00000000000000e-01,0.00000000000000e+00,5.99876980183400e-01
7.03200000000000e-08,6.00000000000000e-01,0.00000000000000e+00,5.99878562548227e-01
7.04480000000000e-08,6.00000000000000e-01,0.00000000000000e+00,5.99872549874018e-01
7.07040000000000e-08,6.00000000000000e-01,0.00000000000000e+00,6.00039698911337e-01
7.10505791150316e-08,6.00000000000000e-01,0.00000000000000e+00,5.99980687034512e-01
7.17437373450949e-08,6.00000000000000e-01,0.00000000000000e+00,5.99970778016418e-01
7.25684538916535e-08,6.00000000000000e-01,0.00000000000000e+00,6.00008098717360e-01
7.42178869847707e-08,6.00000000000000e-01,0.00000000000000e+00,5.99961516114485e-01
7.51000000000000e-08,6.00000000000000e-01,0.00000000000000e+00,6.00016027263451e-01
7.51100000000000e-08,5.40000000000061e-01,0.00000000000000e+00,5.99846501230002e-01
7.51300000000000e-08,4.20000000000084e-01,0.00000000000000e+00,5.99600846974014e-01
7.51700000000000e-08,1.80000000000129e-01,0.00000000000000e+00,6.00188470198365e-01
7.52000000000000e-08,8.40438829641244e-14,0.00000000000000e+00,6.02707254349215e-01
7.52080000000000e-08,0.00000000000000e+00,0.00000000000000e+00,6.03608872633687e-01
7.52240000000000e-08,0.00000000000000e+00,0.00000000000000e+00,6.04951938663103e-01
7.52560000000000e-08,0.00000000000000e+00,0.00000000000000e+00,6.06161612976066e-01
7.53200000000000e-08,0.00000000000000e+00,0.00000000000000e+00,6.05515589997051e-01
7.54480000000000e-08,0.00000000000000e+00,0.00000000000000e+00,5.93347481287952e-01
7.57040000000000e-08,0.00000000000000e+00,0.00000000000000e+00,5.87705235591797e-01
7.61393653084686e-08,0.00000000000000e+00,0.00000000000000e+00,6.04209980163431e-01
7.66819879870967e-08,0.00000000000000e+00,0.00000000000000e+00,5.96124316548355e-01
7.76681649311765e-08,0.00000000000000e+00,0.00000000000000e+00,6.02651422082487e-01
7.81000000000000e-08,0.00000000000000e+00,0.00000000000000e+00,5.97962166466206e-01
7.82231653244802e-08,0.00000000000000e+00,0.00000000000000e+00,5.99288528901472e-01
7.84694959734407e-08,0.00000000000000e+00,0.00000000000000e+00,6.00077953925476e-01
7.89621572713616e-08,0.00000000000000e+00,0.00000000000000e+00,5.99704466170996e-01
7.99474798672034e-08,0.00000000000000e+00,0.00000000000000e+00,6.00011854340255e-01
8.19181250588870e-08,0.00000000000000e+00,0.00000000000000e+00,5.99807028593168e-01
8.50000000000000e-08,0.00000000000000e+00,0.00000000000000e+00,6.00042425867566e-01
8.50100000000000e-08,5.99999999999886e-02,0.00000000000000e+00,6.00249025027461e-01
8.50300000000000e-08,1.79999999999966e-01,0.00000000000000e+00,6.00504837897319e-01
8.50700000000000e-08,4.19999999999920e-01,0.00000000000000e+00,6.00558585426731e-01
8.51000000000000e-08,5.99999999999966e-01,0.00000000000000e+00,6.00053491689032e-01
8.51080000000000e-08,6.00000000000000e-01,0.00000000000000e+00,5.99856064426442e-01
8.51240000000000e-08,6.00000000000000e-01,0.00000000000000e+00,5.99557094350602e-01
8.51560000000000e-08,6.00000000000000e-01,0.00000000000000e+00,5.99249944114753e-01
8.52200000000000e-08,6.00000000000000e-01,0.00000000000000e+00,5.99287408442714e-01
8.53480000000000e-08,6.00000000000000e-01,0.00000000000000e+00,6.00535754957594e-01
8.56040000000000e-08,6.00000000000000e-01,0.00000000000000e+00,6.19104500232678e-01
8.61159999999999e-08,6.00000000000000e-01,0.00000000000000e+00,1.57135783417048e-01
8.67981732761236e-08,6.00000000000000e-01,0.00000000000000e+00,-6.47302672024346e-02
8.76758687452875e-08,6.00000000000000e-01,0.00000000000000e+00,5.68879467571840e-02
8.91755443463048e-08,6.00000000000000e-01,0.00000000000000e+00,-4.06950740465235e-02
9.00000000000000e-08,6.00000000000000e-01,0.00000000000000e+00,3.27481018717681e-02
9.00100000000000e-08,6.00000000000000e-01,5.99999999999886e-02,2.85558177463733e-02
9.00300000000000e-08,6.00000000000000e-01,1.79999999999966e-01,2.11694243996546e-02
9.00700000000000e-08,6.00000000000000e-01,4.19999999999920e-01,1.12927593709843e-02
9.01000000000000e-08,6.00000000000000e-01,5.99999999999966e-01,7.10385852968667e-03
9.01080000000000e-08,6.00000000000000e-01,6.00000000000000e-01,6.32688083476518e-03
9.01240000000000e-08,6.00000000000000e-01,6.00000000000000e-01,4.94126244785278e-03
9.01560000000000e-08,6.00000000000000e-01,6.00000000000000e-01,3.02112186421864e-03
9.02200000000000e-08,6.00000000000000e-01,6.00000000000000e-01,1.05717890656438e-03
9.03480000000000e-08,6.00000000000000e-01,6.00000000000000e-01,2.90050883495069e-05
9.06040000000000e-08,6.00000000000000e-01,6.00000000000000e-01,-1.27651797251493e-05
9.11159999999999e-08,6.00000000000000e-01,6.00000000000000e-01,7.26403469138159e-06
9.21399999999999e-08,6.00000000000000e-01,6.00000000000000e-01,-5.85629339337757e-06
9.41879999999998e-08,6.00000000000000e-01,6.00000000000000e-01,5.63787499139375e-06
9.51000000000000e-08,6.00000000000000e-01,6.00000000000000e-01,-4.05733400788387e-06
9.51100000000000e-08,5.40000000000061e-01,6.00000000000000e-01,-1.20806287134428e-04
9.51300000000000e-08,4.20000000000084e-01,6.00000000000000e-01,-3.27620407453030e-04
9.51700000000000e-08,1.80000000000129e-01,6.00000000000000e-01,-5.49668882803236e-04
9.52000000000000e-08,8.40438829641244e-14,6.00000000000000e-01,-3.37819171011972e-05
9.52080000000000e-08,0.00000000000000e+00,6.00000000000000e-01,3.47756962544729e-04
9.52240000000000e-08,0.00000000000000e+00,6.00000000000000e-01,8.86358360841541e-04
9.52560000000000e-08,0.00000000000000e+00,6.00000000000000e-01,1.15254080140921e-03
9.53200000000000e-08,0.00000000000000e+00,6.00000000000000e-01,6.55892065377722e-04
9.54480000000000e-08,0.00000000000000e+00,6.00000000000000e-01,-1.43630207210944e-03
9.57040000000000e-08,0.00000000000000e+00,6.00000000000000e-01,-5.46207201577588e-04
9.60669321802262e-08,0.00000000000000e+00,6.00000000000000e-01,4.71617883828608e-04
9.67927965406788e-08,0.00000000000000e+00,6.00000000000000e-01,-5.47052798822733e-04
9.75103883441178e-08,0.00000000000000e+00,6.00000000000000e-01,6.54126873832921e-04
9.89098632500047e-08,0.00000000000000e+00,6.00000000000000e-01,-6.59830310636681e-04
1.00399863772809e-07,0.00000000000000e+00,6.00000000000000e-01,6.35976922224698e-04
1.03029503796474e-07,0.00000000000000e+00,6.00000000000000e-01,-6.21267913499440e-04
1.05000000000000e-07,0.00000000000000e+00,6.00000000000000e-01,5.92393653762351e-04
1.05010000000000e-07,5.99999999999886e-02,6.00000000000000e-01,8.10934616357256e-04
1.05030000000000e-07,1.79999999999966e-01,6.00000000000000e-01,1.18153486972189e-03
1.05070000000000e-07,4.19999999999920e-01,6.00000000000000e-01,1.65047226893227e-03
1.05100000000000e-07,5.99999999999966e-01,6.00000000000000e-01,1.30573718227046e-03
1.05108000000000e-07,6.00000000000000e-01,6.00000000000000e-01,9.28066551935960e-04
1.05124000000000e-07,6.00000000000000e-01,6.00000000000000e-01,1.14727002001047e-05
1.05156000000000e-07,6.00000000000000e-01,6.00000000000000e-01,-2.07813931001126e-03
1.05220000000000e-07,6.00000000000000e-01,6.00000000000000e-01,-4.95218497499741e-03
1.05348000000000e-07,6.00000000000000e-01,6.00000000000000e-01,-4.34457558029511e-03
1.05604000000000e-07,6.00000000000000e-01,6.00000000000000e-01,1.91471697307909e-01
1.06116000000000e-07,6.00000000000000e-01,6.00000000000000e-01,5.89677126894427e-01
1.06826869211054e-07,6.00000000000000e-01,6.00000000000000e-01,6.01962828437720e-01
1.07920045760282e-07,6.00000000000000e-01,6.00000000000000e-01,5.98665955684832e-01
1.09343727235710e-07,6.00000000000000e-01,6.00000000000000e-01,6.00762857437858e-01
