Time,v(clk),v(data),v(out)
1.00000000000000e-08,6.00000000000000e-01,0.00000000000000e+00,1.06536908708937e-05
1.00100000000000e-08,6.00000000000000e-01,5.99999999999986e-02,1.28356273147584e-05
1.00300000000000e-08,6.00000000000000e-01,1.79999999999996e-01,1.29639544198534e-05
1.00700000000000e-08,6.00000000000000e-01,4.19999999999990e-01,6.69696248013080e-06
1.01000000000000e-08,6.00000000000000e-01,5.99999999999995e-01,2.93681529506262e-06
1.01080000000000e-08,6.00000000000000e-01,6.00000000000000e-01,2.37466310244044e-06
1.01240000000000e-08,6.00000000000000e-01,6.00000000000000e-01,2.69475794081181e-06
1.01560000000000e-08,6.00000000000000e-01,6.00000000000000e-01,4.93966797524698e-06
1.02200000000000e-08,6.00000000000000e-01,6.00000000000000e-01,6.48886115529879e-06
1.03480000000000e-08,6.00000000000000e-01,6.00000000000000e-01,1.53567894127862e-06
1.06040000000000e-08,6.00000000000000e-01,6.00000000000000e-01,1.20236285741301e-06
1.11160000000000e-08,6.00000000000000e-01,6.00000000000000e-01,2.18365884393883e-06
1.21400000000000e-08,6.00000000000000e-01,6.00000000000000e-01,1.10647218984697e-06
1.41880000000000e-08,6.00000000000000e-01,6.00000000000000e-01,1.85150102965329e-06
1.51000000000000e-08,6.00000000000000e-01,6.00000000000000e-01,9.40908188294155e-07
1.51100000000000e-08,5.39999999999992e-01,6.00000000000000e-01,-5.64008107925493e-05
1.51300000000000e-08,4.19999999999994e-01,6.00000000000000e-01,-1.40754294347456e-04
1.51700000000000e-08,1.80000000000000e-01,6.00000000000000e-01,-1.45983531815899e-04
1.52000000000000e-08,0.00000000000000e+00,6.00000000000000e-01,7.35222830449897e-05
1.52080000000000e-08,0.00000000000000e+00,6.00000000000000e-01,2.01318386051016e-04
1.52240000000000e-08,0.00000000000000e+00,6.00000000000000e-01,3.56677981089071e-04
1.52560000000000e-08,0.00000000000000e+00,6.00000000000000e-01,3.50953429637056e-04
1.53200000000000e-08,0.00000000000000e+00,6.00000000000000e-01,6.86644780014262e-05
1.54480000000000e-08,0.00000000000000e+00,6.00000000000000e-01,-2.15683368867174e-04
1.57040000000000e-08,0.00000000000000e+00,6.00000000000000e-01,-2.11534872840233e-05
1.62160000000000e-08,0.00000000000000e+00,6.00000000000000e-01,-3.88934797161435e-05
1.68483869311863e-08,0.00000000000000e+00,6.00000000000000e-01,1.20404480505158e-04
1.81131607935589e-08,0.00000000000000e+00,6.00000000000000e-01,-1.15127716291561e-04
1.95303643979021e-08,0.00000000000000e+00,6.00000000000000e-01,1.09414927617533e-04
2.23647716065884e-08,0.00000000000000e+00,6.00000000000000e-01,-1.04841506296621e-04
2.50000000000000e-08,0.00000000000000e+00,6.00000000000000e-01,1.01149776376741e-04
2.50100000000000e-08,5.99999999999886e-02,6.00000000000000e-01,1.96089820641281e-04
2.50300000000000e-08,1.80000000000006e-01,6.00000000000000e-01,3.39413693928606e-04
2.50700000000000e-08,4.20000000000000e-01,6.00000000000000e-01,4.35614547545357e-04
2.51000000000000e-08,6.00000000000000e-01,6.00000000000000e-01,-4.86918810460105e-05
2.51080000000000e-08,6.00000000000000e-01,6.00000000000000e-01,-4.56037466333645e-04
2.51240000000000e-08,6.00000000000000e-01,6.00000000000000e-01,-1.39521380005597e-03
2.51560000000000e-08,6.00000000000000e-01,6.00000000000000e-01,-3.27101641680647e-03
2.52200000000000e-08,6.00000000000000e-01,6.00000000000000e-01,-5.50613575059384e-03
2.53480000000000e-08,6.00000000000000e-01,6.00000000000000e-01,4.54602268193234e-02
2.56040000000000e-08,6.00000000000000e-01,6.00000000000000e-01,4.76578357383809e-01
2.61160000000000e-08,6.00000000000000e-01,6.00000000000000e-01,6.25982670333904e-01
2.66922041336508e-08,6.00000000000000e-01,6.00000000000000e-01,5.75096084313655e-01
2.78446124009523e-08,6.00000000000000e-01,6.00000000000000e-01,6.21745046779754e-01
2.95061541190058e-08,6.00000000000000e-01,6.00000000000000e-01,5.77584028729361e-01
3.01000000000000e-08,6.00000000000000e-01,6.00000000000000e-01,6.18578924901845e-01
3.01100000000000e-08,6.00000000000000e-01,5.40000000000031e-01,6.11564201180226e-01
3.01300000000000e-08,6.00000000000000e-01,4.20000000000014e-01,6.02834776181959e-01
3.01700000000000e-08,6.00000000000000e-01,1.80000000000020e-01,5.99710362575593e-01
3.02000000000000e-08,6.00000000000000e-01,1.44328993201270e-14,5.99946222009142e-01
3.02080000000000e-08,6.00000000000000e-01,0.00000000000000e+00,5.99947140073073e-01
3.02240000000000e-08,6.00000000000000e-01,0.00000000000000e+00,5.99959350801662e-01
3.02560000000000e-08,6.00000000000000e-01,0.00000000000000e+00,5.99966689537387e-01
3.03200000000000e-08,6.00000000000000e-01,0.00000000000000e+00,5.99963426991499e-01
3.04480000000000e-08,6.00000000000000e-01,0.00000000000000e+00,5.99980387638832e-01
3.07040000000000e-08,6.00000000000000e-01,0.00000000000000e+00,5.99989912928544e-01
3.10882286954433e-08,6.00000000000000e-01,0.00000000000000e+00,5.99971097489504e-01
3.17882708765953e-08,6.00000000000000e-01,0.00000000000000e+00,5.99990329553523e-01
3.28952153886682e-08,6.00000000000000e-01,0.00000000000000e+00,5.99976381131154e-01
3.51000000000000e-08,5.99999999999970e-01,0.00000000000000e+00,5.99991830889467e-01
3.51100000000000e-08,5.39999999999982e-01,0.00000000000000e+00,5.99932146226822e-01
3.51300000000000e-08,4.19999999999965e-01,0.00000000000000e+00,5.99855792516525e-01
3.51700000000000e-08,1.79999999999970e-01,0.00000000000000e+00,6.00296371308433e-01
3.52000000000000e-08,0.00000000000000e+00,0.00000000000000e+00,6.01775861845450e-01
3.52080000000000e-08,0.00000000000000e+00,0.00000000000000e+00,6.02197991346265e-01
3.52240000000000e-08,0.00000000000000e+00,0.00000000000000e+00,6.02725463864912e-01
3.52560000000000e-08,0.00000000000000e+00,0.00000000000000e+00,6.02287966218871e-01
3.53200000000000e-08,0.00000000000000e+00,0.00000000000000e+00,5.93114372925915e-01
3.54480000000000e-08,0.00000000000000e+00,0.00000000000000e+00,5.77772033450613e-01
3.57040000000000e-08,0.00000000000000e+00,0.00000000000000e+00,5.95337644853197e-01
3.60654563062122e-08,0.00000000000000e+00,0.00000000000000e+00,6.01966340710434e-01
3.67404188018385e-08,0.00000000000000e+00,0.00000000000000e+00,5.97720190390231e-01
3.74808890882001e-08,0.00000000000000e+00,0.00000000000000e+00,6.01392248300622e-01
3.89618296609233e-08,0.00000000000000e+00,0.00000000000000e+00,5.98407927260059e-01
3.91000000000000e-08,0.00000000000000e+00,0.00000000000000e+00,6.00312671305452e-01
3.93763406781534e-08,0.00000000000000e+00,0.00000000000000e+00,5.99927716761844e-01
3.99290220344602e-08,0.00000000000000e+00,0.00000000000000e+00,5.99847257185433e-01
4.10343847470737e-08,0.00000000000000e+00,0.00000000000000e+00,5.99941135241965e-01
4.32451101723007e-08,0.00000000000000e+00,0.00000000000000e+00,5.99894156398468e-01
4.50000000000000e-08,0.00000000000000e+00,0.00000000000000e+00,5.99967260915683e-01
4.50100000000000e-08,5.99999999999886e-02,0.00000000000000e+00,6.00026735011299e-01
4.50300000000000e-08,1.80000000000006e-01,0.00000000000000e+00,6.00087910146135e-01
4.50700000000000e-08,4.20000000000000e-01,0.00000000000000e+00,6.00025827425094e-01
4.51000000000000e-08,6.00000000000000e-01,0.00000000000000e+00,5.99871800824269e-01
4.51080000000000e-08,6.00000000000000e-01,0.00000000000000e+00,5.99814741982509e-01
4.51240000000000e-08,6.00000000000000e-01,0.00000000000000e+00,5.99737940187335e-01
4.51560000000000e-08,6.00000000000000e-01,0.00000000000000e+00,5.99679046269371e-01
4.52200000000000e-08,6.00000000000000e-01,0.00000000000000e+00,5.99756512077309e-01
4.53480000000000e-08,6.00000000000000e-01,0.00000000000000e+00,6.02222841623390e-01
4.56040000000000e-08,6.00000000000000e-01,0.00000000000000e+00,4.50496834762173e-01
4.61160000000000e-08,6.00000000000000e-01,0.00000000000000e+00,1.14066010060595e-03
4.66891036884637e-08,6.00000000000000e-01,0.00000000000000e+00,-1.35561966105743e-03
4.78353110653910e-08,6.00000000000000e-01,0.00000000000000e+00,2.36214465653346e-03
4.91122113858851e-08,6.00000000000000e-01,0.00000000000000e+00,-2.01404678390567e-03
5.00000000000000e-08,6.00000000000000e-01,0.00000000000000e+00,2.76461571104143e-03
5.00100000000000e-08,6.00000000000000e-01,5.99999999999886e-02,9.91338956345504e-04
5.00300000000000e-08,6.00000000000000e-01,1.79999999999966e-01,-5.94310799531692e-04
5.00700000000000e-08,6.00000000000000e-01,4.20000000000000e-01,-3.52808567022390e-04
5.01000000000000e-08,6.00000000000000e-01,6.00000000000000e-01,-2.88485658151809e-04
5.01080000000000e-08,6.00000000000000e-01,6.00000000000000e-01,-2.26725422203991e-04
5.01240000000000e-08,6.00000000000000e-01,6.00000000000000e-01,-1.47258995531314e-04
5.01560000000000e-08,6.00000000000000e-01,6.00000000000000e-01,-7.66755193747568e-05
5.02200000000000e-08,6.00000000000000e-01,6.00000000000000e-01,-7.48516930929727e-06
5.03480000000000e-08,6.00000000000000e-01,6.00000000000000e-01,6.14416742759222e-06
5.06040000000000e-08,6.00000000000000e-01,6.00000000000000e-01,-3.61240814569438e-06
5.11160000000001e-08,6.00000000000000e-01,6.00000000000000e-01,2.50812831352996e-06
5.21400000000002e-08,6.00000000000000e-01,6.00000000000000e-01,-2.23118097386014e-06
5.41880000000003e-08,6.00000000000000e-01,6.00000000000000e-01,1.94695168988972e-06
5.51000000000000e-08,6.00000000000000e-01,6.00000000000000e-01,-1.63886698807680e-06
5.51100000000000e-08,5.40000000000021e-01,6.00000000000000e-01,-5.80454611220360e-05
5.51300000000000e-08,4.20000000000004e-01,6.00000000000000e-01,-1.39543079374596e-04
5.51700000000000e-08,1.80000000000010e-01,6.00000000000000e-01,-1.40224677050556e-04
5.52000000000000e-08,0.00000000000000e+00,6.00000000000000e-01,7.08545659227414e-05
5.52080000000000e-08,0.00000000000000e+00,6.00000000000000e-01,1.97470715787691e-04
5.52240000000000e-08,0.00000000000000e+00,6.00000000000000e-01,3.46791599924755e-04
5.52560000000000e-08,0.00000000000000e+00,6.00000000000000e-01,3.11580647971259e-04
5.53200000000000e-08,0.00000000000000e+00,6.00000000000000e-01,-3.61304087089044e-04
5.54480000000000e-08,0.00000000000000e+00,6.00000000000000e-01,-9.66108504921015e-04
5.57040000000000e-08,0.00000000000000e+00,6.00000000000000e-01,1.72028639924207e-04
5.62085622002554e-08,0.00000000000000e+00,6.00000000000000e-01,-1.19361661235072e-04
5.68434950497934e-08,0.00000000000000e+00,6.00000000000000e-01,1.41934261074058e-04
5.81133607488694e-08,0.00000000000000e+00,6.00000000000000e-01,-1.16433311190975e-04
5.95228681521188e-08,0.00000000000000e+00,6.00000000000000e-01,9.61583731321808e-05
6.23418829586176e-08,0.00000000000000e+00,6.00000000000000e-01,-8.55941785510438e-05
6.50000000000000e-08,0.00000000000000e+00,6.00000000000000e-01,7.62880251037735e-05
6.50100000000000e-08,5.99999999999886e-02,6.00000000000000e-01,1.96845819430906e-04
6.50300000000000e-08,1.79999999999966e-01,6.00000000000000e-01,3.69293592597832e-04
6.50700000000000e-08,4.19999999999920e-01,6.00000000000000e-01,4.66094153159263e-04
6.51000000000000e-08,5.99999999999966e-01,6.00000000000000e-01,-2.64362990149147e-05
6.51080000000000e-08,6.00000000000000e-01,6.00000000000000e-01,-4.35256436488521e-04
6.51240000000000e-08,6.00000000000000e-01,6.00000000000000e-01,-1.37775164426834e-03
6.51560000000000e-08,6.00000000000000e-01,6.00000000000000e-01,-3.25992035997704e-03
6.52200000000000e-08,6.00000000000000e-01,6.00000000000000e-01,-5.50295217604568e-03
6.53480000000000e-08,6.00000000000000e-01,6.00000000000000e-01,4.53992548979288e-02
6.56040000000000e-08,6.00000000000000e-01,6.00000000000000e-01,4.76501691083915e-01
6.61159999999999e-08,6.00000000000000e-01,6.00000000000000e-01,6.25989439022544e-01
6.66921733980746e-08,6.00000000000000e-01,6.00000000000000e-01,5.75090857683988e-01
6.78445201942240e-08,6.00000000000000e-01,6.00000000000000e-01,6.21750407075590e-01
6.95062241568000e-08,6.00000000000000e-01,6.00000000000000e-01,5.77578897532127e-01
7.01000000000000e-08,6.00000000000000e-01,6.00000000000000e-01,6.18583286137314e-01
7.01100000000000e-08,6.00000000000000e-01,5.40000000000011e-01,6.11566811574016e-01
7.01300000000000e-08,6.00000000000000e-01,4.20000000000034e-01,6.02835399858300e-01
7.01700000000000e-08,6.00000000000000e-01,1.80000000000080e-01,5.99710353463309e-01
7.02000000000000e-08,6.00000000000000e-01,3.44169137633799e-14,5.99946109282588e-01
7.02080000000000e-08,6.00000000000000e-01,0.00000000000000e+00,5.99947041570564e-01
7.02240000000000e-08,6.00000000000000e-01,0.00000000000000e+00,5.99959289638637e-01
7.02560000000000e-08,6.00000000000000e-01,0.00000000000000e+00,5.99966646987482e-01
7.03200000000000e-08,6.00000000000000e-01,0.00000000000000e+00,5.99963392169692e-01
7.04480000000000e-08,6.00000000000000e-01,0.00000000000000e+00,5.99980382257817e-01
7.07040000000000e-08,6.00000000000000e-01,0.00000000000000e+00,5.99989889188747e-01
7.10882617416740e-08,6.00000000000000e-01,0.00000000000000e+00,5.99971111941334e-01
7.17883530183769e-08,6.00000000000000e-01,0.00000000000000e+00,5.99990307025705e-01
7.28955157892238e-08,6.00000000000000e-01,0.00000000000000e+00,5.99976392895833e-01
7.51000000000000e-08,6.00000000000000e-01,0.00000000000000e+00,5.99991812201430e-01
7.51100000000000e-08,5.40000000000061e-01,0.00000000000000e+00,5.99932129236290e-01
7.51300000000000e-08,4.20000000000084e-01,0.00000000000000e+00,5.99855776410070e-01
7.51700000000000e-08,1.80000000000129e-01,0.00000000000000e+00,6.00296357386611e-01
7.52000000000000e-08,8.40438829641244e-14,0.00000000000000e+00,6.01775843285753e-01
7.52080000000000e-08,0.00000000000000e+00,0.00000000000000e+00,6.02197962893525e-01
7.52240000000000e-08,0.00000000000000e+00,0.00000000000000e+00,6.02725406600353e-01
7.52560000000000e-08,0.00000000000000e+00,0.00000000000000e+00,6.02287736084887e-01
7.53200000000000e-08,0.00000000000000e+00,0.00000000000000e+00,5.93113564019542e-01
7.54480000000000e-08,0.00000000000000e+00,0.00000000000000e+00,5.77771651194166e-01
7.57040000000000e-08,0.00000000000000e+00,0.00000000000000e+00,5.95338017972666e-01
7.60654565065854e-08,0.00000000000000e+00,0.00000000000000e+00,6.01966080849942e-01
7.67404188599057e-08,0.00000000000000e+00,0.00000000000000e+00,5.97720398671970e-01
7.74808894398530e-08,0.00000000000000e+00,0.00000000000000e+00,6.01392073119296e-01
7.81000000000000e-08,0.00000000000000e+00,0.00000000000000e+00,5.98555721960468e-01
7.82480941159895e-08,0.00000000000000e+00,0.00000000000000e+00,5.99582087501136e-01
7.85442823479684e-08,0.00000000000000e+00,0.00000000000000e+00,6.00002168062848e-01
7.91366588119262e-08,0.00000000000000e+00,0.00000000000000e+00,5.99746917463358e-01
8.03214117398418e-08,0.00000000000000e+00,0.00000000000000e+00,6.00001752806694e-01
8.26909175956730e-08,0.00000000000000e+00,0.00000000000000e+00,5.99822704058338e-01
8.50000000000000e-08,0.00000000000000e+00,0.00000000000000e+00,6.00031326715628e-01
8.50100000000000e-08,5.99999999999886e-02,0.00000000000000e+00,6.00077376038823e-01
8.50300000000000e-08,1.79999999999966e-01,0.00000000000000e+00,6.00115805631912e-01
8.50700000000000e-08,4.19999999999920e-01,0.00000000000000e+00,6.00033099112944e-01
8.51000000000000e-08,5.99999999999966e-01,0.00000000000000e+00,5.99874675258857e-01
8.51080000000000e-08,6.00000000000000e-01,0.00000000000000e+00,5.99817130092630e-01
8.51240000000000e-08,6.00000000000000e-01,0.00000000000000e+00,5.99739524827829e-01
8.51560000000000e-08,6.00000000000000e-01,0.00000000000000e+00,5.99679753198853e-01
8.52200000000000e-08,6.00000000000000e-01,0.00000000000000e+00,5.99756641286787e-01
8.53480000000000e-08,6.00000000000000e-01,0.00000000000000e+00,6.02222053340122e-01
8.56040000000000e-08,6.00000000000000e-01,0.00000000000000e+00,4.50572870464375e-01
8.61159999999999e-08,6.00000000000000e-01,0.00000000000000e+00,1.17214960462042e-03
8.66890780783763e-08,6.00000000000000e-01,0.00000000000000e+00,-1.37971924667189e-03
8.78352342351289e-08,6.00000000000000e-01,0.00000000000000e+00,2.38148106933028e-03
8.91122056484286e-08,6.00000000000000e-01,0.00000000000000e+00,-2.03139814556496e-03
9.00000000000000e-08,6.00000000000000e-01,0.00000000000000e+00,2.77808043200467e-03
9.00100000000000e-08,6.00000000000000e-01,5.99999999999886e-02,1.00232829156922e-03
9.00300000000000e-08,6.00000000000000e-01,1.79999999999966e-01,-5.87284703788986e-04
9.00700000000000e-08,6.00000000000000e-01,4.19999999999920e-01,-3.49938855798648e-04
9.01000000000000e-08,6.00000000000000e-01,5.99999999999966e-01,-2.86981736900734e-04
9.01080000000000e-08,6.00000000000000e-01,6.00000000000000e-01,-2.25436445429036e-04
9.01240000000000e-08,6.00000000000000e-01,6.00000000000000e-01,-1.46347628541516e-04
9.01560000000000e-08,6.00000000000000e-01,6.00000000000000e-01,-7.62649050729258e-05
9.02200000000000e-08,6.00000000000000e-01,6.00000000000000e-01,-7.40373760559077e-06
9.03480000000000e-08,6.00000000000000e-01,6.00000000000000e-01,6.14389872802615e-06
9.06040000000000e-08,6.00000000000000e-01,6.00000000000000e-01,-3.61230959240212e-06
9.11159999999999e-08,6.00000000000000e-01,6.00000000000000e-01,2.50822961126232e-06
9.21399999999999e-08,6.00000000000000e-01,6.00000000000000e-01,-2.23156404609206e-06
9.41879999999998e-08,6.00000000000000e-01,6.00000000000000e-01,1.94681895242721e-06
9.51000000000000e-08,6.00000000000000e-01,6.00000000000000e-01,-1.63907199990290e-06
9.51100000000000e-08,5.40000000000061e-01,6.00000000000000e-01,-5.80460928203061e-05
9.51300000000000e-08,4.20000000000084e-01,6.00000000000000e-01,-1.39544253617549e-04
9.51700000000000e-08,1.80000000000129e-01,6.00000000000000e-01,-1.40225712080187e-04
9.52000000000000e-08,8.40438829641244e-14,6.00000000000000e-01,7.08537328432748e-05
9.52080000000000e-08,0.00000000000000e+00,6.00000000000000e-01,1.97469571543332e-04
9.52240000000000e-08,0.00000000000000e+00,6.00000000000000e-01,3.46788964584482e-04
9.52560000000000e-08,0.00000000000000e+00,6.00000000000000e-01,3.11563869046384e-04
9.53200000000000e-08,0.00000000000000e+00,6.00000000000000e-01,-3.61414363869252e-04
9.54480000000000e-08,0.00000000000000e+00,6.00000000000000e-01,-9.66486125145324e-04
9.57040000000000e-08,0.00000000000000e+00,6.00000000000000e-01,1.72081740751151e-04
9.62084433561441e-08,0.00000000000000e+00,6.00000000000000e-01,-1.19361351529259e-04
9.68434090706415e-08,0.00000000000000e+00,6.00000000000000e-01,1.41910606801235e-04
9.81133404996361e-08,0.00000000000000e+00,6.00000000000000e-01,-1.16392896046084e-04
9.95227122085819e-08,0.00000000000000e+00,6.00000000000000e-01,9.61040594119091e-05
1.02341455626473e-07,0.00000000000000e+00,6.00000000000000e-01,-8.55342855753068e-05
1.05000000000000e-07,0.00000000000000e+00,6.00000000000000e-01,7.62262047537775e-05
1.05010000000000e-07,5.99999999999886e-02,6.00000000000000e-01,1.96817384627221e-04
1.05030000000000e-07,1.79999999999966e-01,6.00000000000000e-01,3.69300660408259e-04
1.05070000000000e-07,4.19999999999920e-01,6.00000000000000e-01,4.66111094192707e-04
1.05100000000000e-07,5.99999999999966e-01,6.00000000000000e-01,-2.63765069215827e-05
1.05108000000000e-07,6.00000000000000e-01,6.00000000000000e-01,-4.35179152083673e-04
1.05124000000000e-07,6.00000000000000e-01,6.00000000000000e-01,-1.37765578228950e-03
1.05156000000000e-07,6.00000000000000e-01,6.00000000000000e-01,-3.25984082426438e-03
1.05220000000000e-07,6.00000000000000e-01,6.00000000000000e-01,-5.50293188281811e-03
1.05348000000000e-07,6.00000000000000e-01,6.00000000000000e-01,4.53978575848540e-02
1.05604000000000e-07,6.00000000000000e-01,6.00000000000000e-01,4.76499937087953e-01
1.06116000000000e-07,6.00000000000000e-01,6.00000000000000e-01,6.25989594045566e-01
1.06692172748485e-07,6.00000000000000e-01,6.00000000000000e-01,5.75090737846075e-01
1.07844518245454e-07,6.00000000000000e-01,6.00000000000000e-01,6.21750529998881e-01
1.09506225925133e-07,6.00000000000000e-01,6.00000000000000e-01,5.77578779808529e-01
1.10100000000000e-07,6.00000000000000e-01,6.00000000000000e-01,6.18583385487473e-01
1.10110000000000e-07,6.00000000000000e-01,5.40000000000091e-01,6.11566871578414e-01
1.10130000000000e-07,6.00000000000000e-01,4.20000000000114e-01,6.02835413709913e-01
1.10170000000000e-07,6.00000000000000e-01,1.80000000000159e-01,5.99710352789353e-01
