Time,v(clk),v(data),v(out)
1.00000000000000e-08,6.00000000000000e-01,0.00000000000000e+00,-3.32091633632389e-05
1.00100000000000e-08,6.00000000000000e-01,5.99999999999986e-02,-1.91360069978636e-05
1.00300000000000e-08,6.00000000000000e-01,1.79999999999996e-01,1.18371678688167e-06
1.00700000000000e-08,6.00000000000000e-01,4.19999999999990e-01,8.42628613362262e-06
1.01000000000000e-08,6.00000000000000e-01,5.99999999999995e-01,-1.18703654382324e-05
1.01080000000000e-08,6.00000000000000e-01,6.00000000000000e-01,-1.93510085058218e-05
1.01240000000000e-08,6.00000000000000e-01,6.00000000000000e-01,-2.56534665928343e-05
1.01560000000000e-08,6.00000000000000e-01,6.00000000000000e-01,-2.10708972779167e-05
1.02200000000000e-08,6.00000000000000e-01,6.00000000000000e-01,6.74550396746743e-06
1.03480000000000e-08,6.00000000000000e-01,6.00000000000000e-01,2.81902506375220e-05
1.06040000000000e-08,6.00000000000000e-01,6.00000000000000e-01,1.68005561986886e-05
1.11136430482577e-08,6.00000000000000e-01,6.00000000000000e-01,1.58860840067249e-05
1.21329291447731e-08,6.00000000000000e-01,6.00000000000000e-01,1.87442665917151e-05
1.41715013378039e-08,6.00000000000000e-01,6.00000000000000e-01,1.50147290270616e-05
1.51000000000000e-08,6.00000000000000e-01,6.00000000000000e-01,1.75019390309117e-05
1.51100000000000e-08,5.39999999999992e-01,6.00000000000000e-01,-1.10948230791288e-04
1.51300000000000e-08,4.19999999999994e-01,6.00000000000000e-01,-3.73859712629335e-04
1.51700000000000e-08,1.80000000000000e-01,6.00000000000000e-01,-6.79482926733005e-04
1.52000000000000e-08,0.00000000000000e+00,6.00000000000000e-01,-2.67298747167827e-04
1.52080000000000e-08,0.00000000000000e+00,6.00000000000000e-01,1.04688416907806e-04
1.52240000000000e-08,0.00000000000000e+00,6.00000000000000e-01,6.83654929339347e-04
1.52560000000000e-08,0.00000000000000e+00,6.00000000000000e-01,1.18527285952820e-03
1.53200000000000e-08,0.00000000000000e+00,6.00000000000000e-01,1.17374961718948e-03
1.54480000000000e-08,0.00000000000000e+00,6.00000000000000e-01,2.07177558667018e-04
1.57040000000000e-08,0.00000000000000e+00,6.00000000000000e-01,-9.17815672806063e-04
1.62160000000000e-08,0.00000000000000e+00,6.00000000000000e-01,4.60051533289277e-04
1.69231761639660e-08,0.00000000000000e+00,6.00000000000000e-01,-4.16948398859151e-04
1.78110275164453e-08,0.00000000000000e+00,6.00000000000000e-01,4.63874663625501e-04
1.93250779635546e-08,0.00000000000000e+00,6.00000000000000e-01,-3.96828435999546e-04
2.08776824338691e-08,0.00000000000000e+00,6.00000000000000e-01,3.72935357089365e-04
2.39828913744981e-08,0.00000000000000e+00,6.00000000000000e-01,-3.16958823495480e-04
2.50000000000000e-08,0.00000000000000e+00,6.00000000000000e-01,2.64246484368853e-04
2.50100000000000e-08,5.99999999999886e-02,6.00000000000000e-01,5.84663111781736e-04
2.50300000000000e-08,1.80000000000006e-01,6.00000000000000e-01,1.13786065822076e-03
2.50700000000000e-08,4.20000000000000e-01,6.00000000000000e-01,1.84666416828176e-03
2.51000000000000e-08,6.00000000000000e-01,6.00000000000000e-01,1.73537472801133e-03
2.51080000000000e-08,6.00000000000000e-01,6.00000000000000e-01,1.41072325456081e-03
2.51240000000000e-08,6.00000000000000e-01,6.00000000000000e-01,7.01838335435009e-04
2.51560000000000e-08,6.00000000000000e-01,6.00000000000000e-01,-8.61166761458143e-04
2.52200000000000e-08,6.00000000000000e-01,6.00000000000000e-01,-3.38553848552313e-03
2.53480000000000e-08,6.00000000000000e-01,6.00000000000000e-01,-5.33472345187944e-03
2.56040000000000e-08,6.00000000000000e-01,6.00000000000000e-01,4.54811043677501e-02
2.61160000000000e-08,6.00000000000000e-01,6.00000000000000e-01,4.91657554646564e-01
2.70135184412270e-08,6.00000000000000e-01,6.00000000000000e-01,6.21006126514806e-01
2.79264860303501e-08,6.00000000000000e-01,6.00000000000000e-01,5.81139962301542e-01
2.97524212085963e-08,6.00000000000000e-01,6.00000000000000e-01,6.16733332246459e-01
3.01000000000000e-08,6.00000000000000e-01,6.00000000000000e-01,5.88447060475481e-01
3.01100000000000e-08,6.00000000000000e-01,5.40000000000031e-01,5.90761461176440e-01
3.01300000000000e-08,6.00000000000000e-01,4.20000000000014e-01,5.94455326005826e-01
3.01700000000000e-08,6.00000000000000e-01,1.80000000000020e-01,5.98159632875179e-01
3.02000000000000e-08,6.00000000000000e-01,1.44328993201270e-14,5.99206663906886e-01
3.02080000000000e-08,6.00000000000000e-01,0.00000000000000e+00,5.99351968772101e-01
3.02240000000000e-08,6.00000000000000e-01,0.00000000000000e+00,5.99583016430439e-01
3.02560000000000e-08,6.00000000000000e-01,0.00000000000000e+00,5.99820082852228e-01
3.03200000000000e-08,6.00000000000000e-01,0.00000000000000e+00,5.99925590951357e-01
3.04480000000000e-08,6.00000000000000e-01,0.00000000000000e+00,5.99880056062414e-01
3.07040000000000e-08,6.00000000000000e-01,0.00000000000000e+00,5.99936066087513e-01
3.11536583644240e-08,6.00000000000000e-01,0.00000000000000e+00,6.00003537334199e-01
3.18745075143823e-08,6.00000000000000e-01,0.00000000000000e+00,5.99897648488567e-01
3.27829199039243e-08,6.00000000000000e-01,0.00000000000000e+00,6.00006498196072e-01
3.45997446830083e-08,6.00000000000000e-01,0.00000000000000e+00,5.99915266367811e-01
3.51000000000000e-08,5.99999999999970e-01,0.00000000000000e+00,6.00001967803110e-01
3.51100000000000e-08,5.39999999999982e-01,0.00000000000000e+00,5.99829940464021e-01
3.51300000000000e-08,4.19999999999965e-01,0.00000000000000e+00,5.99574446101914e-01
3.51700000000000e-08,1.79999999999970e-01,0.00000000000000e+00,6.00124205893863e-01
3.52000000000000e-08,0.00000000000000e+00,0.00000000000000e+00,6.02474032639739e-01
3.52080000000000e-08,0.00000000000000e+00,0.00000000000000e+00,6.03348980059253e-01
3.52240000000000e-08,0.00000000000000e+00,0.00000000000000e+00,6.04716269357566e-01
3.52560000000000e-08,0.00000000000000e+00,0.00000000000000e+00,6.06102002457598e-01
3.53200000000000e-08,0.00000000000000e+00,0.00000000000000e+00,6.06381703163865e-01
3.54480000000000e-08,0.00000000000000e+00,0.00000000000000e+00,5.98758591529800e-01
3.57040000000000e-08,0.00000000000000e+00,0.00000000000000e+00,5.85908617769258e-01
3.62160000000000e-08,0.00000000000000e+00,0.00000000000000e+00,5.99529272873345e-01
3.68252688810599e-08,0.00000000000000e+00,0.00000000000000e+00,5.99400157877773e-01
3.79221152109587e-08,0.00000000000000e+00,0.00000000000000e+00,5.99837354679290e-01
3.91000000000000e-08,0.00000000000000e+00,0.00000000000000e+00,5.99662462285021e-01
3.92242410908033e-08,0.00000000000000e+00,0.00000000000000e+00,5.99728545142916e-01
3.94727232724100e-08,0.00000000000000e+00,0.00000000000000e+00,5.99796241808179e-01
3.99696876356233e-08,0.00000000000000e+00,0.00000000000000e+00,5.99791049094754e-01
4.09636163620500e-08,0.00000000000000e+00,0.00000000000000e+00,5.99822623876292e-01
4.29514738149032e-08,0.00000000000000e+00,0.00000000000000e+00,5.99843099390701e-01
4.50000000000000e-08,0.00000000000000e+00,0.00000000000000e+00,5.99861201180187e-01
4.50100000000000e-08,5.99999999999886e-02,0.00000000000000e+00,6.00094777208369e-01
4.50300000000000e-08,1.80000000000006e-01,0.00000000000000e+00,6.00442587937511e-01
4.50700000000000e-08,4.20000000000000e-01,0.00000000000000e+00,6.00596705625931e-01
4.51000000000000e-08,6.00000000000000e-01,0.00000000000000e+00,6.00277667354035e-01
4.51080000000000e-08,6.00000000000000e-01,0.00000000000000e+00,6.00063222989778e-01
4.51240000000000e-08,6.00000000000000e-01,0.00000000000000e+00,5.99741795482517e-01
4.51560000000000e-08,6.00000000000000e-01,0.00000000000000e+00,5.99345432125692e-01
4.52200000000000e-08,6.00000000000000e-01,0.00000000000000e+00,5.99163014050872e-01
4.53480000000000e-08,6.00000000000000e-01,0.00000000000000e+00,5.99558552434328e-01
4.56040000000000e-08,6.00000000000000e-01,0.00000000000000e+00,6.04702144996921e-01
4.61160000000000e-08,6.00000000000000e-01,0.00000000000000e+00,3.30037829901682e-01
4.71400000000000e-08,6.00000000000000e-01,0.00000000000000e+00,-5.08476176655561e-02
4.80619238998115e-08,6.00000000000000e-01,0.00000000000000e+00,3.79966040924225e-02
4.99057716994345e-08,6.00000000000000e-01,0.00000000000000e+00,-2.49026820346617e-02
5.00000000000000e-08,6.00000000000000e-01,0.00000000000000e+00,-1.17791894493177e-02
5.00100000000000e-08,6.00000000000000e-01,5.99999999999886e-02,-1.02685944424038e-02
5.00300000000000e-08,6.00000000000000e-01,1.79999999999966e-01,-7.92016715067333e-03
5.00700000000000e-08,6.00000000000000e-01,4.20000000000000e-01,-5.15411322318980e-03
5.01000000000000e-08,6.00000000000000e-01,6.00000000000000e-01,-3.78205727845342e-03
5.01080000000000e-08,6.00000000000000e-01,6.00000000000000e-01,-3.50542791278949e-03
5.01240000000000e-08,6.00000000000000e-01,6.00000000000000e-01,-2.98186349412961e-03
5.01560000000000e-08,6.00000000000000e-01,6.00000000000000e-01,-2.14790557774998e-03
5.02200000000000e-08,6.00000000000000e-01,6.00000000000000e-01,-1.07767159894177e-03
5.03480000000000e-08,6.00000000000000e-01,6.00000000000000e-01,-2.06983490840432e-04
5.06040000000000e-08,6.00000000000000e-01,6.00000000000000e-01,3.85972675998603e-05
5.11160000000001e-08,6.00000000000000e-01,6.00000000000000e-01,-4.37657850925477e-07
5.21400000000002e-08,6.00000000000000e-01,6.00000000000000e-01,2.16812440277069e-05
5.41880000000003e-08,6.00000000000000e-01,6.00000000000000e-01,4.71377619222849e-06
5.51000000000000e-08,6.00000000000000e-01,6.00000000000000e-01,1.79875680482063e-05
5.51100000000000e-08,5.40000000000021e-01,6.00000000000000e-01,-1.10733571816804e-04
5.51300000000000e-08,4.20000000000004e-01,6.00000000000000e-01,-3.67300266629872e-04
5.51700000000000e-08,1.80000000000010e-01,6.00000000000000e-01,-6.78534618608756e-04
5.52000000000000e-08,0.00000000000000e+00,6.00000000000000e-01,-2.70943860917180e-04
5.52080000000000e-08,0.00000000000000e+00,6.00000000000000e-01,1.00786556145580e-04
5.52240000000000e-08,0.00000000000000e+00,6.00000000000000e-01,6.63159751816592e-04
5.52560000000000e-08,0.00000000000000e+00,6.00000000000000e-01,1.17172652363295e-03
5.53200000000000e-08,0.00000000000000e+00,6.00000000000000e-01,1.13321749782787e-03
5.54480000000000e-08,0.00000000000000e+00,6.00000000000000e-01,-1.63124788826768e-04
5.57040000000000e-08,0.00000000000000e+00,6.00000000000000e-01,-1.14896648521542e-03
5.62160000000000e-08,0.00000000000000e+00,6.00000000000000e-01,6.08924923943387e-04
5.69226139777450e-08,0.00000000000000e+00,6.00000000000000e-01,-5.33008436769136e-04
5.78106905196522e-08,0.00000000000000e+00,6.00000000000000e-01,5.54679131396105e-04
5.93243884413123e-08,0.00000000000000e+00,6.00000000000000e-01,-4.78105028236428e-04
6.08767769244531e-08,0.00000000000000e+00,6.00000000000000e-01,4.45789830303861e-04
6.39815538907347e-08,0.00000000000000e+00,6.00000000000000e-01,-3.87333362821304e-04
6.50000000000000e-08,0.00000000000000e+00,6.00000000000000e-01,3.24066354126924e-04
6.50100000000000e-08,5.99999999999886e-02,6.00000000000000e-01,6.27049284417203e-04
6.50300000000000e-08,1.79999999999966e-01,6.00000000000000e-01,1.16008017634965e-03
6.50700000000000e-08,4.19999999999920e-01,6.00000000000000e-01,1.85741718293454e-03
6.51000000000000e-08,5.99999999999966e-01,6.00000000000000e-01,1.74080425635879e-03
6.51080000000000e-08,6.00000000000000e-01,6.00000000000000e-01,1.41548210425733e-03
6.51240000000000e-08,6.00000000000000e-01,6.00000000000000e-01,7.05405279110560e-04
6.51560000000000e-08,6.00000000000000e-01,6.00000000000000e-01,-8.59396351299613e-04
6.52200000000000e-08,6.00000000000000e-01,6.00000000000000e-01,-3.38503432602609e-03
6.53480000000000e-08,6.00000000000000e-01,6.00000000000000e-01,-5.33462571150914e-03
6.56040000000000e-08,6.00000000000000e-01,6.00000000000000e-01,4.54836501213074e-02
6.61159999999999e-08,6.00000000000000e-01,6.00000000000000e-01,4.91659992140222e-01
6.70135230627959e-08,6.00000000000000e-01,6.00000000000000e-01,6.21005919197651e-01
6.79264945185992e-08,6.00000000000000e-01,6.00000000000000e-01,5.81140103072318e-01
6.97524374302057e-08,6.00000000000000e-01,6.00000000000000e-01,6.16733177772770e-01
7.01000000000000e-08,6.00000000000000e-01,6.00000000000000e-01,5.88447400219735e-01
7.01100000000000e-08,6.00000000000000e-01,5.40000000000011e-01,5.90761726713899e-01
7.01300000000000e-08,6.00000000000000e-01,4.20000000000034e-01,5.94455484977197e-01
7.01700000000000e-08,6.00000000000000e-01,1.80000000000080e-01,5.98159692987119e-01
7.02000000000000e-08,6.00000000000000e-01,3.44169137633799e-14,5.99206684226981e-01
7.02080000000000e-08,6.00000000000000e-01,0.00000000000000e+00,5.99351985255648e-01
7.02240000000000e-08,6.00000000000000e-01,0.00000000000000e+00,5.99583026089573e-01
7.02560000000000e-08,6.00000000000000e-01,0.00000000000000e+00,5.99820084284298e-01
7.03200000000000e-08,6.00000000000000e-01,0.00000000000000e+00,5.99925591570869e-01
7.04480000000000e-08,6.00000000000000e-01,0.00000000000000e+00,5.99880054907899e-01
7.07040000000000e-08,6.00000000000000e-01,0.00000000000000e+00,5.99936067045502e-01
7.11536579044025e-08,6.00000000000000e-01,0.00000000000000e+00,6.00003535132147e-01
7.18745075419368e-08,6.00000000000000e-01,0.00000000000000e+00,5.99897650376526e-01
7.27829199411359e-08,6.00000000000000e-01,0.00000000000000e+00,6.00006496670510e-01
7.45997447395343e-08,6.00000000000000e-01,0.00000000000000e+00,5.99915267829600e-01
7.51000000000000e-08,6.00000000000000e-01,0.00000000000000e+00,6.00001966794290e-01
7.51100000000000e-08,5.40000000000061e-01,0.00000000000000e+00,5.99829940507905e-01
7.51300000000000e-08,4.20000000000084e-01,0.00000000000000e+00,5.99574447326266e-01
7.51700000000000e-08,1.80000000000129e-01,0.00000000000000e+00,6.00124207018430e-01
7.52000000000000e-08,8.40438829641244e-14,0.00000000000000e+00,6.02474033238041e-01
7.52080000000000e-08,0.00000000000000e+00,0.00000000000000e+00,6.03348980848173e-01
7.52240000000000e-08,0.00000000000000e+00,0.00000000000000e+00,6.04716270372729e-01
7.52560000000000e-08,0.00000000000000e+00,0.00000000000000e+00,6.06102002404018e-01
7.53200000000000e-08,0.00000000000000e+00,0.00000000000000e+00,6.06381703117728e-01
7.54480000000000e-08,0.00000000000000e+00,0.00000000000000e+00,5.98758592482555e-01
7.57040000000000e-08,0.00000000000000e+00,0.00000000000000e+00,5.85908617930070e-01
7.62159999999999e-08,0.00000000000000e+00,0.00000000000000e+00,5.99529272232452e-01
7.68252688825867e-08,0.00000000000000e+00,0.00000000000000e+00,5.99400158378768e-01
7.79221152121982e-08,0.00000000000000e+00,0.00000000000000e+00,5.99837354314171e-01
7.81000000000000e-08,0.00000000000000e+00,0.00000000000000e+00,5.99709998088822e-01
7.82242410911396e-08,0.00000000000000e+00,0.00000000000000e+00,5.99712853154369e-01
7.84727232734186e-08,0.00000000000000e+00,0.00000000000000e+00,5.99737968851217e-01
7.89696876379768e-08,0.00000000000000e+00,0.00000000000000e+00,5.99764239058859e-01
7.99636163670931e-08,0.00000000000000e+00,0.00000000000000e+00,5.99792669441257e-01
8.19514738253258e-08,0.00000000000000e+00,0.00000000000000e+00,5.99838588036437e-01
8.50000000000000e-08,0.00000000000000e+00,0.00000000000000e+00,5.99856070750011e-01
8.50100000000000e-08,5.99999999999886e-02,0.00000000000000e+00,6.00075038102046e-01
8.50300000000000e-08,1.79999999999966e-01,0.00000000000000e+00,6.00440521253948e-01
8.50700000000000e-08,4.19999999999920e-01,0.00000000000000e+00,6.00635148810905e-01
8.51000000000000e-08,5.99999999999966e-01,0.00000000000000e+00,6.00301664541589e-01
8.51080000000000e-08,6.00000000000000e-01,0.00000000000000e+00,6.00082111763322e-01
8.51240000000000e-08,6.00000000000000e-01,0.00000000000000e+00,5.99748683348494e-01
8.51560000000000e-08,6.00000000000000e-01,0.00000000000000e+00,5.99345110641609e-01
8.52200000000000e-08,6.00000000000000e-01,0.00000000000000e+00,5.99159908880584e-01
8.53480000000000e-08,6.00000000000000e-01,0.00000000000000e+00,5.99556639871220e-01
8.56040000000000e-08,6.00000000000000e-01,0.00000000000000e+00,6.04698032660181e-01
8.61159999999999e-08,6.00000000000000e-01,0.00000000000000e+00,3.30048321057354e-01
8.71399999999999e-08,6.00000000000000e-01,0.00000000000000e+00,-5.08474986600210e-02
8.80618343626348e-08,6.00000000000000e-01,0.00000000000000e+00,3.79942980237641e-02
8.99055030879046e-08,6.00000000000000e-01,0.00000000000000e+00,-2.49009925514091e-02
9.00000000000000e-08,6.00000000000000e-01,0.00000000000000e+00,-1.17468074278327e-02
9.00100000000000e-08,6.00000000000000e-01,5.99999999999886e-02,-1.02382278434214e-02
9.00300000000000e-08,6.00000000000000e-01,1.79999999999966e-01,-7.89432762748396e-03
9.00700000000000e-08,6.00000000000000e-01,4.19999999999920e-01,-5.13654559663926e-03
9.01000000000000e-08,6.00000000000000e-01,5.99999999999966e-01,-3.76867279186932e-03
9.01080000000000e-08,6.00000000000000e-01,6.00000000000000e-01,-3.49298398631273e-03
9.01240000000000e-08,6.00000000000000e-01,6.00000000000000e-01,-2.97117576996350e-03
9.01560000000000e-08,6.00000000000000e-01,6.00000000000000e-01,-2.14009571920731e-03
9.02200000000000e-08,6.00000000000000e-01,6.00000000000000e-01,-1.07363705450818e-03
9.03480000000000e-08,6.00000000000000e-01,6.00000000000000e-01,-2.06107058479357e-04
9.06040000000000e-08,6.00000000000000e-01,6.00000000000000e-01,3.84854466220774e-05
9.11159999999999e-08,6.00000000000000e-01,6.00000000000000e-01,-3.87574397596457e-07
9.21399999999999e-08,6.00000000000000e-01,6.00000000000000e-01,2.16475149827054e-05
9.41879999999998e-08,6.00000000000000e-01,6.00000000000000e-01,4.74355398656819e-06
9.51000000000000e-08,6.00000000000000e-01,6.00000000000000e-01,1.79679192425612e-05
9.51100000000000e-08,5.40000000000061e-01,6.00000000000000e-01,-1.10753523524215e-04
9.51300000000000e-08,4.20000000000084e-01,6.00000000000000e-01,-3.67318690533178e-04
9.51700000000000e-08,1.80000000000129e-01,6.00000000000000e-01,-6.78546425863055e-04
9.52000000000000e-08,8.40438829641244e-14,6.00000000000000e-01,-2.70952699446145e-04
9.52080000000000e-08,0.00000000000000e+00,6.00000000000000e-01,1.00778417384415e-04
9.52240000000000e-08,0.00000000000000e+00,6.00000000000000e-01,6.63152819957866e-04
9.52560000000000e-08,0.00000000000000e+00,6.00000000000000e-01,1.17172141215773e-03
9.53200000000000e-08,0.00000000000000e+00,6.00000000000000e-01,1.13321426329009e-03
9.54480000000000e-08,0.00000000000000e+00,6.00000000000000e-01,-1.63134404457158e-04
9.57040000000000e-08,0.00000000000000e+00,6.00000000000000e-01,-1.14897386547685e-03
9.62159999999999e-08,0.00000000000000e+00,6.00000000000000e-01,6.08929127547897e-04
9.69226139355268e-08,0.00000000000000e+00,6.00000000000000e-01,-5.33011406094162e-04
9.78106904938379e-08,0.00000000000000e+00,6.00000000000000e-01,5.54681388505323e-04
9.93243883816945e-08,0.00000000000000e+00,6.00000000000000e-01,-4.78107005405123e-04
1.00876776842898e-07,0.00000000000000e+00,6.00000000000000e-01,4.45791562254029e-04
1.03981553765305e-07,0.00000000000000e+00,6.00000000000000e-01,-3.87334996751712e-04
1.05000000000000e-07,0.00000000000000e+00,6.00000000000000e-01,3.24067736072881e-04
1.05010000000000e-07,5.99999999999886e-02,6.00000000000000e-01,6.27050259104617e-04
1.05030000000000e-07,1.79999999999966e-01,6.00000000000000e-01,1.16008067617511e-03
1.05070000000000e-07,4.19999999999920e-01,6.00000000000000e-01,1.85741744945433e-03
1.05100000000000e-07,5.99999999999966e-01,6.00000000000000e-01,1.74080439783134e-03
1.05108000000000e-07,6.00000000000000e-01,6.00000000000000e-01,1.41548222897930e-03
1.05124000000000e-07,6.00000000000000e-01,6.00000000000000e-01,7.05405373582560e-04
1.05156000000000e-07,6.00000000000000e-01,6.00000000000000e-01,-8.59396299231291e-04
1.05220000000000e-07,6.00000000000000e-01,6.00000000000000e-01,-3.38503430915656e-03
1.05348000000000e-07,6.00000000000000e-01,6.00000000000000e-01,-5.33462570188820e-03
1.05604000000000e-07,6.00000000000000e-01,6.00000000000000e-01,4.54836503772980e-02
1.06116000000000e-07,6.00000000000000e-01,6.00000000000000e-01,4.91659991589017e-01
1.07013523064066e-07,6.00000000000000e-01,6.00000000000000e-01,6.21005919110303e-01
