Time,v(clk),v(data),v(out)
1.00000000000000e-08,6.00000000000000e-01,0.00000000000000e+00,1.30377712383872e-04
1.00100000000000e-08,6.00000000000000e-01,5.99999999999986e-02,1.36024087240741e-04
1.00300000000000e-08,6.00000000000000e-01,1.79999999999996e-01,1.45270705738568e-04
1.00700000000000e-08,6.00000000000000e-01,4.19999999999990e-01,1.36560490681892e-04
1.01000000000000e-08,6.00000000000000e-01,5.99999999999995e-01,9.27270204238717e-05
1.01080000000000e-08,6.00000000000000e-01,6.00000000000000e-01,7.15799705340442e-05
1.01240000000000e-08,6.00000000000000e-01,6.00000000000000e-01,3.98092375717418e-05
1.01560000000000e-08,6.00000000000000e-01,6.00000000000000e-01,4.23011345418445e-06
1.02200000000000e-08,6.00000000000000e-01,6.00000000000000e-01,-8.79225320581101e-06
1.03480000000000e-08,6.00000000000000e-01,6.00000000000000e-01,2.24088299990155e-05
1.06040000000000e-08,6.00000000000000e-01,6.00000000000000e-01,4.76439721819114e-05
1.11160000000000e-08,6.00000000000000e-01,6.00000000000000e-01,2.15194952356210e-05
1.20427237495490e-08,6.00000000000000e-01,6.00000000000000e-01,2.21130341513075e-05
1.38961712486471e-08,6.00000000000000e-01,6.00000000000000e-01,2.42053473716915e-05
1.51000000000000e-08,6.00000000000000e-01,6.00000000000000e-01,2.16584293152439e-05
1.51100000000000e-08,5.39999999999992e-01,6.00000000000000e-01,-1.56006561963934e-04
1.51300000000000e-08,4.19999999999994e-01,6.00000000000000e-01,-6.51772144376367e-04
1.51700000000000e-08,1.80000000000000e-01,6.00000000000000e-01,-1.76276294268564e-03
1.52000000000000e-08,0.00000000000000e+00,6.00000000000000e-01,-2.11471076890164e-03
1.52080000000000e-08,0.00000000000000e+00,6.00000000000000e-01,-1.80993910281577e-03
1.52240000000000e-08,0.00000000000000e+00,6.00000000000000e-01,-1.22220195076779e-03
1.52560000000000e-08,0.00000000000000e+00,6.00000000000000e-01,-2.66712438923511e-04
1.53200000000000e-08,0.00000000000000e+00,6.00000000000000e-01,7.80654444482498e-04
1.54480000000000e-08,0.00000000000000e+00,6.00000000000000e-01,1.19685381484159e-03
1.57040000000000e-08,0.00000000000000e+00,6.00000000000000e-01,5.90093977037860e-04
1.62160000000000e-08,0.00000000000000e+00,6.00000000000000e-01,-2.17795258527075e-04
1.72400000000000e-08,0.00000000000000e+00,6.00000000000000e-01,-1.98758296692227e-04
1.90347012128858e-08,0.00000000000000e+00,6.00000000000000e-01,2.40984311418255e-05
2.11473304088657e-08,0.00000000000000e+00,6.00000000000000e-01,1.44079630059055e-04
2.49473304088657e-08,0.00000000000000e+00,6.00000000000000e-01,-7.70906263588460e-05
2.50000000000000e-08,0.00000000000000e+00,6.00000000000000e-01,-7.66921826225730e-05
2.50100000000000e-08,5.99999999999886e-02,6.00000000000000e-01,4.25519409683120e-04
2.50300000000000e-08,1.80000000000006e-01,6.00000000000000e-01,1.36510037374755e-03
2.50700000000000e-08,4.20000000000000e-01,6.00000000000000e-01,2.76864005418963e-03
2.51000000000000e-08,6.00000000000000e-01,6.00000000000000e-01,2.90853135254068e-03
2.51080000000000e-08,6.00000000000000e-01,6.00000000000000e-01,2.55783339616016e-03
2.51240000000000e-08,6.00000000000000e-01,6.00000000000000e-01,1.81351309395134e-03
2.51560000000000e-08,6.00000000000000e-01,6.00000000000000e-01,1.28479261537778e-04
2.52200000000000e-08,6.00000000000000e-01,6.00000000000000e-01,-3.39276049348443e-03
2.53480000000000e-08,6.00000000000000e-01,6.00000000000000e-01,-8.17760701014962e-03
2.56040000000000e-08,6.00000000000000e-01,6.00000000000000e-01,-4.83522510198373e-03
2.61160000000000e-08,6.00000000000000e-01,6.00000000000000e-01,1.54967809251593e-01
2.71400000000000e-08,6.00000000000000e-01,6.00000000000000e-01,5.52566050829595e-01
2.73669527143133e-08,6.00000000000000e-01,6.00000000000000e-01,5.73388276266450e-01
2.78208581429400e-08,6.00000000000000e-01,6.00000000000000e-01,5.95912828645845e-01
2.87286690001933e-08,6.00000000000000e-01,6.00000000000000e-01,6.01063363139309e-01
3.05442907146998e-08,6.00000000000000e-01,6.00000000000000e-01,5.99156224056221e-01
3.31625412866921e-08,6.00000000000000e-01,6.00000000000000e-01,6.00453585797822e-01
3.51000000000000e-08,5.99999999999970e-01,6.00000000000000e-01,5.99572501774138e-01
3.51100000000000e-08,5.39999999999982e-01,6.00000000000000e-01,5.99435613800897e-01
3.51300000000000e-08,4.19999999999965e-01,6.00000000000000e-01,5.99097928076789e-01
3.51700000000000e-08,1.79999999999970e-01,6.00000000000000e-01,5.98673426603899e-01
3.52000000000000e-08,0.00000000000000e+00,6.00000000000000e-01,5.99214679145212e-01
3.52080000000000e-08,0.00000000000000e+00,6.00000000000000e-01,5.99606526142222e-01
3.52240000000000e-08,0.00000000000000e+00,6.00000000000000e-01,6.00388307996318e-01
3.52560000000000e-08,0.00000000000000e+00,6.00000000000000e-01,6.01820193448128e-01
3.53200000000000e-08,0.00000000000000e+00,6.00000000000000e-01,6.03794923767598e-01
3.54480000000000e-08,0.00000000000000e+00,6.00000000000000e-01,6.05494453050495e-01
3.57040000000000e-08,0.00000000000000e+00,6.00000000000000e-01,6.04311623855028e-01
3.62160000000000e-08,0.00000000000000e+00,6.00000000000000e-01,5.93618389136825e-01
3.72400000000000e-08,0.00000000000000e+00,6.00000000000000e-01,5.85358295516985e-01
3.92880000000000e-08,0.00000000000000e+00,6.00000000000000e-01,6.02431803636256e-01
4.23053826603711e-08,0.00000000000000e+00,6.00000000000000e-01,5.97472598884568e-01
4.50000000000000e-08,0.00000000000000e+00,6.00000000000000e-01,6.01405462824328e-01
4.50100000000000e-08,5.99999999999886e-02,6.00000000000000e-01,6.01615529655642e-01
4.50300000000000e-08,1.80000000000006e-01,6.00000000000000e-01,6.01989314553632e-01
4.50700000000000e-08,4.20000000000000e-01,6.00000000000000e-01,6.02540188694734e-01
4.51000000000000e-08,6.00000000000000e-01,6.00000000000000e-01,6.02604080372487e-01
4.51080000000000e-08,6.00000000000000e-01,5.52000000000025e-01,6.02419244466099e-01
4.51240000000000e-08,6.00000000000000e-01,4.55999999999996e-01,6.01980915862663e-01
4.51560000000000e-08,6.00000000000000e-01,2.64000000000016e-01,6.00967073622339e-01
4.52000000000000e-08,6.00000000000000e-01,3.44169137633799e-14,5.99522956574921e-01
4.52064000000000e-08,6.00000000000000e-01,0.00000000000000e+00,5.99337051827984e-01
4.52192000000000e-08,6.00000000000000e-01,0.00000000000000e+00,5.98958157043133e-01
4.52448000000000e-08,6.00000000000000e-01,0.00000000000000e+00,5.98159618411073e-01
4.52960000000000e-08,6.00000000000000e-01,0.00000000000000e+00,5.96549533180993e-01
4.53984000000000e-08,6.00000000000000e-01,0.00000000000000e+00,5.93465578666920e-01
4.56032000000000e-08,6.00000000000000e-01,0.00000000000000e+00,5.89018338047721e-01
4.60128000000000e-08,6.00000000000000e-01,0.00000000000000e+00,5.90737167718170e-01
4.68320000000000e-08,6.00000000000000e-01,0.00000000000000e+00,5.99728695624476e-01
4.78920255674831e-08,6.00000000000000e-01,0.00000000000000e+00,6.00133944544976e-01
5.00120767024494e-08,6.00000000000000e-01,0.00000000000000e+00,5.99868834093246e-01
5.23683238863414e-08,6.00000000000000e-01,0.00000000000000e+00,6.00121343964387e-01
5.51000000000000e-08,6.00000000000000e-01,0.00000000000000e+00,5.99888251934697e-01
5.51100000000000e-08,5.40000000000021e-01,0.00000000000000e+00,5.99712941672929e-01
5.51300000000000e-08,4.20000000000004e-01,0.00000000000000e+00,5.99316431137770e-01
5.51700000000000e-08,1.80000000000010e-01,0.00000000000000e+00,5.98818873272764e-01
5.52000000000000e-08,0.00000000000000e+00,0.00000000000000e+00,5.99285805806031e-01
5.52080000000000e-08,0.00000000000000e+00,0.00000000000000e+00,5.99677382958264e-01
5.52240000000000e-08,0.00000000000000e+00,0.00000000000000e+00,6.00461505824485e-01
5.52560000000000e-08,0.00000000000000e+00,0.00000000000000e+00,6.01932033694965e-01
5.53200000000000e-08,0.00000000000000e+00,0.00000000000000e+00,6.03967872742777e-01
5.54480000000000e-08,0.00000000000000e+00,0.00000000000000e+00,6.05988548187673e-01
5.57040000000000e-08,0.00000000000000e+00,0.00000000000000e+00,6.07383830967500e-01
5.62160000000000e-08,0.00000000000000e+00,0.00000000000000e+00,6.08309080178366e-01
5.72400000000000e-08,0.00000000000000e+00,0.00000000000000e+00,6.00855778352807e-01
5.86819722185732e-08,0.00000000000000e+00,0.00000000000000e+00,5.99361854719249e-01
6.06025644321274e-08,0.00000000000000e+00,0.00000000000000e+00,5.99837655582116e-01
6.36672579606982e-08,0.00000000000000e+00,0.00000000000000e+00,5.99789939882097e-01
6.50000000000000e-08,0.00000000000000e+00,0.00000000000000e+00,5.99755982727652e-01
6.50100000000000e-08,5.99999999999886e-02,0.00000000000000e+00,6.00002374149600e-01
6.50300000000000e-08,1.79999999999966e-01,0.00000000000000e+00,6.00501074201156e-01
6.50700000000000e-08,4.19999999999920e-01,0.00000000000000e+00,6.01251651369345e-01
6.51000000000000e-08,5.99999999999966e-01,0.00000000000000e+00,6.01282238415457e-01
6.51080000000000e-08,6.00000000000000e-01,0.00000000000000e+00,6.01083402674982e-01
6.51240000000000e-08,6.00000000000000e-01,0.00000000000000e+00,6.00693406085156e-01
6.51560000000000e-08,6.00000000000000e-01,0.00000000000000e+00,5.99990952569409e-01
6.52200000000000e-08,6.00000000000000e-01,0.00000000000000e+00,5.99071306755235e-01
6.53480000000000e-08,6.00000000000000e-01,0.00000000000000e+00,5.98236195586643e-01
6.56040000000000e-08,6.00000000000000e-01,0.00000000000000e+00,6.00317196600593e-01
6.61159999999999e-08,6.00000000000000e-01,0.00000000000000e+00,6.20263945655129e-01
6.71399999999999e-08,6.00000000000000e-01,0.00000000000000e+00,1.66023477347713e-01
6.87159895990011e-08,6.00000000000000e-01,0.00000000000000e+00,-6.44484873050532e-02
7.03350889026327e-08,6.00000000000000e-01,0.00000000000000e+00,5.83289030312901e-02
7.35732875098960e-08,6.00000000000000e-01,0.00000000000000e+00,-4.19652333976329e-02
7.51000000000000e-08,6.00000000000000e-01,0.00000000000000e+00,3.42200667828922e-02
7.51100000000000e-08,5.40000000000061e-01,0.00000000000000e+00,3.15884331132023e-02
7.51300000000000e-08,4.20000000000084e-01,0.00000000000000e+00,2.65105029759114e-02
7.51700000000000e-08,1.80000000000129e-01,0.00000000000000e+00,1.79372479206558e-02
7.52000000000000e-08,8.40438829641244e-14,0.00000000000000e+00,1.34325572811990e-02
7.52080000000000e-08,0.00000000000000e+00,0.00000000000000e+00,1.28133701236215e-02
7.52240000000000e-08,0.00000000000000e+00,0.00000000000000e+00,1.16446402047991e-02
7.52560000000000e-08,0.00000000000000e+00,0.00000000000000e+00,9.64915453225956e-03
7.53200000000000e-08,0.00000000000000e+00,0.00000000000000e+00,6.65409205369923e-03
7.54480000000000e-08,0.00000000000000e+00,0.00000000000000e+00,3.16807607868974e-03
7.57040000000000e-08,0.00000000000000e+00,0.00000000000000e+00,3.61796089503444e-04
7.62159999999999e-08,0.00000000000000e+00,0.00000000000000e+00,-1.29162979316474e-03
7.72399999999999e-08,0.00000000000000e+00,0.00000000000000e+00,2.13639258399071e-04
7.86338723469501e-08,0.00000000000000e+00,0.00000000000000e+00,1.76265398172740e-05
8.14216170408505e-08,0.00000000000000e+00,0.00000000000000e+00,-3.61448473526673e-05
8.45992672042074e-08,0.00000000000000e+00,0.00000000000000e+00,1.12273569971078e-04
8.50000000000000e-08,0.00000000000000e+00,0.00000000000000e+00,-1.80525673372005e-04
8.50100000000000e-08,5.99999999999886e-02,0.00000000000000e+00,3.21624678139176e-04
8.50300000000000e-08,1.79999999999966e-01,0.00000000000000e+00,1.21951769999352e-03
8.50700000000000e-08,4.19999999999920e-01,0.00000000000000e+00,2.36405753787311e-03
8.51000000000000e-08,5.99999999999966e-01,0.00000000000000e+00,2.17091801789876e-03
8.51080000000000e-08,6.00000000000000e-01,0.00000000000000e+00,1.78247560003315e-03
8.51240000000000e-08,6.00000000000000e-01,0.00000000000000e+00,1.07816546116432e-03
8.51560000000000e-08,6.00000000000000e-01,0.00000000000000e+00,1.01323726935387e-04
8.52200000000000e-08,6.00000000000000e-01,0.00000000000000e+00,-7.81266506234710e-04
8.53480000000000e-08,6.00000000000000e-01,0.00000000000000e+00,-1.13951932214776e-03
8.56040000000000e-08,6.00000000000000e-01,0.00000000000000e+00,-8.26437179270272e-04
8.61159999999999e-08,6.00000000000000e-01,0.00000000000000e+00,3.36304493390387e-04
8.71399999999999e-08,6.00000000000000e-01,0.00000000000000e+00,2.24213881286996e-04
8.91879999999998e-08,6.00000000000000e-01,0.00000000000000e+00,-1.47407606904676e-04
9.00000000000000e-08,6.00000000000000e-01,0.00000000000000e+00,1.26644331121264e-04
9.00100000000000e-08,6.00000000000000e-01,5.99999999999886e-02,1.32527860399564e-04
9.00300000000000e-08,6.00000000000000e-01,1.79999999999966e-01,1.42192228195434e-04
9.00700000000000e-08,6.00000000000000e-01,4.19999999999920e-01,1.34437804244256e-04
9.01000000000000e-08,6.00000000000000e-01,5.99999999999966e-01,9.18018231657186e-05
9.01080000000000e-08,6.00000000000000e-01,6.00000000000000e-01,7.10175121471229e-05
9.01240000000000e-08,6.00000000000000e-01,6.00000000000000e-01,4.01997271150117e-05
9.01560000000000e-08,6.00000000000000e-01,6.00000000000000e-01,5.78596058113667e-06
9.02200000000000e-08,6.00000000000000e-01,6.00000000000000e-01,-8.35802525780971e-06
9.03480000000000e-08,6.00000000000000e-01,6.00000000000000e-01,2.06524079242876e-05
9.06040000000000e-08,6.00000000000000e-01,6.00000000000000e-01,4.62025724233192e-05
9.11159999999999e-08,6.00000000000000e-01,6.00000000000000e-01,2.25223502723707e-05
9.20947488495349e-08,6.00000000000000e-01,6.00000000000000e-01,2.13508486457126e-05
9.40522465486049e-08,6.00000000000000e-01,6.00000000000000e-01,2.50211877752746e-05
9.51000000000000e-08,6.00000000000000e-01,6.00000000000000e-01,2.09908161179703e-05
9.51100000000000e-08,5.40000000000061e-01,6.00000000000000e-01,-1.56551093955903e-04
9.51300000000000e-08,4.20000000000084e-01,6.00000000000000e-01,-6.52263981376591e-04
9.51700000000000e-08,1.80000000000129e-01,6.00000000000000e-01,-1.76311634044500e-03
9.52000000000000e-08,8.40438829641244e-14,6.00000000000000e-01,-2.11495135816157e-03
9.52080000000000e-08,0.00000000000000e+00,6.00000000000000e-01,-1.81015689297674e-03
9.52240000000000e-08,0.00000000000000e+00,6.00000000000000e-01,-1.22239271831065e-03
9.52560000000000e-08,0.00000000000000e+00,6.00000000000000e-01,-2.66822764072888e-04
9.53200000000000e-08,0.00000000000000e+00,6.00000000000000e-01,7.80675452652896e-04
9.54480000000000e-08,0.00000000000000e+00,6.00000000000000e-01,1.19711750350913e-03
9.57040000000000e-08,0.00000000000000e+00,6.00000000000000e-01,5.90314511976081e-04
9.62159999999999e-08,0.00000000000000e+00,6.00000000000000e-01,-2.17695303152049e-04
9.72399999999999e-08,0.00000000000000e+00,6.00000000000000e-01,-1.98804350950009e-04
9.90347246704309e-08,0.00000000000000e+00,6.00000000000000e-01,2.41377106619325e-05
1.01147242519566e-07,0.00000000000000e+00,6.00000000000000e-01,1.44073119904737e-04
1.04947242519566e-07,0.00000000000000e+00,6.00000000000000e-01,-7.70992928195886e-05
1.05000000000000e-07,0.00000000000000e+00,6.00000000000000e-01,-7.66746386645367e-05
1.05010000000000e-07,5.99999999999886e-02,6.00000000000000e-01,4.25543469663447e-04
1.05030000000000e-07,1.79999999999966e-01,6.00000000000000e-01,1.36513028531246e-03
1.05070000000000e-07,4.19999999999920e-01,6.00000000000000e-01,2.76866726998629e-03
1.05100000000000e-07,5.99999999999966e-01,6.00000000000000e-01,2.90854119238150e-03
1.05108000000000e-07,6.00000000000000e-01,6.00000000000000e-01,2.55783580830402e-03
1.05124000000000e-07,6.00000000000000e-01,6.00000000000000e-01,1.81349552781859e-03
1.05156000000000e-07,6.00000000000000e-01,6.00000000000000e-01,1.28420669294790e-04
1.05220000000000e-07,6.00000000000000e-01,6.00000000000000e-01,-3.39284521027025e-03
1.05348000000000e-07,6.00000000000000e-01,6.00000000000000e-01,-8.17763353267195e-03
1.05604000000000e-07,6.00000000000000e-01,6.00000000000000e-01,-4.83501435550945e-03
1.06116000000000e-07,6.00000000000000e-01,6.00000000000000e-01,1.54969290201247e-01
1.07140000000000e-07,6.00000000000000e-01,6.00000000000000e-01,5.52566696013435e-01
1.07366951242514e-07,6.00000000000000e-01,6.00000000000000e-01,5.73388474492355e-01
1.07820853727541e-07,6.00000000000000e-01,6.00000000000000e-01,5.95912721622969e-01
1.08728658697597e-07,6.00000000000000e-01,6.00000000000000e-01,6.01063385348556e-01
1.10544268637708e-07,6.00000000000000e-01,6.00000000000000e-01,5.99156210607659e-01
1.13162511194692e-07,6.00000000000000e-01,6.00000000000000e-01,6.00453594829921e-01
1.15100000000000e-07,6.00000000000000e-01,6.00000000000000e-01,5.99572492634102e-01
1.15110000000000e-07,5.40000000000061e-01,6.00000000000000e-01,5.99435604519530e-01
1.15130000000000e-07,4.20000000000084e-01,6.00000000000000e-01,5.99097919866601e-01
1.15170000000000e-07,1.80000000000129e-01,6.00000000000000e-01,5.98673420175733e-01
1.15200000000000e-07,8.40438829641244e-14,6.00000000000000e-01,5.99214673919414e-01
1.15208000000000e-07,0.00000000000000e+00,6.00000000000000e-01,5.99606521126402e-01
1.15224000000000e-07,0.00000000000000e+00,6.00000000000000e-01,6.00388302737458e-01
1.15256000000000e-07,0.00000000000000e+00,6.00000000000000e-01,6.01820189072610e-01
1.15320000000000e-07,0.00000000000000e+00,6.00000000000000e-01,6.03794920705055e-01
1.15448000000000e-07,0.00000000000000e+00,6.00000000000000e-01,6.05494451171564e-01
1.15704000000000e-07,0.00000000000000e+00,6.00000000000000e-01,6.04311621278796e-01
1.16216000000000e-07,0.00000000000000e+00,6.00000000000000e-01,5.93618386194923e-01
1.17240000000000e-07,0.00000000000000e+00,6.00000000000000e-01,5.85358295922458e-01
1.19288000000000e-07,0.00000000000000e+00,6.00000000000000e-01,6.02431803380459e-01
1.22305382745414e-07,0.00000000000000e+00,6.00000000000000e-01,5.97472599016616e-01
1.25000000000000e-07,0.00000000000000e+00,6.00000000000000e-01,6.01405462772542e-01
1.25010000000000e-07,5.99999999999092e-02,6.00000000000000e-01,6.01615529603025e-01
1.25030000000000e-07,1.79999999999886e-01,6.00000000000000e-01,6.01989314506554e-01
1.25070000000000e-07,4.19999999999841e-01,6.00000000000000e-01,6.02540188652768e-01
1.25100000000000e-07,5.99999999999886e-01,6.00000000000000e-01,6.02604080288334e-01
1.25108000000000e-07,6.00000000000000e-01,5.51999999999946e-01,6.02419244362025e-01
1.25124000000000e-07,6.00000000000000e-01,4.55999999999996e-01,6.01980915721707e-01
1.25156000000000e-07,6.00000000000000e-01,2.63999999999937e-01,6.00967073434657e-01
1.25200000000000e-07,6.00000000000000e-01,0.00000000000000e+00,5.99522956385384e-01
1.25206400000000e-07,6.00000000000000e-01,0.00000000000000e+00,5.99337051645504e-01
1.25219200000000e-07,6.00000000000000e-01,0.00000000000000e+00,5.98958156846829e-01
1.25244800000000e-07,6.00000000000000e-01,0.00000000000000e+00,5.98159618206627e-01
1.25296000000000e-07,6.00000000000000e-01,0.00000000000000e+00,5.96549532980742e-01
1.25398400000000e-07,6.00000000000000e-01,0.00000000000000e+00,5.93465578497173e-01
1.25603200000000e-07,6.00000000000000e-01,0.00000000000000e+00,5.89018337982118e-01
1.26012800000000e-07,6.00000000000000e-01,0.00000000000000e+00,5.90737167835549e-01
1.26832000000000e-07,6.00000000000000e-01,0.00000000000000e+00,5.99728695644477e-01
1.27892025590143e-07,6.00000000000000e-01,0.00000000000000e+00,6.00133944530169e-01
1.30012076770429e-07,6.00000000000000e-01,0.00000000000000e+00,5.99868834103377e-01
1.32368324376742e-07,6.00000000000000e-01,0.00000000000000e+00,6.00121343960780e-01
1.35100000000000e-07,5.99999999999891e-01,0.00000000000000e+00,5.99888251939395e-01
1.35110000000000e-07,5.39999999999823e-01,0.00000000000000e+00,5.99712941748414e-01
1.35130000000000e-07,4.19999999999846e-01,0.00000000000000e+00,5.99316431322235e-01
1.35170000000000e-07,1.79999999999891e-01,0.00000000000000e+00,5.98818873509204e-01
1.35200000000000e-07,0.00000000000000e+00,0.00000000000000e+00,5.99285805958806e-01
1.35208000000000e-07,0.00000000000000e+00,0.00000000000000e+00,5.99677383072473e-01
1.35224000000000e-07,0.00000000000000e+00,0.00000000000000e+00,6.00461505861767e-01
1.35256000000000e-07,0.00000000000000e+00,0.00000000000000e+00,6.01932033692544e-01
1.35320000000000e-07,0.00000000000000e+00,0.00000000000000e+00,6.03967872704447e-01
