Time,v(clk),v(data),v(out),v(reset)
1.00000000000000e-08,6.00000000000000e-01,0.00000000000000e+00,-2.46086540473272e-02,0.00000000000000e+00
1.00100000000000e-08,6.00000000000000e-01,5.99999999999986e-02,-2.27920324439665e-02,0.00000000000000e+00
1.00300000000000e-08,6.00000000000000e-01,1.79999999999996e-01,-1.92445487505024e-02,0.00000000000000e+00
1.00700000000000e-08,6.00000000000000e-01,4.19999999999990e-01,-1.35448832381689e-02,0.00000000000000e+00
1.01000000000000e-08,6.00000000000000e-01,5.99999999999995e-01,-1.04479333069791e-02,0.00000000000000e+00
1.01080000000000e-08,6.00000000000000e-01,6.00000000000000e-01,-9.78951730443443e-03,0.00000000000000e+00
1.01240000000000e-08,6.00000000000000e-01,6.00000000000000e-01,-8.53921600158120e-03,0.00000000000000e+00
1.01560000000000e-08,6.00000000000000e-01,6.00000000000000e-01,-6.51886089678960e-03,0.00000000000000e+00
1.02200000000000e-08,6.00000000000000e-01,6.00000000000000e-01,-3.74981653625546e-03,0.00000000000000e+00
1.03480000000000e-08,6.00000000000000e-01,6.00000000000000e-01,-1.14898356029569e-03,0.00000000000000e+00
1.06040000000000e-08,6.00000000000000e-01,6.00000000000000e-01,3.77286574641464e-05,0.00000000000000e+00
1.11160000000000e-08,6.00000000000000e-01,6.00000000000000e-01,4.22151837307233e-06,0.00000000000000e+00
1.21400000000000e-08,6.00000000000000e-01,6.00000000000000e-01,2.63613077133087e-05,0.00000000000000e+00
1.41880000000000e-08,6.00000000000000e-01,6.00000000000000e-01,1.19240955978768e-05,0.00000000000000e+00
1.51000000000000e-08,6.00000000000000e-01,6.00000000000000e-01,2.33005052908859e-05,0.00000000000000e+00
1.51100000000000e-08,5.39999999999992e-01,6.00000000000000e-01,9.73738066430779e-04,6.00000000000085e-02
1.51300000000000e-08,4.19999999999994e-01,6.00000000000000e-01,2.43351985379039e-03,1.80000000000006e-01
1.51700000000000e-08,1.80000000000000e-01,6.00000000000000e-01,3.73131568484462e-03,4.20000000000000e-01
1.52000000000000e-08,0.00000000000000e+00,6.00000000000000e-01,3.05631780923001e-03,6.00000000000000e-01
1.52080000000000e-08,0.00000000000000e+00,6.00000000000000e-01,2.65637403539024e-03,6.00000000000000e-01
1.52240000000000e-08,0.00000000000000e+00,6.00000000000000e-01,1.95803570534904e-03,6.00000000000000e-01
1.52560000000000e-08,0.00000000000000e+00,6.00000000000000e-01,9.56556884438325e-04,6.00000000000000e-01
1.53200000000000e-08,0.00000000000000e+00,6.00000000000000e-01,-6.83117121623306e-05,6.00000000000000e-01
1.54480000000000e-08,0.00000000000000e+00,6.00000000000000e-01,-4.87625451721069e-04,6.00000000000000e-01
1.57040000000000e-08,0.00000000000000e+00,6.00000000000000e-01,-3.49074478821175e-04,6.00000000000000e-01
1.62160000000000e-08,0.00000000000000e+00,6.00000000000000e-01,-1.22966141264815e-03,6.00000000000000e-01
1.72400000000000e-08,0.00000000000000e+00,6.00000000000000e-01,2.52965906355283e-04,6.00000000000000e-01
1.86159310572667e-08,0.00000000000000e+00,6.00000000000000e-01,-2.76893999666544e-04,6.00000000000000e-01
2.09444710580762e-08,0.00000000000000e+00,6.00000000000000e-01,2.65320214868282e-04,6.00000000000000e-01
2.39738779664598e-08,0.00000000000000e+00,6.00000000000000e-01,-6.67551576420487e-05,6.00000000000000e-01
2.50000000000000e-08,0.00000000000000e+00,6.00000000000000e-01,-1.25237832499254e-04,6.00000000000000e-01
2.50100000000000e-08,5.99999999999886e-02,6.00000000000000e-01,4.28965989047014e-04,6.00000000000000e-01
2.50300000000000e-08,1.80000000000006e-01,6.00000000000000e-01,1.44667442809483e-03,6.00000000000000e-01
2.50700000000000e-08,4.20000000000000e-01,6.00000000000000e-01,2.90035404137280e-03,6.00000000000000e-01
2.51000000000000e-08,6.00000000000000e-01,6.00000000000000e-01,3.08063568456488e-03,6.00000000000000e-01
2.51080000000000e-08,6.00000000000000e-01,6.00000000000000e-01,2.76812407284203e-03,6.00000000000000e-01
2.51240000000000e-08,6.00000000000000e-01,6.00000000000000e-01,2.14494945762973e-03,6.00000000000000e-01
2.51560000000000e-08,6.00000000000000e-01,6.00000000000000e-01,7.55042807776926e-04,6.00000000000000e-01
2.52200000000000e-08,6.00000000000000e-01,6.00000000000000e-01,-2.51032450907929e-03,6.00000000000000e-01
2.53480000000000e-08,6.00000000000000e-01,6.00000000000000e-01,-7.70470700962458e-03,6.00000000000000e-01
2.56040000000000e-08,6.00000000000000e-01,6.00000000000000e-01,-5.87800927577646e-03,6.00000000000000e-01
2.61160000000000e-08,6.00000000000000e-01,6.00000000000000e-01,1.46144474666333e-01,6.00000000000000e-01
2.71400000000000e-08,6.00000000000000e-01,6.00000000000000e-01,5.48533236338906e-01,6.00000000000000e-01
2.73763605553215e-08,6.00000000000000e-01,6.00000000000000e-01,5.72206697359547e-01,6.00000000000000e-01
2.78490816659646e-08,6.00000000000000e-01,6.00000000000000e-01,5.96604210442365e-01,6.00000000000000e-01
2.87945238872506e-08,6.00000000000000e-01,6.00000000000000e-01,6.00901010583393e-01,6.00000000000000e-01
3.06854083298227e-08,6.00000000000000e-01,6.00000000000000e-01,5.99257841974107e-01,6.00000000000000e-01
3.33561395265222e-08,6.00000000000000e-01,6.00000000000000e-01,6.00383793894644e-01,6.00000000000000e-01
3.51000000000000e-08,5.99999999999970e-01,6.00000000000000e-01,5.99638275871358e-01,6.00000000000000e-01
3.51100000000000e-08,5.39999999999982e-01,6.00000000000000e-01,5.99490999327300e-01,6.00000000000000e-01
3.51300000000000e-08,4.19999999999965e-01,6.00000000000000e-01,5.99148958134137e-01,6.00000000000000e-01
3.51700000000000e-08,1.79999999999970e-01,6.00000000000000e-01,5.98715777178189e-01,6.00000000000000e-01
3.52000000000000e-08,0.00000000000000e+00,6.00000000000000e-01,5.99248683058650e-01,6.00000000000000e-01
3.52080000000000e-08,0.00000000000000e+00,6.00000000000000e-01,5.99651804477590e-01,6.00000000000000e-01
3.52240000000000e-08,0.00000000000000e+00,6.00000000000000e-01,6.00466530889568e-01,6.00000000000000e-01
3.52560000000000e-08,0.00000000000000e+00,6.00000000000000e-01,6.01885287277787e-01,6.00000000000000e-01
3.53200000000000e-08,0.00000000000000e+00,6.00000000000000e-01,6.03789196882799e-01,6.00000000000000e-01
3.54480000000000e-08,0.00000000000000e+00,6.00000000000000e-01,6.05500549616404e-01,6.00000000000000e-01
3.57040000000000e-08,0.00000000000000e+00,6.00000000000000e-01,6.04334531022074e-01,6.00000000000000e-01
3.62160000000000e-08,0.00000000000000e+00,6.00000000000000e-01,5.93642929584955e-01,6.00000000000000e-01
3.72400000000000e-08,0.00000000000000e+00,6.00000000000000e-01,5.85353926629449e-01,6.00000000000000e-01
3.92880000000000e-08,0.00000000000000e+00,6.00000000000000e-01,6.02431821773441e-01,6.00000000000000e-01
4.23050903573470e-08,0.00000000000000e+00,6.00000000000000e-01,5.97472998558211e-01,6.00000000000000e-01
4.50000000000000e-08,0.00000000000000e+00,6.00000000000000e-01,6.01405283488699e-01,6.00000000000000e-01
4.50100000000000e-08,5.99999999999886e-02,6.00000000000000e-01,6.01203481662824e-01,5.40000000000011e-01
4.50300000000000e-08,1.80000000000006e-01,6.00000000000000e-01,6.00616503078427e-01,4.19999999999994e-01
4.50700000000000e-08,4.20000000000000e-01,6.00000000000000e-01,5.99957402979690e-01,1.80000000000000e-01
4.51000000000000e-08,6.00000000000000e-01,6.00000000000000e-01,6.01222455265113e-01,0.00000000000000e+00
4.51080000000000e-08,6.00000000000000e-01,6.00000000000000e-01,6.02162034844282e-01,0.00000000000000e+00
4.51240000000000e-08,6.00000000000000e-01,6.00000000000000e-01,6.03966258872574e-01,0.00000000000000e+00
4.51560000000000e-08,6.00000000000000e-01,6.00000000000000e-01,6.07142753905574e-01,0.00000000000000e+00
4.52200000000000e-08,6.00000000000000e-01,6.00000000000000e-01,6.12233376303989e-01,0.00000000000000e+00
4.53480000000000e-08,6.00000000000000e-01,6.00000000000000e-01,6.19906140515935e-01,0.00000000000000e+00
4.56040000000000e-08,6.00000000000000e-01,6.00000000000000e-01,6.32050748466314e-01,0.00000000000000e+00
4.61160000000000e-08,6.00000000000000e-01,6.00000000000000e-01,3.85809487191159e-01,0.00000000000000e+00
4.71400000000000e-08,6.00000000000000e-01,6.00000000000000e-01,-2.42459968184562e-02,0.00000000000000e+00
4.82930290757286e-08,6.00000000000000e-01,6.00000000000000e-01,1.68953257500091e-02,0.00000000000000e+00
5.01000000000000e-08,6.00000000000000e-01,5.99999999999966e-01,-1.23998113388111e-02,0.00000000000000e+00
5.03250520676396e-08,6.00000000000000e-01,6.00000000000000e-01,-4.32807944293820e-03,0.00000000000000e+00
5.07751562029188e-08,6.00000000000000e-01,6.00000000000000e-01,1.40293226205115e-03,0.00000000000000e+00
5.16753644734771e-08,6.00000000000000e-01,6.00000000000000e-01,-7.72078274203787e-04,0.00000000000000e+00
5.34757810145938e-08,6.00000000000000e-01,6.00000000000000e-01,6.20121670817200e-04,0.00000000000000e+00
5.51000000000000e-08,6.00000000000000e-01,6.00000000000000e-01,-4.29996669106236e-04,0.00000000000000e+00
5.51100000000000e-08,5.40000000000021e-01,6.00000000000000e-01,5.54935536592416e-04,5.99999999999787e-02
5.51300000000000e-08,4.20000000000004e-01,6.00000000000000e-01,2.07698675717950e-03,1.79999999999996e-01
5.51700000000000e-08,1.80000000000010e-01,6.00000000000000e-01,3.47749679015084e-03,4.19999999999990e-01
5.52000000000000e-08,0.00000000000000e+00,6.00000000000000e-01,2.85373335976680e-03,6.00000000000000e-01
5.52080000000000e-08,0.00000000000000e+00,6.00000000000000e-01,2.46398504676668e-03,6.00000000000000e-01
5.52240000000000e-08,0.00000000000000e+00,6.00000000000000e-01,1.78815330396670e-03,6.00000000000000e-01
5.52560000000000e-08,0.00000000000000e+00,6.00000000000000e-01,8.21344079476038e-04,6.00000000000000e-01
5.53200000000000e-08,0.00000000000000e+00,6.00000000000000e-01,-1.47463884785495e-04,6.00000000000000e-01
5.54480000000000e-08,0.00000000000000e+00,6.00000000000000e-01,-4.99367855482158e-04,6.00000000000000e-01
5.57040000000000e-08,0.00000000000000e+00,6.00000000000000e-01,-2.98709741524558e-04,6.00000000000000e-01
5.62160000000000e-08,0.00000000000000e+00,6.00000000000000e-01,-8.42788943843376e-04,6.00000000000000e-01
5.70608394791054e-08,0.00000000000000e+00,6.00000000000000e-01,1.05010367455347e-04,6.00000000000000e-01
5.87282718366881e-08,0.00000000000000e+00,6.00000000000000e-01,-1.08156780398886e-04,6.00000000000000e-01
6.07081499967821e-08,0.00000000000000e+00,6.00000000000000e-01,2.56468884562398e-05,6.00000000000000e-01
6.40611564082359e-08,0.00000000000000e+00,6.00000000000000e-01,8.20567365675262e-05,6.00000000000000e-01
6.50000000000000e-08,0.00000000000000e+00,6.00000000000000e-01,-1.38782488816314e-04,6.00000000000000e-01
6.50100000000000e-08,5.99999999999886e-02,6.00000000000000e-01,3.97649926681579e-04,6.00000000000000e-01
6.50300000000000e-08,1.79999999999966e-01,6.00000000000000e-01,1.38852615709388e-03,6.00000000000000e-01
6.50700000000000e-08,4.19999999999920e-01,6.00000000000000e-01,2.82526388530624e-03,6.00000000000000e-01
6.51000000000000e-08,5.99999999999966e-01,6.00000000000000e-01,2.94560299465282e-03,6.00000000000000e-01
6.51080000000000e-08,6.00000000000000e-01,6.00000000000000e-01,2.57948536180279e-03,6.00000000000000e-01
6.51240000000000e-08,6.00000000000000e-01,6.00000000000000e-01,1.79456924832729e-03,6.00000000000000e-01
6.51560000000000e-08,6.00000000000000e-01,6.00000000000000e-01,1.62285621857078e-05,6.00000000000000e-01
6.52200000000000e-08,6.00000000000000e-01,6.00000000000000e-01,-3.51580807222485e-03,6.00000000000000e-01
6.53480000000000e-08,6.00000000000000e-01,6.00000000000000e-01,-8.18470705065208e-03,6.00000000000000e-01
6.56040000000000e-08,6.00000000000000e-01,6.00000000000000e-01,-4.60293055711117e-03,6.00000000000000e-01
6.61159999999999e-08,6.00000000000000e-01,6.00000000000000e-01,1.56188242876294e-01,6.00000000000000e-01
6.71399999999999e-08,6.00000000000000e-01,6.00000000000000e-01,5.53071056333019e-01,6.00000000000000e-01
6.73658834403710e-08,6.00000000000000e-01,6.00000000000000e-01,5.73548754661072e-01,6.00000000000000e-01
6.78176503211133e-08,6.00000000000000e-01,6.00000000000000e-01,5.95835237139126e-01,6.00000000000000e-01
6.87211840825977e-08,6.00000000000000e-01,6.00000000000000e-01,6.01079642627601e-01,6.00000000000000e-01
7.05282516055667e-08,6.00000000000000e-01,6.00000000000000e-01,5.99146169148329e-01,6.00000000000000e-01
7.31409178433829e-08,6.00000000000000e-01,6.00000000000000e-01,6.00459920436117e-01,6.00000000000000e-01
7.51000000000000e-08,6.00000000000000e-01,6.00000000000000e-01,5.99567021826253e-01,6.00000000000000e-01
7.51100000000000e-08,5.40000000000061e-01,6.00000000000000e-01,5.99436281398447e-01,6.00000000000000e-01
7.51300000000000e-08,4.20000000000084e-01,6.00000000000000e-01,5.99097572842481e-01,6.00000000000000e-01
7.51700000000000e-08,1.80000000000129e-01,6.00000000000000e-01,5.98682272746463e-01,6.00000000000000e-01
7.52000000000000e-08,8.40438829641244e-14,6.00000000000000e-01,5.99220187437880e-01,6.00000000000000e-01
7.52080000000000e-08,0.00000000000000e+00,6.00000000000000e-01,5.99611930139865e-01,6.00000000000000e-01
7.52240000000000e-08,0.00000000000000e+00,6.00000000000000e-01,6.00392420492834e-01,6.00000000000000e-01
7.52560000000000e-08,0.00000000000000e+00,6.00000000000000e-01,6.01823416817201e-01,6.00000000000000e-01
7.53200000000000e-08,0.00000000000000e+00,6.00000000000000e-01,6.03795111617238e-01,6.00000000000000e-01
7.54480000000000e-08,0.00000000000000e+00,6.00000000000000e-01,6.05492631826346e-01,6.00000000000000e-01
7.57040000000000e-08,0.00000000000000e+00,6.00000000000000e-01,6.04304380361730e-01,6.00000000000000e-01
7.62159999999999e-08,0.00000000000000e+00,6.00000000000000e-01,5.93607433596986e-01,6.00000000000000e-01
7.72399999999999e-08,0.00000000000000e+00,6.00000000000000e-01,5.85361495885556e-01,6.00000000000000e-01
7.92879999999998e-08,0.00000000000000e+00,6.00000000000000e-01,6.02433756735290e-01,6.00000000000000e-01
8.23051581176026e-08,0.00000000000000e+00,6.00000000000000e-01,5.97471100657803e-01,6.00000000000000e-01
8.50000000000000e-08,0.00000000000000e+00,6.00000000000000e-01,6.01406315799382e-01,6.00000000000000e-01
8.50100000000000e-08,5.99999999999886e-02,6.00000000000000e-01,6.01204112903056e-01,5.40000000000011e-01
8.50300000000000e-08,1.79999999999966e-01,6.00000000000000e-01,6.00617300206457e-01,4.20000000000034e-01
8.50700000000000e-08,4.19999999999920e-01,6.00000000000000e-01,5.99958350376254e-01,1.80000000000080e-01
8.51000000000000e-08,5.99999999999966e-01,6.00000000000000e-01,6.01223253049866e-01,3.44169137633799e-14
8.51080000000000e-08,6.00000000000000e-01,6.00000000000000e-01,6.02162715187467e-01,0.00000000000000e+00
8.51240000000000e-08,6.00000000000000e-01,6.00000000000000e-01,6.03966796394879e-01,0.00000000000000e+00
8.51560000000000e-08,6.00000000000000e-01,6.00000000000000e-01,6.07142921292712e-01,0.00000000000000e+00
8.52200000000000e-08,6.00000000000000e-01,6.00000000000000e-01,6.12233348615743e-01,0.00000000000000e+00
8.53480000000000e-08,6.00000000000000e-01,6.00000000000000e-01,6.19906276361518e-01,0.00000000000000e+00
8.56040000000000e-08,6.00000000000000e-01,6.00000000000000e-01,6.32052670406270e-01,0.00000000000000e+00
8.61159999999999e-08,6.00000000000000e-01,6.00000000000000e-01,3.85854070485208e-01,0.00000000000000e+00
8.71399999999999e-08,6.00000000000000e-01,6.00000000000000e-01,-2.42338015575512e-02,0.00000000000000e+00
8.82929623650802e-08,6.00000000000000e-01,6.00000000000000e-01,1.68860839747452e-02,0.00000000000000e+00
9.01000000000000e-08,6.00000000000000e-01,5.99999999999966e-01,-1.23936083398755e-02,0.00000000000000e+00
9.03250327844808e-08,6.00000000000000e-01,6.00000000000000e-01,-4.32632660897559e-03,0.00000000000000e+00
9.07750983534423e-08,6.00000000000000e-01,6.00000000000000e-01,1.40229724472891e-03,0.00000000000000e+00
9.16752294913654e-08,6.00000000000000e-01,6.00000000000000e-01,-7.71671853975506e-04,0.00000000000000e+00
9.34754917672116e-08,6.00000000000000e-01,6.00000000000000e-01,6.19797174153497e-04,0.00000000000000e+00
9.51000000000000e-08,6.00000000000000e-01,6.00000000000000e-01,-4.29769898095081e-04,0.00000000000000e+00
9.51100000000000e-08,5.40000000000061e-01,6.00000000000000e-01,5.55124409846314e-04,5.99999999999390e-02
9.51300000000000e-08,4.20000000000084e-01,6.00000000000000e-01,2.07713225830498e-03,1.79999999999916e-01
9.51700000000000e-08,1.80000000000129e-01,6.00000000000000e-01,3.47759761055909e-03,4.19999999999871e-01
9.52000000000000e-08,8.40438829641244e-14,6.00000000000000e-01,2.85380416270622e-03,5.99999999999916e-01
9.52080000000000e-08,0.00000000000000e+00,6.00000000000000e-01,2.46404988008733e-03,6.00000000000000e-01
9.52240000000000e-08,0.00000000000000e+00,6.00000000000000e-01,1.78821324193221e-03,6.00000000000000e-01
9.52560000000000e-08,0.00000000000000e+00,6.00000000000000e-01,8.21407934584295e-04,6.00000000000000e-01
9.53200000000000e-08,0.00000000000000e+00,6.00000000000000e-01,-1.47405346206539e-04,6.00000000000000e-01
9.54480000000000e-08,0.00000000000000e+00,6.00000000000000e-01,-4.99346782133064e-04,6.00000000000000e-01
9.57040000000000e-08,0.00000000000000e+00,6.00000000000000e-01,-2.98726542304034e-04,6.00000000000000e-01
9.62159999999999e-08,0.00000000000000e+00,6.00000000000000e-01,-8.42778393863132e-04,6.00000000000000e-01
9.70613368917268e-08,0.00000000000000e+00,6.00000000000000e-01,1.05392925055282e-04,6.00000000000000e-01
9.87285905120642e-08,0.00000000000000e+00,6.00000000000000e-01,-1.08567749842692e-04,6.00000000000000e-01
1.00709239163764e-07,0.00000000000000e+00,6.00000000000000e-01,2.61198037023007e-05,6.00000000000000e-01
1.04059982797509e-07,0.00000000000000e+00,6.00000000000000e-01,8.16721912574982e-05,6.00000000000000e-01
1.05000000000000e-07,0.00000000000000e+00,6.00000000000000e-01,-1.38508315330198e-04,6.00000000000000e-01
1.05010000000000e-07,5.99999999999886e-02,6.00000000000000e-01,3.97904236447061e-04,6.00000000000000e-01
1.05030000000000e-07,1.79999999999966e-01,6.00000000000000e-01,1.38876825813640e-03,6.00000000000000e-01
1.05070000000000e-07,4.19999999999920e-01,6.00000000000000e-01,2.82545723291049e-03,6.00000000000000e-01
1.05100000000000e-07,5.99999999999966e-01,6.00000000000000e-01,2.94575531323148e-03,6.00000000000000e-01
1.05108000000000e-07,6.00000000000000e-01,6.00000000000000e-01,2.57963975866751e-03,6.00000000000000e-01
1.05124000000000e-07,6.00000000000000e-01,6.00000000000000e-01,1.79473718360396e-03,6.00000000000000e-01
1.05156000000000e-07,6.00000000000000e-01,6.00000000000000e-01,1.64498067120739e-05,6.00000000000000e-01
1.05220000000000e-07,6.00000000000000e-01,6.00000000000000e-01,-3.51557894121991e-03,6.00000000000000e-01
1.05348000000000e-07,6.00000000000000e-01,6.00000000000000e-01,-8.18458365307467e-03,6.00000000000000e-01
1.05604000000000e-07,6.00000000000000e-01,6.00000000000000e-01,-4.60305375611940e-03,6.00000000000000e-01
1.06116000000000e-07,6.00000000000000e-01,6.00000000000000e-01,1.56186987265837e-01,6.00000000000000e-01
1.07140000000000e-07,6.00000000000000e-01,6.00000000000000e-01,5.53070486267312e-01,6.00000000000000e-01
1.07365884659129e-07,6.00000000000000e-01,6.00000000000000e-01,5.73548572474305e-01,6.00000000000000e-01
1.07817653977386e-07,6.00000000000000e-01,6.00000000000000e-01,5.95835325382631e-01,6.00000000000000e-01
1.08721192613901e-07,6.00000000000000e-01,6.00000000000000e-01,6.01079624836153e-01,6.00000000000000e-01
1.10528269886932e-07,6.00000000000000e-01,6.00000000000000e-01,5.99146179990778e-01,6.00000000000000e-01
1.13140942435393e-07,6.00000000000000e-01,6.00000000000000e-01,6.00459913284251e-01,6.00000000000000e-01
1.15100000000000e-07,6.00000000000000e-01,6.00000000000000e-01,5.99567029104304e-01,6.00000000000000e-01
1.15110000000000e-07,5.40000000000061e-01,6.00000000000000e-01,5.99436288073565e-01,6.00000000000000e-01
1.15130000000000e-07,4.20000000000084e-01,6.00000000000000e-01,5.99097578706356e-01,6.00000000000000e-01
1.15170000000000e-07,1.80000000000129e-01,6.00000000000000e-01,5.98682277853448e-01,6.00000000000000e-01
1.15200000000000e-07,8.40438829641244e-14,6.00000000000000e-01,5.99220191555973e-01,6.00000000000000e-01
