Time,v(clk),v(data),v(out)
1.00000000000000e-08,6.00000000000000e-01,0.00000000000000e+00,1.30396004440914e-04
1.00100000000000e-08,6.00000000000000e-01,5.99999999999986e-02,1.36041863601791e-04
1.00300000000000e-08,6.00000000000000e-01,1.79999999999996e-01,1.45285513672461e-04
1.00700000000000e-08,6.00000000000000e-01,4.19999999999990e-01,1.36564924780549e-04
1.01000000000000e-08,6.00000000000000e-01,5.99999999999995e-01,9.27124644042737e-05
1.01080000000000e-08,6.00000000000000e-01,6.00000000000000e-01,7.15610301169206e-05
1.01240000000000e-08,6.00000000000000e-01,6.00000000000000e-01,3.97710668919721e-05
1.01560000000000e-08,6.00000000000000e-01,6.00000000000000e-01,4.16569090336272e-06
1.02200000000000e-08,6.00000000000000e-01,6.00000000000000e-01,-8.83106962111524e-06
1.03480000000000e-08,6.00000000000000e-01,6.00000000000000e-01,2.24405275934536e-05
1.06040000000000e-08,6.00000000000000e-01,6.00000000000000e-01,4.76731801826585e-05
1.11160000000000e-08,6.00000000000000e-01,6.00000000000000e-01,2.15058373377805e-05
1.20415498894488e-08,6.00000000000000e-01,6.00000000000000e-01,2.21141460945255e-05
1.38926496683465e-08,6.00000000000000e-01,6.00000000000000e-01,2.42050585075714e-05
1.51000000000000e-08,6.00000000000000e-01,6.00000000000000e-01,2.16580362143795e-05
1.51100000000000e-08,5.39999999999992e-01,6.00000000000000e-01,-1.56005960116098e-04
1.51300000000000e-08,4.19999999999994e-01,6.00000000000000e-01,-6.51771431667739e-04
1.51700000000000e-08,1.80000000000000e-01,6.00000000000000e-01,-1.76276222416166e-03
1.52000000000000e-08,0.00000000000000e+00,6.00000000000000e-01,-2.11471015358561e-03
1.52080000000000e-08,0.00000000000000e+00,6.00000000000000e-01,-1.80993852508142e-03
1.52240000000000e-08,0.00000000000000e+00,6.00000000000000e-01,-1.22220147779585e-03
1.52560000000000e-08,0.00000000000000e+00,6.00000000000000e-01,-2.66712115960965e-04
1.53200000000000e-08,0.00000000000000e+00,6.00000000000000e-01,7.80654338710191e-04
1.54480000000000e-08,0.00000000000000e+00,6.00000000000000e-01,1.19685336082695e-03
1.57040000000000e-08,0.00000000000000e+00,6.00000000000000e-01,5.90092511040620e-04
1.62160000000000e-08,0.00000000000000e+00,6.00000000000000e-01,-2.17796092158738e-04
1.72400000000000e-08,0.00000000000000e+00,6.00000000000000e-01,-1.98757819746133e-04
1.90347012601696e-08,0.00000000000000e+00,6.00000000000000e-01,2.40980955872900e-05
2.11473303076314e-08,0.00000000000000e+00,6.00000000000000e-01,1.44079904760197e-04
2.49473303076314e-08,0.00000000000000e+00,6.00000000000000e-01,-7.70908753515336e-05
2.50000000000000e-08,0.00000000000000e+00,6.00000000000000e-01,-7.66923619092003e-05
2.50100000000000e-08,5.99999999999886e-02,6.00000000000000e-01,4.25519249475911e-04
2.50300000000000e-08,1.80000000000006e-01,6.00000000000000e-01,1.36510023698953e-03
2.50700000000000e-08,4.20000000000000e-01,6.00000000000000e-01,2.76863995225986e-03
2.51000000000000e-08,6.00000000000000e-01,6.00000000000000e-01,2.90853125160008e-03
2.51080000000000e-08,6.00000000000000e-01,6.00000000000000e-01,2.55783329028597e-03
2.51240000000000e-08,6.00000000000000e-01,6.00000000000000e-01,1.81351297038029e-03
2.51560000000000e-08,6.00000000000000e-01,6.00000000000000e-01,1.28479097608922e-04
2.52200000000000e-08,6.00000000000000e-01,6.00000000000000e-01,-3.39276066855246e-03
2.53480000000000e-08,6.00000000000000e-01,6.00000000000000e-01,-8.17760707038857e-03
2.56040000000000e-08,6.00000000000000e-01,6.00000000000000e-01,-4.83522479489240e-03
2.61160000000000e-08,6.00000000000000e-01,6.00000000000000e-01,1.54967811411594e-01
2.71400000000000e-08,6.00000000000000e-01,6.00000000000000e-01,5.52566051087153e-01
2.73669527121489e-08,6.00000000000000e-01,6.00000000000000e-01,5.73388276265141e-01
2.78208581364466e-08,6.00000000000000e-01,6.00000000000000e-01,5.95912828505659e-01
2.87286689850420e-08,6.00000000000000e-01,6.00000000000000e-01,6.01063363159679e-01
3.01000000000000e-08,6.00000000000000e-01,6.00000000000000e-01,5.99260950461257e-01
3.01100000000000e-08,6.00000000000000e-01,5.40000000000031e-01,5.99297321954632e-01
3.01300000000000e-08,6.00000000000000e-01,4.20000000000014e-01,5.99351940912225e-01
3.01700000000000e-08,6.00000000000000e-01,1.80000000000020e-01,5.99440635794322e-01
3.02000000000000e-08,6.00000000000000e-01,1.44328993201270e-14,5.99531169335332e-01
3.02080000000000e-08,6.00000000000000e-01,0.00000000000000e+00,5.99560836717857e-01
3.02240000000000e-08,6.00000000000000e-01,0.00000000000000e+00,5.99614562855432e-01
3.02560000000000e-08,6.00000000000000e-01,0.00000000000000e+00,5.99691438395021e-01
3.03200000000000e-08,6.00000000000000e-01,0.00000000000000e+00,5.99781397164940e-01
3.04480000000000e-08,6.00000000000000e-01,0.00000000000000e+00,5.99831849091481e-01
3.07040000000000e-08,6.00000000000000e-01,0.00000000000000e+00,5.99820744347526e-01
3.12160000000000e-08,6.00000000000000e-01,0.00000000000000e+00,5.99829055271020e-01
3.22400000000000e-08,6.00000000000000e-01,0.00000000000000e+00,5.99970515623366e-01
3.34065661672529e-08,6.00000000000000e-01,0.00000000000000e+00,5.99925820812513e-01
3.51000000000000e-08,5.99999999999970e-01,0.00000000000000e+00,5.99888927914955e-01
3.51100000000000e-08,5.39999999999982e-01,0.00000000000000e+00,5.99716446843116e-01
3.51300000000000e-08,4.19999999999965e-01,0.00000000000000e+00,5.99323295017102e-01
3.51700000000000e-08,1.79999999999970e-01,0.00000000000000e+00,5.98818511728903e-01
3.52000000000000e-08,0.00000000000000e+00,0.00000000000000e+00,5.99271577595627e-01
3.52080000000000e-08,0.00000000000000e+00,0.00000000000000e+00,5.99659129588852e-01
3.52240000000000e-08,0.00000000000000e+00,0.00000000000000e+00,6.00463333848022e-01
3.52560000000000e-08,0.00000000000000e+00,0.00000000000000e+00,6.01901161587328e-01
3.53200000000000e-08,0.00000000000000e+00,0.00000000000000e+00,6.03862830890212e-01
3.54480000000000e-08,0.00000000000000e+00,0.00000000000000e+00,6.05574430885143e-01
3.57040000000000e-08,0.00000000000000e+00,0.00000000000000e+00,6.04373393373600e-01
3.62160000000000e-08,0.00000000000000e+00,0.00000000000000e+00,5.93678947578207e-01
3.72400000000000e-08,0.00000000000000e+00,0.00000000000000e+00,5.85412771158882e-01
3.86730127100571e-08,0.00000000000000e+00,0.00000000000000e+00,6.00740515471730e-01
3.91000000000000e-08,0.00000000000000e+00,0.00000000000000e+00,5.98816370150359e-01
3.92928096528239e-08,0.00000000000000e+00,0.00000000000000e+00,5.98972592357940e-01
3.96784289584718e-08,0.00000000000000e+00,0.00000000000000e+00,5.99182509216249e-01
4.04496675697675e-08,0.00000000000000e+00,0.00000000000000e+00,5.99369838930644e-01
4.19921447923590e-08,0.00000000000000e+00,0.00000000000000e+00,5.99514352183324e-01
4.50000000000000e-08,0.00000000000000e+00,0.00000000000000e+00,5.99699926950764e-01
4.50100000000000e-08,5.99999999999886e-02,0.00000000000000e+00,5.99945920171545e-01
4.50300000000000e-08,1.80000000000006e-01,0.00000000000000e+00,6.00427806197956e-01
4.50700000000000e-08,4.20000000000000e-01,0.00000000000000e+00,6.01149451808041e-01
4.51000000000000e-08,6.00000000000000e-01,0.00000000000000e+00,6.01158113888132e-01
4.51080000000000e-08,6.00000000000000e-01,0.00000000000000e+00,6.00954595313123e-01
4.51240000000000e-08,6.00000000000000e-01,0.00000000000000e+00,6.00555939421975e-01
4.51560000000000e-08,6.00000000000000e-01,0.00000000000000e+00,5.99854867358956e-01
4.52200000000000e-08,6.00000000000000e-01,0.00000000000000e+00,5.98920628551933e-01
4.53480000000000e-08,6.00000000000000e-01,0.00000000000000e+00,5.98081186286157e-01
4.56040000000000e-08,6.00000000000000e-01,0.00000000000000e+00,6.00182365771461e-01
4.61160000000000e-08,6.00000000000000e-01,0.00000000000000e+00,6.20183409232851e-01
4.71400000000000e-08,6.00000000000000e-01,0.00000000000000e+00,1.65129687626262e-01
4.87146764055055e-08,6.00000000000000e-01,0.00000000000000e+00,-6.43301553872897e-02
5.00000000000000e-08,6.00000000000000e-01,0.00000000000000e+00,5.31519240026814e-02
5.00100000000000e-08,6.00000000000000e-01,5.99999999999886e-02,4.94884801001923e-02
5.00300000000000e-08,6.00000000000000e-01,1.79999999999966e-01,4.25814422459469e-02
5.00700000000000e-08,6.00000000000000e-01,4.20000000000000e-01,3.12609339087624e-02
5.01000000000000e-08,6.00000000000000e-01,6.00000000000000e-01,2.47252836137463e-02
5.01080000000000e-08,6.00000000000000e-01,6.00000000000000e-01,2.32628745957284e-02
5.01240000000000e-08,6.00000000000000e-01,6.00000000000000e-01,2.05174913361550e-02
5.01560000000000e-08,6.00000000000000e-01,6.00000000000000e-01,1.59412621868537e-02
5.02200000000000e-08,6.00000000000000e-01,6.00000000000000e-01,9.61864822786726e-03
5.03480000000000e-08,6.00000000000000e-01,6.00000000000000e-01,3.35582653026167e-03
5.06040000000000e-08,6.00000000000000e-01,6.00000000000000e-01,2.01563700003619e-04
5.11160000000001e-08,6.00000000000000e-01,6.00000000000000e-01,1.64596609725925e-05
5.21030945331056e-08,6.00000000000000e-01,6.00000000000000e-01,8.30730604479968e-06
5.40772835993168e-08,6.00000000000000e-01,6.00000000000000e-01,2.70617739222614e-05
5.51000000000000e-08,6.00000000000000e-01,6.00000000000000e-01,8.59902415810410e-06
5.51100000000000e-08,5.40000000000021e-01,6.00000000000000e-01,-1.67241570013910e-04
5.51300000000000e-08,4.20000000000004e-01,6.00000000000000e-01,-6.44874922797009e-04
5.51700000000000e-08,1.80000000000010e-01,6.00000000000000e-01,-1.76474539104950e-03
5.52000000000000e-08,0.00000000000000e+00,6.00000000000000e-01,-2.12192792146237e-03
5.52080000000000e-08,0.00000000000000e+00,6.00000000000000e-01,-1.81700049769008e-03
5.52240000000000e-08,0.00000000000000e+00,6.00000000000000e-01,-1.26462761803114e-03
5.52560000000000e-08,0.00000000000000e+00,6.00000000000000e-01,-2.99881708144711e-04
5.53200000000000e-08,0.00000000000000e+00,6.00000000000000e-01,7.50197554250889e-04
5.54480000000000e-08,0.00000000000000e+00,6.00000000000000e-01,1.14563350018593e-03
5.57040000000000e-08,0.00000000000000e+00,6.00000000000000e-01,2.90200475544358e-04
5.62160000000000e-08,0.00000000000000e+00,6.00000000000000e-01,-1.28745626485809e-03
5.72400000000000e-08,0.00000000000000e+00,6.00000000000000e-01,2.56432390790814e-04
5.86392947108353e-08,0.00000000000000e+00,6.00000000000000e-01,-2.51882316834252e-04
6.09002774776018e-08,0.00000000000000e+00,6.00000000000000e-01,2.75067139148337e-04
6.39858411318724e-08,0.00000000000000e+00,6.00000000000000e-01,-1.09054480342030e-04
6.50000000000000e-08,0.00000000000000e+00,6.00000000000000e-01,-6.39932115069040e-05
6.50100000000000e-08,5.99999999999886e-02,6.00000000000000e-01,4.82462992256266e-04
6.50300000000000e-08,1.79999999999966e-01,6.00000000000000e-01,1.48786076439247e-03
6.50700000000000e-08,4.19999999999920e-01,6.00000000000000e-01,2.92648107214079e-03
6.51000000000000e-08,5.99999999999966e-01,6.00000000000000e-01,3.08751854148751e-03
6.51080000000000e-08,6.00000000000000e-01,6.00000000000000e-01,2.76145679492013e-03
6.51240000000000e-08,6.00000000000000e-01,6.00000000000000e-01,2.08803192076885e-03
6.51560000000000e-08,6.00000000000000e-01,6.00000000000000e-01,5.61244011059364e-04
6.52200000000000e-08,6.00000000000000e-01,6.00000000000000e-01,-2.82600044730767e-03
6.53480000000000e-08,6.00000000000000e-01,6.00000000000000e-01,-7.87332263602951e-03
6.56040000000000e-08,6.00000000000000e-01,6.00000000000000e-01,-5.48724010522365e-03
6.61159999999999e-08,6.00000000000000e-01,6.00000000000000e-01,1.49337281177432e-01
6.71399999999999e-08,6.00000000000000e-01,6.00000000000000e-01,5.50007980308247e-01
6.90029907483164e-08,6.00000000000000e-01,6.00000000000000e-01,6.15967659405713e-01
7.01000000000000e-08,6.00000000000000e-01,6.00000000000000e-01,5.92662834707657e-01
7.01100000000000e-08,6.00000000000000e-01,5.40000000000011e-01,5.92904937301977e-01
7.01300000000000e-08,6.00000000000000e-01,4.20000000000034e-01,5.93376340332311e-01
7.01700000000000e-08,6.00000000000000e-01,1.80000000000080e-01,5.94282066515061e-01
7.02000000000000e-08,6.00000000000000e-01,3.44169137633799e-14,5.94973199804391e-01
7.02080000000000e-08,6.00000000000000e-01,0.00000000000000e+00,5.95139990659955e-01
7.02240000000000e-08,6.00000000000000e-01,0.00000000000000e+00,5.95451041322636e-01
7.02560000000000e-08,6.00000000000000e-01,0.00000000000000e+00,5.96000466647830e-01
7.03200000000000e-08,6.00000000000000e-01,0.00000000000000e+00,5.96977471665532e-01
7.04480000000000e-08,6.00000000000000e-01,0.00000000000000e+00,5.98205757174634e-01
7.07040000000000e-08,6.00000000000000e-01,0.00000000000000e+00,5.99372129131920e-01
7.12159999999999e-08,6.00000000000000e-01,0.00000000000000e+00,5.99913968884243e-01
7.22399999999999e-08,6.00000000000000e-01,0.00000000000000e+00,6.00048594641388e-01
7.34034030245953e-08,6.00000000000000e-01,0.00000000000000e+00,5.99996795459097e-01
7.51000000000000e-08,6.00000000000000e-01,0.00000000000000e+00,5.99950549569901e-01
7.51100000000000e-08,5.40000000000061e-01,0.00000000000000e+00,5.99784148014901e-01
7.51300000000000e-08,4.20000000000084e-01,0.00000000000000e+00,5.99399743636822e-01
7.51700000000000e-08,1.80000000000129e-01,0.00000000000000e+00,5.98859752797279e-01
7.52000000000000e-08,8.40438829641244e-14,0.00000000000000e+00,5.99296547499119e-01
7.52080000000000e-08,0.00000000000000e+00,0.00000000000000e+00,5.99694884982761e-01
7.52240000000000e-08,0.00000000000000e+00,0.00000000000000e+00,6.00503496800279e-01
7.52560000000000e-08,0.00000000000000e+00,0.00000000000000e+00,6.01936467104920e-01
7.53200000000000e-08,0.00000000000000e+00,0.00000000000000e+00,6.03958447079903e-01
7.54480000000000e-08,0.00000000000000e+00,0.00000000000000e+00,6.05922332253586e-01
7.57040000000000e-08,0.00000000000000e+00,0.00000000000000e+00,6.06403805848462e-01
7.62159999999999e-08,0.00000000000000e+00,0.00000000000000e+00,5.97859255414166e-01
7.72399999999999e-08,0.00000000000000e+00,0.00000000000000e+00,5.85754684123844e-01
7.81000000000000e-08,0.00000000000000e+00,0.00000000000000e+00,5.96789792001426e-01
7.82434200558266e-08,0.00000000000000e+00,0.00000000000000e+00,5.97147566922255e-01
7.85302601674798e-08,0.00000000000000e+00,0.00000000000000e+00,5.97805459259137e-01
7.91039403907863e-08,0.00000000000000e+00,0.00000000000000e+00,5.98609145770302e-01
8.02513008373992e-08,0.00000000000000e+00,0.00000000000000e+00,5.99182803491881e-01
8.25460217306250e-08,0.00000000000000e+00,0.00000000000000e+00,5.99504285952318e-01
8.50000000000000e-08,0.00000000000000e+00,0.00000000000000e+00,5.99674473440565e-01
8.50100000000000e-08,5.99999999999886e-02,0.00000000000000e+00,5.99934064317832e-01
8.50300000000000e-08,1.79999999999966e-01,0.00000000000000e+00,6.00435759687038e-01
8.50700000000000e-08,4.19999999999920e-01,0.00000000000000e+00,6.01110643678620e-01
8.51000000000000e-08,5.99999999999966e-01,0.00000000000000e+00,6.01106746622043e-01
8.51080000000000e-08,6.00000000000000e-01,0.00000000000000e+00,6.00916718786752e-01
8.51240000000000e-08,6.00000000000000e-01,0.00000000000000e+00,6.00505783894063e-01
8.51560000000000e-08,6.00000000000000e-01,0.00000000000000e+00,5.99768770031363e-01
8.52200000000000e-08,6.00000000000000e-01,0.00000000000000e+00,5.98844589240767e-01
8.53480000000000e-08,6.00000000000000e-01,0.00000000000000e+00,5.98045443931099e-01
8.56040000000000e-08,6.00000000000000e-01,0.00000000000000e+00,6.00151286332132e-01
8.61159999999999e-08,6.00000000000000e-01,0.00000000000000e+00,6.20201524090109e-01
8.71399999999999e-08,6.00000000000000e-01,0.00000000000000e+00,1.64958968945224e-01
8.87126971587070e-08,6.00000000000000e-01,0.00000000000000e+00,-6.42803616789256e-02
9.00000000000000e-08,6.00000000000000e-01,0.00000000000000e+00,5.31355787800742e-02
9.00100000000000e-08,6.00000000000000e-01,5.99999999999886e-02,4.94708173114423e-02
9.00300000000000e-08,6.00000000000000e-01,1.79999999999966e-01,4.25631477083666e-02
9.00700000000000e-08,6.00000000000000e-01,4.19999999999920e-01,3.12463889365090e-02
9.01000000000000e-08,6.00000000000000e-01,5.99999999999966e-01,2.47138550332122e-02
9.01080000000000e-08,6.00000000000000e-01,6.00000000000000e-01,2.32521277121396e-02
9.01240000000000e-08,6.00000000000000e-01,6.00000000000000e-01,2.05080282597770e-02
9.01560000000000e-08,6.00000000000000e-01,6.00000000000000e-01,1.59339336130827e-02
9.02200000000000e-08,6.00000000000000e-01,6.00000000000000e-01,9.61427791673432e-03
9.03480000000000e-08,6.00000000000000e-01,6.00000000000000e-01,3.35438550206470e-03
9.06040000000000e-08,6.00000000000000e-01,6.00000000000000e-01,2.01535138163483e-04
9.11159999999999e-08,6.00000000000000e-01,6.00000000000000e-01,1.64501875288894e-05
9.21032328743588e-08,6.00000000000000e-01,6.00000000000000e-01,8.31377176316317e-06
9.40776986230766e-08,6.00000000000000e-01,6.00000000000000e-01,2.70524852481174e-05
9.51000000000000e-08,6.00000000000000e-01,6.00000000000000e-01,8.60276870262577e-06
9.51100000000000e-08,5.40000000000061e-01,6.00000000000000e-01,-1.67239759713958e-04
9.51300000000000e-08,4.20000000000084e-01,6.00000000000000e-01,-6.44877094577237e-04
9.51700000000000e-08,1.80000000000129e-01,6.00000000000000e-01,-1.76474823423446e-03
9.52000000000000e-08,8.40438829641244e-14,6.00000000000000e-01,-2.12193077941183e-03
9.52080000000000e-08,0.00000000000000e+00,6.00000000000000e-01,-1.81700294635755e-03
9.52240000000000e-08,0.00000000000000e+00,6.00000000000000e-01,-1.26462872433350e-03
9.52560000000000e-08,0.00000000000000e+00,6.00000000000000e-01,-2.99882683898203e-04
9.53200000000000e-08,0.00000000000000e+00,6.00000000000000e-01,7.50194286240818e-04
9.54480000000000e-08,0.00000000000000e+00,6.00000000000000e-01,1.14561158503203e-03
9.57040000000000e-08,0.00000000000000e+00,6.00000000000000e-01,2.89951876189916e-04
9.62159999999999e-08,0.00000000000000e+00,6.00000000000000e-01,-1.29029002087229e-03
9.72399999999999e-08,0.00000000000000e+00,6.00000000000000e-01,2.57533057354205e-04
9.86378693535594e-08,0.00000000000000e+00,6.00000000000000e-01,-2.52387342311026e-04
1.00899555461790e-07,0.00000000000000e+00,6.00000000000000e-01,2.75203552145418e-04
1.03982422917543e-07,0.00000000000000e+00,6.00000000000000e-01,-1.08782754167177e-04
1.05000000000000e-07,0.00000000000000e+00,6.00000000000000e-01,-6.40617107385763e-05
1.05010000000000e-07,5.99999999999886e-02,6.00000000000000e-01,4.82533728790355e-04
1.05030000000000e-07,1.79999999999966e-01,6.00000000000000e-01,1.48814922559590e-03
1.05070000000000e-07,4.19999999999920e-01,6.00000000000000e-01,2.92688859406387e-03
1.05100000000000e-07,5.99999999999966e-01,6.00000000000000e-01,3.08799064692375e-03
1.05108000000000e-07,6.00000000000000e-01,6.00000000000000e-01,2.76200392771467e-03
1.05124000000000e-07,6.00000000000000e-01,6.00000000000000e-01,2.08883253961707e-03
1.05156000000000e-07,6.00000000000000e-01,6.00000000000000e-01,5.62742165873362e-04
1.05220000000000e-07,6.00000000000000e-01,6.00000000000000e-01,-2.82400213950365e-03
1.05348000000000e-07,6.00000000000000e-01,6.00000000000000e-01,-7.87235838402910e-03
1.05604000000000e-07,6.00000000000000e-01,6.00000000000000e-01,-5.48930394593931e-03
1.06116000000000e-07,6.00000000000000e-01,6.00000000000000e-01,1.49320747035201e-01
1.07140000000000e-07,6.00000000000000e-01,6.00000000000000e-01,5.50000351013147e-01
1.09003130417878e-07,6.00000000000000e-01,6.00000000000000e-01,6.15971464204716e-01
1.10100000000000e-07,6.00000000000000e-01,6.00000000000000e-01,5.92661429990525e-01
1.10110000000000e-07,6.00000000000000e-01,5.40000000000091e-01,5.92903645994669e-01
1.10130000000000e-07,6.00000000000000e-01,4.20000000000114e-01,5.93375254097967e-01
1.10170000000000e-07,6.00000000000000e-01,1.80000000000159e-01,5.94281300935599e-01
1.10200000000000e-07,6.00000000000000e-01,1.13686837721616e-13,5.94972613686941e-01
1.10208000000000e-07,6.00000000000000e-01,0.00000000000000e+00,5.95139445848641e-01
1.10224000000000e-07,6.00000000000000e-01,0.00000000000000e+00,5.95450577406955e-01
1.10256000000000e-07,6.00000000000000e-01,0.00000000000000e+00,5.96000137559559e-01
1.10320000000000e-07,6.00000000000000e-01,0.00000000000000e+00,5.96977335846769e-01
