Time,v(clk),v(data),v(out),v(reset)
1.00000000000000e-08,6.00000000000000e-01,0.00000000000000e+00,-3.16231856819504e-05,0.00000000000000e+00
1.00100000000000e-08,6.00000000000000e-01,5.99999999999986e-02,-1.88740144173305e-05,0.00000000000000e+00
1.00300000000000e-08,6.00000000000000e-01,1.79999999999996e-01,-1.24448868357718e-06,0.00000000000000e+00
1.00700000000000e-08,6.00000000000000e-01,4.19999999999990e-01,5.08730019792292e-06,0.00000000000000e+00
1.01000000000000e-08,6.00000000000000e-01,5.99999999999995e-01,-5.61600576637344e-06,0.00000000000000e+00
1.01080000000000e-08,6.00000000000000e-01,6.00000000000000e-01,-8.71578059319367e-06,0.00000000000000e+00
1.01240000000000e-08,6.00000000000000e-01,6.00000000000000e-01,-9.55223512842662e-06,0.00000000000000e+00
1.01560000000000e-08,6.00000000000000e-01,6.00000000000000e-01,1.07237486432488e-06,0.00000000000000e+00
1.02200000000000e-08,6.00000000000000e-01,6.00000000000000e-01,1.68882249736158e-05,0.00000000000000e+00
1.03480000000000e-08,6.00000000000000e-01,6.00000000000000e-01,2.25706532213932e-05,0.00000000000000e+00
1.06040000000000e-08,6.00000000000000e-01,6.00000000000000e-01,1.66063872530098e-05,0.00000000000000e+00
1.11160000000000e-08,6.00000000000000e-01,6.00000000000000e-01,1.93949283870502e-05,0.00000000000000e+00
1.21400000000000e-08,6.00000000000000e-01,6.00000000000000e-01,1.70455189451649e-05,0.00000000000000e+00
1.41880000000000e-08,6.00000000000000e-01,6.00000000000000e-01,1.77919171299099e-05,0.00000000000000e+00
1.51000000000000e-08,6.00000000000000e-01,6.00000000000000e-01,1.61462693393268e-05,0.00000000000000e+00
1.51100000000000e-08,5.39999999999992e-01,6.00000000000000e-01,9.30632998160832e-04,6.00000000000085e-02
1.51300000000000e-08,4.19999999999994e-01,6.00000000000000e-01,2.13335712234114e-03,1.80000000000006e-01
1.51700000000000e-08,1.80000000000000e-01,6.00000000000000e-01,2.39770492893804e-03,4.20000000000000e-01
1.52000000000000e-08,0.00000000000000e+00,6.00000000000000e-01,1.39669040842691e-03,6.00000000000000e-01
1.52080000000000e-08,0.00000000000000e+00,6.00000000000000e-01,1.04510294641558e-03,6.00000000000000e-01
1.52240000000000e-08,0.00000000000000e+00,6.00000000000000e-01,5.01025616054820e-04,6.00000000000000e-01
1.52560000000000e-08,0.00000000000000e+00,6.00000000000000e-01,2.65190468780596e-05,6.00000000000000e-01
1.53200000000000e-08,0.00000000000000e+00,6.00000000000000e-01,-7.25471389599053e-05,6.00000000000000e-01
1.54480000000000e-08,0.00000000000000e+00,6.00000000000000e-01,-1.90984844828629e-04,6.00000000000000e-01
1.57040000000000e-08,0.00000000000000e+00,6.00000000000000e-01,-8.36511260510493e-04,6.00000000000000e-01
1.61471883518166e-08,0.00000000000000e+00,6.00000000000000e-01,4.25168981781757e-04,6.00000000000000e-01
1.68809732064523e-08,0.00000000000000e+00,6.00000000000000e-01,-4.36818236867875e-04,6.00000000000000e-01
1.77093455869606e-08,0.00000000000000e+00,6.00000000000000e-01,4.43268886589489e-04,6.00000000000000e-01
1.91918901686951e-08,0.00000000000000e+00,6.00000000000000e-01,-3.43508439837872e-04,6.00000000000000e-01
2.07025302389591e-08,0.00000000000000e+00,6.00000000000000e-01,3.05792254176866e-04,6.00000000000000e-01
2.37238103794871e-08,0.00000000000000e+00,6.00000000000000e-01,-2.45808105725039e-04,6.00000000000000e-01
2.50000000000000e-08,0.00000000000000e+00,6.00000000000000e-01,2.08928480586311e-04,6.00000000000000e-01
2.50100000000000e-08,5.99999999999886e-02,6.00000000000000e-01,5.36481338437936e-04,6.00000000000000e-01
2.50300000000000e-08,1.80000000000006e-01,6.00000000000000e-01,1.10322259454806e-03,6.00000000000000e-01
2.50700000000000e-08,4.20000000000000e-01,6.00000000000000e-01,1.82444271522568e-03,6.00000000000000e-01
2.51000000000000e-08,6.00000000000000e-01,6.00000000000000e-01,1.71594378596183e-03,6.00000000000000e-01
2.51080000000000e-08,6.00000000000000e-01,6.00000000000000e-01,1.39227915909154e-03,6.00000000000000e-01
2.51240000000000e-08,6.00000000000000e-01,6.00000000000000e-01,6.85322155989349e-04,6.00000000000000e-01
2.51560000000000e-08,6.00000000000000e-01,6.00000000000000e-01,-8.73898395950229e-04,6.00000000000000e-01
2.52200000000000e-08,6.00000000000000e-01,6.00000000000000e-01,-3.39303994854480e-03,6.00000000000000e-01
2.53480000000000e-08,6.00000000000000e-01,6.00000000000000e-01,-5.32592753656079e-03,6.00000000000000e-01
2.56040000000000e-08,6.00000000000000e-01,6.00000000000000e-01,4.58850706882799e-02,6.00000000000000e-01
2.61160000000000e-08,6.00000000000000e-01,6.00000000000000e-01,4.92054209909366e-01,6.00000000000000e-01
2.70143053689741e-08,6.00000000000000e-01,6.00000000000000e-01,6.20970770287362e-01,6.00000000000000e-01
2.79279335182063e-08,6.00000000000000e-01,6.00000000000000e-01,5.81165176010926e-01,6.00000000000000e-01
2.97551898166706e-08,6.00000000000000e-01,6.00000000000000e-01,6.16707130967689e-01,6.00000000000000e-01
3.19051792688445e-08,6.00000000000000e-01,6.00000000000000e-01,5.83709307631425e-01,6.00000000000000e-01
3.51000000000000e-08,5.99999999999970e-01,6.00000000000000e-01,6.14979853255407e-01,6.00000000000000e-01
3.51100000000000e-08,5.39999999999982e-01,6.00000000000000e-01,6.11337888260519e-01,6.00000000000000e-01
3.51300000000000e-08,4.19999999999965e-01,6.00000000000000e-01,6.05727753739118e-01,6.00000000000000e-01
3.51700000000000e-08,1.79999999999970e-01,6.00000000000000e-01,6.01667010831517e-01,6.00000000000000e-01
3.52000000000000e-08,0.00000000000000e+00,6.00000000000000e-01,6.03033177524333e-01,6.00000000000000e-01
3.52080000000000e-08,0.00000000000000e+00,6.00000000000000e-01,6.03787595592685e-01,6.00000000000000e-01
3.52240000000000e-08,0.00000000000000e+00,6.00000000000000e-01,6.04960098530233e-01,6.00000000000000e-01
3.52560000000000e-08,0.00000000000000e+00,6.00000000000000e-01,6.06126330219728e-01,6.00000000000000e-01
3.53200000000000e-08,0.00000000000000e+00,6.00000000000000e-01,6.06374185356547e-01,6.00000000000000e-01
3.54480000000000e-08,0.00000000000000e+00,6.00000000000000e-01,5.98788138342228e-01,6.00000000000000e-01
3.57040000000000e-08,0.00000000000000e+00,6.00000000000000e-01,5.85635154312966e-01,6.00000000000000e-01
3.62160000000000e-08,0.00000000000000e+00,6.00000000000000e-01,5.99402296015828e-01,6.00000000000000e-01
3.70242079684795e-08,0.00000000000000e+00,6.00000000000000e-01,5.99575458628426e-01,6.00000000000000e-01
3.80156752326581e-08,0.00000000000000e+00,6.00000000000000e-01,5.99859893450855e-01,6.00000000000000e-01
3.99986097610152e-08,0.00000000000000e+00,6.00000000000000e-01,5.99672022135985e-01,6.00000000000000e-01
4.37986097610152e-08,0.00000000000000e+00,6.00000000000000e-01,5.99996925170857e-01,6.00000000000000e-01
4.50000000000000e-08,0.00000000000000e+00,6.00000000000000e-01,5.99727700586311e-01,6.00000000000000e-01
4.50100000000000e-08,5.99999999999886e-02,6.00000000000000e-01,5.99601912717812e-01,5.40000000000011e-01
4.50300000000000e-08,1.80000000000006e-01,6.00000000000000e-01,5.99328016425550e-01,4.19999999999994e-01
4.50700000000000e-08,4.20000000000000e-01,6.00000000000000e-01,6.00865270948506e-01,1.80000000000000e-01
4.51000000000000e-08,6.00000000000000e-01,6.00000000000000e-01,6.06737403718484e-01,0.00000000000000e+00
4.51080000000000e-08,6.00000000000000e-01,6.00000000000000e-01,6.09180463729671e-01,0.00000000000000e+00
4.51240000000000e-08,6.00000000000000e-01,6.00000000000000e-01,6.13422625380190e-01,0.00000000000000e+00
4.51560000000000e-08,6.00000000000000e-01,6.00000000000000e-01,6.19690078602790e-01,0.00000000000000e+00
4.52200000000000e-08,6.00000000000000e-01,6.00000000000000e-01,6.31274259985269e-01,0.00000000000000e+00
4.53480000000000e-08,6.00000000000000e-01,6.00000000000000e-01,6.10457966855078e-01,0.00000000000000e+00
4.56040000000000e-08,6.00000000000000e-01,6.00000000000000e-01,2.49703662234062e-01,0.00000000000000e+00
4.60318019181650e-08,6.00000000000000e-01,6.00000000000000e-01,-2.75446958380078e-02,0.00000000000000e+00
4.66280045501784e-08,6.00000000000000e-01,6.00000000000000e-01,1.66917833948347e-02,0.00000000000000e+00
4.76495305333023e-08,6.00000000000000e-01,6.00000000000000e-01,-1.19932257338306e-02,0.00000000000000e+00
4.89041049491091e-08,6.00000000000000e-01,6.00000000000000e-01,9.91239429492092e-03,0.00000000000000e+00
5.01000000000000e-08,6.00000000000000e-01,5.99999999999966e-01,-7.85654070681137e-03,0.00000000000000e+00
5.03509148831614e-08,6.00000000000000e-01,6.00000000000000e-01,-1.27912198504766e-03,0.00000000000000e+00
5.08527446494841e-08,6.00000000000000e-01,6.00000000000000e-01,6.69533751815700e-04,0.00000000000000e+00
5.18564041821295e-08,6.00000000000000e-01,6.00000000000000e-01,-4.72061661705866e-04,0.00000000000000e+00
5.38637232474204e-08,6.00000000000000e-01,6.00000000000000e-01,4.37690069630051e-04,0.00000000000000e+00
5.51000000000000e-08,6.00000000000000e-01,6.00000000000000e-01,-3.27926319440300e-04,0.00000000000000e+00
5.51100000000000e-08,5.40000000000021e-01,6.00000000000000e-01,6.69922350557198e-04,5.99999999999787e-02
5.51300000000000e-08,4.20000000000004e-01,6.00000000000000e-01,1.97572512580647e-03,1.79999999999996e-01
5.51700000000000e-08,1.80000000000010e-01,6.00000000000000e-01,2.30056237635794e-03,4.19999999999990e-01
5.52000000000000e-08,0.00000000000000e+00,6.00000000000000e-01,1.31931587847688e-03,6.00000000000000e-01
5.52080000000000e-08,0.00000000000000e+00,6.00000000000000e-01,9.69994041682742e-04,6.00000000000000e-01
5.52240000000000e-08,0.00000000000000e+00,6.00000000000000e-01,4.33823545994041e-04,6.00000000000000e-01
5.52560000000000e-08,0.00000000000000e+00,6.00000000000000e-01,-2.78162301562551e-05,6.00000000000000e-01
5.53200000000000e-08,0.00000000000000e+00,6.00000000000000e-01,-1.43951264497524e-04,6.00000000000000e-01
5.54480000000000e-08,0.00000000000000e+00,6.00000000000000e-01,-7.92417068985876e-04,6.00000000000000e-01
5.57040000000000e-08,0.00000000000000e+00,6.00000000000000e-01,-1.26678958726180e-03,6.00000000000000e-01
5.60994386329503e-08,0.00000000000000e+00,6.00000000000000e-01,6.91364761140081e-04,6.00000000000000e-01
5.68592539960705e-08,0.00000000000000e+00,6.00000000000000e-01,-6.30008351015347e-04,6.00000000000000e-01
5.76827356765480e-08,0.00000000000000e+00,6.00000000000000e-01,4.97704616532684e-04,6.00000000000000e-01
5.93296990375028e-08,0.00000000000000e+00,6.00000000000000e-01,-3.68758038734266e-04,6.00000000000000e-01
6.08684011669066e-08,0.00000000000000e+00,6.00000000000000e-01,3.14125224405066e-04,6.00000000000000e-01
6.39458054257141e-08,0.00000000000000e+00,6.00000000000000e-01,-2.48769193917489e-04,6.00000000000000e-01
6.50000000000000e-08,0.00000000000000e+00,6.00000000000000e-01,1.93388725887717e-04,6.00000000000000e-01
6.50100000000000e-08,5.99999999999886e-02,6.00000000000000e-01,5.05260253340231e-04,6.00000000000000e-01
6.50300000000000e-08,1.79999999999966e-01,6.00000000000000e-01,1.06467825888910e-03,6.00000000000000e-01
6.50700000000000e-08,4.19999999999920e-01,6.00000000000000e-01,1.79305259650733e-03,6.00000000000000e-01
6.51000000000000e-08,5.99999999999966e-01,6.00000000000000e-01,1.67964792984057e-03,6.00000000000000e-01
6.51080000000000e-08,6.00000000000000e-01,6.00000000000000e-01,1.35435225172748e-03,6.00000000000000e-01
6.51240000000000e-08,6.00000000000000e-01,6.00000000000000e-01,6.44728485189608e-04,6.00000000000000e-01
6.51560000000000e-08,6.00000000000000e-01,6.00000000000000e-01,-9.13168149947782e-04,6.00000000000000e-01
6.52200000000000e-08,6.00000000000000e-01,6.00000000000000e-01,-3.41913832515396e-03,6.00000000000000e-01
6.53480000000000e-08,6.00000000000000e-01,6.00000000000000e-01,-5.31036672457919e-03,6.00000000000000e-01
6.56040000000000e-08,6.00000000000000e-01,6.00000000000000e-01,4.67217401023674e-02,6.00000000000000e-01
6.61159999999999e-08,6.00000000000000e-01,6.00000000000000e-01,4.92869503460164e-01,6.00000000000000e-01
6.70159534863690e-08,6.00000000000000e-01,6.00000000000000e-01,6.20897261185077e-01,6.00000000000000e-01
6.79309667249812e-08,6.00000000000000e-01,6.00000000000000e-01,5.81219173327099e-01,6.00000000000000e-01
6.97609932022057e-08,6.00000000000000e-01,6.00000000000000e-01,6.16654610070417e-01,6.00000000000000e-01
7.19150332778688e-08,6.00000000000000e-01,6.00000000000000e-01,5.83756714361811e-01,6.00000000000000e-01
7.51000000000000e-08,6.00000000000000e-01,6.00000000000000e-01,6.14931516449062e-01,6.00000000000000e-01
7.51100000000000e-08,5.40000000000061e-01,6.00000000000000e-01,6.11302042483548e-01,6.00000000000000e-01
7.51300000000000e-08,4.20000000000084e-01,6.00000000000000e-01,6.05709896425806e-01,6.00000000000000e-01
7.51700000000000e-08,1.80000000000129e-01,6.00000000000000e-01,6.01663856825275e-01,6.00000000000000e-01
7.52000000000000e-08,8.40438829641244e-14,6.00000000000000e-01,6.03015107503000e-01,6.00000000000000e-01
7.52080000000000e-08,0.00000000000000e+00,6.00000000000000e-01,6.03774532107023e-01,6.00000000000000e-01
7.52240000000000e-08,0.00000000000000e+00,6.00000000000000e-01,6.04959107177520e-01,6.00000000000000e-01
7.52560000000000e-08,0.00000000000000e+00,6.00000000000000e-01,6.06143195406024e-01,6.00000000000000e-01
7.53200000000000e-08,0.00000000000000e+00,6.00000000000000e-01,6.06375038785732e-01,6.00000000000000e-01
7.54480000000000e-08,0.00000000000000e+00,6.00000000000000e-01,5.98790763228737e-01,6.00000000000000e-01
7.57040000000000e-08,0.00000000000000e+00,6.00000000000000e-01,5.85635905785024e-01,6.00000000000000e-01
7.62159999999999e-08,0.00000000000000e+00,6.00000000000000e-01,5.99401873106318e-01,6.00000000000000e-01
7.70242150122637e-08,0.00000000000000e+00,6.00000000000000e-01,5.99575775427565e-01,6.00000000000000e-01
7.80156791544785e-08,0.00000000000000e+00,6.00000000000000e-01,5.99859731540937e-01,6.00000000000000e-01
7.99986074389081e-08,0.00000000000000e+00,6.00000000000000e-01,5.99672154748317e-01,6.00000000000000e-01
8.37986074389081e-08,0.00000000000000e+00,6.00000000000000e-01,5.99996820736280e-01,6.00000000000000e-01
8.50000000000000e-08,0.00000000000000e+00,6.00000000000000e-01,5.99727747246225e-01,6.00000000000000e-01
8.50100000000000e-08,5.99999999999886e-02,6.00000000000000e-01,5.99602176702027e-01,5.40000000000011e-01
8.50300000000000e-08,1.79999999999966e-01,6.00000000000000e-01,5.99328275273609e-01,4.20000000000034e-01
8.50700000000000e-08,4.19999999999920e-01,6.00000000000000e-01,6.00865658272820e-01,1.80000000000080e-01
8.51000000000000e-08,5.99999999999966e-01,6.00000000000000e-01,6.06737491964762e-01,3.44169137633799e-14
8.51080000000000e-08,6.00000000000000e-01,6.00000000000000e-01,6.09180516528841e-01,0.00000000000000e+00
8.51240000000000e-08,6.00000000000000e-01,6.00000000000000e-01,6.13422627112137e-01,0.00000000000000e+00
8.51560000000000e-08,6.00000000000000e-01,6.00000000000000e-01,6.19690061577917e-01,0.00000000000000e+00
8.52200000000000e-08,6.00000000000000e-01,6.00000000000000e-01,6.31274311873078e-01,0.00000000000000e+00
8.53480000000000e-08,6.00000000000000e-01,6.00000000000000e-01,6.10458174363105e-01,0.00000000000000e+00
8.56040000000000e-08,6.00000000000000e-01,6.00000000000000e-01,2.49703339210912e-01,0.00000000000000e+00
8.60318007891097e-08,6.00000000000000e-01,6.00000000000000e-01,-2.75444129506866e-02,0.00000000000000e+00
8.66280013875921e-08,6.00000000000000e-01,6.00000000000000e-01,1.66919096476868e-02,0.00000000000000e+00
8.76495123164427e-08,6.00000000000000e-01,6.00000000000000e-01,-1.19930300106180e-02,0.00000000000000e+00
8.89040871778927e-08,6.00000000000000e-01,6.00000000000000e-01,9.91249019494752e-03,0.00000000000000e+00
9.01000000000000e-08,6.00000000000000e-01,5.99999999999966e-01,-7.85647810557855e-03,0.00000000000000e+00
9.03509149722900e-08,6.00000000000000e-01,6.00000000000000e-01,-1.27907913767697e-03,0.00000000000000e+00
9.08527449168700e-08,6.00000000000000e-01,6.00000000000000e-01,6.69510977663185e-04,0.00000000000000e+00
9.18564048060299e-08,6.00000000000000e-01,6.00000000000000e-01,-4.72044779979801e-04,0.00000000000000e+00
9.38637245843498e-08,6.00000000000000e-01,6.00000000000000e-01,4.37676020141491e-04,0.00000000000000e+00
9.51000000000000e-08,6.00000000000000e-01,6.00000000000000e-01,-3.27915217805905e-04,0.00000000000000e+00
9.51100000000000e-08,5.40000000000061e-01,6.00000000000000e-01,6.69936078118508e-04,5.99999999999390e-02
9.51300000000000e-08,4.20000000000084e-01,6.00000000000000e-01,1.97573616858948e-03,1.79999999999916e-01
9.51700000000000e-08,1.80000000000129e-01,6.00000000000000e-01,2.30056773949294e-03,4.19999999999871e-01
9.52000000000000e-08,8.40438829641244e-14,6.00000000000000e-01,1.31931881742389e-03,5.99999999999916e-01
9.52080000000000e-08,0.00000000000000e+00,6.00000000000000e-01,9.69996600031844e-04,6.00000000000000e-01
9.52240000000000e-08,0.00000000000000e+00,6.00000000000000e-01,4.33825440981903e-04,6.00000000000000e-01
9.52560000000000e-08,0.00000000000000e+00,6.00000000000000e-01,-2.78151682367861e-05,6.00000000000000e-01
9.53200000000000e-08,0.00000000000000e+00,6.00000000000000e-01,-1.43951010825968e-04,6.00000000000000e-01
9.54480000000000e-08,0.00000000000000e+00,6.00000000000000e-01,-7.92418340767140e-04,6.00000000000000e-01
9.57040000000000e-08,0.00000000000000e+00,6.00000000000000e-01,-1.26678916183014e-03,6.00000000000000e-01
9.60994422507529e-08,0.00000000000000e+00,6.00000000000000e-01,6.91371365518938e-04,6.00000000000000e-01
9.68592553752318e-08,0.00000000000000e+00,6.00000000000000e-01,-6.30027702455745e-04,6.00000000000000e-01
9.76827364529874e-08,0.00000000000000e+00,6.00000000000000e-01,4.97725696347682e-04,6.00000000000000e-01
9.93296986084987e-08,0.00000000000000e+00,6.00000000000000e-01,-3.68771134249853e-04,6.00000000000000e-01
1.00868394582151e-07,0.00000000000000e+00,6.00000000000000e-01,3.14132043281904e-04,6.00000000000000e-01
1.03945786529455e-07,0.00000000000000e+00,6.00000000000000e-01,-2.48773614841941e-04,6.00000000000000e-01
1.05000000000000e-07,0.00000000000000e+00,6.00000000000000e-01,1.93390182058446e-04,6.00000000000000e-01
1.05010000000000e-07,5.99999999999886e-02,6.00000000000000e-01,5.05261887489394e-04,6.00000000000000e-01
1.05030000000000e-07,1.79999999999966e-01,6.00000000000000e-01,1.06468095719713e-03,6.00000000000000e-01
1.05070000000000e-07,4.19999999999920e-01,6.00000000000000e-01,1.79305566890949e-03,6.00000000000000e-01
1.05100000000000e-07,5.99999999999966e-01,6.00000000000000e-01,1.67965314062304e-03,6.00000000000000e-01
1.05108000000000e-07,6.00000000000000e-01,6.00000000000000e-01,1.35435902283959e-03,6.00000000000000e-01
1.05124000000000e-07,6.00000000000000e-01,6.00000000000000e-01,6.44737949111601e-04,6.00000000000000e-01
1.05156000000000e-07,6.00000000000000e-01,6.00000000000000e-01,-9.13156856838820e-04,6.00000000000000e-01
1.05220000000000e-07,6.00000000000000e-01,6.00000000000000e-01,-3.41913050284186e-03,6.00000000000000e-01
1.05348000000000e-07,6.00000000000000e-01,6.00000000000000e-01,-5.31036782781520e-03,6.00000000000000e-01
1.05604000000000e-07,6.00000000000000e-01,6.00000000000000e-01,4.67216295962736e-02,6.00000000000000e-01
1.06116000000000e-07,6.00000000000000e-01,6.00000000000000e-01,4.92869396230184e-01,6.00000000000000e-01
1.07015953265167e-07,6.00000000000000e-01,6.00000000000000e-01,6.20897270946293e-01,6.00000000000000e-01
1.07930966317714e-07,6.00000000000000e-01,6.00000000000000e-01,5.81219166407984e-01,6.00000000000000e-01
1.09760992422807e-07,6.00000000000000e-01,6.00000000000000e-01,6.16654617457412e-01,6.00000000000000e-01
1.11915031957467e-07,6.00000000000000e-01,6.00000000000000e-01,5.83756707883639e-01,6.00000000000000e-01
1.15100000000000e-07,6.00000000000000e-01,6.00000000000000e-01,6.14931523212456e-01,6.00000000000000e-01
1.15110000000000e-07,5.40000000000061e-01,6.00000000000000e-01,6.11302047467591e-01,6.00000000000000e-01
1.15130000000000e-07,4.20000000000084e-01,6.00000000000000e-01,6.05709898885346e-01,6.00000000000000e-01
1.15170000000000e-07,1.80000000000129e-01,6.00000000000000e-01,6.01663857197761e-01,6.00000000000000e-01
