Time,v(clk),v(data),v(out)
1.00000000000000e-08,6.00000000000000e-01,0.00000000000000e+00,-3.32004542943458e-05
1.00100000000000e-08,6.00000000000000e-01,5.99999999999986e-02,-1.91293903323009e-05
1.00300000000000e-08,6.00000000000000e-01,1.79999999999996e-01,1.18825849204640e-06
1.00700000000000e-08,6.00000000000000e-01,4.19999999999990e-01,8.42859414611208e-06
1.01000000000000e-08,6.00000000000000e-01,5.99999999999995e-01,-1.18693156018895e-05
1.01080000000000e-08,6.00000000000000e-01,6.00000000000000e-01,-1.93502238591270e-05
1.01240000000000e-08,6.00000000000000e-01,6.00000000000000e-01,-2.56531787382469e-05
1.01560000000000e-08,6.00000000000000e-01,6.00000000000000e-01,-2.10708223091355e-05
1.02200000000000e-08,6.00000000000000e-01,6.00000000000000e-01,6.74621917939877e-06
1.03480000000000e-08,6.00000000000000e-01,6.00000000000000e-01,2.81914824514923e-05
1.06040000000000e-08,6.00000000000000e-01,6.00000000000000e-01,1.68001705709506e-05
1.11135917431060e-08,6.00000000000000e-01,6.00000000000000e-01,1.58859480346302e-05
1.21327752293180e-08,6.00000000000000e-01,6.00000000000000e-01,1.87443145888387e-05
1.41711422017419e-08,6.00000000000000e-01,6.00000000000000e-01,1.50149028563685e-05
1.51000000000000e-08,6.00000000000000e-01,6.00000000000000e-01,1.75019024882261e-05
1.51100000000000e-08,5.39999999999992e-01,6.00000000000000e-01,-1.10947669686376e-04
1.51300000000000e-08,4.19999999999994e-01,6.00000000000000e-01,-3.73859536823201e-04
1.51700000000000e-08,1.80000000000000e-01,6.00000000000000e-01,-6.79482775064258e-04
1.52000000000000e-08,0.00000000000000e+00,6.00000000000000e-01,-2.67298863588908e-04
1.52080000000000e-08,0.00000000000000e+00,6.00000000000000e-01,1.04688290888125e-04
1.52240000000000e-08,0.00000000000000e+00,6.00000000000000e-01,6.83654791448038e-04
1.52560000000000e-08,0.00000000000000e+00,6.00000000000000e-01,1.18527273064188e-03
1.53200000000000e-08,0.00000000000000e+00,6.00000000000000e-01,1.17374951439758e-03
1.54480000000000e-08,0.00000000000000e+00,6.00000000000000e-01,2.07177342096562e-04
1.57040000000000e-08,0.00000000000000e+00,6.00000000000000e-01,-9.17815644470167e-04
1.62160000000000e-08,0.00000000000000e+00,6.00000000000000e-01,4.60051558147663e-04
1.69231761750332e-08,0.00000000000000e+00,6.00000000000000e-01,-4.16948431026229e-04
1.78110275223580e-08,0.00000000000000e+00,6.00000000000000e-01,4.63874699877652e-04
1.93250779802175e-08,0.00000000000000e+00,6.00000000000000e-01,-3.96828473464277e-04
2.08776824572859e-08,0.00000000000000e+00,6.00000000000000e-01,3.72935393279832e-04
2.39828914114227e-08,0.00000000000000e+00,6.00000000000000e-01,-3.16958858977042e-04
2.50000000000000e-08,0.00000000000000e+00,6.00000000000000e-01,2.64246512400444e-04
2.50100000000000e-08,5.99999999999886e-02,6.00000000000000e-01,5.84663135859684e-04
2.50300000000000e-08,1.80000000000006e-01,6.00000000000000e-01,1.13786067477714e-03
2.50700000000000e-08,4.20000000000000e-01,6.00000000000000e-01,1.84666417766013e-03
2.51000000000000e-08,6.00000000000000e-01,6.00000000000000e-01,1.73537473554068e-03
2.51080000000000e-08,6.00000000000000e-01,6.00000000000000e-01,1.41072326219549e-03
2.51240000000000e-08,6.00000000000000e-01,6.00000000000000e-01,7.01838343006134e-04
2.51560000000000e-08,6.00000000000000e-01,6.00000000000000e-01,-8.61166754371812e-04
2.52200000000000e-08,6.00000000000000e-01,6.00000000000000e-01,-3.38553848118628e-03
2.53480000000000e-08,6.00000000000000e-01,6.00000000000000e-01,-5.33472343950121e-03
2.56040000000000e-08,6.00000000000000e-01,6.00000000000000e-01,4.54811042705652e-02
2.61160000000000e-08,6.00000000000000e-01,6.00000000000000e-01,4.91657555131006e-01
2.70135184425125e-08,6.00000000000000e-01,6.00000000000000e-01,6.21006126468437e-01
2.79264860327276e-08,6.00000000000000e-01,6.00000000000000e-01,5.81139962365728e-01
2.97524212131578e-08,6.00000000000000e-01,6.00000000000000e-01,6.16733332185206e-01
3.19004799909399e-08,6.00000000000000e-01,6.00000000000000e-01,5.83686092561879e-01
3.51000000000000e-08,5.99999999999970e-01,6.00000000000000e-01,6.15003896541254e-01
3.51100000000000e-08,5.39999999999982e-01,6.00000000000000e-01,6.11355758122644e-01
3.51300000000000e-08,4.19999999999965e-01,6.00000000000000e-01,6.05736705844274e-01
3.51700000000000e-08,1.79999999999970e-01,6.00000000000000e-01,6.01667658921962e-01
3.52000000000000e-08,0.00000000000000e+00,6.00000000000000e-01,6.03033208956730e-01
3.52080000000000e-08,0.00000000000000e+00,6.00000000000000e-01,6.03787681036896e-01
3.52240000000000e-08,0.00000000000000e+00,6.00000000000000e-01,6.04960253633318e-01
3.52560000000000e-08,0.00000000000000e+00,6.00000000000000e-01,6.06126068626510e-01
3.53200000000000e-08,0.00000000000000e+00,6.00000000000000e-01,6.06373337707079e-01
3.54480000000000e-08,0.00000000000000e+00,6.00000000000000e-01,5.98786236767998e-01
3.57040000000000e-08,0.00000000000000e+00,6.00000000000000e-01,5.85634382597899e-01
3.62160000000000e-08,0.00000000000000e+00,6.00000000000000e-01,5.99403129403574e-01
3.70242011100527e-08,0.00000000000000e+00,6.00000000000000e-01,5.99574798135890e-01
3.80156669565735e-08,0.00000000000000e+00,6.00000000000000e-01,5.99860363937377e-01
3.99985986496149e-08,0.00000000000000e+00,6.00000000000000e-01,5.99671589075028e-01
4.37985986496149e-08,0.00000000000000e+00,6.00000000000000e-01,5.99997326002086e-01
4.50000000000000e-08,0.00000000000000e+00,6.00000000000000e-01,5.99727371258223e-01
4.50100000000000e-08,5.99999999999886e-02,6.00000000000000e-01,6.00010228325985e-01
4.50300000000000e-08,1.80000000000006e-01,6.00000000000000e-01,6.00501036250008e-01
4.50700000000000e-08,4.20000000000000e-01,6.00000000000000e-01,6.00947390476439e-01
4.51000000000000e-08,6.00000000000000e-01,6.00000000000000e-01,6.00725801103089e-01
4.51080000000000e-08,6.00000000000000e-01,5.52000000000025e-01,6.00440335522461e-01
4.51240000000000e-08,6.00000000000000e-01,4.55999999999996e-01,5.99874553943183e-01
4.51560000000000e-08,6.00000000000000e-01,2.64000000000016e-01,5.98894737029992e-01
4.52000000000000e-08,6.00000000000000e-01,3.44169137633799e-14,5.97928628976124e-01
4.52064000000000e-08,6.00000000000000e-01,0.00000000000000e+00,5.97838259687478e-01
4.52192000000000e-08,6.00000000000000e-01,0.00000000000000e+00,5.97651664792698e-01
4.52448000000000e-08,6.00000000000000e-01,0.00000000000000e+00,5.97299085719759e-01
4.52960000000000e-08,6.00000000000000e-01,0.00000000000000e+00,5.96716152762081e-01
4.53984000000000e-08,6.00000000000000e-01,0.00000000000000e+00,5.95986289626123e-01
4.56032000000000e-08,6.00000000000000e-01,0.00000000000000e+00,5.96386795357848e-01
4.56544000000000e-08,6.00000000000000e-01,0.00000000000000e+00,5.96829515619488e-01
4.57568000000000e-08,6.00000000000000e-01,0.00000000000000e+00,5.97383631068131e-01
4.59616000000000e-08,6.00000000000000e-01,0.00000000000000e+00,5.98089153637386e-01
4.63712000000000e-08,6.00000000000000e-01,0.00000000000000e+00,5.99385135822574e-01
4.71904000000000e-08,6.00000000000000e-01,0.00000000000000e+00,6.00069985302502e-01
4.88288000000000e-08,6.00000000000000e-01,0.00000000000000e+00,5.99976622550166e-01
5.09249974511052e-08,6.00000000000000e-01,0.00000000000000e+00,6.00004454439745e-01
5.47249974511052e-08,6.00000000000000e-01,0.00000000000000e+00,6.00002071975594e-01
5.51000000000000e-08,6.00000000000000e-01,0.00000000000000e+00,5.99978818159090e-01
5.51100000000000e-08,5.40000000000021e-01,0.00000000000000e+00,5.99826449947222e-01
5.51300000000000e-08,4.20000000000004e-01,0.00000000000000e+00,5.99590010464803e-01
5.51700000000000e-08,1.80000000000010e-01,0.00000000000000e+00,6.00141065440955e-01
5.52000000000000e-08,0.00000000000000e+00,0.00000000000000e+00,6.02515858407792e-01
5.52080000000000e-08,0.00000000000000e+00,0.00000000000000e+00,6.03401711365264e-01
5.52240000000000e-08,0.00000000000000e+00,0.00000000000000e+00,6.04797581133242e-01
5.52560000000000e-08,0.00000000000000e+00,0.00000000000000e+00,6.06284390164391e-01
5.53200000000000e-08,0.00000000000000e+00,0.00000000000000e+00,6.07681503280446e-01
5.54480000000000e-08,0.00000000000000e+00,0.00000000000000e+00,6.08745404142460e-01
5.57040000000000e-08,0.00000000000000e+00,0.00000000000000e+00,6.01009557780958e-01
5.62022778084032e-08,0.00000000000000e+00,0.00000000000000e+00,5.99053356951849e-01
5.68133539475494e-08,0.00000000000000e+00,0.00000000000000e+00,5.99964367398537e-01
5.78997478166119e-08,0.00000000000000e+00,0.00000000000000e+00,5.99479670616502e-01
5.91333778134665e-08,0.00000000000000e+00,0.00000000000000e+00,6.00008060814498e-01
6.16006378071757e-08,0.00000000000000e+00,0.00000000000000e+00,5.99634694419360e-01
6.50000000000000e-08,0.00000000000000e+00,0.00000000000000e+00,6.00055772405521e-01
6.50100000000000e-08,5.99999999999886e-02,0.00000000000000e+00,6.00259845222090e-01
6.50300000000000e-08,1.79999999999966e-01,0.00000000000000e+00,6.00537519427633e-01
6.50700000000000e-08,4.19999999999920e-01,0.00000000000000e+00,6.00672823963268e-01
6.51000000000000e-08,5.99999999999966e-01,0.00000000000000e+00,6.00332031926460e-01
6.51080000000000e-08,6.00000000000000e-01,0.00000000000000e+00,6.00107694078432e-01
6.51240000000000e-08,6.00000000000000e-01,0.00000000000000e+00,5.99762385648285e-01
6.51560000000000e-08,6.00000000000000e-01,0.00000000000000e+00,5.99387409251794e-01
6.52200000000000e-08,6.00000000000000e-01,0.00000000000000e+00,5.99167305385948e-01
6.53480000000000e-08,6.00000000000000e-01,0.00000000000000e+00,5.99564717394579e-01
6.56040000000000e-08,6.00000000000000e-01,0.00000000000000e+00,6.04694132691673e-01
6.61159999999999e-08,6.00000000000000e-01,0.00000000000000e+00,3.30058976256534e-01
6.71399999999999e-08,6.00000000000000e-01,0.00000000000000e+00,-5.08782573287499e-02
6.80617794397475e-08,6.00000000000000e-01,0.00000000000000e+00,3.80155227604457e-02
6.99053383192428e-08,6.00000000000000e-01,0.00000000000000e+00,-2.49150587290560e-02
7.18319856923248e-08,6.00000000000000e-01,0.00000000000000e+00,2.23011900979215e-02
7.51000000000000e-08,6.00000000000000e-01,0.00000000000000e+00,-1.70054426480631e-02
7.51100000000000e-08,5.40000000000061e-01,0.00000000000000e+00,-1.65396487159216e-02
7.51300000000000e-08,4.20000000000084e-01,0.00000000000000e+00,-1.49634516786024e-02
7.51700000000000e-08,1.80000000000129e-01,0.00000000000000e+00,-1.09590269440464e-02
7.52000000000000e-08,8.40438829641244e-14,0.00000000000000e+00,-8.07546913038902e-03
7.52080000000000e-08,0.00000000000000e+00,0.00000000000000e+00,-7.14307170972983e-03
7.52240000000000e-08,0.00000000000000e+00,0.00000000000000e+00,-5.52792560132472e-03
7.52560000000000e-08,0.00000000000000e+00,0.00000000000000e+00,-3.31554951994349e-03
7.53200000000000e-08,0.00000000000000e+00,0.00000000000000e+00,-1.15415851552882e-03
7.54480000000000e-08,0.00000000000000e+00,0.00000000000000e+00,-6.29462878190185e-04
7.57040000000000e-08,0.00000000000000e+00,0.00000000000000e+00,-1.11002107151689e-03
7.62159999999999e-08,0.00000000000000e+00,0.00000000000000e+00,5.52295693944983e-04
7.69172409848605e-08,0.00000000000000e+00,0.00000000000000e+00,-3.11934133177299e-04
7.78991888641540e-08,0.00000000000000e+00,0.00000000000000e+00,2.48438635609638e-04
7.98630846227409e-08,0.00000000000000e+00,0.00000000000000e+00,-1.85274982333365e-04
8.36630846227409e-08,0.00000000000000e+00,0.00000000000000e+00,1.98516201233131e-04
8.50000000000000e-08,0.00000000000000e+00,0.00000000000000e+00,-1.33481314194325e-04
8.50100000000000e-08,5.99999999999886e-02,0.00000000000000e+00,1.94467094432646e-04
8.50300000000000e-08,1.79999999999966e-01,0.00000000000000e+00,6.97229010923645e-04
8.50700000000000e-08,4.19999999999920e-01,0.00000000000000e+00,1.09054057075332e-03
8.51000000000000e-08,5.99999999999966e-01,0.00000000000000e+00,7.70930411860923e-04
8.51080000000000e-08,6.00000000000000e-01,0.00000000000000e+00,5.16120981622820e-04
8.51240000000000e-08,6.00000000000000e-01,0.00000000000000e+00,7.34590488910697e-05
8.51560000000000e-08,6.00000000000000e-01,0.00000000000000e+00,-4.52034360564346e-04
8.52200000000000e-08,6.00000000000000e-01,0.00000000000000e+00,-7.54967136079560e-04
8.53480000000000e-08,6.00000000000000e-01,0.00000000000000e+00,-5.18658432369604e-04
8.56040000000000e-08,6.00000000000000e-01,0.00000000000000e+00,3.14619262005503e-05
8.61159999999999e-08,6.00000000000000e-01,0.00000000000000e+00,2.46360047153085e-04
8.71399999999999e-08,6.00000000000000e-01,0.00000000000000e+00,-1.00154630170830e-04
8.91825442321963e-08,6.00000000000000e-01,0.00000000000000e+00,1.12552816957382e-04
9.00000000000000e-08,6.00000000000000e-01,0.00000000000000e+00,-3.33574751023129e-05
9.00100000000000e-08,6.00000000000000e-01,5.99999999999886e-02,-1.92016501060904e-05
9.00300000000000e-08,6.00000000000000e-01,1.79999999999966e-01,1.15612216038119e-06
9.00700000000000e-08,6.00000000000000e-01,4.19999999999920e-01,8.66713862332502e-06
9.01000000000000e-08,6.00000000000000e-01,5.99999999999966e-01,-1.14845269632707e-05
9.01080000000000e-08,6.00000000000000e-01,6.00000000000000e-01,-1.89304657095130e-05
9.01240000000000e-08,6.00000000000000e-01,6.00000000000000e-01,-2.52346165613565e-05
9.01560000000000e-08,6.00000000000000e-01,6.00000000000000e-01,-2.06980866395146e-05
9.02200000000000e-08,6.00000000000000e-01,6.00000000000000e-01,6.72225586084707e-06
9.03480000000000e-08,6.00000000000000e-01,6.00000000000000e-01,2.76410368034441e-05
9.06040000000000e-08,6.00000000000000e-01,6.00000000000000e-01,1.81915939586122e-05
9.11159999999999e-08,6.00000000000000e-01,6.00000000000000e-01,1.49057102050362e-05
9.21399999999999e-08,6.00000000000000e-01,6.00000000000000e-01,1.96065426622087e-05
9.41879999999998e-08,6.00000000000000e-01,6.00000000000000e-01,1.41953689396703e-05
9.51000000000000e-08,6.00000000000000e-01,6.00000000000000e-01,1.82284300395720e-05
9.51100000000000e-08,5.40000000000061e-01,6.00000000000000e-01,-1.10715844636095e-04
9.51300000000000e-08,4.20000000000084e-01,6.00000000000000e-01,-3.73652165169228e-04
9.51700000000000e-08,1.80000000000129e-01,6.00000000000000e-01,-6.79492233659609e-04
9.52000000000000e-08,8.40438829641244e-14,6.00000000000000e-01,-2.67228494991278e-04
9.52080000000000e-08,0.00000000000000e+00,6.00000000000000e-01,1.04757536065550e-04
9.52240000000000e-08,0.00000000000000e+00,6.00000000000000e-01,6.83721398725884e-04
9.52560000000000e-08,0.00000000000000e+00,6.00000000000000e-01,1.18532812054410e-03
9.53200000000000e-08,0.00000000000000e+00,6.00000000000000e-01,1.17379819973477e-03
9.54480000000000e-08,0.00000000000000e+00,6.00000000000000e-01,2.07307716008964e-04
9.57040000000000e-08,0.00000000000000e+00,6.00000000000000e-01,-9.17817486204855e-04
9.62159999999999e-08,0.00000000000000e+00,6.00000000000000e-01,4.60030361523946e-04
9.69231706237598e-08,0.00000000000000e+00,6.00000000000000e-01,-4.16925376318076e-04
9.78110247460667e-08,0.00000000000000e+00,6.00000000000000e-01,4.63850819825154e-04
9.93250701132316e-08,0.00000000000000e+00,6.00000000000000e-01,-3.96804543479739e-04
1.00877671537996e-07,0.00000000000000e+00,6.00000000000000e-01,3.72912577525128e-04
1.03982874387525e-07,0.00000000000000e+00,6.00000000000000e-01,-3.16936721802182e-04
1.05000000000000e-07,0.00000000000000e+00,6.00000000000000e-01,2.64228668628696e-04
1.05010000000000e-07,5.99999999999886e-02,6.00000000000000e-01,5.84648230077187e-04
1.05030000000000e-07,1.79999999999966e-01,6.00000000000000e-01,1.13785078881398e-03
1.05070000000000e-07,4.19999999999920e-01,6.00000000000000e-01,1.84665877395446e-03
1.05100000000000e-07,5.99999999999966e-01,6.00000000000000e-01,1.73537054276521e-03
1.05108000000000e-07,6.00000000000000e-01,6.00000000000000e-01,1.41071903703652e-03
1.05124000000000e-07,6.00000000000000e-01,6.00000000000000e-01,7.01834179719585e-04
1.05156000000000e-07,6.00000000000000e-01,6.00000000000000e-01,-8.61170587571014e-04
1.05220000000000e-07,6.00000000000000e-01,6.00000000000000e-01,-3.38554077204416e-03
1.05348000000000e-07,6.00000000000000e-01,6.00000000000000e-01,-5.33472223390566e-03
1.05604000000000e-07,6.00000000000000e-01,6.00000000000000e-01,4.54811678490702e-02
1.06116000000000e-07,6.00000000000000e-01,6.00000000000000e-01,4.91657617337675e-01
1.07013518564569e-07,6.00000000000000e-01,6.00000000000000e-01,6.21006120998629e-01
1.07926486257183e-07,6.00000000000000e-01,6.00000000000000e-01,5.81139966214254e-01
1.09752421642410e-07,6.00000000000000e-01,6.00000000000000e-01,6.16733328158207e-01
1.11900480718958e-07,6.00000000000000e-01,6.00000000000000e-01,5.83686096133792e-01
1.15100000000000e-07,6.00000000000000e-01,6.00000000000000e-01,6.15003892840314e-01
1.15110000000000e-07,5.40000000000061e-01,6.00000000000000e-01,6.11355755467036e-01
1.15130000000000e-07,4.20000000000084e-01,6.00000000000000e-01,6.05736704598235e-01
1.15170000000000e-07,1.80000000000129e-01,6.00000000000000e-01,6.01667658664835e-01
1.15200000000000e-07,8.40438829641244e-14,6.00000000000000e-01,6.03033208819750e-01
1.15208000000000e-07,0.00000000000000e+00,6.00000000000000e-01,6.03787680967515e-01
1.15224000000000e-07,0.00000000000000e+00,6.00000000000000e-01,6.04960253673641e-01
1.15256000000000e-07,0.00000000000000e+00,6.00000000000000e-01,6.06126068708707e-01
1.15320000000000e-07,0.00000000000000e+00,6.00000000000000e-01,6.06373337853254e-01
1.15448000000000e-07,0.00000000000000e+00,6.00000000000000e-01,5.98786237045452e-01
1.15704000000000e-07,0.00000000000000e+00,6.00000000000000e-01,5.85634382722154e-01
1.16216000000000e-07,0.00000000000000e+00,6.00000000000000e-01,5.99403129287452e-01
1.17024201110746e-07,0.00000000000000e+00,6.00000000000000e-01,5.99574798228293e-01
1.18015666957461e-07,0.00000000000000e+00,6.00000000000000e-01,5.99860363871014e-01
1.19998598650891e-07,0.00000000000000e+00,6.00000000000000e-01,5.99671589135934e-01
1.23798598650891e-07,0.00000000000000e+00,6.00000000000000e-01,5.99997325946197e-01
1.25000000000000e-07,0.00000000000000e+00,6.00000000000000e-01,5.99727371303816e-01
1.25010000000000e-07,5.99999999999092e-02,6.00000000000000e-01,6.00010228363507e-01
1.25030000000000e-07,1.79999999999886e-01,6.00000000000000e-01,6.00501036269577e-01
1.25070000000000e-07,4.19999999999841e-01,6.00000000000000e-01,6.00947390483893e-01
1.25100000000000e-07,5.99999999999886e-01,6.00000000000000e-01,6.00725801104975e-01
1.25108000000000e-07,6.00000000000000e-01,5.51999999999946e-01,6.00440335522711e-01
1.25124000000000e-07,6.00000000000000e-01,4.55999999999996e-01,5.99874553941289e-01
1.25156000000000e-07,6.00000000000000e-01,2.63999999999937e-01,5.98894737027286e-01
1.25200000000000e-07,6.00000000000000e-01,0.00000000000000e+00,5.97928628974200e-01
1.25206400000000e-07,6.00000000000000e-01,0.00000000000000e+00,5.97838259685400e-01
1.25219200000000e-07,6.00000000000000e-01,0.00000000000000e+00,5.97651664790691e-01
1.25244800000000e-07,6.00000000000000e-01,0.00000000000000e+00,5.97299085718103e-01
1.25296000000000e-07,6.00000000000000e-01,0.00000000000000e+00,5.96716152760366e-01
1.25398400000000e-07,6.00000000000000e-01,0.00000000000000e+00,5.95986289628611e-01
1.25603200000000e-07,6.00000000000000e-01,0.00000000000000e+00,5.96386795349107e-01
1.25654400000000e-07,6.00000000000000e-01,0.00000000000000e+00,5.96829515622456e-01
1.25756800000000e-07,6.00000000000000e-01,0.00000000000000e+00,5.97383631073694e-01
1.25961600000000e-07,6.00000000000000e-01,0.00000000000000e+00,5.98089153633810e-01
1.26371200000000e-07,6.00000000000000e-01,0.00000000000000e+00,5.99385135822208e-01
1.27190400000000e-07,6.00000000000000e-01,0.00000000000000e+00,6.00069985302770e-01
1.28828800000000e-07,6.00000000000000e-01,0.00000000000000e+00,5.99976622549828e-01
1.30924997451539e-07,6.00000000000000e-01,0.00000000000000e+00,6.00004454439879e-01
1.34724997451539e-07,6.00000000000000e-01,0.00000000000000e+00,6.00002071975502e-01
1.35100000000000e-07,5.99999999999891e-01,0.00000000000000e+00,5.99978818159017e-01
1.35110000000000e-07,5.39999999999823e-01,0.00000000000000e+00,5.99826449947315e-01
1.35130000000000e-07,4.19999999999846e-01,0.00000000000000e+00,5.99590010464987e-01
