Time,v(clk),v(data),v(out)
1.00000000000000e-08,6.00000000000000e-01,0.00000000000000e+00,-7.36344670392106e-06
1.00100000000000e-08,6.00000000000000e-01,5.99999999999985e-02,2.49702293543541e-06
1.00300000000000e-08,6.00000000000000e-01,1.79999999999996e-01,1.07289033315916e-05
1.00700000000000e-08,6.00000000000000e-01,4.19999999999990e-01,5.14791113621904e-06
1.01000000000000e-08,6.00000000000000e-01,5.99999999999995e-01,-5.15969540301753e-07
1.01080000000000e-08,6.00000000000000e-01,6.00000000000000e-01,-1.88840791129352e-06
1.01240000000000e-08,6.00000000000000e-01,6.00000000000000e-01,-6.64512562073560e-07
1.01560000000000e-08,6.00000000000000e-01,6.00000000000000e-01,6.36362119958711e-06
1.02200000000000e-08,6.00000000000000e-01,6.00000000000000e-01,1.08662131953069e-05
1.03480000000000e-08,6.00000000000000e-01,6.00000000000000e-01,5.32755260432283e-06
1.06040000000000e-08,6.00000000000000e-01,6.00000000000000e-01,3.74610225193500e-06
1.11034819331732e-08,6.00000000000000e-01,6.00000000000000e-01,5.35286578623451e-06
1.21024457995196e-08,6.00000000000000e-01,6.00000000000000e-01,3.71939805597458e-06
1.41003735322123e-08,6.00000000000000e-01,6.00000000000000e-01,4.75237120395149e-06
1.51000000000000e-08,6.00000000000000e-01,6.00000000000000e-01,3.41656993963109e-06
1.51100000000000e-08,5.39999999999991e-01,6.00000000000000e-01,-1.16482829670389e-04
1.51300000000000e-08,4.19999999999994e-01,6.00000000000000e-01,-2.82965802927568e-04
1.51700000000000e-08,1.80000000000000e-01,6.00000000000000e-01,-1.99390308703112e-04
1.52000000000000e-08,0.00000000000000e+00,6.00000000000000e-01,3.77530675483143e-04
1.52080000000000e-08,0.00000000000000e+00,6.00000000000000e-01,6.40905924319757e-04
1.52240000000000e-08,0.00000000000000e+00,6.00000000000000e-01,9.37474924674525e-04
1.52560000000000e-08,0.00000000000000e+00,6.00000000000000e-01,7.92685795557302e-04
1.53200000000000e-08,0.00000000000000e+00,6.00000000000000e-01,-1.62751081802692e-04
1.54480000000000e-08,0.00000000000000e+00,6.00000000000000e-01,-5.03480909744752e-04
1.57040000000000e-08,0.00000000000000e+00,6.00000000000000e-01,2.54512986460904e-04
1.60634723814302e-08,0.00000000000000e+00,6.00000000000000e-01,-3.21058468664186e-04
1.66903200053760e-08,0.00000000000000e+00,6.00000000000000e-01,3.48489741550988e-04
1.77916677658618e-08,0.00000000000000e+00,6.00000000000000e-01,-3.03233113717421e-04
1.89210859456129e-08,0.00000000000000e+00,6.00000000000000e-01,2.68432586131597e-04
2.11799223051152e-08,0.00000000000000e+00,6.00000000000000e-01,-2.44864964021148e-04
2.49799223051152e-08,0.00000000000000e+00,6.00000000000000e-01,2.39069448981624e-04
2.50000000000000e-08,0.00000000000000e+00,6.00000000000000e-01,1.92888033303695e-04
2.50100000000000e-08,5.99999999999886e-02,6.00000000000000e-01,3.76667646616438e-04
2.50300000000000e-08,1.80000000000006e-01,6.00000000000000e-01,6.56012635470535e-04
2.50700000000000e-08,4.20000000000000e-01,6.00000000000000e-01,9.68175266255547e-04
2.51000000000000e-08,6.00000000000000e-01,6.00000000000000e-01,6.85935812453936e-04
2.51080000000000e-08,6.00000000000000e-01,6.00000000000000e-01,2.82617255408124e-04
2.51240000000000e-08,6.00000000000000e-01,6.00000000000000e-01,-6.50244752058396e-04
2.51560000000000e-08,6.00000000000000e-01,6.00000000000000e-01,-2.63633820870049e-03
2.52200000000000e-08,6.00000000000000e-01,6.00000000000000e-01,-5.42252184547092e-03
2.53480000000000e-08,6.00000000000000e-01,6.00000000000000e-01,3.53763465135715e-06
2.56040000000000e-08,6.00000000000000e-01,6.00000000000000e-01,3.65711325488969e-01
2.61160000000000e-08,6.00000000000000e-01,6.00000000000000e-01,6.17471379667737e-01
2.67015043038207e-08,6.00000000000000e-01,6.00000000000000e-01,5.86461655062113e-01
2.78725129114620e-08,6.00000000000000e-01,6.00000000000000e-01,6.13643452335665e-01
2.93044870671926e-08,6.00000000000000e-01,6.00000000000000e-01,5.86891230690064e-01
3.01000000000000e-08,6.00000000000000e-01,6.00000000000000e-01,6.12361333372002e-01
3.01100000000000e-08,6.00000000000000e-01,5.40000000000031e-01,6.06481981926402e-01
3.01300000000000e-08,6.00000000000000e-01,4.20000000000014e-01,6.00294480234254e-01
3.01700000000000e-08,6.00000000000000e-01,1.80000000000020e-01,5.99848662608595e-01
3.02000000000000e-08,6.00000000000000e-01,1.44328993201270e-14,5.99967717304459e-01
3.02080000000000e-08,6.00000000000000e-01,0.00000000000000e+00,5.99958813629115e-01
3.02240000000000e-08,6.00000000000000e-01,0.00000000000000e+00,5.99938446690540e-01
3.02560000000000e-08,6.00000000000000e-01,0.00000000000000e+00,5.99919098619180e-01
3.03200000000000e-08,6.00000000000000e-01,0.00000000000000e+00,5.99944360989311e-01
3.04480000000000e-08,6.00000000000000e-01,0.00000000000000e+00,5.99992520892528e-01
3.06871982993252e-08,6.00000000000000e-01,0.00000000000000e+00,5.99984783797928e-01
3.10510109731961e-08,6.00000000000000e-01,0.00000000000000e+00,5.99976002876126e-01
3.16046946811774e-08,6.00000000000000e-01,0.00000000000000e+00,5.99995248962232e-01
3.27120620971400e-08,6.00000000000000e-01,0.00000000000000e+00,5.99975842875155e-01
3.49267969290652e-08,6.00000000000000e-01,0.00000000000000e+00,5.99999657313555e-01
3.51000000000000e-08,5.99999999999970e-01,0.00000000000000e+00,5.99976299500269e-01
3.51100000000000e-08,5.39999999999982e-01,0.00000000000000e+00,5.99882987292472e-01
3.51300000000000e-08,4.19999999999965e-01,0.00000000000000e+00,5.99779553840765e-01
3.51700000000000e-08,1.79999999999970e-01,0.00000000000000e+00,6.00676735983583e-01
3.52000000000000e-08,0.00000000000000e+00,0.00000000000000e+00,6.03369730533736e-01
3.52080000000000e-08,0.00000000000000e+00,0.00000000000000e+00,6.04083042556212e-01
3.52240000000000e-08,0.00000000000000e+00,0.00000000000000e+00,6.04816443333134e-01
3.52560000000000e-08,0.00000000000000e+00,0.00000000000000e+00,6.02225032173279e-01
3.53200000000000e-08,0.00000000000000e+00,0.00000000000000e+00,5.88592289732538e-01
3.54480000000000e-08,0.00000000000000e+00,0.00000000000000e+00,5.88929243965581e-01
3.56839682204053e-08,0.00000000000000e+00,0.00000000000000e+00,6.03114720121423e-01
3.60263188455627e-08,0.00000000000000e+00,0.00000000000000e+00,5.96642848097231e-01
3.66628132367815e-08,0.00000000000000e+00,0.00000000000000e+00,6.02284083961154e-01
3.74896486931582e-08,0.00000000000000e+00,0.00000000000000e+00,5.97614801758568e-01
3.91000000000000e-08,0.00000000000000e+00,0.00000000000000e+00,6.02016571453834e-01
3.92653670912753e-08,0.00000000000000e+00,0.00000000000000e+00,6.00170005935087e-01
3.95961012738260e-08,0.00000000000000e+00,0.00000000000000e+00,5.99733792634345e-01
4.02575696389274e-08,0.00000000000000e+00,0.00000000000000e+00,6.00094458517058e-01
4.15805063691301e-08,0.00000000000000e+00,0.00000000000000e+00,5.99790155131694e-01
4.42263798295356e-08,0.00000000000000e+00,0.00000000000000e+00,6.00100961662282e-01
4.50000000000000e-08,0.00000000000000e+00,0.00000000000000e+00,5.99826885616374e-01
4.50100000000000e-08,5.99999999999886e-02,0.00000000000000e+00,5.99972407522815e-01
4.50300000000000e-08,1.80000000000006e-01,0.00000000000000e+00,6.00120906219094e-01
4.50700000000000e-08,4.20000000000000e-01,0.00000000000000e+00,6.00048429090213e-01
4.51000000000000e-08,6.00000000000000e-01,0.00000000000000e+00,5.99895785994625e-01
4.51080000000000e-08,6.00000000000000e-01,0.00000000000000e+00,5.99806904942198e-01
4.51240000000000e-08,6.00000000000000e-01,0.00000000000000e+00,5.99676351931020e-01
4.51560000000000e-08,6.00000000000000e-01,0.00000000000000e+00,5.99665873904591e-01
4.52200000000000e-08,6.00000000000000e-01,0.00000000000000e+00,5.99795039531371e-01
4.53480000000000e-08,6.00000000000000e-01,0.00000000000000e+00,6.00515580209803e-01
4.56040000000000e-08,6.00000000000000e-01,0.00000000000000e+00,6.14079036232004e-01
4.61160000000000e-08,6.00000000000000e-01,0.00000000000000e+00,1.14134606907163e-01
4.66330707791408e-08,6.00000000000000e-01,0.00000000000000e+00,-5.13900005789983e-02
4.76670639889877e-08,6.00000000000000e-01,0.00000000000000e+00,4.49297050164231e-02
4.88864817589346e-08,6.00000000000000e-01,0.00000000000000e+00,-3.34166339141093e-02
5.00000000000000e-08,6.00000000000000e-01,0.00000000000000e+00,2.88272202936481e-02
5.00100000000000e-08,6.00000000000000e-01,5.99999999999886e-02,2.35311064285084e-02
5.00300000000000e-08,6.00000000000000e-01,1.79999999999966e-01,1.59579666609701e-02
5.00700000000000e-08,6.00000000000000e-01,4.20000000000000e-01,8.66032395036486e-03
5.01000000000000e-08,6.00000000000000e-01,6.00000000000000e-01,5.47252085445557e-03
5.01080000000000e-08,6.00000000000000e-01,6.00000000000000e-01,4.89629804777185e-03
5.01240000000000e-08,6.00000000000000e-01,6.00000000000000e-01,3.86198080824535e-03
5.01560000000000e-08,6.00000000000000e-01,6.00000000000000e-01,2.37296722844027e-03
5.02200000000000e-08,6.00000000000000e-01,6.00000000000000e-01,8.43971312100039e-04
5.03480000000000e-08,6.00000000000000e-01,6.00000000000000e-01,1.81061430480009e-05
5.06040000000000e-08,6.00000000000000e-01,6.00000000000000e-01,-6.72929490032337e-06
5.11160000000001e-08,6.00000000000000e-01,6.00000000000000e-01,3.03259578885579e-06
5.21400000000002e-08,6.00000000000000e-01,6.00000000000000e-01,-2.66915074562633e-06
5.41880000000003e-08,6.00000000000000e-01,6.00000000000000e-01,2.10121411469821e-06
5.51000000000000e-08,6.00000000000000e-01,6.00000000000000e-01,-1.63299551145073e-06
5.51100000000000e-08,5.40000000000021e-01,6.00000000000000e-01,-1.20357501741011e-04
5.51300000000000e-08,4.20000000000004e-01,6.00000000000000e-01,-2.88667124696815e-04
5.51700000000000e-08,1.80000000000010e-01,6.00000000000000e-01,-2.04552687455131e-04
5.52000000000000e-08,0.00000000000000e+00,6.00000000000000e-01,3.65853696679103e-04
5.52080000000000e-08,0.00000000000000e+00,6.00000000000000e-01,6.22888619636539e-04
5.52240000000000e-08,0.00000000000000e+00,6.00000000000000e-01,8.82873092201614e-04
5.52560000000000e-08,0.00000000000000e+00,6.00000000000000e-01,4.58577649229464e-04
5.53200000000000e-08,0.00000000000000e+00,6.00000000000000e-01,-1.62398844000240e-03
5.54480000000000e-08,0.00000000000000e+00,6.00000000000000e-01,-1.81584631049372e-03
5.56848892798231e-08,0.00000000000000e+00,6.00000000000000e-01,5.39400737201712e-04
5.60511201962622e-08,0.00000000000000e+00,6.00000000000000e-01,-4.45889334581874e-04
5.65970308406899e-08,0.00000000000000e+00,6.00000000000000e-01,4.00056038633009e-04
5.76888521295453e-08,0.00000000000000e+00,6.00000000000000e-01,-3.17447693671204e-04
5.87407771003733e-08,0.00000000000000e+00,6.00000000000000e-01,2.59131201378611e-04
6.08446270420293e-08,0.00000000000000e+00,6.00000000000000e-01,-2.25739626208405e-04
6.46446270420293e-08,0.00000000000000e+00,6.00000000000000e-01,2.16918560558535e-04
6.50000000000000e-08,0.00000000000000e+00,6.00000000000000e-01,-9.89348185445639e-05
6.50100000000000e-08,5.99999999999886e-02,6.00000000000000e-01,1.28446152224695e-04
6.50300000000000e-08,1.79999999999966e-01,6.00000000000000e-01,4.75624205184558e-04
6.50700000000000e-08,4.19999999999920e-01,6.00000000000000e-01,8.71786364134930e-04
6.51000000000000e-08,5.99999999999966e-01,6.00000000000000e-01,6.36111120355054e-04
6.51080000000000e-08,6.00000000000000e-01,6.00000000000000e-01,2.42959122055783e-04
6.51240000000000e-08,6.00000000000000e-01,6.00000000000000e-01,-6.73189124232143e-04
6.51560000000000e-08,6.00000000000000e-01,6.00000000000000e-01,-2.64358574702958e-03
6.52200000000000e-08,6.00000000000000e-01,6.00000000000000e-01,-5.42458339298803e-03
6.53480000000000e-08,6.00000000000000e-01,6.00000000000000e-01,1.30726575063453e-04
6.56040000000000e-08,6.00000000000000e-01,6.00000000000000e-01,3.66664822184073e-01
6.61159999999999e-08,6.00000000000000e-01,6.00000000000000e-01,6.17534226473432e-01
6.67005804826203e-08,6.00000000000000e-01,6.00000000000000e-01,5.86395286637948e-01
6.78697414478610e-08,6.00000000000000e-01,6.00000000000000e-01,6.13699314586812e-01
6.93019623860506e-08,6.00000000000000e-01,6.00000000000000e-01,5.86831449128054e-01
7.01000000000000e-08,6.00000000000000e-01,6.00000000000000e-01,6.12414147089350e-01
7.01100000000000e-08,6.00000000000000e-01,5.40000000000011e-01,6.06509968270699e-01
7.01300000000000e-08,6.00000000000000e-01,4.20000000000034e-01,6.00297007096879e-01
7.01700000000000e-08,6.00000000000000e-01,1.80000000000080e-01,5.99848461826831e-01
7.02000000000000e-08,6.00000000000000e-01,3.44169137633799e-14,5.99967580526147e-01
7.02080000000000e-08,6.00000000000000e-01,0.00000000000000e+00,5.99958868732135e-01
7.02240000000000e-08,6.00000000000000e-01,0.00000000000000e+00,5.99938646319855e-01
7.02560000000000e-08,6.00000000000000e-01,0.00000000000000e+00,5.99919193477419e-01
7.03200000000000e-08,6.00000000000000e-01,0.00000000000000e+00,5.99944383589667e-01
7.04480000000000e-08,6.00000000000000e-01,0.00000000000000e+00,5.99992547964617e-01
7.06872558387410e-08,6.00000000000000e-01,0.00000000000000e+00,5.99984741226351e-01
7.10510552290301e-08,6.00000000000000e-01,0.00000000000000e+00,5.99976001843267e-01
7.16049758608014e-08,6.00000000000000e-01,0.00000000000000e+00,5.99995217774024e-01
7.27128171243440e-08,6.00000000000000e-01,0.00000000000000e+00,5.99975844948983e-01
7.49284996514292e-08,6.00000000000000e-01,0.00000000000000e+00,5.99999635506172e-01
7.51000000000000e-08,6.00000000000000e-01,0.00000000000000e+00,5.99976299378933e-01
7.51100000000000e-08,5.40000000000061e-01,0.00000000000000e+00,5.99882958221985e-01
7.51300000000000e-08,4.20000000000084e-01,0.00000000000000e+00,5.99779527929368e-01
7.51700000000000e-08,1.80000000000129e-01,0.00000000000000e+00,6.00676719971651e-01
7.52000000000000e-08,8.40438829641244e-14,0.00000000000000e+00,6.03369678797761e-01
7.52080000000000e-08,0.00000000000000e+00,0.00000000000000e+00,6.04082946510826e-01
7.52240000000000e-08,0.00000000000000e+00,0.00000000000000e+00,6.04816136878110e-01
7.52560000000000e-08,0.00000000000000e+00,0.00000000000000e+00,6.02223528976796e-01
7.53200000000000e-08,0.00000000000000e+00,0.00000000000000e+00,5.88590263132366e-01
7.54480000000000e-08,0.00000000000000e+00,0.00000000000000e+00,5.88929489594673e-01
7.56839675344374e-08,0.00000000000000e+00,0.00000000000000e+00,6.03114708468064e-01
7.60263183546808e-08,0.00000000000000e+00,0.00000000000000e+00,5.96642847725064e-01
7.66628112618430e-08,0.00000000000000e+00,0.00000000000000e+00,6.02284082343844e-01
7.74896459834646e-08,0.00000000000000e+00,0.00000000000000e+00,5.97614803086383e-01
7.81000000000000e-08,0.00000000000000e+00,0.00000000000000e+00,6.01798610465696e-01
7.82653669443244e-08,0.00000000000000e+00,0.00000000000000e+00,6.00121905058842e-01
7.85961008329730e-08,0.00000000000000e+00,0.00000000000000e+00,5.99729533719483e-01
7.92575686102704e-08,0.00000000000000e+00,0.00000000000000e+00,6.00063337339377e-01
8.05805041648650e-08,0.00000000000000e+00,0.00000000000000e+00,5.99795750103416e-01
8.32263752740544e-08,0.00000000000000e+00,0.00000000000000e+00,6.00082880600568e-01
8.50000000000000e-08,0.00000000000000e+00,0.00000000000000e+00,5.99830906705860e-01
8.50100000000000e-08,5.99999999999886e-02,0.00000000000000e+00,5.99970347613739e-01
8.50300000000000e-08,1.79999999999966e-01,0.00000000000000e+00,6.00112289574768e-01
8.50700000000000e-08,4.19999999999920e-01,0.00000000000000e+00,6.00072344136966e-01
8.51000000000000e-08,5.99999999999966e-01,0.00000000000000e+00,5.99894145429393e-01
8.51080000000000e-08,6.00000000000000e-01,0.00000000000000e+00,5.99802386644341e-01
8.51240000000000e-08,6.00000000000000e-01,0.00000000000000e+00,5.99672971093976e-01
8.51560000000000e-08,6.00000000000000e-01,0.00000000000000e+00,5.99663443963951e-01
8.52200000000000e-08,6.00000000000000e-01,0.00000000000000e+00,5.99793561701228e-01
8.53480000000000e-08,6.00000000000000e-01,0.00000000000000e+00,6.00515393930621e-01
8.56040000000000e-08,6.00000000000000e-01,0.00000000000000e+00,6.14009315648839e-01
8.61159999999999e-08,6.00000000000000e-01,0.00000000000000e+00,1.14074177464315e-01
8.66330500813230e-08,6.00000000000000e-01,0.00000000000000e+00,-5.13722725029702e-02
8.76671389507865e-08,6.00000000000000e-01,0.00000000000000e+00,4.49131414434223e-02
8.88866199398132e-08,6.00000000000000e-01,0.00000000000000e+00,-3.34065958735690e-02
9.00000000000000e-08,6.00000000000000e-01,0.00000000000000e+00,2.88170759926099e-02
9.00100000000000e-08,6.00000000000000e-01,5.99999999999886e-02,2.35223639399249e-02
9.00300000000000e-08,6.00000000000000e-01,1.79999999999966e-01,1.59514322957817e-02
9.00700000000000e-08,6.00000000000000e-01,4.19999999999920e-01,8.65663518557547e-03
9.01000000000000e-08,6.00000000000000e-01,5.99999999999966e-01,5.47018140998191e-03
9.01080000000000e-08,6.00000000000000e-01,6.00000000000000e-01,4.89420507865918e-03
9.01240000000000e-08,6.00000000000000e-01,6.00000000000000e-01,3.86032853930920e-03
9.01560000000000e-08,6.00000000000000e-01,6.00000000000000e-01,2.37195051964466e-03
9.02200000000000e-08,6.00000000000000e-01,6.00000000000000e-01,8.43610993107403e-04
9.03480000000000e-08,6.00000000000000e-01,6.00000000000000e-01,1.80985576134496e-05
9.06040000000000e-08,6.00000000000000e-01,6.00000000000000e-01,-6.72526646557092e-06
9.11159999999999e-08,6.00000000000000e-01,6.00000000000000e-01,3.03214755601605e-06
9.21399999999999e-08,6.00000000000000e-01,6.00000000000000e-01,-2.66718537622439e-06
9.41879999999998e-08,6.00000000000000e-01,6.00000000000000e-01,2.10111402844989e-06
9.51000000000000e-08,6.00000000000000e-01,6.00000000000000e-01,-1.63148392162173e-06
9.51100000000000e-08,5.40000000000061e-01,6.00000000000000e-01,-1.20355869868749e-04
9.51300000000000e-08,4.20000000000084e-01,6.00000000000000e-01,-2.88666266694562e-04
9.51700000000000e-08,1.80000000000129e-01,6.00000000000000e-01,-2.04551892989333e-04
9.52000000000000e-08,8.40438829641244e-14,6.00000000000000e-01,3.65856144123225e-04
9.52080000000000e-08,0.00000000000000e+00,6.00000000000000e-01,6.22892837515349e-04
9.52240000000000e-08,0.00000000000000e+00,6.00000000000000e-01,8.82884929750832e-04
9.52560000000000e-08,0.00000000000000e+00,6.00000000000000e-01,4.58624934336210e-04
9.53200000000000e-08,0.00000000000000e+00,6.00000000000000e-01,-1.62386727043758e-03
9.54480000000000e-08,0.00000000000000e+00,6.00000000000000e-01,-1.81564677570872e-03
9.56848906799594e-08,0.00000000000000e+00,6.00000000000000e-01,5.39418389969966e-04
9.60511210099048e-08,0.00000000000000e+00,6.00000000000000e-01,-4.45927022822788e-04
9.65970552845107e-08,0.00000000000000e+00,6.00000000000000e-01,4.00098181595560e-04
9.76889238337227e-08,0.00000000000000e+00,6.00000000000000e-01,-3.17493455172955e-04
9.87408612005260e-08,0.00000000000000e+00,6.00000000000000e-01,2.59176151197390e-04
1.00844735934133e-07,0.00000000000000e+00,6.00000000000000e-01,-2.25783753481481e-04
1.04644735934133e-07,0.00000000000000e+00,6.00000000000000e-01,2.16961946337591e-04
1.05000000000000e-07,0.00000000000000e+00,6.00000000000000e-01,-9.89435336944330e-05
1.05010000000000e-07,5.99999999999886e-02,6.00000000000000e-01,1.28445076872208e-04
1.05030000000000e-07,1.79999999999966e-01,6.00000000000000e-01,4.75630043707362e-04
1.05070000000000e-07,4.19999999999920e-01,6.00000000000000e-01,8.71792318128881e-04
1.05100000000000e-07,5.99999999999966e-01,6.00000000000000e-01,6.36122728104940e-04
1.05108000000000e-07,6.00000000000000e-01,6.00000000000000e-01,2.42973429388060e-04
1.05124000000000e-07,6.00000000000000e-01,6.00000000000000e-01,-6.73171120016969e-04
1.05156000000000e-07,6.00000000000000e-01,6.00000000000000e-01,-2.64356846073015e-03
1.05220000000000e-07,6.00000000000000e-01,6.00000000000000e-01,-5.42457502316557e-03
1.05348000000000e-07,6.00000000000000e-01,6.00000000000000e-01,1.30655621528156e-04
1.05604000000000e-07,6.00000000000000e-01,6.00000000000000e-01,3.66664289258522e-01
1.06116000000000e-07,6.00000000000000e-01,6.00000000000000e-01,6.17534191308042e-01
1.06700580988790e-07,6.00000000000000e-01,6.00000000000000e-01,5.86395323756007e-01
1.07869742966372e-07,6.00000000000000e-01,6.00000000000000e-01,6.13699283286684e-01
