Time,v(clk),v(data),v(out)
1.00000000000000e-08,6.00000000000000e-01,0.00000000000000e+00,2.20115414957863e-05
1.00100000000000e-08,6.00000000000000e-01,5.99999999999985e-02,1.82684005282305e-05
1.00300000000000e-08,6.00000000000000e-01,1.79999999999996e-01,1.23151426852826e-05
1.00700000000000e-08,6.00000000000000e-01,4.19999999999990e-01,5.73494807428604e-06
1.01000000000000e-08,6.00000000000000e-01,5.99999999999995e-01,2.44599440801102e-06
1.01080000000000e-08,6.00000000000000e-01,6.00000000000000e-01,2.09206143662877e-06
1.01240000000000e-08,6.00000000000000e-01,6.00000000000000e-01,1.77554074774072e-06
1.01560000000000e-08,6.00000000000000e-01,6.00000000000000e-01,2.71268007808606e-06
1.02200000000000e-08,6.00000000000000e-01,6.00000000000000e-01,5.34728041206092e-06
1.03480000000000e-08,6.00000000000000e-01,6.00000000000000e-01,1.61999939455107e-06
1.06040000000000e-08,6.00000000000000e-01,6.00000000000000e-01,2.67940501738444e-06
1.11160000000000e-08,6.00000000000000e-01,6.00000000000000e-01,2.36821747501802e-06
1.21400000000000e-08,6.00000000000000e-01,6.00000000000000e-01,2.23698132742174e-06
1.41880000000000e-08,6.00000000000000e-01,6.00000000000000e-01,1.94165257354760e-06
1.51000000000000e-08,6.00000000000000e-01,6.00000000000000e-01,1.84384813752209e-06
1.51100000000000e-08,5.39999999999991e-01,6.00000000000000e-01,-2.37433623698560e-05
1.51300000000000e-08,4.19999999999994e-01,6.00000000000000e-01,-6.27688593559418e-05
1.51700000000000e-08,1.80000000000000e-01,6.00000000000000e-01,-7.55873860810927e-05
1.52000000000000e-08,0.00000000000000e+00,6.00000000000000e-01,1.71123325819235e-05
1.52080000000000e-08,0.00000000000000e+00,6.00000000000000e-01,7.46674767954057e-05
1.52240000000000e-08,0.00000000000000e+00,6.00000000000000e-01,1.47753721043184e-04
1.52560000000000e-08,0.00000000000000e+00,6.00000000000000e-01,1.48798660339514e-04
1.53200000000000e-08,0.00000000000000e+00,6.00000000000000e-01,5.66324808188093e-06
1.54480000000000e-08,0.00000000000000e+00,6.00000000000000e-01,-1.30361656475045e-04
1.57040000000000e-08,0.00000000000000e+00,6.00000000000000e-01,-5.53870580584630e-05
1.62160000000000e-08,0.00000000000000e+00,6.00000000000000e-01,-2.09299612842859e-05
1.69180768039303e-08,0.00000000000000e+00,6.00000000000000e-01,9.29332800882338e-05
1.81680455107870e-08,0.00000000000000e+00,6.00000000000000e-01,-7.84593272549219e-05
1.97411937626077e-08,0.00000000000000e+00,6.00000000000000e-01,6.86745302056384e-05
2.28874902662492e-08,0.00000000000000e+00,6.00000000000000e-01,-6.13532871527124e-05
2.50000000000000e-08,0.00000000000000e+00,6.00000000000000e-01,5.58348160682603e-05
2.50100000000000e-08,5.99999999999886e-02,6.00000000000000e-01,1.00183574242796e-04
2.50300000000000e-08,1.80000000000006e-01,6.00000000000000e-01,1.60055938729139e-04
2.50700000000000e-08,4.20000000000000e-01,6.00000000000000e-01,1.54055097956074e-04
2.51000000000000e-08,6.00000000000000e-01,6.00000000000000e-01,-5.97378759862540e-04
2.51080000000000e-08,6.00000000000000e-01,6.00000000000000e-01,-1.09004845342609e-03
2.51240000000000e-08,6.00000000000000e-01,6.00000000000000e-01,-2.13948288649544e-03
2.51560000000000e-08,6.00000000000000e-01,6.00000000000000e-01,-3.90205773905278e-03
2.52200000000000e-08,6.00000000000000e-01,6.00000000000000e-01,-1.75620510913246e-03
2.53480000000000e-08,6.00000000000000e-01,6.00000000000000e-01,1.38464802253141e-01
2.56040000000000e-08,6.00000000000000e-01,6.00000000000000e-01,5.46057005301433e-01
2.61160000000000e-08,6.00000000000000e-01,6.00000000000000e-01,6.16661450724671e-01
2.67314486232636e-08,6.00000000000000e-01,6.00000000000000e-01,5.83427041913046e-01
2.78676425756496e-08,6.00000000000000e-01,6.00000000000000e-01,6.12839900611883e-01
2.91997130096046e-08,6.00000000000000e-01,6.00000000000000e-01,5.86625961095625e-01
3.01000000000000e-08,6.00000000000000e-01,6.00000000000000e-01,6.10603346361544e-01
3.01100000000000e-08,6.00000000000000e-01,5.40000000000031e-01,6.07592885614958e-01
3.01300000000000e-08,6.00000000000000e-01,4.20000000000014e-01,6.03189975667066e-01
3.01700000000000e-08,6.00000000000000e-01,1.80000000000020e-01,6.00364693956511e-01
3.02000000000000e-08,6.00000000000000e-01,1.44328993201270e-14,6.00155349497151e-01
3.02080000000000e-08,6.00000000000000e-01,0.00000000000000e+00,6.00126273965691e-01
3.02240000000000e-08,6.00000000000000e-01,0.00000000000000e+00,6.00082471946042e-01
3.02560000000000e-08,6.00000000000000e-01,0.00000000000000e+00,6.00010354446039e-01
3.03200000000000e-08,6.00000000000000e-01,0.00000000000000e+00,5.99973092286595e-01
3.04480000000000e-08,6.00000000000000e-01,0.00000000000000e+00,5.99959533519201e-01
3.07040000000000e-08,6.00000000000000e-01,0.00000000000000e+00,5.99964338846132e-01
3.10474320617574e-08,6.00000000000000e-01,0.00000000000000e+00,5.99953860542470e-01
3.17342961852721e-08,6.00000000000000e-01,0.00000000000000e+00,5.99963672028361e-01
3.26184526353148e-08,6.00000000000000e-01,0.00000000000000e+00,5.99962298432029e-01
3.43867655354001e-08,6.00000000000000e-01,0.00000000000000e+00,5.99967546344133e-01
3.51000000000000e-08,5.99999999999970e-01,0.00000000000000e+00,5.99969290085565e-01
3.51100000000000e-08,5.39999999999982e-01,0.00000000000000e+00,5.99935068311153e-01
3.51300000000000e-08,4.19999999999965e-01,0.00000000000000e+00,5.99886268516683e-01
3.51700000000000e-08,1.79999999999970e-01,0.00000000000000e+00,6.00138049304466e-01
3.52000000000000e-08,0.00000000000000e+00,0.00000000000000e+00,6.00914251012313e-01
3.52080000000000e-08,0.00000000000000e+00,0.00000000000000e+00,6.01135626864673e-01
3.52240000000000e-08,0.00000000000000e+00,0.00000000000000e+00,6.01433312972799e-01
3.52560000000000e-08,0.00000000000000e+00,0.00000000000000e+00,6.01380710493611e-01
3.53200000000000e-08,0.00000000000000e+00,0.00000000000000e+00,5.97501336024197e-01
3.54480000000000e-08,0.00000000000000e+00,0.00000000000000e+00,5.76961965960993e-01
3.57040000000000e-08,0.00000000000000e+00,0.00000000000000e+00,5.81024729104538e-01
3.60637691740636e-08,0.00000000000000e+00,0.00000000000000e+00,6.04470908688954e-01
3.67460975046407e-08,0.00000000000000e+00,0.00000000000000e+00,5.94825448572232e-01
3.74608859880863e-08,0.00000000000000e+00,0.00000000000000e+00,6.02914380439396e-01
3.88904629549775e-08,0.00000000000000e+00,0.00000000000000e+00,5.96729965532134e-01
3.91000000000000e-08,0.00000000000000e+00,0.00000000000000e+00,6.00827921738395e-01
3.93859153933782e-08,0.00000000000000e+00,0.00000000000000e+00,5.99888890734476e-01
3.99577461801347e-08,0.00000000000000e+00,0.00000000000000e+00,5.99646595960838e-01
4.11014077536477e-08,0.00000000000000e+00,0.00000000000000e+00,5.99883317384379e-01
4.33887309006736e-08,0.00000000000000e+00,0.00000000000000e+00,5.99739139974746e-01
4.50000000000000e-08,0.00000000000000e+00,0.00000000000000e+00,5.99915064669129e-01
4.50100000000000e-08,5.99999999999886e-02,0.00000000000000e+00,5.99929107898237e-01
4.50300000000000e-08,1.80000000000006e-01,0.00000000000000e+00,5.99940083461327e-01
4.50700000000000e-08,4.20000000000000e-01,0.00000000000000e+00,5.99886194327903e-01
4.51000000000000e-08,6.00000000000000e-01,0.00000000000000e+00,5.99761066893788e-01
4.51080000000000e-08,6.00000000000000e-01,0.00000000000000e+00,5.99727389496583e-01
4.51240000000000e-08,6.00000000000000e-01,0.00000000000000e+00,5.99666074579601e-01
4.51560000000000e-08,6.00000000000000e-01,0.00000000000000e+00,5.99630555576405e-01
4.52200000000000e-08,6.00000000000000e-01,0.00000000000000e+00,5.99952659858167e-01
4.53480000000000e-08,6.00000000000000e-01,0.00000000000000e+00,6.04414736629180e-01
4.56040000000000e-08,6.00000000000000e-01,0.00000000000000e+00,2.66737877429345e-01
4.60587929708545e-08,6.00000000000000e-01,0.00000000000000e+00,-5.14860366872893e-02
4.65257148758446e-08,6.00000000000000e-01,0.00000000000000e+00,4.53328899211079e-02
4.74595586858248e-08,6.00000000000000e-01,0.00000000000000e+00,-3.21412986555693e-02
4.84719039319556e-08,6.00000000000000e-01,0.00000000000000e+00,3.17710896660066e-02
5.00000000000000e-08,6.00000000000000e-01,0.00000000000000e+00,-2.52481116497366e-02
5.00100000000000e-08,6.00000000000000e-01,5.99999999999886e-02,-2.00830604921143e-02
5.00300000000000e-08,6.00000000000000e-01,1.79999999999966e-01,-1.14212057128827e-02
5.00700000000000e-08,6.00000000000000e-01,4.20000000000000e-01,-3.03528189677136e-03
5.01000000000000e-08,6.00000000000000e-01,6.00000000000000e-01,-1.30110497258642e-03
5.01080000000000e-08,6.00000000000000e-01,6.00000000000000e-01,-1.04624882711287e-03
5.01240000000000e-08,6.00000000000000e-01,6.00000000000000e-01,-6.48374345965083e-04
5.01560000000000e-08,6.00000000000000e-01,6.00000000000000e-01,-2.41433687837401e-04
5.02200000000000e-08,6.00000000000000e-01,6.00000000000000e-01,-9.19274912143317e-06
5.03480000000000e-08,6.00000000000000e-01,6.00000000000000e-01,1.71970932164381e-06
5.06040000000000e-08,6.00000000000000e-01,6.00000000000000e-01,-5.60580737635208e-07
5.11160000000001e-08,6.00000000000000e-01,6.00000000000000e-01,9.27003226754326e-07
5.21400000000002e-08,6.00000000000000e-01,6.00000000000000e-01,1.55749149577389e-07
5.41880000000003e-08,6.00000000000000e-01,6.00000000000000e-01,8.72013098945391e-07
5.51000000000000e-08,6.00000000000000e-01,6.00000000000000e-01,-1.57019429766151e-07
5.51100000000000e-08,5.40000000000021e-01,6.00000000000000e-01,-2.77891391540948e-05
5.51300000000000e-08,4.20000000000004e-01,6.00000000000000e-01,-6.91216839831081e-05
5.51700000000000e-08,1.80000000000010e-01,6.00000000000000e-01,-7.91354808186290e-05
5.52000000000000e-08,0.00000000000000e+00,6.00000000000000e-01,1.24742747570177e-05
5.52080000000000e-08,0.00000000000000e+00,6.00000000000000e-01,6.97605154792863e-05
5.52240000000000e-08,0.00000000000000e+00,6.00000000000000e-01,1.41396020486909e-04
5.52560000000000e-08,0.00000000000000e+00,6.00000000000000e-01,1.36362458786659e-04
5.53200000000000e-08,0.00000000000000e+00,6.00000000000000e-01,-7.69046452415781e-05
5.54480000000000e-08,0.00000000000000e+00,6.00000000000000e-01,-5.53694536572714e-04
5.57040000000000e-08,0.00000000000000e+00,6.00000000000000e-01,4.54163092797706e-05
5.62160000000000e-08,0.00000000000000e+00,6.00000000000000e-01,-5.41074451015566e-05
5.69185302961069e-08,0.00000000000000e+00,6.00000000000000e-01,9.02536732478487e-05
5.81690231192832e-08,0.00000000000000e+00,6.00000000000000e-01,-5.66663349143080e-05
5.97428703560041e-08,0.00000000000000e+00,6.00000000000000e-01,3.73876621197673e-05
6.28905648294461e-08,0.00000000000000e+00,6.00000000000000e-01,-2.58632858546636e-05
6.50000000000000e-08,0.00000000000000e+00,6.00000000000000e-01,1.47053496151984e-05
6.50100000000000e-08,5.99999999999886e-02,6.00000000000000e-01,1.02173444343313e-04
6.50300000000000e-08,1.79999999999966e-01,6.00000000000000e-01,1.99097190595909e-04
6.50700000000000e-08,4.19999999999920e-01,6.00000000000000e-01,2.02101373870375e-04
6.51000000000000e-08,5.99999999999966e-01,6.00000000000000e-01,-5.74658728808637e-04
6.51080000000000e-08,6.00000000000000e-01,6.00000000000000e-01,-1.07115373285980e-03
6.51240000000000e-08,6.00000000000000e-01,6.00000000000000e-01,-2.12674612972993e-03
6.51560000000000e-08,6.00000000000000e-01,6.00000000000000e-01,-3.89622108639184e-03
6.52200000000000e-08,6.00000000000000e-01,6.00000000000000e-01,-1.75896859121902e-03
6.53480000000000e-08,6.00000000000000e-01,6.00000000000000e-01,1.38416357498195e-01
6.56040000000000e-08,6.00000000000000e-01,6.00000000000000e-01,5.46035354430328e-01
6.61159999999999e-08,6.00000000000000e-01,6.00000000000000e-01,6.16666800997243e-01
6.67314508729029e-08,6.00000000000000e-01,6.00000000000000e-01,5.83421532995157e-01
6.78676351069337e-08,6.00000000000000e-01,6.00000000000000e-01,6.12844265023588e-01
6.91997463751636e-08,6.00000000000000e-01,6.00000000000000e-01,5.86621308662755e-01
7.01000000000000e-08,6.00000000000000e-01,6.00000000000000e-01,6.10607042168903e-01
7.01100000000000e-08,6.00000000000000e-01,5.40000000000011e-01,6.07595429684891e-01
7.01300000000000e-08,6.00000000000000e-01,4.20000000000034e-01,6.03190932364860e-01
7.01700000000000e-08,6.00000000000000e-01,1.80000000000080e-01,6.00364743984176e-01
7.02000000000000e-08,6.00000000000000e-01,3.44169137633799e-14,6.00155354974500e-01
7.02080000000000e-08,6.00000000000000e-01,0.00000000000000e+00,6.00126272570273e-01
7.02240000000000e-08,6.00000000000000e-01,0.00000000000000e+00,6.00082459354748e-01
7.02560000000000e-08,6.00000000000000e-01,0.00000000000000e+00,6.00010343814703e-01
7.03200000000000e-08,6.00000000000000e-01,0.00000000000000e+00,5.99973094624239e-01
7.04480000000000e-08,6.00000000000000e-01,0.00000000000000e+00,5.99959536192609e-01
7.07040000000000e-08,6.00000000000000e-01,0.00000000000000e+00,5.99964334195363e-01
7.10474305255624e-08,6.00000000000000e-01,0.00000000000000e+00,5.99953865652522e-01
7.17342915766874e-08,6.00000000000000e-01,0.00000000000000e+00,5.99963668172427e-01
7.26184418953363e-08,6.00000000000000e-01,0.00000000000000e+00,5.99962302653662e-01
7.43867425326340e-08,6.00000000000000e-01,0.00000000000000e+00,5.99967542841536e-01
7.51000000000000e-08,6.00000000000000e-01,0.00000000000000e+00,5.99969293613269e-01
7.51100000000000e-08,5.40000000000061e-01,0.00000000000000e+00,5.99935071670540e-01
7.51300000000000e-08,4.20000000000084e-01,0.00000000000000e+00,5.99886271602813e-01
7.51700000000000e-08,1.80000000000129e-01,0.00000000000000e+00,6.00138050406320e-01
7.52000000000000e-08,8.40438829641244e-14,0.00000000000000e+00,6.00914251580486e-01
7.52080000000000e-08,0.00000000000000e+00,0.00000000000000e+00,6.01135628017450e-01
7.52240000000000e-08,0.00000000000000e+00,0.00000000000000e+00,6.01433315023433e-01
7.52560000000000e-08,0.00000000000000e+00,0.00000000000000e+00,6.01380714466972e-01
7.53200000000000e-08,0.00000000000000e+00,0.00000000000000e+00,5.97501355327548e-01
7.54480000000000e-08,0.00000000000000e+00,0.00000000000000e+00,5.76961994784597e-01
7.57040000000000e-08,0.00000000000000e+00,0.00000000000000e+00,5.81024722442367e-01
7.60637691790217e-08,0.00000000000000e+00,0.00000000000000e+00,6.04470907874518e-01
7.67460975106592e-08,0.00000000000000e+00,0.00000000000000e+00,5.94825449323228e-01
7.74608860010199e-08,0.00000000000000e+00,0.00000000000000e+00,6.02914379805674e-01
7.81000000000000e-08,0.00000000000000e+00,0.00000000000000e+00,5.97108015174993e-01
7.82429576980722e-08,0.00000000000000e+00,0.00000000000000e+00,5.99017289047175e-01
7.85288730942164e-08,0.00000000000000e+00,0.00000000000000e+00,5.99993422735086e-01
7.91007038865050e-08,0.00000000000000e+00,0.00000000000000e+00,5.99488478770823e-01
8.02443654710820e-08,0.00000000000000e+00,0.00000000000000e+00,5.99956675516274e-01
8.25316886402362e-08,0.00000000000000e+00,0.00000000000000e+00,5.99639691335125e-01
8.50000000000000e-08,0.00000000000000e+00,0.00000000000000e+00,6.00000547064456e-01
8.50100000000000e-08,5.99999999999886e-02,0.00000000000000e+00,5.99996322322333e-01
8.50300000000000e-08,1.79999999999966e-01,0.00000000000000e+00,5.99978906768990e-01
8.50700000000000e-08,4.19999999999920e-01,0.00000000000000e+00,5.99900548858843e-01
8.51000000000000e-08,5.99999999999966e-01,0.00000000000000e+00,5.99769035101069e-01
8.51080000000000e-08,6.00000000000000e-01,0.00000000000000e+00,5.99732870434862e-01
8.51240000000000e-08,6.00000000000000e-01,0.00000000000000e+00,5.99685818762231e-01
8.51560000000000e-08,6.00000000000000e-01,0.00000000000000e+00,5.99639606285897e-01
8.52200000000000e-08,6.00000000000000e-01,0.00000000000000e+00,5.99953966292801e-01
8.53480000000000e-08,6.00000000000000e-01,0.00000000000000e+00,6.04415371430763e-01
8.56040000000000e-08,6.00000000000000e-01,0.00000000000000e+00,2.66634948683392e-01
8.60587298582349e-08,6.00000000000000e-01,0.00000000000000e+00,-5.15142015012790e-02
8.65255993407444e-08,6.00000000000000e-01,0.00000000000000e+00,4.53578400960725e-02
8.74593383057634e-08,6.00000000000000e-01,0.00000000000000e+00,-3.21577294815860e-02
8.84715239762921e-08,6.00000000000000e-01,0.00000000000000e+00,3.17870018576009e-02
9.00000000000000e-08,6.00000000000000e-01,0.00000000000000e+00,-2.52610526635162e-02
9.00100000000000e-08,6.00000000000000e-01,5.99999999999886e-02,-2.00929595837437e-02
9.00300000000000e-08,6.00000000000000e-01,1.79999999999966e-01,-1.14264399427154e-02
9.00700000000000e-08,6.00000000000000e-01,4.19999999999920e-01,-3.03661441274328e-03
9.01000000000000e-08,6.00000000000000e-01,5.99999999999966e-01,-1.30161037519113e-03
9.01080000000000e-08,6.00000000000000e-01,6.00000000000000e-01,-1.04666612502189e-03
9.01240000000000e-08,6.00000000000000e-01,6.00000000000000e-01,-6.48637219843422e-04
9.01560000000000e-08,6.00000000000000e-01,6.00000000000000e-01,-2.41527939518010e-04
9.02200000000000e-08,6.00000000000000e-01,6.00000000000000e-01,-9.19767886918901e-06
9.03480000000000e-08,6.00000000000000e-01,6.00000000000000e-01,1.72158666536353e-06
9.06040000000000e-08,6.00000000000000e-01,6.00000000000000e-01,-5.60780984877607e-07
9.11159999999999e-08,6.00000000000000e-01,6.00000000000000e-01,9.28605992467878e-07
9.21399999999999e-08,6.00000000000000e-01,6.00000000000000e-01,1.55835127164852e-07
9.41879999999998e-08,6.00000000000000e-01,6.00000000000000e-01,8.73656658025024e-07
9.51000000000000e-08,6.00000000000000e-01,6.00000000000000e-01,-1.57345740313310e-07
9.51100000000000e-08,5.40000000000061e-01,6.00000000000000e-01,-2.77909126200869e-05
9.51300000000000e-08,4.20000000000084e-01,6.00000000000000e-01,-6.91241294653727e-05
9.51700000000000e-08,1.80000000000129e-01,6.00000000000000e-01,-7.91353606700226e-05
9.52000000000000e-08,8.40438829641244e-14,6.00000000000000e-01,1.24752136289770e-05
9.52080000000000e-08,0.00000000000000e+00,6.00000000000000e-01,6.97619917903528e-05
9.52240000000000e-08,0.00000000000000e+00,6.00000000000000e-01,1.41399225740114e-04
9.52560000000000e-08,0.00000000000000e+00,6.00000000000000e-01,1.36374492299203e-04
9.53200000000000e-08,0.00000000000000e+00,6.00000000000000e-01,-7.68185334217263e-05
9.54480000000000e-08,0.00000000000000e+00,6.00000000000000e-01,-5.53084468865556e-04
9.57040000000000e-08,0.00000000000000e+00,6.00000000000000e-01,4.53031656656045e-05
9.62159999999999e-08,0.00000000000000e+00,6.00000000000000e-01,-5.40914429914864e-05
9.69185297315340e-08,0.00000000000000e+00,6.00000000000000e-01,9.02863523594504e-05
9.81690219489851e-08,0.00000000000000e+00,6.00000000000000e-01,-5.67191337309131e-05
9.97428682955959e-08,0.00000000000000e+00,6.00000000000000e-01,3.74534825547598e-05
1.02890560988818e-07,0.00000000000000e+00,6.00000000000000e-01,-2.59348609021437e-05
1.05000000000000e-07,0.00000000000000e+00,6.00000000000000e-01,1.47846287652754e-05
1.05010000000000e-07,5.99999999999886e-02,6.00000000000000e-01,1.02180046205734e-04
1.05030000000000e-07,1.79999999999966e-01,6.00000000000000e-01,1.99041554979497e-04
1.05070000000000e-07,4.19999999999920e-01,6.00000000000000e-01,2.02025381548277e-04
1.05100000000000e-07,5.99999999999966e-01,6.00000000000000e-01,-5.74694493432615e-04
1.05108000000000e-07,6.00000000000000e-01,6.00000000000000e-01,-1.07118334000381e-03
1.05124000000000e-07,6.00000000000000e-01,6.00000000000000e-01,-2.12676592566487e-03
1.05156000000000e-07,6.00000000000000e-01,6.00000000000000e-01,-3.89623009800410e-03
1.05220000000000e-07,6.00000000000000e-01,6.00000000000000e-01,-1.75896534450876e-03
1.05348000000000e-07,6.00000000000000e-01,6.00000000000000e-01,1.38416392647183e-01
1.05604000000000e-07,6.00000000000000e-01,6.00000000000000e-01,5.46035376131769e-01
1.06116000000000e-07,6.00000000000000e-01,6.00000000000000e-01,6.16666795451974e-01
1.06731450871799e-07,6.00000000000000e-01,6.00000000000000e-01,5.83421538718075e-01
1.07867635092420e-07,6.00000000000000e-01,6.00000000000000e-01,6.12844260475874e-01
1.09199746318508e-07,6.00000000000000e-01,6.00000000000000e-01,5.86621313537248e-01
1.10100000000000e-07,6.00000000000000e-01,6.00000000000000e-01,6.10607038352642e-01
1.10110000000000e-07,6.00000000000000e-01,5.40000000000091e-01,6.07595427073426e-01
