Time,v(clk),v(data),v(out),v(reset)
1.00000000000000e-08,6.00000000000000e-01,0.00000000000000e+00,1.92943032805053e-05,0.00000000000000e+00
1.00100000000000e-08,6.00000000000000e-01,5.99999999999985e-02,1.87125511390759e-05,0.00000000000000e+00
1.00300000000000e-08,6.00000000000000e-01,1.79999999999996e-01,1.79332357654605e-05,0.00000000000000e+00
1.00700000000000e-08,6.00000000000000e-01,4.19999999999990e-01,1.63916952148693e-05,0.00000000000000e+00
1.01000000000000e-08,6.00000000000000e-01,5.99999999999995e-01,1.56164551874428e-05,0.00000000000000e+00
1.01080000000000e-08,6.00000000000000e-01,6.00000000000000e-01,1.55670983515294e-05,0.00000000000000e+00
1.01240000000000e-08,6.00000000000000e-01,6.00000000000000e-01,1.56706895012224e-05,0.00000000000000e+00
1.01560000000000e-08,6.00000000000000e-01,6.00000000000000e-01,1.62436645929909e-05,0.00000000000000e+00
1.02200000000000e-08,6.00000000000000e-01,6.00000000000000e-01,1.70395817847627e-05,0.00000000000000e+00
1.03480000000000e-08,6.00000000000000e-01,6.00000000000000e-01,1.78491470241397e-05,0.00000000000000e+00
1.06040000000000e-08,6.00000000000000e-01,6.00000000000000e-01,1.82111522185856e-05,0.00000000000000e+00
1.11160000000000e-08,6.00000000000000e-01,6.00000000000000e-01,1.68103186285531e-05,0.00000000000000e+00
1.21400000000000e-08,6.00000000000000e-01,6.00000000000000e-01,1.68904294029519e-05,0.00000000000000e+00
1.41880000000000e-08,6.00000000000000e-01,6.00000000000000e-01,1.52593323148012e-05,0.00000000000000e+00
1.51000000000000e-08,6.00000000000000e-01,6.00000000000000e-01,1.56627044177590e-05,0.00000000000000e+00
1.51100000000000e-08,5.39999999999991e-01,6.00000000000000e-01,8.44796294252603e-05,6.00000000000085e-02
1.51300000000000e-08,4.19999999999994e-01,6.00000000000000e-01,1.72646348414240e-04,1.80000000000006e-01
1.51700000000000e-08,1.80000000000000e-01,6.00000000000000e-01,1.85198177201744e-04,4.20000000000000e-01
1.52000000000000e-08,0.00000000000000e+00,6.00000000000000e-01,1.54595263118187e-04,6.00000000000000e-01
1.52080000000000e-08,0.00000000000000e+00,6.00000000000000e-01,1.46111281630952e-04,6.00000000000000e-01
1.52240000000000e-08,0.00000000000000e+00,6.00000000000000e-01,1.32556988082247e-04,6.00000000000000e-01
1.52560000000000e-08,0.00000000000000e+00,6.00000000000000e-01,1.15478272141457e-04,6.00000000000000e-01
1.53200000000000e-08,0.00000000000000e+00,6.00000000000000e-01,8.46113899739299e-05,6.00000000000000e-01
1.54480000000000e-08,0.00000000000000e+00,6.00000000000000e-01,-3.66509965181554e-05,6.00000000000000e-01
1.57040000000000e-08,0.00000000000000e+00,6.00000000000000e-01,-1.32198208960810e-04,6.00000000000000e-01
1.62160000000000e-08,0.00000000000000e+00,6.00000000000000e-01,-5.74267785069544e-05,6.00000000000000e-01
1.70412473595283e-08,0.00000000000000e+00,6.00000000000000e-01,4.81621470652246e-05,6.00000000000000e-01
1.81525453954446e-08,0.00000000000000e+00,6.00000000000000e-01,7.43002726216590e-05,6.00000000000000e-01
2.03751414672771e-08,0.00000000000000e+00,6.00000000000000e-01,-7.71756722449508e-05,6.00000000000000e-01
2.30083526084154e-08,0.00000000000000e+00,6.00000000000000e-01,1.04061161028959e-04,6.00000000000000e-01
2.50000000000000e-08,0.00000000000000e+00,6.00000000000000e-01,-8.03926320858835e-05,6.00000000000000e-01
2.50100000000000e-08,5.99999999999886e-02,6.00000000000000e-01,-2.33163606478126e-05,6.00000000000000e-01
2.50300000000000e-08,1.80000000000006e-01,6.00000000000000e-01,7.48983824076233e-05,6.00000000000000e-01
2.50700000000000e-08,4.20000000000000e-01,6.00000000000000e-01,1.94966972402878e-04,6.00000000000000e-01
2.51000000000000e-08,6.00000000000000e-01,6.00000000000000e-01,1.78400792852612e-04,6.00000000000000e-01
2.51080000000000e-08,6.00000000000000e-01,6.00000000000000e-01,1.25788133402943e-04,6.00000000000000e-01
2.51240000000000e-08,6.00000000000000e-01,6.00000000000000e-01,-9.11834701387143e-06,6.00000000000000e-01
2.51560000000000e-08,6.00000000000000e-01,6.00000000000000e-01,-4.58553223097753e-04,6.00000000000000e-01
2.52200000000000e-08,6.00000000000000e-01,6.00000000000000e-01,-1.81915877530908e-03,6.00000000000000e-01
2.53480000000000e-08,6.00000000000000e-01,6.00000000000000e-01,-3.67266413387403e-03,6.00000000000000e-01
2.56040000000000e-08,6.00000000000000e-01,6.00000000000000e-01,5.44287710623478e-02,6.00000000000000e-01
2.61160000000000e-08,6.00000000000000e-01,6.00000000000000e-01,5.04796812521283e-01,6.00000000000000e-01
2.71400000000000e-08,6.00000000000000e-01,6.00000000000000e-01,6.23850368498899e-01,6.00000000000000e-01
2.82737994467119e-08,6.00000000000000e-01,6.00000000000000e-01,5.76529368234746e-01,6.00000000000000e-01
3.05413983401358e-08,6.00000000000000e-01,6.00000000000000e-01,6.20652793238756e-01,6.00000000000000e-01
3.38016095091406e-08,6.00000000000000e-01,6.00000000000000e-01,5.78481850143350e-01,6.00000000000000e-01
3.51000000000000e-08,5.99999999999970e-01,6.00000000000000e-01,6.18369959791132e-01,6.00000000000000e-01
3.51100000000000e-08,5.39999999999982e-01,6.00000000000000e-01,6.13302429422814e-01,6.00000000000000e-01
3.51300000000000e-08,4.19999999999965e-01,6.00000000000000e-01,6.05940996658232e-01,6.00000000000000e-01
3.51700000000000e-08,1.79999999999970e-01,6.00000000000000e-01,6.01044903643413e-01,6.00000000000000e-01
3.52000000000000e-08,0.00000000000000e+00,6.00000000000000e-01,6.01238824949278e-01,6.00000000000000e-01
3.52080000000000e-08,0.00000000000000e+00,6.00000000000000e-01,6.01423990991900e-01,6.00000000000000e-01
3.52240000000000e-08,0.00000000000000e+00,6.00000000000000e-01,6.01677035922556e-01,6.00000000000000e-01
3.52560000000000e-08,0.00000000000000e+00,6.00000000000000e-01,6.01693716353110e-01,6.00000000000000e-01
3.53200000000000e-08,0.00000000000000e+00,6.00000000000000e-01,5.99553426753548e-01,6.00000000000000e-01
3.54480000000000e-08,0.00000000000000e+00,6.00000000000000e-01,5.84138989981293e-01,6.00000000000000e-01
3.57040000000000e-08,0.00000000000000e+00,6.00000000000000e-01,5.78022367469919e-01,6.00000000000000e-01
3.62160000000000e-08,0.00000000000000e+00,6.00000000000000e-01,6.01803306174683e-01,6.00000000000000e-01
3.70821575882279e-08,0.00000000000000e+00,6.00000000000000e-01,5.97219814871477e-01,6.00000000000000e-01
3.84180524957550e-08,0.00000000000000e+00,6.00000000000000e-01,6.01480752611956e-01,6.00000000000000e-01
4.10898423108093e-08,0.00000000000000e+00,6.00000000000000e-01,5.98049311220597e-01,6.00000000000000e-01
4.48898423108093e-08,0.00000000000000e+00,6.00000000000000e-01,6.01463961100972e-01,6.00000000000000e-01
4.50000000000000e-08,0.00000000000000e+00,6.00000000000000e-01,5.99795249761297e-01,6.00000000000000e-01
4.50100000000000e-08,5.99999999999886e-02,6.00000000000000e-01,5.99769791727756e-01,5.40000000000011e-01
4.50300000000000e-08,1.80000000000006e-01,6.00000000000000e-01,5.99717988722144e-01,4.19999999999994e-01
4.50700000000000e-08,4.20000000000000e-01,6.00000000000000e-01,6.00416283662794e-01,1.80000000000000e-01
4.51000000000000e-08,6.00000000000000e-01,6.00000000000000e-01,6.02599408988238e-01,0.00000000000000e+00
4.51080000000000e-08,6.00000000000000e-01,6.00000000000000e-01,6.03387833507537e-01,0.00000000000000e+00
4.51240000000000e-08,6.00000000000000e-01,6.00000000000000e-01,6.04775521961990e-01,0.00000000000000e+00
4.51560000000000e-08,6.00000000000000e-01,6.00000000000000e-01,6.06872427594471e-01,0.00000000000000e+00
4.52200000000000e-08,6.00000000000000e-01,6.00000000000000e-01,6.10608797836008e-01,0.00000000000000e+00
4.53480000000000e-08,6.00000000000000e-01,6.00000000000000e-01,6.09922324941007e-01,0.00000000000000e+00
4.56040000000000e-08,6.00000000000000e-01,6.00000000000000e-01,3.50098790377283e-01,0.00000000000000e+00
4.61160000000000e-08,6.00000000000000e-01,6.00000000000000e-01,-2.42626542513184e-02,0.00000000000000e+00
4.68513979632868e-08,6.00000000000000e-01,6.00000000000000e-01,1.53800788121317e-02,0.00000000000000e+00
4.81712642069206e-08,6.00000000000000e-01,6.00000000000000e-01,-1.14285162553168e-02,0.00000000000000e+00
4.96905726892008e-08,6.00000000000000e-01,6.00000000000000e-01,9.55998538387196e-03,0.00000000000000e+00
5.01000000000000e-08,6.00000000000000e-01,5.99999999999966e-01,-4.74256914481141e-03,0.00000000000000e+00
5.04038616964560e-08,6.00000000000000e-01,6.00000000000000e-01,-5.33239937269671e-04,0.00000000000000e+00
5.10115850893681e-08,6.00000000000000e-01,6.00000000000000e-01,3.28496837683280e-04,0.00000000000000e+00
5.22270318751922e-08,6.00000000000000e-01,6.00000000000000e-01,-2.52323444421947e-04,0.00000000000000e+00
5.46579254468405e-08,6.00000000000000e-01,6.00000000000000e-01,2.48228235834078e-04,0.00000000000000e+00
5.51000000000000e-08,6.00000000000000e-01,6.00000000000000e-01,-1.33185184708043e-04,0.00000000000000e+00
5.51100000000000e-08,5.40000000000021e-01,6.00000000000000e-01,-1.39297713663208e-05,5.99999999999787e-02
5.51300000000000e-08,4.20000000000004e-01,6.00000000000000e-01,1.33856868358560e-04,1.79999999999996e-01
5.51700000000000e-08,1.80000000000010e-01,6.00000000000000e-01,1.66124479724361e-04,4.19999999999990e-01
5.52000000000000e-08,0.00000000000000e+00,6.00000000000000e-01,1.33360674466516e-04,6.00000000000000e-01
5.52080000000000e-08,0.00000000000000e+00,6.00000000000000e-01,1.24363015084381e-04,6.00000000000000e-01
5.52240000000000e-08,0.00000000000000e+00,6.00000000000000e-01,1.10018908691174e-04,6.00000000000000e-01
5.52560000000000e-08,0.00000000000000e+00,6.00000000000000e-01,9.19902518606505e-05,6.00000000000000e-01
5.53200000000000e-08,0.00000000000000e+00,6.00000000000000e-01,2.96853351442611e-06,6.00000000000000e-01
5.54480000000000e-08,0.00000000000000e+00,6.00000000000000e-01,-6.73828631435655e-04,6.00000000000000e-01
5.57040000000000e-08,0.00000000000000e+00,6.00000000000000e-01,-8.06045187460885e-04,6.00000000000000e-01
5.62155052781185e-08,0.00000000000000e+00,6.00000000000000e-01,3.14071353090762e-04,6.00000000000000e-01
5.69899079921206e-08,0.00000000000000e+00,6.00000000000000e-01,-2.39349547396801e-04,6.00000000000000e-01
5.81155867174253e-08,0.00000000000000e+00,6.00000000000000e-01,2.17451456295275e-04,6.00000000000000e-01
6.03669441680347e-08,0.00000000000000e+00,6.00000000000000e-01,-1.50225503217750e-04,6.00000000000000e-01
6.29421196526294e-08,0.00000000000000e+00,6.00000000000000e-01,1.41930404210308e-04,6.00000000000000e-01
6.50000000000000e-08,0.00000000000000e+00,6.00000000000000e-01,-8.64497408201996e-05,6.00000000000000e-01
6.50100000000000e-08,5.99999999999886e-02,6.00000000000000e-01,-2.72813067117919e-05,6.00000000000000e-01
6.50300000000000e-08,1.79999999999966e-01,6.00000000000000e-01,6.86026053485153e-05,6.00000000000000e-01
6.50700000000000e-08,4.19999999999920e-01,6.00000000000000e-01,1.78717024102413e-04,6.00000000000000e-01
6.51000000000000e-08,5.99999999999966e-01,6.00000000000000e-01,1.65861618960057e-04,6.00000000000000e-01
6.51080000000000e-08,6.00000000000000e-01,6.00000000000000e-01,1.15965463504904e-04,6.00000000000000e-01
6.51240000000000e-08,6.00000000000000e-01,6.00000000000000e-01,-1.16600344497800e-05,6.00000000000000e-01
6.51560000000000e-08,6.00000000000000e-01,6.00000000000000e-01,-4.44910405639501e-04,6.00000000000000e-01
6.52200000000000e-08,6.00000000000000e-01,6.00000000000000e-01,-1.78986183933655e-03,6.00000000000000e-01
6.53480000000000e-08,6.00000000000000e-01,6.00000000000000e-01,-3.68976881414342e-03,6.00000000000000e-01
6.56040000000000e-08,6.00000000000000e-01,6.00000000000000e-01,5.21363681342237e-02,6.00000000000000e-01
6.61159999999999e-08,6.00000000000000e-01,6.00000000000000e-01,5.02650489903721e-01,6.00000000000000e-01
6.71399999999999e-08,6.00000000000000e-01,6.00000000000000e-01,6.24144938209369e-01,6.00000000000000e-01
6.82702935849557e-08,6.00000000000000e-01,6.00000000000000e-01,5.76270604774086e-01,6.00000000000000e-01
7.05308807548674e-08,6.00000000000000e-01,6.00000000000000e-01,6.20884664269730e-01,6.00000000000000e-01
7.37991456496108e-08,6.00000000000000e-01,6.00000000000000e-01,5.78240021473361e-01,6.00000000000000e-01
7.51000000000000e-08,6.00000000000000e-01,6.00000000000000e-01,6.18578623726962e-01,6.00000000000000e-01
7.51100000000000e-08,5.40000000000061e-01,6.00000000000000e-01,6.13453169219931e-01,6.00000000000000e-01
7.51300000000000e-08,4.20000000000084e-01,6.00000000000000e-01,6.06007936875872e-01,6.00000000000000e-01
7.51700000000000e-08,1.80000000000129e-01,6.00000000000000e-01,6.01052958630403e-01,6.00000000000000e-01
7.52000000000000e-08,8.40438829641244e-14,6.00000000000000e-01,6.01240713407180e-01,6.00000000000000e-01
7.52080000000000e-08,0.00000000000000e+00,6.00000000000000e-01,6.01425162663528e-01,6.00000000000000e-01
7.52240000000000e-08,0.00000000000000e+00,6.00000000000000e-01,6.01676988820698e-01,6.00000000000000e-01
7.52560000000000e-08,0.00000000000000e+00,6.00000000000000e-01,6.01691871201201e-01,6.00000000000000e-01
7.53200000000000e-08,0.00000000000000e+00,6.00000000000000e-01,5.99545396829035e-01,6.00000000000000e-01
7.54480000000000e-08,0.00000000000000e+00,6.00000000000000e-01,5.84119487201735e-01,6.00000000000000e-01
7.57040000000000e-08,0.00000000000000e+00,6.00000000000000e-01,5.78019148164829e-01,6.00000000000000e-01
7.62159999999999e-08,0.00000000000000e+00,6.00000000000000e-01,6.01808386502880e-01,6.00000000000000e-01
7.70821271918387e-08,0.00000000000000e+00,6.00000000000000e-01,5.97215342009784e-01,6.00000000000000e-01
7.84180217079276e-08,0.00000000000000e+00,6.00000000000000e-01,6.01484235187633e-01,6.00000000000000e-01
8.10898107401056e-08,0.00000000000000e+00,6.00000000000000e-01,5.98045988030336e-01,6.00000000000000e-01
8.48898107401056e-08,0.00000000000000e+00,6.00000000000000e-01,6.01467027117228e-01,6.00000000000000e-01
8.50000000000000e-08,0.00000000000000e+00,6.00000000000000e-01,5.99794938738410e-01,6.00000000000000e-01
8.50100000000000e-08,5.99999999999886e-02,6.00000000000000e-01,5.99769512618411e-01,5.40000000000011e-01
8.50300000000000e-08,1.79999999999966e-01,6.00000000000000e-01,5.99717801731997e-01,4.20000000000034e-01
8.50700000000000e-08,4.19999999999920e-01,6.00000000000000e-01,6.00416224061017e-01,1.80000000000080e-01
8.51000000000000e-08,5.99999999999966e-01,6.00000000000000e-01,6.02599400315198e-01,3.44169137633799e-14
8.51080000000000e-08,6.00000000000000e-01,6.00000000000000e-01,6.03387835479275e-01,0.00000000000000e+00
8.51240000000000e-08,6.00000000000000e-01,6.00000000000000e-01,6.04775537719095e-01,0.00000000000000e+00
8.51560000000000e-08,6.00000000000000e-01,6.00000000000000e-01,6.06872440465895e-01,0.00000000000000e+00
8.52200000000000e-08,6.00000000000000e-01,6.00000000000000e-01,6.10608768862025e-01,0.00000000000000e+00
8.53480000000000e-08,6.00000000000000e-01,6.00000000000000e-01,6.09922101922612e-01,0.00000000000000e+00
8.56040000000000e-08,6.00000000000000e-01,6.00000000000000e-01,3.50099892027286e-01,0.00000000000000e+00
8.61159999999999e-08,6.00000000000000e-01,6.00000000000000e-01,-2.42619283033568e-02,0.00000000000000e+00
8.68514011297529e-08,6.00000000000000e-01,6.00000000000000e-01,1.53796428655562e-02,0.00000000000000e+00
8.81704444440945e-08,6.00000000000000e-01,6.00000000000000e-01,-1.14263817793982e-02,0.00000000000000e+00
8.96899732579315e-08,6.00000000000000e-01,6.00000000000000e-01,9.55855561165945e-03,0.00000000000000e+00
9.01000000000000e-08,6.00000000000000e-01,5.99999999999966e-01,-4.74663034254724e-03,0.00000000000000e+00
9.04039057627674e-08,6.00000000000000e-01,6.00000000000000e-01,-5.34161106039341e-04,0.00000000000000e+00
9.10117172883022e-08,6.00000000000000e-01,6.00000000000000e-01,3.28944161266942e-04,0.00000000000000e+00
9.22273403393718e-08,6.00000000000000e-01,6.00000000000000e-01,-2.52652450596707e-04,0.00000000000000e+00
9.46585864415111e-08,6.00000000000000e-01,6.00000000000000e-01,2.48502915645412e-04,0.00000000000000e+00
9.51000000000000e-08,6.00000000000000e-01,6.00000000000000e-01,-1.33179973224059e-04,0.00000000000000e+00
9.51100000000000e-08,5.40000000000061e-01,6.00000000000000e-01,-1.39301520074506e-05,5.99999999999390e-02
9.51300000000000e-08,4.20000000000084e-01,6.00000000000000e-01,1.33849627912859e-04,1.79999999999916e-01
9.51700000000000e-08,1.80000000000129e-01,6.00000000000000e-01,1.66117715608684e-04,4.19999999999871e-01
9.52000000000000e-08,8.40438829641244e-14,6.00000000000000e-01,1.33355759564267e-04,5.99999999999916e-01
9.52080000000000e-08,0.00000000000000e+00,6.00000000000000e-01,1.24358461569503e-04,6.00000000000000e-01
9.52240000000000e-08,0.00000000000000e+00,6.00000000000000e-01,1.10014922817071e-04,6.00000000000000e-01
9.52560000000000e-08,0.00000000000000e+00,6.00000000000000e-01,9.19874065366533e-05,6.00000000000000e-01
9.53200000000000e-08,0.00000000000000e+00,6.00000000000000e-01,2.97025018158523e-06,6.00000000000000e-01
9.54480000000000e-08,0.00000000000000e+00,6.00000000000000e-01,-6.73793351414039e-04,6.00000000000000e-01
9.57040000000000e-08,0.00000000000000e+00,6.00000000000000e-01,-8.05999742505729e-04,6.00000000000000e-01
9.62154786429334e-08,0.00000000000000e+00,6.00000000000000e-01,3.14049515909369e-04,6.00000000000000e-01
9.69895881471848e-08,0.00000000000000e+00,6.00000000000000e-01,-2.39333500857813e-04,6.00000000000000e-01
9.81153340264122e-08,0.00000000000000e+00,6.00000000000000e-01,2.17444738134047e-04,6.00000000000000e-01
1.00366825784867e-07,0.00000000000000e+00,6.00000000000000e-01,-1.50215627652594e-04,6.00000000000000e-01
1.02941557312734e-07,0.00000000000000e+00,6.00000000000000e-01,1.41917827315063e-04,6.00000000000000e-01
1.05000000000000e-07,0.00000000000000e+00,6.00000000000000e-01,-8.64420797858753e-05,6.00000000000000e-01
1.05010000000000e-07,5.99999999999886e-02,6.00000000000000e-01,-2.72756821231013e-05,6.00000000000000e-01
1.05030000000000e-07,1.79999999999966e-01,6.00000000000000e-01,6.86064354908367e-05,6.00000000000000e-01
1.05070000000000e-07,4.19999999999920e-01,6.00000000000000e-01,1.78720275218269e-04,6.00000000000000e-01
1.05100000000000e-07,5.99999999999966e-01,6.00000000000000e-01,1.65861916368578e-04,6.00000000000000e-01
1.05108000000000e-07,6.00000000000000e-01,6.00000000000000e-01,1.15962731495035e-04,6.00000000000000e-01
1.05124000000000e-07,6.00000000000000e-01,6.00000000000000e-01,-1.16717074216052e-05,6.00000000000000e-01
1.05156000000000e-07,6.00000000000000e-01,6.00000000000000e-01,-4.44943393384904e-04,6.00000000000000e-01
1.05220000000000e-07,6.00000000000000e-01,6.00000000000000e-01,-1.78991435303233e-03,6.00000000000000e-01
1.05348000000000e-07,6.00000000000000e-01,6.00000000000000e-01,-3.68978130952668e-03,6.00000000000000e-01
1.05604000000000e-07,6.00000000000000e-01,6.00000000000000e-01,5.21374883590927e-02,6.00000000000000e-01
1.06116000000000e-07,6.00000000000000e-01,6.00000000000000e-01,5.02651560310438e-01,6.00000000000000e-01
1.07140000000000e-07,6.00000000000000e-01,6.00000000000000e-01,6.24144797251281e-01,6.00000000000000e-01
1.08270295289118e-07,6.00000000000000e-01,6.00000000000000e-01,5.76270727968078e-01,6.00000000000000e-01
1.10530885867355e-07,6.00000000000000e-01,6.00000000000000e-01,6.20884553824538e-01,6.00000000000000e-01
1.13799146690312e-07,6.00000000000000e-01,6.00000000000000e-01,5.78240136736127e-01,6.00000000000000e-01
1.15100000000000e-07,6.00000000000000e-01,6.00000000000000e-01,6.18578524486259e-01,6.00000000000000e-01
1.15110000000000e-07,5.40000000000061e-01,6.00000000000000e-01,6.13453097526640e-01,6.00000000000000e-01
1.15130000000000e-07,4.20000000000084e-01,6.00000000000000e-01,6.06007905020737e-01,6.00000000000000e-01
1.15170000000000e-07,1.80000000000129e-01,6.00000000000000e-01,6.01052954790926e-01,6.00000000000000e-01
1.15200000000000e-07,8.40438829641244e-14,6.00000000000000e-01,6.01240712517177e-01,6.00000000000000e-01
1.15208000000000e-07,0.00000000000000e+00,6.00000000000000e-01,6.01425162116629e-01,6.00000000000000e-01
1.15224000000000e-07,0.00000000000000e+00,6.00000000000000e-01,6.01676988863092e-01,6.00000000000000e-01
