Time,v(clk),v(data),v(out)
1.61068582989766e-09,0.00000000000000e+00,0.00000000000000e+00,6.62143603665892e-05
2.99930832239837e-09,0.00000000000000e+00,0.00000000000000e+00,-6.22216375081967e-05
5.00000000000000e-09,0.00000000000000e+00,0.00000000000000e+00,6.95323552095117e-05
5.01000000000000e-09,5.99999999999986e-02,0.00000000000000e+00,7.35436119250907e-04
5.03000000000000e-09,1.80000000000001e-01,0.00000000000000e+00,1.79959003578330e-03
5.07000000000000e-09,4.20000000000000e-01,0.00000000000000e+00,2.56731449322702e-03
5.10000000000000e-09,6.00000000000000e-01,0.00000000000000e+00,4.50188392618164e-04
5.10800000000000e-09,6.00000000000000e-01,0.00000000000000e+00,-5.15240074187712e-04
5.12400000000000e-09,6.00000000000000e-01,0.00000000000000e+00,-1.87222701515384e-03
5.15600000000000e-09,6.00000000000000e-01,0.00000000000000e+00,-2.47132504992814e-03
5.22000000000000e-09,6.00000000000000e-01,0.00000000000000e+00,-1.57958640452913e-03
5.34800000000000e-09,6.00000000000000e-01,0.00000000000000e+00,-5.25241960297379e-04
5.60400000000000e-09,6.00000000000000e-01,0.00000000000000e+00,-7.83428074463619e-05
6.11600000000000e-09,6.00000000000000e-01,0.00000000000000e+00,5.41262089664835e-04
7.01397583430971e-09,6.00000000000000e-01,0.00000000000000e+00,-2.90863265881014e-04
8.16593289557936e-09,6.00000000000000e-01,0.00000000000000e+00,2.00979802679543e-04
1.00000000000000e-08,6.00000000000000e-01,0.00000000000000e+00,-1.35926758336524e-04
1.00100000000000e-08,6.00000000000000e-01,5.99999999999986e-02,-8.94512504379386e-05
1.00300000000000e-08,6.00000000000000e-01,1.79999999999996e-01,-2.59864470721211e-05
1.00700000000000e-08,6.00000000000000e-01,4.19999999999990e-01,-1.95148806289569e-05
1.01000000000000e-08,6.00000000000000e-01,5.99999999999995e-01,-1.30603678792487e-04
1.01080000000000e-08,6.00000000000000e-01,6.00000000000000e-01,-1.60233017210784e-04
1.01240000000000e-08,6.00000000000000e-01,6.00000000000000e-01,-1.83459880999784e-04
1.01560000000000e-08,6.00000000000000e-01,6.00000000000000e-01,-1.48401900915349e-04
1.02200000000000e-08,6.00000000000000e-01,6.00000000000000e-01,-2.22430392966405e-05
1.03480000000000e-08,6.00000000000000e-01,6.00000000000000e-01,5.32846058980962e-05
1.05962744052988e-08,6.00000000000000e-01,6.00000000000000e-01,2.58049508023578e-06
1.10323786085326e-08,6.00000000000000e-01,6.00000000000000e-01,1.71495391652204e-06
1.19045870150002e-08,6.00000000000000e-01,6.00000000000000e-01,1.13594859796201e-05
1.36490038279355e-08,6.00000000000000e-01,6.00000000000000e-01,2.63423826214054e-06
1.51000000000000e-08,6.00000000000000e-01,6.00000000000000e-01,9.11706609733193e-06
1.51100000000000e-08,5.39999999999992e-01,6.00000000000000e-01,-3.62495186880307e-04
1.51300000000000e-08,4.19999999999994e-01,6.00000000000000e-01,-1.14156938825767e-03
1.51700000000000e-08,1.80000000000000e-01,6.00000000000000e-01,-2.29292073985883e-03
1.52000000000000e-08,0.00000000000000e+00,6.00000000000000e-01,-1.64219034654670e-03
1.52080000000000e-08,0.00000000000000e+00,6.00000000000000e-01,-7.70477336745193e-04
1.52240000000000e-08,0.00000000000000e+00,6.00000000000000e-01,6.57522518750814e-04
1.52560000000000e-08,0.00000000000000e+00,6.00000000000000e-01,2.06301082756895e-03
1.53200000000000e-08,0.00000000000000e+00,6.00000000000000e-01,2.37233314240806e-03
1.54480000000000e-08,0.00000000000000e+00,6.00000000000000e-01,8.90234609191867e-04
1.57040000000000e-08,0.00000000000000e+00,6.00000000000000e-01,-9.07254222735715e-04
1.62160000000000e-08,0.00000000000000e+00,6.00000000000000e-01,1.13963718834820e-04
1.69664889324719e-08,0.00000000000000e+00,6.00000000000000e-01,-3.16435477312874e-04
1.78240868812651e-08,0.00000000000000e+00,6.00000000000000e-01,4.62787631668224e-04
1.92312272135980e-08,0.00000000000000e+00,6.00000000000000e-01,-3.82569706430707e-04
2.06762947665236e-08,0.00000000000000e+00,6.00000000000000e-01,3.15753483462862e-04
2.35664298723747e-08,0.00000000000000e+00,6.00000000000000e-01,-2.72108465038117e-04
2.50000000000000e-08,0.00000000000000e+00,6.00000000000000e-01,2.10982543441216e-04
2.50100000000000e-08,5.99999999999886e-02,6.00000000000000e-01,1.00617515445432e-03
2.50300000000000e-08,1.80000000000006e-01,6.00000000000000e-01,2.33970548686632e-03
2.50700000000000e-08,4.20000000000000e-01,6.00000000000000e-01,3.87262416366056e-03
2.51000000000000e-08,6.00000000000000e-01,6.00000000000000e-01,2.80987987397834e-03
2.51080000000000e-08,6.00000000000000e-01,6.00000000000000e-01,1.81588774277912e-03
2.51240000000000e-08,6.00000000000000e-01,6.00000000000000e-01,-3.07621904021033e-04
2.51560000000000e-08,6.00000000000000e-01,6.00000000000000e-01,-4.78361082578935e-03
2.52200000000000e-08,6.00000000000000e-01,6.00000000000000e-01,-1.18399222891095e-02
2.53480000000000e-08,6.00000000000000e-01,6.00000000000000e-01,-1.60796008058890e-02
2.56040000000000e-08,6.00000000000000e-01,6.00000000000000e-01,9.16070731836482e-02
2.61160000000000e-08,6.00000000000000e-01,6.00000000000000e-01,5.39731055106319e-01
2.69765017320174e-08,6.00000000000000e-01,6.00000000000000e-01,6.16197263256834e-01
2.78591915501107e-08,6.00000000000000e-01,6.00000000000000e-01,5.87502691307038e-01
2.94577992421855e-08,6.00000000000000e-01,6.00000000000000e-01,6.09524437455472e-01
3.10816016374863e-08,6.00000000000000e-01,6.00000000000000e-01,5.91520789788756e-01
3.43292064280878e-08,6.00000000000000e-01,6.00000000000000e-01,6.07432994126002e-01
3.51000000000000e-08,5.99999999999970e-01,6.00000000000000e-01,5.94459974542332e-01
3.51100000000000e-08,5.39999999999982e-01,6.00000000000000e-01,5.95076933431845e-01
3.51300000000000e-08,4.19999999999965e-01,6.00000000000000e-01,5.95904940490396e-01
3.51700000000000e-08,1.79999999999970e-01,6.00000000000000e-01,5.97339318815209e-01
3.52000000000000e-08,0.00000000000000e+00,6.00000000000000e-01,5.99670186472549e-01
3.52080000000000e-08,0.00000000000000e+00,6.00000000000000e-01,6.00680902439871e-01
3.52240000000000e-08,0.00000000000000e+00,6.00000000000000e-01,6.02422099379041e-01
3.52560000000000e-08,0.00000000000000e+00,6.00000000000000e-01,6.04494948924902e-01
3.53200000000000e-08,0.00000000000000e+00,6.00000000000000e-01,6.05938466266644e-01
3.54480000000000e-08,0.00000000000000e+00,6.00000000000000e-01,6.06662137229285e-01
3.57040000000000e-08,0.00000000000000e+00,6.00000000000000e-01,6.00726553252198e-01
3.62160000000000e-08,0.00000000000000e+00,6.00000000000000e-01,5.91311210189791e-01
3.71075580276142e-08,0.00000000000000e+00,6.00000000000000e-01,6.01772408940088e-01
3.82989734500052e-08,0.00000000000000e+00,6.00000000000000e-01,5.98440750093994e-01
3.99049464754764e-08,0.00000000000000e+00,6.00000000000000e-01,6.01045634571478e-01
4.31168925264187e-08,0.00000000000000e+00,6.00000000000000e-01,5.98914101298365e-01
4.50000000000000e-08,0.00000000000000e+00,6.00000000000000e-01,6.00802438673631e-01
4.50100000000000e-08,5.99999999999886e-02,6.00000000000000e-01,6.01056813668451e-01
4.50300000000000e-08,1.80000000000006e-01,6.00000000000000e-01,6.01439580596536e-01
4.50700000000000e-08,4.20000000000000e-01,6.00000000000000e-01,6.01789370156118e-01
4.51000000000000e-08,6.00000000000000e-01,6.00000000000000e-01,6.01216522692484e-01
4.51080000000000e-08,6.00000000000000e-01,5.52000000000025e-01,6.00759040990537e-01
4.51240000000000e-08,6.00000000000000e-01,4.55999999999996e-01,5.99893950489550e-01
4.51560000000000e-08,6.00000000000000e-01,2.64000000000016e-01,5.98426868237376e-01
4.52000000000000e-08,6.00000000000000e-01,3.44169137633799e-14,5.96939788949858e-01
4.52064000000000e-08,6.00000000000000e-01,0.00000000000000e+00,5.96790485311221e-01
4.52192000000000e-08,6.00000000000000e-01,0.00000000000000e+00,5.96452706239120e-01
4.52448000000000e-08,6.00000000000000e-01,0.00000000000000e+00,5.95697123344955e-01
4.52960000000000e-08,6.00000000000000e-01,0.00000000000000e+00,5.94115827286086e-01
4.53984000000000e-08,6.00000000000000e-01,0.00000000000000e+00,5.91992528446974e-01
4.56032000000000e-08,6.00000000000000e-01,0.00000000000000e+00,5.94195580291139e-01
4.60128000000000e-08,6.00000000000000e-01,0.00000000000000e+00,5.99739641389533e-01
4.64592752138044e-08,6.00000000000000e-01,0.00000000000000e+00,5.99955197856116e-01
4.73522256414133e-08,6.00000000000000e-01,0.00000000000000e+00,5.99973427570306e-01
4.82751190559882e-08,6.00000000000000e-01,0.00000000000000e+00,6.00062948159527e-01
5.01209058851381e-08,6.00000000000000e-01,0.00000000000000e+00,5.99925871299896e-01
5.36901019669203e-08,6.00000000000000e-01,0.00000000000000e+00,6.00078260432341e-01
5.51000000000000e-08,6.00000000000000e-01,0.00000000000000e+00,5.99914852226634e-01
5.51100000000000e-08,5.40000000000021e-01,0.00000000000000e+00,5.99601199852206e-01
5.51300000000000e-08,4.20000000000004e-01,0.00000000000000e+00,5.98991008246772e-01
5.51700000000000e-08,1.80000000000010e-01,0.00000000000000e+00,5.98711358947472e-01
5.52000000000000e-08,0.00000000000000e+00,0.00000000000000e+00,6.00439055260137e-01
5.52080000000000e-08,0.00000000000000e+00,0.00000000000000e+00,6.01430595560241e-01
5.52240000000000e-08,0.00000000000000e+00,0.00000000000000e+00,6.03056490549195e-01
5.52560000000000e-08,0.00000000000000e+00,0.00000000000000e+00,6.04910974183462e-01
5.53200000000000e-08,0.00000000000000e+00,0.00000000000000e+00,6.06183144164793e-01
5.54480000000000e-08,0.00000000000000e+00,0.00000000000000e+00,6.07057108593240e-01
5.57040000000000e-08,0.00000000000000e+00,0.00000000000000e+00,6.06559508734548e-01
5.62160000000000e-08,0.00000000000000e+00,0.00000000000000e+00,5.98463976125654e-01
5.68108954108268e-08,0.00000000000000e+00,0.00000000000000e+00,6.00755020258822e-01
5.77563102896062e-08,0.00000000000000e+00,0.00000000000000e+00,5.99360313462269e-01
5.89179653763420e-08,0.00000000000000e+00,0.00000000000000e+00,6.00408554743480e-01
6.12412755498137e-08,0.00000000000000e+00,0.00000000000000e+00,5.99557443158866e-01
6.50000000000000e-08,0.00000000000000e+00,0.00000000000000e+00,6.00340226090293e-01
6.50100000000000e-08,5.99999999999886e-02,0.00000000000000e+00,6.00657938347895e-01
6.50300000000000e-08,1.79999999999966e-01,0.00000000000000e+00,6.01137887099438e-01
6.50700000000000e-08,4.19999999999920e-01,0.00000000000000e+00,6.01522859167928e-01
6.51000000000000e-08,5.99999999999966e-01,0.00000000000000e+00,6.00591540412434e-01
6.51080000000000e-08,6.00000000000000e-01,0.00000000000000e+00,6.00066342139952e-01
6.51240000000000e-08,6.00000000000000e-01,0.00000000000000e+00,5.99210040276701e-01
6.51560000000000e-08,6.00000000000000e-01,0.00000000000000e+00,5.98006658743594e-01
6.52200000000000e-08,6.00000000000000e-01,0.00000000000000e+00,5.97025426400522e-01
6.53480000000000e-08,6.00000000000000e-01,0.00000000000000e+00,5.99043157960387e-01
6.56040000000000e-08,6.00000000000000e-01,0.00000000000000e+00,6.21929899888865e-01
6.61159999999999e-08,6.00000000000000e-01,0.00000000000000e+00,1.89507639062614e-01
6.68733958780598e-08,6.00000000000000e-01,0.00000000000000e+00,-6.15322044969481e-02
6.77121964616096e-08,6.00000000000000e-01,0.00000000000000e+00,5.20322216666598e-02
6.93166543650893e-08,6.00000000000000e-01,0.00000000000000e+00,-3.65899261108329e-02
7.07844893656835e-08,6.00000000000000e-01,0.00000000000000e+00,3.35340095650394e-02
7.37201593668719e-08,6.00000000000000e-01,0.00000000000000e+00,-2.72804780331528e-02
7.51000000000000e-08,6.00000000000000e-01,0.00000000000000e+00,2.39145627988727e-02
7.51100000000000e-08,5.40000000000061e-01,0.00000000000000e+00,2.08347643508748e-02
7.51300000000000e-08,4.20000000000084e-01,0.00000000000000e+00,1.52632325791523e-02
7.51700000000000e-08,1.80000000000129e-01,0.00000000000000e+00,7.39397898457955e-03
7.52000000000000e-08,8.40438829641244e-14,0.00000000000000e+00,4.84780372284141e-03
7.52080000000000e-08,0.00000000000000e+00,0.00000000000000e+00,5.05230419576440e-03
7.52240000000000e-08,0.00000000000000e+00,0.00000000000000e+00,5.30540687487531e-03
7.52560000000000e-08,0.00000000000000e+00,0.00000000000000e+00,5.10671557151217e-03
7.53200000000000e-08,0.00000000000000e+00,0.00000000000000e+00,3.52055836196277e-03
7.54480000000000e-08,0.00000000000000e+00,0.00000000000000e+00,1.93106549296843e-04
7.57040000000000e-08,0.00000000000000e+00,0.00000000000000e+00,-1.77956973161485e-03
7.62159999999999e-08,0.00000000000000e+00,0.00000000000000e+00,3.98268818090925e-04
7.68454771052516e-08,0.00000000000000e+00,0.00000000000000e+00,-3.27298095596958e-05
7.81044313157550e-08,0.00000000000000e+00,0.00000000000000e+00,-3.78601972306145e-05
7.96443094159744e-08,0.00000000000000e+00,0.00000000000000e+00,8.22594647188115e-05
8.27240656164133e-08,0.00000000000000e+00,0.00000000000000e+00,-8.93195405064053e-05
8.50000000000000e-08,0.00000000000000e+00,0.00000000000000e+00,1.08524177497930e-04
8.50100000000000e-08,5.99999999999886e-02,0.00000000000000e+00,7.60844499587077e-04
8.50300000000000e-08,1.79999999999966e-01,0.00000000000000e+00,1.80880715218602e-03
8.50700000000000e-08,4.19999999999920e-01,0.00000000000000e+00,2.44055035333603e-03
8.51000000000000e-08,5.99999999999966e-01,0.00000000000000e+00,2.44881875503880e-04
8.51080000000000e-08,6.00000000000000e-01,0.00000000000000e+00,-6.30395111353529e-04
8.51240000000000e-08,6.00000000000000e-01,0.00000000000000e+00,-1.84667610205215e-03
8.51560000000000e-08,6.00000000000000e-01,0.00000000000000e+00,-2.36514562574676e-03
8.52200000000000e-08,6.00000000000000e-01,0.00000000000000e+00,-1.59880342508838e-03
8.53480000000000e-08,6.00000000000000e-01,0.00000000000000e+00,-5.83077183223660e-04
8.56040000000000e-08,6.00000000000000e-01,0.00000000000000e+00,-4.12802912825930e-05
8.61159999999999e-08,6.00000000000000e-01,0.00000000000000e+00,5.22430281895529e-04
8.70001555655838e-08,6.00000000000000e-01,0.00000000000000e+00,-2.81189497461358e-04
8.81770881274428e-08,6.00000000000000e-01,0.00000000000000e+00,1.98317609256121e-04
9.00000000000000e-08,6.00000000000000e-01,0.00000000000000e+00,-1.34613663365306e-04
9.00100000000000e-08,6.00000000000000e-01,5.99999999999886e-02,-8.68290540961408e-05
9.00300000000000e-08,6.00000000000000e-01,1.79999999999966e-01,-2.32187001426298e-05
9.00700000000000e-08,6.00000000000000e-01,4.19999999999920e-01,-2.02944993648452e-05
9.01000000000000e-08,6.00000000000000e-01,5.99999999999966e-01,-1.23391779053975e-04
9.01080000000000e-08,6.00000000000000e-01,6.00000000000000e-01,-1.51883341541578e-04
9.01240000000000e-08,6.00000000000000e-01,6.00000000000000e-01,-1.75380604177447e-04
9.01560000000000e-08,6.00000000000000e-01,6.00000000000000e-01,-1.48960439343593e-04
9.02200000000000e-08,6.00000000000000e-01,6.00000000000000e-01,-2.40121452179942e-05
9.03480000000000e-08,6.00000000000000e-01,6.00000000000000e-01,5.20215022471737e-05
9.06040000000000e-08,6.00000000000000e-01,6.00000000000000e-01,2.36754157019459e-06
9.10554939152150e-08,6.00000000000000e-01,6.00000000000000e-01,2.25219390704787e-06
9.19584817456452e-08,6.00000000000000e-01,6.00000000000000e-01,1.11565831485624e-05
9.37644574065055e-08,6.00000000000000e-01,6.00000000000000e-01,2.67350369724702e-06
9.51000000000000e-08,6.00000000000000e-01,6.00000000000000e-01,9.05508379382865e-06
9.51100000000000e-08,5.40000000000061e-01,6.00000000000000e-01,-3.62932101030791e-04
9.51300000000000e-08,4.20000000000084e-01,6.00000000000000e-01,-1.14178160619977e-03
9.51700000000000e-08,1.80000000000129e-01,6.00000000000000e-01,-2.29292580947417e-03
9.52000000000000e-08,8.40438829641244e-14,6.00000000000000e-01,-1.64222507536350e-03
9.52080000000000e-08,0.00000000000000e+00,6.00000000000000e-01,-7.70507771722634e-04
9.52240000000000e-08,0.00000000000000e+00,6.00000000000000e-01,6.57500464462418e-04
9.52560000000000e-08,0.00000000000000e+00,6.00000000000000e-01,2.06299795805955e-03
9.53200000000000e-08,0.00000000000000e+00,6.00000000000000e-01,2.37234252603169e-03
9.54480000000000e-08,0.00000000000000e+00,6.00000000000000e-01,8.90285606496621e-04
9.57040000000000e-08,0.00000000000000e+00,6.00000000000000e-01,-9.07204344339677e-04
9.62159999999999e-08,0.00000000000000e+00,6.00000000000000e-01,1.13887059700862e-04
9.69665192728106e-08,0.00000000000000e+00,6.00000000000000e-01,-3.16353450204931e-04
9.78241323476357e-08,0.00000000000000e+00,6.00000000000000e-01,4.62702743531860e-04
9.92313185212199e-08,0.00000000000000e+00,6.00000000000000e-01,-3.82491929526623e-04
1.00676430692154e-07,0.00000000000000e+00,6.00000000000000e-01,3.15685611564923e-04
1.03566655034022e-07,0.00000000000000e+00,6.00000000000000e-01,-2.72046331350328e-04
1.05000000000000e-07,0.00000000000000e+00,6.00000000000000e-01,2.10919457787371e-04
1.05010000000000e-07,5.99999999999886e-02,6.00000000000000e-01,1.00611865144425e-03
1.05030000000000e-07,1.79999999999966e-01,6.00000000000000e-01,2.33966086326735e-03
1.05070000000000e-07,4.19999999999920e-01,6.00000000000000e-01,3.87259249709690e-03
1.05100000000000e-07,5.99999999999966e-01,6.00000000000000e-01,2.80984479198938e-03
1.05108000000000e-07,6.00000000000000e-01,6.00000000000000e-01,1.81585201401324e-03
1.05124000000000e-07,6.00000000000000e-01,6.00000000000000e-01,-3.07657153691437e-04
1.05156000000000e-07,6.00000000000000e-01,6.00000000000000e-01,-4.78363628371703e-03
1.05220000000000e-07,6.00000000000000e-01,6.00000000000000e-01,-1.18399275401172e-02
1.05348000000000e-07,6.00000000000000e-01,6.00000000000000e-01,-1.60795896316747e-02
1.05604000000000e-07,6.00000000000000e-01,6.00000000000000e-01,9.16072183984762e-02
1.06116000000000e-07,6.00000000000000e-01,6.00000000000000e-01,5.39731127900904e-01
1.06976501641791e-07,6.00000000000000e-01,6.00000000000000e-01,6.16197244280677e-01
1.07859191345480e-07,6.00000000000000e-01,6.00000000000000e-01,5.87502709957537e-01
1.09457798824255e-07,6.00000000000000e-01,6.00000000000000e-01,6.09524421915827e-01
1.11081601048672e-07,6.00000000000000e-01,6.00000000000000e-01,5.91520804923187e-01
1.14329205497506e-07,6.00000000000000e-01,6.00000000000000e-01,6.07432980527685e-01
1.15100000000000e-07,6.00000000000000e-01,6.00000000000000e-01,5.94459983699095e-01
1.15110000000000e-07,5.40000000000061e-01,6.00000000000000e-01,5.95076940815792e-01
1.15130000000000e-07,4.20000000000084e-01,6.00000000000000e-01,5.95904944976934e-01
1.15170000000000e-07,1.80000000000129e-01,6.00000000000000e-01,5.97339320310226e-01
1.15200000000000e-07,8.40438829641244e-14,6.00000000000000e-01,5.99670187119689e-01
1.15208000000000e-07,0.00000000000000e+00,6.00000000000000e-01,6.00680903023043e-01
1.15224000000000e-07,0.00000000000000e+00,6.00000000000000e-01,6.02422099685643e-01
1.15256000000000e-07,0.00000000000000e+00,6.00000000000000e-01,6.04494948982761e-01
1.15320000000000e-07,0.00000000000000e+00,6.00000000000000e-01,6.05938466128197e-01
1.15448000000000e-07,0.00000000000000e+00,6.00000000000000e-01,6.06662137015426e-01
1.15704000000000e-07,0.00000000000000e+00,6.00000000000000e-01,6.00726553805851e-01
1.16216000000000e-07,0.00000000000000e+00,6.00000000000000e-01,5.91311210529518e-01
1.17107558152177e-07,0.00000000000000e+00,6.00000000000000e-01,6.01772407621733e-01
1.18298973626273e-07,0.00000000000000e+00,6.00000000000000e-01,5.98440751387380e-01
1.19904946589056e-07,0.00000000000000e+00,6.00000000000000e-01,6.01045633688516e-01
1.23116892514623e-07,0.00000000000000e+00,6.00000000000000e-01,5.98914102204295e-01
1.25000000000000e-07,0.00000000000000e+00,6.00000000000000e-01,6.00802437946036e-01
1.25010000000000e-07,5.99999999999092e-02,6.00000000000000e-01,6.01056813037194e-01
1.25030000000000e-07,1.79999999999886e-01,6.00000000000000e-01,6.01439580129283e-01
1.25070000000000e-07,4.19999999999841e-01,6.00000000000000e-01,6.01789369892612e-01
1.25100000000000e-07,5.99999999999886e-01,6.00000000000000e-01,6.01216522346371e-01
1.25108000000000e-07,6.00000000000000e-01,5.51999999999946e-01,6.00759040593269e-01
1.25124000000000e-07,6.00000000000000e-01,4.55999999999996e-01,5.99893950060152e-01
1.25156000000000e-07,6.00000000000000e-01,2.63999999999937e-01,5.98426867790536e-01
