Time,v(clk),v(data),v(out)
1.00000000000000e-08,6.00000000000000e-01,0.00000000000000e+00,5.98847706415571e-06
1.00100000000000e-08,6.00000000000000e-01,5.99999999999985e-02,1.26220495898915e-05
1.00300000000000e-08,6.00000000000000e-01,1.79999999999996e-01,1.50332409531162e-05
1.00700000000000e-08,6.00000000000000e-01,4.19999999999990e-01,5.75907569639461e-06
1.01000000000000e-08,6.00000000000000e-01,5.99999999999995e-01,8.39049526676905e-07
1.01080000000000e-08,6.00000000000000e-01,6.00000000000000e-01,-5.59546732170624e-07
1.01240000000000e-08,6.00000000000000e-01,6.00000000000000e-01,-1.03763501888010e-07
1.01560000000000e-08,6.00000000000000e-01,6.00000000000000e-01,5.78520402430560e-06
1.02200000000000e-08,6.00000000000000e-01,6.00000000000000e-01,8.05621085904484e-06
1.03480000000000e-08,6.00000000000000e-01,6.00000000000000e-01,1.20332036515625e-06
1.06040000000000e-08,6.00000000000000e-01,6.00000000000000e-01,1.76695114607536e-06
1.11160000000000e-08,6.00000000000000e-01,6.00000000000000e-01,2.10635167308647e-06
1.21400000000000e-08,6.00000000000000e-01,6.00000000000000e-01,1.58876161346615e-06
1.41880000000000e-08,6.00000000000000e-01,6.00000000000000e-01,1.87027309510920e-06
1.51000000000000e-08,6.00000000000000e-01,6.00000000000000e-01,1.43603232449080e-06
1.51100000000000e-08,5.39999999999991e-01,6.00000000000000e-01,-1.00050577115970e-04
1.51300000000000e-08,4.19999999999994e-01,6.00000000000000e-01,-2.35839267778565e-04
1.51700000000000e-08,1.80000000000000e-01,6.00000000000000e-01,-1.64952189561474e-04
1.52000000000000e-08,0.00000000000000e+00,6.00000000000000e-01,3.17132299412895e-04
1.52080000000000e-08,0.00000000000000e+00,6.00000000000000e-01,5.39434122857646e-04
1.52240000000000e-08,0.00000000000000e+00,6.00000000000000e-01,7.73348843107147e-04
1.52560000000000e-08,0.00000000000000e+00,6.00000000000000e-01,6.14426112691940e-04
1.53200000000000e-08,0.00000000000000e+00,6.00000000000000e-01,-1.59768873563566e-04
1.54480000000000e-08,0.00000000000000e+00,6.00000000000000e-01,-3.76402975419778e-04
1.57040000000000e-08,0.00000000000000e+00,6.00000000000000e-01,1.65491835277573e-04
1.60687674902480e-08,0.00000000000000e+00,6.00000000000000e-01,-2.13740238446749e-04
1.66130069856820e-08,0.00000000000000e+00,6.00000000000000e-01,2.99202807815608e-04
1.77014859765500e-08,0.00000000000000e+00,6.00000000000000e-01,-3.03881790184611e-04
1.87993590983368e-08,0.00000000000000e+00,6.00000000000000e-01,2.96662574255807e-04
2.09951053419102e-08,0.00000000000000e+00,6.00000000000000e-01,-2.89263275574626e-04
2.46794248692573e-08,0.00000000000000e+00,6.00000000000000e-01,2.84874108530301e-04
2.50000000000000e-08,0.00000000000000e+00,6.00000000000000e-01,-2.09423506269200e-04
2.50100000000000e-08,5.99999999999886e-02,6.00000000000000e-01,-3.33859159665217e-06
2.50300000000000e-08,1.80000000000006e-01,6.00000000000000e-01,3.31182779911759e-04
2.50700000000000e-08,4.20000000000000e-01,6.00000000000000e-01,6.81324127411176e-04
2.51000000000000e-08,6.00000000000000e-01,6.00000000000000e-01,2.16439266556359e-04
2.51080000000000e-08,6.00000000000000e-01,6.00000000000000e-01,-2.71108170880441e-04
2.51240000000000e-08,6.00000000000000e-01,6.00000000000000e-01,-1.35585562611833e-03
2.51560000000000e-08,6.00000000000000e-01,6.00000000000000e-01,-3.46389322830906e-03
2.52200000000000e-08,6.00000000000000e-01,6.00000000000000e-01,-6.04258316502090e-03
2.53480000000000e-08,6.00000000000000e-01,6.00000000000000e-01,2.14257210490133e-02
2.56040000000000e-08,6.00000000000000e-01,6.00000000000000e-01,4.78738327156419e-01
2.61160000000000e-08,6.00000000000000e-01,6.00000000000000e-01,6.22037184925354e-01
2.66298687635038e-08,6.00000000000000e-01,6.00000000000000e-01,5.79153686922199e-01
2.76576062905114e-08,6.00000000000000e-01,6.00000000000000e-01,6.19045922292706e-01
2.91969301215467e-08,6.00000000000000e-01,6.00000000000000e-01,5.80570884890032e-01
3.01000000000000e-08,6.00000000000000e-01,6.00000000000000e-01,6.17513336202102e-01
3.01100000000000e-08,6.00000000000000e-01,5.40000000000031e-01,6.09194693260320e-01
3.01300000000000e-08,6.00000000000000e-01,4.20000000000014e-01,6.00447852230425e-01
3.01700000000000e-08,6.00000000000000e-01,1.80000000000020e-01,5.99822989992199e-01
3.02000000000000e-08,6.00000000000000e-01,1.44328993201270e-14,6.00003856483708e-01
3.02080000000000e-08,6.00000000000000e-01,0.00000000000000e+00,5.99993595196323e-01
3.02240000000000e-08,6.00000000000000e-01,0.00000000000000e+00,5.99974335902068e-01
3.02560000000000e-08,6.00000000000000e-01,0.00000000000000e+00,5.99954285666044e-01
3.03200000000000e-08,6.00000000000000e-01,0.00000000000000e+00,5.99957285795454e-01
3.04480000000000e-08,6.00000000000000e-01,0.00000000000000e+00,6.00000335418279e-01
3.06772595897803e-08,6.00000000000000e-01,0.00000000000000e+00,5.99990119935896e-01
3.10517863825258e-08,6.00000000000000e-01,0.00000000000000e+00,5.99979056816303e-01
3.15785656061450e-08,6.00000000000000e-01,0.00000000000000e+00,5.99998385316627e-01
3.26321240533833e-08,6.00000000000000e-01,0.00000000000000e+00,5.99978050589463e-01
3.47392409478600e-08,6.00000000000000e-01,0.00000000000000e+00,6.00001841786613e-01
3.51000000000000e-08,5.99999999999970e-01,0.00000000000000e+00,5.99978651468275e-01
3.51100000000000e-08,5.39999999999982e-01,0.00000000000000e+00,5.99892938417847e-01
3.51300000000000e-08,4.19999999999965e-01,0.00000000000000e+00,5.99807010232270e-01
3.51700000000000e-08,1.79999999999970e-01,0.00000000000000e+00,6.00569750771075e-01
3.52000000000000e-08,0.00000000000000e+00,0.00000000000000e+00,6.03011623578597e-01
3.52080000000000e-08,0.00000000000000e+00,0.00000000000000e+00,6.03657712557828e-01
3.52240000000000e-08,0.00000000000000e+00,0.00000000000000e+00,6.04292434126609e-01
3.52560000000000e-08,0.00000000000000e+00,0.00000000000000e+00,6.01406626453865e-01
3.53200000000000e-08,0.00000000000000e+00,0.00000000000000e+00,5.86946305675034e-01
3.54480000000000e-08,0.00000000000000e+00,0.00000000000000e+00,5.88328982915215e-01
3.56818514246709e-08,0.00000000000000e+00,0.00000000000000e+00,6.03505762069588e-01
3.60068634904941e-08,0.00000000000000e+00,0.00000000000000e+00,5.96412793772877e-01
3.66568876221405e-08,0.00000000000000e+00,0.00000000000000e+00,6.02531392789044e-01
3.74202837475692e-08,0.00000000000000e+00,0.00000000000000e+00,5.97429884922868e-01
3.89470759984264e-08,0.00000000000000e+00,0.00000000000000e+00,6.02197976829219e-01
3.91000000000000e-08,0.00000000000000e+00,0.00000000000000e+00,5.98684202357708e-01
3.94053584501715e-08,0.00000000000000e+00,0.00000000000000e+00,5.99838816579367e-01
4.00160753505144e-08,0.00000000000000e+00,0.00000000000000e+00,6.00013892421649e-01
4.12375091512002e-08,0.00000000000000e+00,0.00000000000000e+00,5.99876225753483e-01
4.36803767525718e-08,0.00000000000000e+00,0.00000000000000e+00,6.00028759596604e-01
4.50000000000000e-08,0.00000000000000e+00,0.00000000000000e+00,5.99900429754059e-01
4.50100000000000e-08,5.99999999999886e-02,0.00000000000000e+00,6.00016722953866e-01
4.50300000000000e-08,1.80000000000006e-01,0.00000000000000e+00,6.00127290291354e-01
4.50700000000000e-08,4.20000000000000e-01,0.00000000000000e+00,6.00036898516419e-01
4.51000000000000e-08,6.00000000000000e-01,0.00000000000000e+00,5.99858584888491e-01
4.51080000000000e-08,6.00000000000000e-01,0.00000000000000e+00,5.99771237246739e-01
4.51240000000000e-08,6.00000000000000e-01,0.00000000000000e+00,5.99680784646774e-01
4.51560000000000e-08,6.00000000000000e-01,0.00000000000000e+00,5.99679960946227e-01
4.52200000000000e-08,6.00000000000000e-01,0.00000000000000e+00,5.99816272837583e-01
4.53480000000000e-08,6.00000000000000e-01,0.00000000000000e+00,6.01668934090613e-01
4.56040000000000e-08,6.00000000000000e-01,0.00000000000000e+00,4.42759563116697e-01
4.61160000000000e-08,6.00000000000000e-01,0.00000000000000e+00,-7.64776961827684e-03
4.66413950691747e-08,6.00000000000000e-01,0.00000000000000e+00,4.49196527226321e-03
4.76921852075242e-08,6.00000000000000e-01,0.00000000000000e+00,-1.82709087716251e-03
4.89217184847322e-08,6.00000000000000e-01,0.00000000000000e+00,1.57790150537104e-03
5.00000000000000e-08,6.00000000000000e-01,0.00000000000000e+00,1.61450718001034e-04
5.00100000000000e-08,6.00000000000000e-01,5.99999999999886e-02,-1.66825206576106e-03
5.00300000000000e-08,6.00000000000000e-01,1.79999999999966e-01,-2.80945757215124e-03
5.00700000000000e-08,6.00000000000000e-01,4.20000000000000e-01,-1.26457368127218e-03
5.01000000000000e-08,6.00000000000000e-01,6.00000000000000e-01,-7.87681098564197e-04
5.01080000000000e-08,6.00000000000000e-01,6.00000000000000e-01,-6.63782212838221e-04
5.01240000000000e-08,6.00000000000000e-01,6.00000000000000e-01,-4.71513176387731e-04
5.01560000000000e-08,6.00000000000000e-01,6.00000000000000e-01,-2.49456338254669e-04
5.02200000000000e-08,6.00000000000000e-01,6.00000000000000e-01,-6.25919107152956e-05
5.03480000000000e-08,6.00000000000000e-01,6.00000000000000e-01,1.09032068619230e-05
5.06040000000000e-08,6.00000000000000e-01,6.00000000000000e-01,-3.77439663433801e-06
5.11160000000001e-08,6.00000000000000e-01,6.00000000000000e-01,2.28579758402951e-06
5.21400000000002e-08,6.00000000000000e-01,6.00000000000000e-01,-1.69763973616177e-06
5.41880000000003e-08,6.00000000000000e-01,6.00000000000000e-01,1.29211744537283e-06
5.51000000000000e-08,6.00000000000000e-01,6.00000000000000e-01,-1.49915074950518e-06
5.51100000000000e-08,5.40000000000021e-01,6.00000000000000e-01,-1.08669308078665e-04
5.51300000000000e-08,4.20000000000004e-01,6.00000000000000e-01,-2.49955579028655e-04
5.51700000000000e-08,1.80000000000010e-01,6.00000000000000e-01,-1.78763821620923e-04
5.52000000000000e-08,0.00000000000000e+00,6.00000000000000e-01,3.06792115345025e-04
5.52080000000000e-08,0.00000000000000e+00,6.00000000000000e-01,5.25746795190088e-04
5.52240000000000e-08,0.00000000000000e+00,6.00000000000000e-01,7.42077102182215e-04
5.52560000000000e-08,0.00000000000000e+00,6.00000000000000e-01,4.29837617598586e-04
5.53200000000000e-08,0.00000000000000e+00,6.00000000000000e-01,-1.12414906459313e-03
5.54480000000000e-08,0.00000000000000e+00,6.00000000000000e-01,-8.97113639708298e-04
5.57039872897695e-08,0.00000000000000e+00,6.00000000000000e-01,4.58074017473342e-04
5.60679027403832e-08,0.00000000000000e+00,6.00000000000000e-01,-4.20172764022252e-04
5.66127387678695e-08,0.00000000000000e+00,6.00000000000000e-01,4.61416982731465e-04
5.77024108228423e-08,0.00000000000000e+00,6.00000000000000e-01,-4.51315484642905e-04
5.87994090858107e-08,0.00000000000000e+00,6.00000000000000e-01,4.29548363725850e-04
6.09934056117475e-08,0.00000000000000e+00,6.00000000000000e-01,-4.17329834554173e-04
6.46828771291371e-08,0.00000000000000e+00,6.00000000000000e-01,4.08369685425972e-04
6.50000000000000e-08,0.00000000000000e+00,6.00000000000000e-01,-3.02083251089449e-04
6.50100000000000e-08,5.99999999999886e-02,6.00000000000000e-01,-5.69007919672404e-05
6.50300000000000e-08,1.79999999999966e-01,6.00000000000000e-01,3.13232773337294e-04
6.50700000000000e-08,4.19999999999920e-01,6.00000000000000e-01,6.71868291283795e-04
6.51000000000000e-08,5.99999999999966e-01,6.00000000000000e-01,2.14557847463992e-04
6.51080000000000e-08,6.00000000000000e-01,6.00000000000000e-01,-2.73468740209989e-04
6.51240000000000e-08,6.00000000000000e-01,6.00000000000000e-01,-1.35817819556081e-03
6.51560000000000e-08,6.00000000000000e-01,6.00000000000000e-01,-3.46501789013426e-03
6.52200000000000e-08,6.00000000000000e-01,6.00000000000000e-01,-6.04301788514280e-03
6.53480000000000e-08,6.00000000000000e-01,6.00000000000000e-01,2.14229573237390e-02
6.56040000000000e-08,6.00000000000000e-01,6.00000000000000e-01,4.78733790132422e-01
6.61159999999999e-08,6.00000000000000e-01,6.00000000000000e-01,6.22037360716026e-01
6.66298688106574e-08,6.00000000000000e-01,6.00000000000000e-01,5.79153552454723e-01
6.76576064319724e-08,6.00000000000000e-01,6.00000000000000e-01,6.19046086769301e-01
6.91969239713047e-08,6.00000000000000e-01,6.00000000000000e-01,5.80570747330712e-01
7.01000000000000e-08,6.00000000000000e-01,6.00000000000000e-01,6.17513493440049e-01
7.01100000000000e-08,6.00000000000000e-01,5.40000000000011e-01,6.09194647933737e-01
7.01300000000000e-08,6.00000000000000e-01,4.20000000000034e-01,6.00447938907261e-01
7.01700000000000e-08,6.00000000000000e-01,1.80000000000080e-01,5.99822931390139e-01
7.02000000000000e-08,6.00000000000000e-01,3.44169137633799e-14,6.00003788859309e-01
7.02080000000000e-08,6.00000000000000e-01,0.00000000000000e+00,5.99993558020776e-01
7.02240000000000e-08,6.00000000000000e-01,0.00000000000000e+00,5.99974312097557e-01
7.02560000000000e-08,6.00000000000000e-01,0.00000000000000e+00,5.99954281516953e-01
7.03200000000000e-08,6.00000000000000e-01,0.00000000000000e+00,5.99957278016990e-01
7.04480000000000e-08,6.00000000000000e-01,0.00000000000000e+00,6.00000345481782e-01
7.06772838982805e-08,6.00000000000000e-01,0.00000000000000e+00,5.99990136735481e-01
7.10517519071184e-08,6.00000000000000e-01,0.00000000000000e+00,5.99979037932457e-01
7.15785440332803e-08,6.00000000000000e-01,0.00000000000000e+00,5.99998402796792e-01
7.26321282856042e-08,6.00000000000000e-01,0.00000000000000e+00,5.99978032385938e-01
7.47392967902520e-08,6.00000000000000e-01,0.00000000000000e+00,6.00001859319681e-01
7.51000000000000e-08,6.00000000000000e-01,0.00000000000000e+00,5.99978634584484e-01
7.51100000000000e-08,5.40000000000061e-01,0.00000000000000e+00,5.99892929446495e-01
7.51300000000000e-08,4.20000000000084e-01,0.00000000000000e+00,5.99807010712579e-01
7.51700000000000e-08,1.80000000000129e-01,0.00000000000000e+00,6.00569751535276e-01
7.52000000000000e-08,8.40438829641244e-14,0.00000000000000e+00,6.03011622466252e-01
7.52080000000000e-08,0.00000000000000e+00,0.00000000000000e+00,6.03657710305613e-01
7.52240000000000e-08,0.00000000000000e+00,0.00000000000000e+00,6.04292425497133e-01
7.52560000000000e-08,0.00000000000000e+00,0.00000000000000e+00,6.01406578749692e-01
7.53200000000000e-08,0.00000000000000e+00,0.00000000000000e+00,5.86946244326552e-01
7.54480000000000e-08,0.00000000000000e+00,0.00000000000000e+00,5.88328994551660e-01
7.56818513558107e-08,0.00000000000000e+00,0.00000000000000e+00,6.03505758399622e-01
7.60068634367119e-08,0.00000000000000e+00,0.00000000000000e+00,5.96412795899291e-01
7.66568875985142e-08,0.00000000000000e+00,0.00000000000000e+00,6.02531390790541e-01
7.74202836870257e-08,0.00000000000000e+00,0.00000000000000e+00,5.97429886705928e-01
7.81000000000000e-08,0.00000000000000e+00,0.00000000000000e+00,6.02011886890656e-01
7.82526792177023e-08,0.00000000000000e+00,0.00000000000000e+00,6.00170299654445e-01
7.85580376531069e-08,0.00000000000000e+00,0.00000000000000e+00,5.99712543194594e-01
7.91687545239161e-08,0.00000000000000e+00,0.00000000000000e+00,6.00091859533841e-01
8.03901882655344e-08,0.00000000000000e+00,0.00000000000000e+00,5.99783479054363e-01
8.28330557487710e-08,0.00000000000000e+00,0.00000000000000e+00,6.00106600315119e-01
8.50000000000000e-08,0.00000000000000e+00,0.00000000000000e+00,5.99820155993500e-01
8.50100000000000e-08,5.99999999999886e-02,0.00000000000000e+00,5.99951997333696e-01
8.50300000000000e-08,1.79999999999966e-01,0.00000000000000e+00,6.00089490721253e-01
8.50700000000000e-08,4.19999999999920e-01,0.00000000000000e+00,6.00054060164516e-01
8.51000000000000e-08,5.99999999999966e-01,0.00000000000000e+00,5.99872627583630e-01
8.51080000000000e-08,6.00000000000000e-01,0.00000000000000e+00,5.99795408993125e-01
8.51240000000000e-08,6.00000000000000e-01,0.00000000000000e+00,5.99679229032561e-01
8.51560000000000e-08,6.00000000000000e-01,0.00000000000000e+00,5.99676010880115e-01
8.52200000000000e-08,6.00000000000000e-01,0.00000000000000e+00,5.99816855842118e-01
8.53480000000000e-08,6.00000000000000e-01,0.00000000000000e+00,6.01658345002110e-01
8.56040000000000e-08,6.00000000000000e-01,0.00000000000000e+00,4.42736543207391e-01
8.61159999999999e-08,6.00000000000000e-01,0.00000000000000e+00,-7.67089659828780e-03
8.66411134681258e-08,6.00000000000000e-01,0.00000000000000e+00,4.50673806891179e-03
8.76913404043776e-08,6.00000000000000e-01,0.00000000000000e+00,-1.83870792564668e-03
8.89206921698862e-08,6.00000000000000e-01,0.00000000000000e+00,1.58773867911876e-03
9.00000000000000e-08,6.00000000000000e-01,0.00000000000000e+00,1.51904892827629e-04
9.00100000000000e-08,6.00000000000000e-01,5.99999999999886e-02,-1.67542360538522e-03
9.00300000000000e-08,6.00000000000000e-01,1.79999999999966e-01,-2.81348891375438e-03
9.00700000000000e-08,6.00000000000000e-01,4.19999999999920e-01,-1.26643829010043e-03
9.01000000000000e-08,6.00000000000000e-01,5.99999999999966e-01,-7.88665630529720e-04
9.01080000000000e-08,6.00000000000000e-01,6.00000000000000e-01,-6.64653323833753e-04
9.01240000000000e-08,6.00000000000000e-01,6.00000000000000e-01,-4.72163629467753e-04
9.01560000000000e-08,6.00000000000000e-01,6.00000000000000e-01,-2.49786022259099e-04
9.02200000000000e-08,6.00000000000000e-01,6.00000000000000e-01,-6.26731957183643e-05
9.03480000000000e-08,6.00000000000000e-01,6.00000000000000e-01,1.08986203711040e-05
9.06040000000000e-08,6.00000000000000e-01,6.00000000000000e-01,-3.77437140400283e-06
9.11159999999999e-08,6.00000000000000e-01,6.00000000000000e-01,2.28509887376625e-06
9.21399999999999e-08,6.00000000000000e-01,6.00000000000000e-01,-1.69832757082947e-06
9.41879999999998e-08,6.00000000000000e-01,6.00000000000000e-01,1.29183208504458e-06
9.51000000000000e-08,6.00000000000000e-01,6.00000000000000e-01,-1.49980400673648e-06
9.51100000000000e-08,5.40000000000061e-01,6.00000000000000e-01,-1.08668273325008e-04
9.51300000000000e-08,4.20000000000084e-01,6.00000000000000e-01,-2.49950589525094e-04
9.51700000000000e-08,1.80000000000129e-01,6.00000000000000e-01,-1.78757337597812e-04
9.52000000000000e-08,8.40438829641244e-14,6.00000000000000e-01,3.06792793928506e-04
9.52080000000000e-08,0.00000000000000e+00,6.00000000000000e-01,5.25744140328882e-04
9.52240000000000e-08,0.00000000000000e+00,6.00000000000000e-01,7.42057882548108e-04
9.52560000000000e-08,0.00000000000000e+00,6.00000000000000e-01,4.29707475617297e-04
9.53200000000000e-08,0.00000000000000e+00,6.00000000000000e-01,-1.12494460494548e-03
9.54480000000000e-08,0.00000000000000e+00,6.00000000000000e-01,-8.97710167694597e-04
9.57039034660092e-08,0.00000000000000e+00,6.00000000000000e-01,4.58271702013603e-04
9.60678517707148e-08,0.00000000000000e+00,6.00000000000000e-01,-4.20339640887221e-04
9.66126142839534e-08,0.00000000000000e+00,6.00000000000000e-01,4.61514748743714e-04
9.77021393104306e-08,0.00000000000000e+00,6.00000000000000e-01,-4.51368733788926e-04
9.87990023440302e-08,0.00000000000000e+00,6.00000000000000e-01,4.29569978510742e-04
1.00992728411229e-07,0.00000000000000e+00,6.00000000000000e-01,-4.17336456556833e-04
1.04682172168106e-07,0.00000000000000e+00,6.00000000000000e-01,4.08371506210227e-04
1.05000000000000e-07,0.00000000000000e+00,6.00000000000000e-01,-3.02280164161547e-04
1.05010000000000e-07,5.99999999999886e-02,6.00000000000000e-01,-5.70391029483391e-05
1.05030000000000e-07,1.79999999999966e-01,6.00000000000000e-01,3.13174140629896e-04
1.05070000000000e-07,4.19999999999920e-01,6.00000000000000e-01,6.71848561538221e-04
1.05100000000000e-07,5.99999999999966e-01,6.00000000000000e-01,2.14534207304495e-04
1.05108000000000e-07,6.00000000000000e-01,6.00000000000000e-01,-2.73496934228498e-04
1.05124000000000e-07,6.00000000000000e-01,6.00000000000000e-01,-1.35821025058934e-03
1.05156000000000e-07,6.00000000000000e-01,6.00000000000000e-01,-3.46504416713940e-03
1.05220000000000e-07,6.00000000000000e-01,6.00000000000000e-01,-6.04302786749501e-03
1.05348000000000e-07,6.00000000000000e-01,6.00000000000000e-01,2.14239031591724e-02
1.05604000000000e-07,6.00000000000000e-01,6.00000000000000e-01,4.78735230470135e-01
1.06116000000000e-07,6.00000000000000e-01,6.00000000000000e-01,6.22037301001054e-01
1.06629868880623e-07,6.00000000000000e-01,6.00000000000000e-01,5.79153585563358e-01
