Time,v(clk),v(data),v(out)
1.00000000000000e-08,6.00000000000000e-01,0.00000000000000e+00,-5.75159979473560e-06
1.00100000000000e-08,6.00000000000000e-01,5.99999999999985e-02,3.41025120491334e-06
1.00300000000000e-08,6.00000000000000e-01,1.79999999999996e-01,1.11211142942019e-05
1.00700000000000e-08,6.00000000000000e-01,4.19999999999990e-01,5.91160602933516e-06
1.01000000000000e-08,6.00000000000000e-01,5.99999999999995e-01,7.06004901984691e-07
1.01080000000000e-08,6.00000000000000e-01,6.00000000000000e-01,-4.45666744341988e-07
1.01240000000000e-08,6.00000000000000e-01,6.00000000000000e-01,4.67790968447512e-07
1.01560000000000e-08,6.00000000000000e-01,6.00000000000000e-01,6.13719554676262e-06
1.02200000000000e-08,6.00000000000000e-01,6.00000000000000e-01,1.03413449204365e-05
1.03480000000000e-08,6.00000000000000e-01,6.00000000000000e-01,5.13371988537792e-06
1.06040000000000e-08,6.00000000000000e-01,6.00000000000000e-01,3.39455972613728e-06
1.11030943215332e-08,6.00000000000000e-01,6.00000000000000e-01,5.09209607737690e-06
1.21012829645997e-08,6.00000000000000e-01,6.00000000000000e-01,3.38824154432101e-06
1.40976602507325e-08,6.00000000000000e-01,6.00000000000000e-01,4.47678741475992e-06
1.51000000000000e-08,6.00000000000000e-01,6.00000000000000e-01,3.09581134434744e-06
1.51100000000000e-08,5.39999999999991e-01,6.00000000000000e-01,-1.02057542999676e-04
1.51300000000000e-08,4.19999999999994e-01,6.00000000000000e-01,-2.51700590691309e-04
1.51700000000000e-08,1.80000000000000e-01,6.00000000000000e-01,-1.97964396268124e-04
1.52000000000000e-08,0.00000000000000e+00,6.00000000000000e-01,2.82843106055947e-04
1.52080000000000e-08,0.00000000000000e+00,6.00000000000000e-01,5.13752624235309e-04
1.52240000000000e-08,0.00000000000000e+00,6.00000000000000e-01,7.79815388161534e-04
1.52560000000000e-08,0.00000000000000e+00,6.00000000000000e-01,6.95051891419746e-04
1.53200000000000e-08,0.00000000000000e+00,6.00000000000000e-01,-5.05650433097679e-05
1.54480000000000e-08,0.00000000000000e+00,6.00000000000000e-01,-4.80304019748780e-04
1.57040000000000e-08,0.00000000000000e+00,6.00000000000000e-01,1.98377583913476e-04
1.60804664742423e-08,0.00000000000000e+00,6.00000000000000e-01,-2.62074734251719e-04
1.67152137019273e-08,0.00000000000000e+00,6.00000000000000e-01,3.00428308974985e-04
1.79847081572974e-08,0.00000000000000e+00,6.00000000000000e-01,-2.64004070357539e-04
1.91340229645514e-08,0.00000000000000e+00,6.00000000000000e-01,2.32637795234652e-04
2.14326525790594e-08,0.00000000000000e+00,6.00000000000000e-01,-2.11014322854892e-04
2.50000000000000e-08,0.00000000000000e+00,6.00000000000000e-01,2.04918788073155e-04
2.50100000000000e-08,5.99999999999886e-02,6.00000000000000e-01,3.81982015121018e-04
2.50300000000000e-08,1.80000000000006e-01,6.00000000000000e-01,6.43915939443879e-04
2.50700000000000e-08,4.20000000000000e-01,6.00000000000000e-01,8.87252468323232e-04
2.51000000000000e-08,6.00000000000000e-01,6.00000000000000e-01,5.74161032353887e-04
2.51080000000000e-08,6.00000000000000e-01,6.00000000000000e-01,1.89736051018019e-04
2.51240000000000e-08,6.00000000000000e-01,6.00000000000000e-01,-7.10557664078071e-04
2.51560000000000e-08,6.00000000000000e-01,6.00000000000000e-01,-2.64667101133909e-03
2.52200000000000e-08,6.00000000000000e-01,6.00000000000000e-01,-5.34511280024726e-03
2.53480000000000e-08,6.00000000000000e-01,6.00000000000000e-01,2.47655332982907e-03
2.56040000000000e-08,6.00000000000000e-01,6.00000000000000e-01,3.80548071421018e-01
2.61160000000000e-08,6.00000000000000e-01,6.00000000000000e-01,6.19818888697694e-01
2.66941012599088e-08,6.00000000000000e-01,6.00000000000000e-01,5.84089596184737e-01
2.78503037797264e-08,6.00000000000000e-01,6.00000000000000e-01,6.15714835170846e-01
2.93163752848319e-08,6.00000000000000e-01,6.00000000000000e-01,5.84780372016774e-01
3.01000000000000e-08,6.00000000000000e-01,6.00000000000000e-01,6.14124920962217e-01
3.01100000000000e-08,6.00000000000000e-01,5.40000000000031e-01,6.07713488841897e-01
3.01300000000000e-08,6.00000000000000e-01,4.20000000000014e-01,6.00694074111948e-01
3.01700000000000e-08,6.00000000000000e-01,1.80000000000020e-01,5.99767107054246e-01
3.02000000000000e-08,6.00000000000000e-01,1.44328993201270e-14,5.99961210707235e-01
3.02080000000000e-08,6.00000000000000e-01,0.00000000000000e+00,5.99951217322744e-01
3.02240000000000e-08,6.00000000000000e-01,0.00000000000000e+00,5.99931606938294e-01
3.02560000000000e-08,6.00000000000000e-01,0.00000000000000e+00,5.99920405675707e-01
3.03200000000000e-08,6.00000000000000e-01,0.00000000000000e+00,5.99945419667480e-01
3.04480000000000e-08,6.00000000000000e-01,0.00000000000000e+00,5.99986768845406e-01
3.07004340650361e-08,6.00000000000000e-01,0.00000000000000e+00,5.99984388862013e-01
3.10767582950182e-08,6.00000000000000e-01,0.00000000000000e+00,5.99973388585055e-01
3.16502811367963e-08,6.00000000000000e-01,0.00000000000000e+00,5.99992067050121e-01
3.27973268203525e-08,6.00000000000000e-01,0.00000000000000e+00,5.99974981242598e-01
3.50914181874648e-08,6.00000000000000e-01,0.00000000000000e+00,5.99996481233010e-01
3.51000000000000e-08,5.99999999999970e-01,0.00000000000000e+00,5.99989148877376e-01
3.51100000000000e-08,5.39999999999982e-01,0.00000000000000e+00,5.99891981896414e-01
3.51300000000000e-08,4.19999999999965e-01,0.00000000000000e+00,5.99789454927527e-01
3.51700000000000e-08,1.79999999999970e-01,0.00000000000000e+00,6.00587838109398e-01
3.52000000000000e-08,0.00000000000000e+00,0.00000000000000e+00,6.03011374860669e-01
3.52080000000000e-08,0.00000000000000e+00,0.00000000000000e+00,6.03657773394177e-01
3.52240000000000e-08,0.00000000000000e+00,0.00000000000000e+00,6.04354990358401e-01
3.52560000000000e-08,0.00000000000000e+00,0.00000000000000e+00,6.02410218986102e-01
3.53200000000000e-08,0.00000000000000e+00,0.00000000000000e+00,5.89136277511596e-01
3.54480000000000e-08,0.00000000000000e+00,0.00000000000000e+00,5.86343792145023e-01
3.56925390441460e-08,0.00000000000000e+00,0.00000000000000e+00,6.02771576061030e-01
3.60457985455066e-08,0.00000000000000e+00,0.00000000000000e+00,5.96899587859207e-01
3.66806628682919e-08,0.00000000000000e+00,0.00000000000000e+00,6.02006774076361e-01
3.75203075434243e-08,0.00000000000000e+00,0.00000000000000e+00,5.97838228446081e-01
3.91000000000000e-08,0.00000000000000e+00,0.00000000000000e+00,6.01771520400793e-01
3.92679289350265e-08,0.00000000000000e+00,0.00000000000000e+00,6.00141199665196e-01
3.96037868050794e-08,0.00000000000000e+00,0.00000000000000e+00,5.99738406172562e-01
4.02755025451853e-08,0.00000000000000e+00,0.00000000000000e+00,6.00070130112951e-01
4.16189340253971e-08,0.00000000000000e+00,0.00000000000000e+00,5.99796340305928e-01
4.43057969858207e-08,0.00000000000000e+00,0.00000000000000e+00,6.00080736508611e-01
4.50000000000000e-08,0.00000000000000e+00,0.00000000000000e+00,5.99835771913722e-01
4.50100000000000e-08,5.99999999999886e-02,0.00000000000000e+00,5.99964631821661e-01
4.50300000000000e-08,1.80000000000006e-01,0.00000000000000e+00,6.00101518942411e-01
4.50700000000000e-08,4.20000000000000e-01,0.00000000000000e+00,6.00043266546166e-01
4.51000000000000e-08,6.00000000000000e-01,0.00000000000000e+00,5.99893295628341e-01
4.51080000000000e-08,6.00000000000000e-01,0.00000000000000e+00,5.99811681715501e-01
4.51240000000000e-08,6.00000000000000e-01,0.00000000000000e+00,5.99688741539610e-01
4.51560000000000e-08,6.00000000000000e-01,0.00000000000000e+00,5.99665381759490e-01
4.52200000000000e-08,6.00000000000000e-01,0.00000000000000e+00,5.99785334878704e-01
4.53480000000000e-08,6.00000000000000e-01,0.00000000000000e+00,6.00642710748662e-01
4.56040000000000e-08,6.00000000000000e-01,0.00000000000000e+00,6.06690344970029e-01
4.61160000000000e-08,6.00000000000000e-01,0.00000000000000e+00,1.04944226683580e-01
4.66372863153079e-08,6.00000000000000e-01,0.00000000000000e+00,-5.00321647482443e-02
4.76798589459236e-08,6.00000000000000e-01,0.00000000000000e+00,4.40314246638645e-02
4.89153678876908e-08,6.00000000000000e-01,0.00000000000000e+00,-3.32066263523955e-02
5.00000000000000e-08,6.00000000000000e-01,0.00000000000000e+00,2.86681918840148e-02
5.00100000000000e-08,6.00000000000000e-01,5.99999999999886e-02,2.33012378943395e-02
5.00300000000000e-08,6.00000000000000e-01,1.79999999999966e-01,1.55991225154449e-02
5.00700000000000e-08,6.00000000000000e-01,4.20000000000000e-01,8.22570148413040e-03
5.01000000000000e-08,6.00000000000000e-01,6.00000000000000e-01,5.10310136803945e-03
5.01080000000000e-08,6.00000000000000e-01,6.00000000000000e-01,4.54986132707441e-03
5.01240000000000e-08,6.00000000000000e-01,6.00000000000000e-01,3.55886605198409e-03
5.01560000000000e-08,6.00000000000000e-01,6.00000000000000e-01,2.14623956310787e-03
5.02200000000000e-08,6.00000000000000e-01,6.00000000000000e-01,7.30228876543212e-04
5.03480000000000e-08,6.00000000000000e-01,6.00000000000000e-01,3.00919541527944e-06
5.06040000000000e-08,6.00000000000000e-01,6.00000000000000e-01,-2.22016651844556e-06
5.11160000000001e-08,6.00000000000000e-01,6.00000000000000e-01,2.90641053307672e-07
5.21400000000002e-08,6.00000000000000e-01,6.00000000000000e-01,-8.04403989364613e-07
5.41880000000003e-08,6.00000000000000e-01,6.00000000000000e-01,5.50306443694408e-07
5.51000000000000e-08,6.00000000000000e-01,6.00000000000000e-01,2.01952229599012e-07
5.51100000000000e-08,5.40000000000021e-01,6.00000000000000e-01,-1.05453184085405e-04
5.51300000000000e-08,4.20000000000004e-01,6.00000000000000e-01,-2.56585119394068e-04
5.51700000000000e-08,1.80000000000010e-01,6.00000000000000e-01,-2.02682530385828e-04
5.52000000000000e-08,0.00000000000000e+00,6.00000000000000e-01,2.72747596507097e-04
5.52080000000000e-08,0.00000000000000e+00,6.00000000000000e-01,4.98099985762265e-04
5.52240000000000e-08,0.00000000000000e+00,6.00000000000000e-01,7.38405057179647e-04
5.52560000000000e-08,0.00000000000000e+00,6.00000000000000e-01,4.41385370217970e-04
5.53200000000000e-08,0.00000000000000e+00,6.00000000000000e-01,-1.33688839146759e-03
5.54480000000000e-08,0.00000000000000e+00,6.00000000000000e-01,-1.84137616932417e-03
5.57018961019085e-08,0.00000000000000e+00,6.00000000000000e-01,4.86357310543400e-04
5.60779383266960e-08,0.00000000000000e+00,6.00000000000000e-01,-3.43922365906291e-04
5.66480997884504e-08,0.00000000000000e+00,6.00000000000000e-01,3.21998174797221e-04
5.77884227119592e-08,0.00000000000000e+00,6.00000000000000e-01,-2.59594231671181e-04
5.88973051391511e-08,0.00000000000000e+00,6.00000000000000e-01,2.13599878636029e-04
6.11150699935350e-08,0.00000000000000e+00,6.00000000000000e-01,-1.86908695631714e-04
6.49150699935350e-08,0.00000000000000e+00,6.00000000000000e-01,1.79432200259058e-04
6.50000000000000e-08,0.00000000000000e+00,6.00000000000000e-01,6.05928842775452e-05
6.50100000000000e-08,5.99999999999886e-02,6.00000000000000e-01,2.38660326737056e-04
6.50300000000000e-08,1.79999999999966e-01,6.00000000000000e-01,5.09043846682045e-04
6.50700000000000e-08,4.19999999999920e-01,6.00000000000000e-01,8.01646480200438e-04
6.51000000000000e-08,5.99999999999966e-01,6.00000000000000e-01,5.11850469738784e-04
6.51080000000000e-08,6.00000000000000e-01,6.00000000000000e-01,1.28187420585360e-04
6.51240000000000e-08,6.00000000000000e-01,6.00000000000000e-01,-7.68497790149966e-04
6.51560000000000e-08,6.00000000000000e-01,6.00000000000000e-01,-2.69226394506175e-03
6.52200000000000e-08,6.00000000000000e-01,6.00000000000000e-01,-5.36493183748459e-03
6.53480000000000e-08,6.00000000000000e-01,6.00000000000000e-01,2.88824181730582e-03
6.56040000000000e-08,6.00000000000000e-01,6.00000000000000e-01,3.82901792434220e-01
6.61159999999999e-08,6.00000000000000e-01,6.00000000000000e-01,6.19968119220772e-01
6.66921743366255e-08,6.00000000000000e-01,6.00000000000000e-01,5.83927668757642e-01
6.78445230098765e-08,6.00000000000000e-01,6.00000000000000e-01,6.15844448071496e-01
6.93116122516119e-08,6.00000000000000e-01,6.00000000000000e-01,5.84636833411261e-01
7.01000000000000e-08,6.00000000000000e-01,6.00000000000000e-01,6.14248120222488e-01
7.01100000000000e-08,6.00000000000000e-01,5.40000000000011e-01,6.07781469957838e-01
7.01300000000000e-08,6.00000000000000e-01,4.20000000000034e-01,6.00700750305626e-01
7.01700000000000e-08,6.00000000000000e-01,1.80000000000080e-01,5.99766400595970e-01
7.02000000000000e-08,6.00000000000000e-01,3.44169137633799e-14,5.99961568129086e-01
7.02080000000000e-08,6.00000000000000e-01,0.00000000000000e+00,5.99951567003471e-01
7.02240000000000e-08,6.00000000000000e-01,0.00000000000000e+00,5.99931980359861e-01
7.02560000000000e-08,6.00000000000000e-01,0.00000000000000e+00,5.99920808748920e-01
7.03200000000000e-08,6.00000000000000e-01,0.00000000000000e+00,5.99945544232975e-01
7.04480000000000e-08,6.00000000000000e-01,0.00000000000000e+00,5.99986937571943e-01
7.07005863947964e-08,6.00000000000000e-01,0.00000000000000e+00,5.99984293897423e-01
7.10768242654464e-08,6.00000000000000e-01,0.00000000000000e+00,5.99973401828306e-01
7.16509625378676e-08,6.00000000000000e-01,0.00000000000000e+00,5.99991996987891e-01
7.27992390827101e-08,6.00000000000000e-01,0.00000000000000e+00,5.99974992420288e-01
7.50957921723950e-08,6.00000000000000e-01,0.00000000000000e+00,5.99996435439614e-01
7.51000000000000e-08,6.00000000000000e-01,0.00000000000000e+00,5.99992550269860e-01
7.51084156552101e-08,5.49506068739689e-01,0.00000000000000e+00,5.99902543472166e-01
7.51252469656302e-08,4.48518206218968e-01,0.00000000000000e+00,5.99797205721633e-01
7.51589095864704e-08,2.46542481177527e-01,0.00000000000000e+00,6.00099167131250e-01
7.52000000000000e-08,8.40438829641244e-14,0.00000000000000e+00,6.03007604329833e-01
7.52067325241680e-08,0.00000000000000e+00,0.00000000000000e+00,6.03593471806690e-01
7.52201975725042e-08,0.00000000000000e+00,0.00000000000000e+00,6.04294220087483e-01
7.52471276691763e-08,0.00000000000000e+00,0.00000000000000e+00,6.03456882555508e-01
7.53009878625207e-08,0.00000000000000e+00,0.00000000000000e+00,5.93072101987126e-01
7.54087082492095e-08,0.00000000000000e+00,0.00000000000000e+00,5.83826519767708e-01
7.56241490225870e-08,0.00000000000000e+00,0.00000000000000e+00,5.99883488895525e-01
7.59978616531485e-08,0.00000000000000e+00,0.00000000000000e+00,5.99097451892611e-01
7.65242215242369e-08,0.00000000000000e+00,0.00000000000000e+00,6.00162260000024e-01
7.73638920554796e-08,0.00000000000000e+00,0.00000000000000e+00,5.99457148920141e-01
7.81000000000000e-08,0.00000000000000e+00,0.00000000000000e+00,6.00213105267923e-01
7.82679341062486e-08,0.00000000000000e+00,0.00000000000000e+00,5.99915495753744e-01
7.86038023187456e-08,0.00000000000000e+00,0.00000000000000e+00,5.99861749797977e-01
7.92755387437398e-08,0.00000000000000e+00,0.00000000000000e+00,5.99930129115269e-01
8.06190115937281e-08,0.00000000000000e+00,0.00000000000000e+00,5.99902110909711e-01
8.33059572937047e-08,0.00000000000000e+00,0.00000000000000e+00,5.99966157418408e-01
8.50000000000000e-08,0.00000000000000e+00,0.00000000000000e+00,5.99929627429073e-01
8.50100000000000e-08,5.99999999999886e-02,0.00000000000000e+00,6.00042539274402e-01
8.50300000000000e-08,1.79999999999966e-01,0.00000000000000e+00,6.00146664370402e-01
8.50700000000000e-08,4.19999999999920e-01,0.00000000000000e+00,6.00052213470741e-01
8.51000000000000e-08,5.99999999999966e-01,0.00000000000000e+00,5.99878605369688e-01
8.51080000000000e-08,6.00000000000000e-01,0.00000000000000e+00,5.99786247251171e-01
8.51240000000000e-08,6.00000000000000e-01,0.00000000000000e+00,5.99680798090456e-01
8.51560000000000e-08,6.00000000000000e-01,0.00000000000000e+00,5.99664041701448e-01
8.52200000000000e-08,6.00000000000000e-01,0.00000000000000e+00,5.99784654770215e-01
8.53480000000000e-08,6.00000000000000e-01,0.00000000000000e+00,6.00641504292190e-01
8.56040000000000e-08,6.00000000000000e-01,0.00000000000000e+00,6.06708077542319e-01
8.61159999999999e-08,6.00000000000000e-01,0.00000000000000e+00,1.04962112054623e-01
8.66372332810240e-08,6.00000000000000e-01,0.00000000000000e+00,-5.00344078838228e-02
8.76796998430722e-08,6.00000000000000e-01,0.00000000000000e+00,4.40323783852443e-02
8.89150254866766e-08,6.00000000000000e-01,0.00000000000000e+00,-3.32061004608202e-02
9.00000000000000e-08,6.00000000000000e-01,0.00000000000000e+00,2.86694808670126e-02
9.00100000000000e-08,6.00000000000000e-01,5.99999999999886e-02,2.33027351236999e-02
9.00300000000000e-08,6.00000000000000e-01,1.79999999999966e-01,1.56006231763927e-02
9.00700000000000e-08,6.00000000000000e-01,4.19999999999920e-01,8.22651311063349e-03
9.01000000000000e-08,6.00000000000000e-01,5.99999999999966e-01,5.10362624303676e-03
9.01080000000000e-08,6.00000000000000e-01,6.00000000000000e-01,4.55032562885745e-03
9.01240000000000e-08,6.00000000000000e-01,6.00000000000000e-01,3.55922656092439e-03
9.01560000000000e-08,6.00000000000000e-01,6.00000000000000e-01,2.14645610775223e-03
9.02200000000000e-08,6.00000000000000e-01,6.00000000000000e-01,7.30299841564079e-04
9.03480000000000e-08,6.00000000000000e-01,6.00000000000000e-01,3.00798728051360e-06
9.06040000000000e-08,6.00000000000000e-01,6.00000000000000e-01,-2.22130126716069e-06
9.11159999999999e-08,6.00000000000000e-01,6.00000000000000e-01,2.89066525226839e-07
9.21399999999999e-08,6.00000000000000e-01,6.00000000000000e-01,-8.05581687956039e-07
9.41879999999998e-08,6.00000000000000e-01,6.00000000000000e-01,5.48924583060675e-07
9.51000000000000e-08,6.00000000000000e-01,6.00000000000000e-01,2.00790560272307e-07
9.51100000000000e-08,5.40000000000061e-01,6.00000000000000e-01,-1.05453326419397e-04
9.51300000000000e-08,4.20000000000084e-01,6.00000000000000e-01,-2.56586321380425e-04
9.51700000000000e-08,1.80000000000129e-01,6.00000000000000e-01,-2.02683998466763e-04
9.52000000000000e-08,8.40438829641244e-14,6.00000000000000e-01,2.72744301882996e-04
9.52080000000000e-08,0.00000000000000e+00,6.00000000000000e-01,4.98094629655776e-04
9.52240000000000e-08,0.00000000000000e+00,6.00000000000000e-01,7.38390635803998e-04
9.52560000000000e-08,0.00000000000000e+00,6.00000000000000e-01,4.41321618829094e-04
9.53200000000000e-08,0.00000000000000e+00,6.00000000000000e-01,-1.33706202635594e-03
9.54480000000000e-08,0.00000000000000e+00,6.00000000000000e-01,-1.84170148892276e-03
9.57018941367980e-08,0.00000000000000e+00,6.00000000000000e-01,4.86345991012924e-04
9.60779372508876e-08,0.00000000000000e+00,6.00000000000000e-01,-3.43868054252117e-04
9.66480598942282e-08,0.00000000000000e+00,6.00000000000000e-01,3.21934021885068e-04
9.77883051809094e-08,0.00000000000000e+00,6.00000000000000e-01,-2.59524252602015e-04
9.88971643242836e-08,0.00000000000000e+00,6.00000000000000e-01,2.13529913687454e-04
1.01114882611032e-07,0.00000000000000e+00,6.00000000000000e-01,-1.86839197965731e-04
1.04914882611032e-07,0.00000000000000e+00,6.00000000000000e-01,1.79363566408661e-04
1.05000000000000e-07,0.00000000000000e+00,6.00000000000000e-01,6.04041495021190e-05
1.05010000000000e-07,5.99999999999886e-02,6.00000000000000e-01,2.38474674585279e-04
1.05030000000000e-07,1.79999999999966e-01,6.00000000000000e-01,5.08879828708036e-04
1.05070000000000e-07,4.19999999999920e-01,6.00000000000000e-01,8.01545578212104e-04
1.05100000000000e-07,5.99999999999966e-01,6.00000000000000e-01,5.11778649197644e-04
1.05108000000000e-07,6.00000000000000e-01,6.00000000000000e-01,1.28120297794632e-04
1.05124000000000e-07,6.00000000000000e-01,6.00000000000000e-01,-7.68555808388555e-04
1.05156000000000e-07,6.00000000000000e-01,6.00000000000000e-01,-2.69230572303746e-03
1.05220000000000e-07,6.00000000000000e-01,6.00000000000000e-01,-5.36494988986217e-03
1.05348000000000e-07,6.00000000000000e-01,6.00000000000000e-01,2.88859330584831e-03
1.05604000000000e-07,6.00000000000000e-01,6.00000000000000e-01,3.82903779829087e-01
1.06116000000000e-07,6.00000000000000e-01,6.00000000000000e-01,6.19968246556847e-01
1.06692172726232e-07,6.00000000000000e-01,6.00000000000000e-01,5.83927532932951e-01
1.07844518178695e-07,6.00000000000000e-01,6.00000000000000e-01,6.15844556568142e-01
1.09311608291821e-07,6.00000000000000e-01,6.00000000000000e-01,5.84636713094959e-01
