Time,v(clk),v(data),v(out)
1.00000000000000e-08,7.75000000000000e-01,0.00000000000000e+00,3.53661502809693e-05
1.00100000000000e-08,7.75000000000000e-01,7.74999999999981e-02,3.10703359582554e-05
1.00300000000000e-08,7.75000000000000e-01,2.32499999999994e-01,2.40484301233801e-05
1.00700000000000e-08,7.75000000000000e-01,5.42499999999987e-01,1.66660095204663e-05
1.01000000000000e-08,7.75000000000000e-01,7.74999999999994e-01,1.30968397910186e-05
1.01080000000000e-08,7.75000000000000e-01,7.75000000000000e-01,1.29200462911649e-05
1.01240000000000e-08,7.75000000000000e-01,7.75000000000000e-01,1.41342287981044e-05
1.01560000000000e-08,7.75000000000000e-01,7.75000000000000e-01,1.97183466700696e-05
1.02200000000000e-08,7.75000000000000e-01,7.75000000000000e-01,2.23488915993483e-05
1.03480000000000e-08,7.75000000000000e-01,7.75000000000000e-01,1.60298477205126e-05
1.06040000000000e-08,7.75000000000000e-01,7.75000000000000e-01,1.61180962236010e-05
1.11104060575493e-08,7.75000000000000e-01,7.75000000000000e-01,1.63600482550666e-05
1.21232181726480e-08,7.75000000000000e-01,7.75000000000000e-01,1.58521047365027e-05
1.41488424028453e-08,7.75000000000000e-01,7.75000000000000e-01,1.52086281885533e-05
1.51000000000000e-08,7.75000000000000e-01,7.75000000000000e-01,1.51982204309419e-05
1.51100000000000e-08,6.97499999999989e-01,7.75000000000000e-01,-9.18432605217512e-05
1.51300000000000e-08,5.42499999999993e-01,7.75000000000000e-01,-2.44888377718230e-04
1.51700000000000e-08,2.32500000000000e-01,7.75000000000000e-01,-5.38794004524279e-05
1.52000000000000e-08,0.00000000000000e+00,7.75000000000000e-01,4.66028273632194e-04
1.52080000000000e-08,0.00000000000000e+00,7.75000000000000e-01,6.48834420152664e-04
1.52240000000000e-08,0.00000000000000e+00,7.75000000000000e-01,7.97353345611762e-04
1.52560000000000e-08,0.00000000000000e+00,7.75000000000000e-01,4.26423193657002e-04
1.53200000000000e-08,0.00000000000000e+00,7.75000000000000e-01,-4.93769818827441e-04
1.54480000000000e-08,0.00000000000000e+00,7.75000000000000e-01,-2.40608035934654e-04
1.57040000000000e-08,0.00000000000000e+00,7.75000000000000e-01,-1.09392043737472e-04
1.60153310849730e-08,0.00000000000000e+00,7.75000000000000e-01,9.05254132564301e-05
1.65345526856540e-08,0.00000000000000e+00,7.75000000000000e-01,1.82651126485640e-04
1.73394313053284e-08,0.00000000000000e+00,7.75000000000000e-01,-2.30094536449366e-04
1.85009932493339e-08,0.00000000000000e+00,7.75000000000000e-01,2.82665788304560e-04
2.08241171373450e-08,0.00000000000000e+00,7.75000000000000e-01,-2.64124831029099e-04
2.44656446034052e-08,0.00000000000000e+00,7.75000000000000e-01,2.92772827788191e-04
2.50000000000000e-08,0.00000000000000e+00,7.75000000000000e-01,-2.66255712420563e-04
2.50100000000000e-08,7.74999999999853e-02,7.75000000000000e-01,-2.26466768975531e-05
2.50300000000000e-08,2.32500000000007e-01,7.75000000000000e-01,3.49674431687944e-04
2.50700000000000e-08,5.42500000000000e-01,7.75000000000000e-01,6.67492246421708e-04
2.51000000000000e-08,7.75000000000000e-01,7.75000000000000e-01,-3.06669265769027e-04
2.51080000000000e-08,7.75000000000000e-01,7.75000000000000e-01,-1.02955456146135e-03
2.51240000000000e-08,7.75000000000000e-01,7.75000000000000e-01,-2.52009514859969e-03
2.51560000000000e-08,7.75000000000000e-01,7.75000000000000e-01,-5.04577267980916e-03
2.52200000000000e-08,7.75000000000000e-01,7.75000000000000e-01,-4.15328730697262e-03
2.53480000000000e-08,7.75000000000000e-01,7.75000000000000e-01,1.71951726619238e-01
2.56040000000000e-08,7.75000000000000e-01,7.75000000000000e-01,7.33574786176741e-01
2.61160000000000e-08,7.75000000000000e-01,7.75000000000000e-01,7.87593398098366e-01
2.66444058301060e-08,7.75000000000000e-01,7.75000000000000e-01,7.62579585807101e-01
2.75424776788599e-08,7.75000000000000e-01,7.75000000000000e-01,7.85971429173731e-01
2.87855825755146e-08,7.75000000000000e-01,7.75000000000000e-01,7.63906245066334e-01
3.01000000000000e-08,7.75000000000000e-01,7.75000000000000e-01,7.85216484907824e-01
3.01100000000000e-08,7.75000000000000e-01,6.97500000000040e-01,7.80354907322694e-01
3.01300000000000e-08,7.75000000000000e-01,5.42500000000018e-01,7.75269889977978e-01
3.01700000000000e-08,7.75000000000000e-01,2.32500000000026e-01,7.74941469371483e-01
3.02000000000000e-08,7.75000000000000e-01,1.87627691161651e-14,7.75022099901337e-01
3.02080000000000e-08,7.75000000000000e-01,0.00000000000000e+00,7.75003723607896e-01
3.02240000000000e-08,7.75000000000000e-01,0.00000000000000e+00,7.74976174068977e-01
3.02560000000000e-08,7.75000000000000e-01,0.00000000000000e+00,7.74955000225415e-01
3.03200000000000e-08,7.75000000000000e-01,0.00000000000000e+00,7.74970817327429e-01
3.04480000000000e-08,7.75000000000000e-01,0.00000000000000e+00,7.74983438186361e-01
3.06666826926626e-08,7.75000000000000e-01,0.00000000000000e+00,7.74967767111816e-01
3.09885614928642e-08,7.75000000000000e-01,0.00000000000000e+00,7.74969192764694e-01
3.15098259742207e-08,7.75000000000000e-01,0.00000000000000e+00,7.74976688044336e-01
3.25523549369336e-08,7.75000000000000e-01,0.00000000000000e+00,7.74973077565013e-01
3.46374128623595e-08,7.75000000000000e-01,0.00000000000000e+00,7.74984441551572e-01
3.51000000000000e-08,7.74999999999962e-01,0.00000000000000e+00,7.74976020482902e-01
3.51100000000000e-08,6.97499999999976e-01,0.00000000000000e+00,7.74892680529203e-01
3.51300000000000e-08,5.42499999999954e-01,0.00000000000000e+00,7.74831080832112e-01
3.51700000000000e-08,2.32499999999962e-01,0.00000000000000e+00,7.76389895840132e-01
3.52000000000000e-08,0.00000000000000e+00,0.00000000000000e+00,7.79120308669030e-01
3.52080000000000e-08,0.00000000000000e+00,0.00000000000000e+00,7.79375296892158e-01
3.52240000000000e-08,0.00000000000000e+00,0.00000000000000e+00,7.78089932454495e-01
3.52560000000000e-08,0.00000000000000e+00,0.00000000000000e+00,7.67474244096191e-01
3.53200000000000e-08,0.00000000000000e+00,0.00000000000000e+00,7.50586357859541e-01
3.54480000000000e-08,0.00000000000000e+00,0.00000000000000e+00,7.67054352283765e-01
3.57036008439119e-08,0.00000000000000e+00,0.00000000000000e+00,7.77643136983973e-01
3.59921809481937e-08,0.00000000000000e+00,0.00000000000000e+00,7.71935380489450e-01
3.65693411567574e-08,0.00000000000000e+00,0.00000000000000e+00,7.76864284377899e-01
3.72793654152693e-08,0.00000000000000e+00,0.00000000000000e+00,7.72900309006134e-01
3.86994139322933e-08,0.00000000000000e+00,0.00000000000000e+00,7.76636729599266e-01
3.91000000000000e-08,0.00000000000000e+00,0.00000000000000e+00,7.73459381242844e-01
3.93840097034048e-08,0.00000000000000e+00,0.00000000000000e+00,7.74772260487129e-01
3.99520291102144e-08,0.00000000000000e+00,0.00000000000000e+00,7.74979757222558e-01
4.10880679238336e-08,0.00000000000000e+00,0.00000000000000e+00,7.74812418671203e-01
4.33601455510719e-08,0.00000000000000e+00,0.00000000000000e+00,7.74992116476106e-01
4.50000000000000e-08,0.00000000000000e+00,0.00000000000000e+00,7.74835331886639e-01
4.50100000000000e-08,7.74999999999853e-02,0.00000000000000e+00,7.74944019714703e-01
4.50300000000000e-08,2.32500000000007e-01,0.00000000000000e+00,7.75036740306063e-01
4.50700000000000e-08,5.42500000000000e-01,0.00000000000000e+00,7.74959287086138e-01
4.51000000000000e-08,7.75000000000000e-01,0.00000000000000e+00,7.74781416564519e-01
4.51080000000000e-08,7.75000000000000e-01,0.00000000000000e+00,7.74698327476600e-01
4.51240000000000e-08,7.75000000000000e-01,0.00000000000000e+00,7.74620081049306e-01
4.51560000000000e-08,7.75000000000000e-01,0.00000000000000e+00,7.74633680970656e-01
4.52200000000000e-08,7.75000000000000e-01,0.00000000000000e+00,7.75072827254753e-01
4.53480000000000e-08,7.75000000000000e-01,0.00000000000000e+00,7.82169548077520e-01
4.56040000000000e-08,7.75000000000000e-01,0.00000000000000e+00,3.82565271217840e-01
4.60227147141259e-08,7.75000000000000e-01,0.00000000000000e+00,-7.97111285458299e-02
4.64569158017371e-08,7.75000000000000e-01,0.00000000000000e+00,5.10220558817558e-02
4.72474592155401e-08,7.75000000000000e-01,0.00000000000000e+00,-3.30245705116773e-02
4.80471398834015e-08,7.75000000000000e-01,0.00000000000000e+00,2.59436436550735e-02
4.96465012191243e-08,7.75000000000000e-01,0.00000000000000e+00,-2.04562080218764e-02
5.00000000000000e-08,7.75000000000000e-01,0.00000000000000e+00,9.73369807691830e-03
5.00100000000000e-08,7.75000000000000e-01,7.74999999999853e-02,9.52982847914757e-03
5.00300000000000e-08,7.75000000000000e-01,2.32499999999956e-01,7.83675221665342e-03
5.00700000000000e-08,7.75000000000000e-01,5.42500000000000e-01,3.73836123575944e-03
5.01000000000000e-08,7.75000000000000e-01,7.75000000000000e-01,2.22260518307228e-03
5.01080000000000e-08,7.75000000000000e-01,7.75000000000000e-01,1.93914501869062e-03
5.01240000000000e-08,7.75000000000000e-01,7.75000000000000e-01,1.44981754634707e-03
5.01560000000000e-08,7.75000000000000e-01,7.75000000000000e-01,8.24518178085959e-04
5.02200000000000e-08,7.75000000000000e-01,7.75000000000000e-01,2.34670614301949e-04
5.03480000000000e-08,7.75000000000000e-01,7.75000000000000e-01,-2.19272851408742e-06
5.06040000000000e-08,7.75000000000000e-01,7.75000000000000e-01,1.64897999655744e-05
5.11160000000001e-08,7.75000000000000e-01,7.75000000000000e-01,8.47308623392121e-06
5.21400000000002e-08,7.75000000000000e-01,7.75000000000000e-01,1.43314076198938e-05
5.41880000000003e-08,7.75000000000000e-01,7.75000000000000e-01,9.55965913035806e-06
5.51000000000000e-08,7.75000000000000e-01,7.75000000000000e-01,1.42046413789277e-05
5.51100000000000e-08,6.97500000000028e-01,7.75000000000000e-01,-9.32313377787902e-05
5.51300000000000e-08,5.42500000000006e-01,7.75000000000000e-01,-2.44693097533777e-04
5.51700000000000e-08,2.32500000000013e-01,7.75000000000000e-01,-4.52643492816901e-05
5.52000000000000e-08,0.00000000000000e+00,7.75000000000000e-01,4.47817106980108e-04
5.52080000000000e-08,0.00000000000000e+00,7.75000000000000e-01,6.13982559055967e-04
5.52240000000000e-08,0.00000000000000e+00,7.75000000000000e-01,6.80342141520962e-04
5.52560000000000e-08,0.00000000000000e+00,7.75000000000000e-01,-1.66806679637921e-04
5.53200000000000e-08,0.00000000000000e+00,7.75000000000000e-01,-1.47357262197767e-03
5.54480000000000e-08,0.00000000000000e+00,7.75000000000000e-01,-4.72752020913583e-04
5.57040000000000e-08,0.00000000000000e+00,7.75000000000000e-01,3.47052678407907e-05
5.60161767910176e-08,0.00000000000000e+00,7.75000000000000e-01,-6.42914667239869e-07
5.65350425141382e-08,0.00000000000000e+00,7.75000000000000e-01,2.51128282090202e-04
5.73409394931490e-08,0.00000000000000e+00,7.75000000000000e-01,-2.86903301165906e-04
5.85026037533424e-08,0.00000000000000e+00,7.75000000000000e-01,3.32246944973689e-04
6.08259322737291e-08,0.00000000000000e+00,7.75000000000000e-01,-3.11286663983295e-04
6.44662159582379e-08,0.00000000000000e+00,7.75000000000000e-01,3.37647412548722e-04
6.50000000000000e-08,0.00000000000000e+00,7.75000000000000e-01,-2.98801171362256e-04
6.50100000000000e-08,7.74999999999853e-02,7.75000000000000e-01,-5.20913601543688e-05
6.50300000000000e-08,2.32499999999956e-01,7.75000000000000e-01,3.30708438324778e-04
6.50700000000000e-08,5.42499999999897e-01,7.75000000000000e-01,6.63720159736397e-04
6.51000000000000e-08,7.74999999999956e-01,7.75000000000000e-01,-3.07393298211042e-04
6.51080000000000e-08,7.75000000000000e-01,7.75000000000000e-01,-1.02942742906820e-03
6.51240000000000e-08,7.75000000000000e-01,7.75000000000000e-01,-2.51890300996532e-03
6.51560000000000e-08,7.75000000000000e-01,7.75000000000000e-01,-5.04454862655120e-03
6.52200000000000e-08,7.75000000000000e-01,7.75000000000000e-01,-4.15767524331140e-03
6.53480000000000e-08,7.75000000000000e-01,7.75000000000000e-01,1.71876995883650e-01
6.56040000000000e-08,7.75000000000000e-01,7.75000000000000e-01,7.33545274917172e-01
6.61159999999999e-08,7.75000000000000e-01,7.75000000000000e-01,7.87601957355797e-01
6.66443307671294e-08,7.75000000000000e-01,7.75000000000000e-01,7.62571050867613e-01
6.75424794453247e-08,7.75000000000000e-01,7.75000000000000e-01,7.85979108851215e-01
6.87855358604718e-08,7.75000000000000e-01,7.75000000000000e-01,7.63898410651365e-01
7.01000000000000e-08,7.75000000000000e-01,7.75000000000000e-01,7.85223695655649e-01
7.01100000000000e-08,7.75000000000000e-01,6.97500000000015e-01,7.80358562064645e-01
7.01300000000000e-08,7.75000000000000e-01,5.42500000000044e-01,7.75269934188536e-01
7.01700000000000e-08,7.75000000000000e-01,2.32500000000103e-01,7.74941443349163e-01
7.02000000000000e-08,7.75000000000000e-01,4.42978986825437e-14,7.75022107006461e-01
7.02080000000000e-08,7.75000000000000e-01,0.00000000000000e+00,7.75003722777496e-01
7.02240000000000e-08,7.75000000000000e-01,0.00000000000000e+00,7.74976163908717e-01
7.02560000000000e-08,7.75000000000000e-01,0.00000000000000e+00,7.74954986286134e-01
7.03200000000000e-08,7.75000000000000e-01,0.00000000000000e+00,7.74970806321870e-01
7.04480000000000e-08,7.75000000000000e-01,0.00000000000000e+00,7.74983432767233e-01
7.06666776418106e-08,7.75000000000000e-01,0.00000000000000e+00,7.74967762647351e-01
7.09885583472400e-08,7.75000000000000e-01,0.00000000000000e+00,7.74969188756447e-01
7.15098018628963e-08,7.75000000000000e-01,0.00000000000000e+00,7.74976684827290e-01
7.25522888942089e-08,7.75000000000000e-01,0.00000000000000e+00,7.74973074681474e-01
7.46372629568340e-08,7.75000000000000e-01,0.00000000000000e+00,7.74984439926323e-01
7.51000000000000e-08,7.75000000000000e-01,0.00000000000000e+00,7.74976019158890e-01
7.51100000000000e-08,6.97500000000079e-01,0.00000000000000e+00,7.74892679317852e-01
7.51300000000000e-08,5.42500000000108e-01,0.00000000000000e+00,7.74831079861070e-01
7.51700000000000e-08,2.32500000000167e-01,0.00000000000000e+00,7.76389893046663e-01
7.52000000000000e-08,1.08468789505878e-13,0.00000000000000e+00,7.79120282719667e-01
7.52080000000000e-08,0.00000000000000e+00,0.00000000000000e+00,7.79375245347772e-01
7.52240000000000e-08,0.00000000000000e+00,0.00000000000000e+00,7.78089795229897e-01
7.52560000000000e-08,0.00000000000000e+00,0.00000000000000e+00,7.67473970621218e-01
7.53200000000000e-08,0.00000000000000e+00,0.00000000000000e+00,7.50586204685432e-01
7.54480000000000e-08,0.00000000000000e+00,0.00000000000000e+00,7.67054419919598e-01
7.57036008312833e-08,0.00000000000000e+00,0.00000000000000e+00,7.77643088977888e-01
7.59921809205709e-08,0.00000000000000e+00,0.00000000000000e+00,7.71935417373416e-01
7.65693410991460e-08,0.00000000000000e+00,0.00000000000000e+00,7.76864252441139e-01
7.72793653540212e-08,0.00000000000000e+00,0.00000000000000e+00,7.72900337758810e-01
7.81000000000000e-08,0.00000000000000e+00,0.00000000000000e+00,7.76536115189041e-01
7.82420048509751e-08,0.00000000000000e+00,0.00000000000000e+00,7.75076761344722e-01
7.85260145529251e-08,0.00000000000000e+00,0.00000000000000e+00,7.74694472113058e-01
7.90940339568253e-08,0.00000000000000e+00,0.00000000000000e+00,7.75012733257312e-01
8.02300727646256e-08,0.00000000000000e+00,0.00000000000000e+00,7.74759607894349e-01
8.25021503802261e-08,0.00000000000000e+00,0.00000000000000e+00,7.75031307733773e-01
8.50000000000000e-08,0.00000000000000e+00,0.00000000000000e+00,7.74792896971285e-01
8.50100000000000e-08,7.74999999999853e-02,0.00000000000000e+00,7.74910034607247e-01
8.50300000000000e-08,2.32499999999956e-01,0.00000000000000e+00,7.75016389606873e-01
8.50700000000000e-08,5.42499999999897e-01,0.00000000000000e+00,7.74956803673869e-01
8.51000000000000e-08,7.74999999999956e-01,0.00000000000000e+00,7.74798726569382e-01
8.51080000000000e-08,7.75000000000000e-01,0.00000000000000e+00,7.74709461268199e-01
8.51240000000000e-08,7.75000000000000e-01,0.00000000000000e+00,7.74619455249631e-01
8.51560000000000e-08,7.75000000000000e-01,0.00000000000000e+00,7.74633640288194e-01
8.52200000000000e-08,7.75000000000000e-01,0.00000000000000e+00,7.75075518623183e-01
8.53480000000000e-08,7.75000000000000e-01,0.00000000000000e+00,7.82167163223580e-01
8.56040000000000e-08,7.75000000000000e-01,0.00000000000000e+00,3.82557065530578e-01
8.60228821802819e-08,7.75000000000000e-01,0.00000000000000e+00,-7.97529825406391e-02
8.64570455104413e-08,7.75000000000000e-01,0.00000000000000e+00,5.10449578387355e-02
8.72477883137532e-08,7.75000000000000e-01,0.00000000000000e+00,-3.30412461790258e-02
8.80475173055921e-08,7.75000000000000e-01,0.00000000000000e+00,2.59582585002049e-02
8.96469752892699e-08,7.75000000000000e-01,0.00000000000000e+00,-2.04680414981970e-02
9.00000000000000e-08,7.75000000000000e-01,0.00000000000000e+00,9.72844347179780e-03
9.00100000000000e-08,7.75000000000000e-01,7.74999999999853e-02,9.52492289457235e-03
9.00300000000000e-08,7.75000000000000e-01,2.32499999999956e-01,7.83288068520838e-03
9.00700000000000e-08,7.75000000000000e-01,5.42499999999897e-01,3.73648746250443e-03
9.01000000000000e-08,7.75000000000000e-01,7.74999999999956e-01,2.22150132349590e-03
9.01080000000000e-08,7.75000000000000e-01,7.75000000000000e-01,1.93817982534941e-03
9.01240000000000e-08,7.75000000000000e-01,7.75000000000000e-01,1.44909467035463e-03
9.01560000000000e-08,7.75000000000000e-01,7.75000000000000e-01,8.24110298467989e-04
9.02200000000000e-08,7.75000000000000e-01,7.75000000000000e-01,2.34558311246039e-04
9.03480000000000e-08,7.75000000000000e-01,7.75000000000000e-01,-2.18589247331230e-06
9.06040000000000e-08,7.75000000000000e-01,7.75000000000000e-01,1.64875624169940e-05
9.11159999999999e-08,7.75000000000000e-01,7.75000000000000e-01,8.47476586018567e-06
9.21399999999999e-08,7.75000000000000e-01,7.75000000000000e-01,1.43301733392404e-05
9.41879999999998e-08,7.75000000000000e-01,7.75000000000000e-01,9.56082881890547e-06
9.51000000000000e-08,7.75000000000000e-01,7.75000000000000e-01,1.42034924560490e-05
9.51100000000000e-08,6.97500000000079e-01,7.75000000000000e-01,-9.32322614472098e-05
9.51300000000000e-08,5.42500000000108e-01,7.75000000000000e-01,-2.44693623299153e-04
9.51700000000000e-08,2.32500000000167e-01,7.75000000000000e-01,-4.52642337800818e-05
9.52000000000000e-08,1.08468789505878e-13,7.75000000000000e-01,4.47818504885900e-04
9.52080000000000e-08,0.00000000000000e+00,7.75000000000000e-01,6.13985307856765e-04
9.52240000000000e-08,0.00000000000000e+00,7.75000000000000e-01,6.80349579838868e-04
9.52560000000000e-08,0.00000000000000e+00,7.75000000000000e-01,-1.66773467936129e-04
9.53200000000000e-08,0.00000000000000e+00,7.75000000000000e-01,-1.47349843471023e-03
9.54480000000000e-08,0.00000000000000e+00,7.75000000000000e-01,-4.72718309030097e-04
9.57040000000000e-08,0.00000000000000e+00,7.75000000000000e-01,3.46839654126983e-05
9.60161767953528e-08,0.00000000000000e+00,7.75000000000000e-01,-6.28483289830811e-07
9.65350425178547e-08,0.00000000000000e+00,7.75000000000000e-01,2.51116905092795e-04
9.73409394948882e-08,0.00000000000000e+00,7.75000000000000e-01,-2.86893302871395e-04
9.85026037590596e-08,0.00000000000000e+00,7.75000000000000e-01,3.32237853346217e-04
1.00825932287402e-07,0.00000000000000e+00,7.75000000000000e-01,-3.11277929498844e-04
1.04466216034573e-07,0.00000000000000e+00,7.75000000000000e-01,3.37638984768533e-04
1.05000000000000e-07,0.00000000000000e+00,7.75000000000000e-01,-2.98794243460205e-04
1.05010000000000e-07,7.74999999999853e-02,7.75000000000000e-01,-5.20869133630447e-05
1.05030000000000e-07,2.32499999999956e-01,7.75000000000000e-01,3.30710224561326e-04
1.05070000000000e-07,5.42499999999897e-01,7.75000000000000e-01,6.63720795304398e-04
1.05100000000000e-07,7.74999999999956e-01,7.75000000000000e-01,-3.07393154015331e-04
1.05108000000000e-07,7.75000000000000e-01,7.75000000000000e-01,-1.02942728626597e-03
1.05124000000000e-07,7.75000000000000e-01,7.75000000000000e-01,-2.51890290074601e-03
1.05156000000000e-07,7.75000000000000e-01,7.75000000000000e-01,-5.04454860171949e-03
1.05220000000000e-07,7.75000000000000e-01,7.75000000000000e-01,-4.15767528512068e-03
1.05348000000000e-07,7.75000000000000e-01,7.75000000000000e-01,1.71876995387885e-01
1.05604000000000e-07,7.75000000000000e-01,7.75000000000000e-01,7.33545274723226e-01
1.06116000000000e-07,7.75000000000000e-01,7.75000000000000e-01,7.87601957410218e-01
