Time,v(clk),v(data),v(out)
1.71318104252150e-09,0.00000000000000e+00,0.00000000000000e+00,1.22673643437529e-04
3.25291716256438e-09,0.00000000000000e+00,0.00000000000000e+00,-7.79043986060858e-05
5.00000000000000e-09,0.00000000000000e+00,0.00000000000000e+00,6.59350704528897e-05
5.01000000000000e-09,5.99999999999986e-02,0.00000000000000e+00,7.82020760334803e-04
5.03000000000000e-09,1.80000000000001e-01,0.00000000000000e+00,2.10213120971356e-03
5.07000000000000e-09,4.20000000000000e-01,0.00000000000000e+00,4.00775122176612e-03
5.10000000000000e-09,6.00000000000000e-01,0.00000000000000e+00,3.88529052028298e-03
5.10800000000000e-09,6.00000000000000e-01,0.00000000000000e+00,3.40033952066993e-03
5.12400000000000e-09,6.00000000000000e-01,0.00000000000000e+00,2.38492390954270e-03
5.15600000000000e-09,6.00000000000000e-01,0.00000000000000e+00,5.28233863682240e-04
5.22000000000000e-09,6.00000000000000e-01,0.00000000000000e+00,-1.62394313261219e-03
5.34800000000000e-09,6.00000000000000e-01,0.00000000000000e+00,-2.13271231856563e-03
5.60400000000000e-09,6.00000000000000e-01,0.00000000000000e+00,-8.48696353761044e-04
6.11600000000000e-09,6.00000000000000e-01,0.00000000000000e+00,-2.72518067468301e-04
7.02815279734423e-09,6.00000000000000e-01,0.00000000000000e+00,3.27118130627260e-04
8.85245839203268e-09,6.00000000000000e-01,0.00000000000000e+00,1.04264640755424e-04
1.00000000000000e-08,6.00000000000000e-01,0.00000000000000e+00,-1.46196775935057e-04
1.00100000000000e-08,6.00000000000000e-01,5.99999999999986e-02,-9.91155950405970e-05
1.00300000000000e-08,6.00000000000000e-01,1.79999999999996e-01,-2.07019921948659e-05
1.00700000000000e-08,6.00000000000000e-01,4.19999999999990e-01,6.91012474809960e-05
1.01000000000000e-08,6.00000000000000e-01,5.99999999999995e-01,2.63991683700227e-05
1.01080000000000e-08,6.00000000000000e-01,6.00000000000000e-01,-6.56540686196083e-06
1.01240000000000e-08,6.00000000000000e-01,6.00000000000000e-01,-6.17899032916286e-05
1.01560000000000e-08,6.00000000000000e-01,6.00000000000000e-01,-1.37611787451128e-04
1.02200000000000e-08,6.00000000000000e-01,6.00000000000000e-01,-1.66733494383800e-04
1.03480000000000e-08,6.00000000000000e-01,6.00000000000000e-01,-7.83397658791068e-05
1.06040000000000e-08,6.00000000000000e-01,6.00000000000000e-01,5.51739071130292e-05
1.11160000000000e-08,6.00000000000000e-01,6.00000000000000e-01,3.74780776452588e-05
1.18959736507786e-08,6.00000000000000e-01,6.00000000000000e-01,-1.05205551357429e-05
1.34559209523359e-08,6.00000000000000e-01,6.00000000000000e-01,1.98055241971903e-05
1.51000000000000e-08,6.00000000000000e-01,6.00000000000000e-01,1.93207517344349e-06
1.51100000000000e-08,5.39999999999992e-01,6.00000000000000e-01,-3.74039526676598e-04
1.51300000000000e-08,4.19999999999994e-01,6.00000000000000e-01,-1.23006248637195e-03
1.51700000000000e-08,1.80000000000000e-01,6.00000000000000e-01,-3.22589265394668e-03
1.52000000000000e-08,0.00000000000000e+00,6.00000000000000e-01,-3.89580475739250e-03
1.52080000000000e-08,0.00000000000000e+00,6.00000000000000e-01,-3.38160145731668e-03
1.52240000000000e-08,0.00000000000000e+00,6.00000000000000e-01,-2.40772935862928e-03
1.52560000000000e-08,0.00000000000000e+00,6.00000000000000e-01,-7.52436215033153e-04
1.53200000000000e-08,0.00000000000000e+00,6.00000000000000e-01,1.26988945056124e-03
1.54480000000000e-08,0.00000000000000e+00,6.00000000000000e-01,2.46723422471924e-03
1.57040000000000e-08,0.00000000000000e+00,6.00000000000000e-01,1.66014656834286e-03
1.62160000000000e-08,0.00000000000000e+00,6.00000000000000e-01,-5.82637505663189e-04
1.72400000000000e-08,0.00000000000000e+00,6.00000000000000e-01,-4.06857845927491e-04
1.91498996935782e-08,0.00000000000000e+00,6.00000000000000e-01,1.78701438480609e-04
2.14282954575484e-08,0.00000000000000e+00,6.00000000000000e-01,-2.37159291111032e-04
2.50000000000000e-08,0.00000000000000e+00,6.00000000000000e-01,4.39744572564040e-04
2.50100000000000e-08,5.99999999999886e-02,6.00000000000000e-01,1.19149826636024e-03
2.50300000000000e-08,1.80000000000006e-01,6.00000000000000e-01,2.62699492719159e-03
2.50700000000000e-08,4.20000000000000e-01,6.00000000000000e-01,5.02160792796591e-03
2.51000000000000e-08,6.00000000000000e-01,6.00000000000000e-01,5.41629339702841e-03
2.51080000000000e-08,6.00000000000000e-01,6.00000000000000e-01,5.04886620941701e-03
2.51240000000000e-08,6.00000000000000e-01,6.00000000000000e-01,4.33196309782136e-03
2.51560000000000e-08,6.00000000000000e-01,6.00000000000000e-01,3.03065855404400e-03
2.52200000000000e-08,6.00000000000000e-01,6.00000000000000e-01,4.83944219295096e-04
2.53480000000000e-08,6.00000000000000e-01,6.00000000000000e-01,-5.27638378527200e-03
2.56040000000000e-08,6.00000000000000e-01,6.00000000000000e-01,-1.37973227458671e-02
2.61160000000000e-08,6.00000000000000e-01,6.00000000000000e-01,-2.94180081780716e-03
2.69606428395846e-08,6.00000000000000e-01,6.00000000000000e-01,3.13714708983856e-01
2.86499285187539e-08,6.00000000000000e-01,6.00000000000000e-01,6.15455601673037e-01
3.03691333522287e-08,6.00000000000000e-01,6.00000000000000e-01,5.85129834048862e-01
3.36192342494237e-08,6.00000000000000e-01,6.00000000000000e-01,6.14657149684578e-01
3.51000000000000e-08,5.99999999999970e-01,6.00000000000000e-01,5.88000687120119e-01
3.51100000000000e-08,5.39999999999982e-01,6.00000000000000e-01,5.88843313613839e-01
3.51300000000000e-08,4.19999999999965e-01,6.00000000000000e-01,5.90267265128756e-01
3.51700000000000e-08,1.79999999999970e-01,6.00000000000000e-01,5.92438732558606e-01
3.52000000000000e-08,0.00000000000000e+00,6.00000000000000e-01,5.94459979984434e-01
3.52080000000000e-08,0.00000000000000e+00,6.00000000000000e-01,5.95310624568145e-01
3.52240000000000e-08,0.00000000000000e+00,6.00000000000000e-01,5.96869411307810e-01
3.52560000000000e-08,0.00000000000000e+00,6.00000000000000e-01,5.99381593020371e-01
3.53200000000000e-08,0.00000000000000e+00,6.00000000000000e-01,6.02898238820905e-01
3.54480000000000e-08,0.00000000000000e+00,6.00000000000000e-01,6.05688801579655e-01
3.57040000000000e-08,0.00000000000000e+00,6.00000000000000e-01,6.05726994513117e-01
3.62160000000000e-08,0.00000000000000e+00,6.00000000000000e-01,5.97144471656447e-01
3.72400000000000e-08,0.00000000000000e+00,6.00000000000000e-01,5.88093618045641e-01
3.91487981920715e-08,0.00000000000000e+00,6.00000000000000e-01,6.02212312196729e-01
4.17995227796876e-08,0.00000000000000e+00,6.00000000000000e-01,5.97918258444351e-01
4.50000000000000e-08,0.00000000000000e+00,6.00000000000000e-01,6.01376257191451e-01
4.50100000000000e-08,5.99999999999886e-02,6.00000000000000e-01,6.01674037939381e-01
4.50300000000000e-08,1.80000000000006e-01,6.00000000000000e-01,6.02199940505135e-01
4.50700000000000e-08,4.20000000000000e-01,6.00000000000000e-01,6.02999740872323e-01
4.51000000000000e-08,6.00000000000000e-01,6.00000000000000e-01,6.02966795533533e-01
4.51080000000000e-08,6.00000000000000e-01,5.52000000000025e-01,6.02706820786372e-01
4.51240000000000e-08,6.00000000000000e-01,4.55999999999996e-01,6.02190097576641e-01
4.51560000000000e-08,6.00000000000000e-01,2.64000000000016e-01,6.01322060095061e-01
4.52000000000000e-08,6.00000000000000e-01,3.44169137633799e-14,6.00361689263419e-01
4.52064000000000e-08,6.00000000000000e-01,0.00000000000000e+00,6.00267449046750e-01
4.52192000000000e-08,6.00000000000000e-01,0.00000000000000e+00,6.00065379554931e-01
4.52448000000000e-08,6.00000000000000e-01,0.00000000000000e+00,5.99655731675636e-01
4.52960000000000e-08,6.00000000000000e-01,0.00000000000000e+00,5.98811992676367e-01
4.53984000000000e-08,6.00000000000000e-01,0.00000000000000e+00,5.97370123214356e-01
4.56032000000000e-08,6.00000000000000e-01,0.00000000000000e+00,5.95153993449064e-01
4.60128000000000e-08,6.00000000000000e-01,0.00000000000000e+00,5.92959780909376e-01
4.68320000000000e-08,6.00000000000000e-01,0.00000000000000e+00,5.96924866079446e-01
4.82146739812004e-08,6.00000000000000e-01,0.00000000000000e+00,6.00664084399325e-01
5.02417984956604e-08,6.00000000000000e-01,0.00000000000000e+00,5.99443734051322e-01
5.30316790339802e-08,6.00000000000000e-01,0.00000000000000e+00,6.00479240649108e-01
5.51000000000000e-08,6.00000000000000e-01,0.00000000000000e+00,5.99610068692495e-01
5.51100000000000e-08,5.40000000000021e-01,0.00000000000000e+00,5.99301809889072e-01
5.51300000000000e-08,4.20000000000004e-01,0.00000000000000e+00,5.98659477177107e-01
5.51700000000000e-08,1.80000000000010e-01,0.00000000000000e+00,5.97699728687145e-01
5.52000000000000e-08,0.00000000000000e+00,0.00000000000000e+00,5.98106915299100e-01
5.52080000000000e-08,0.00000000000000e+00,0.00000000000000e+00,5.98658653236417e-01
5.52240000000000e-08,0.00000000000000e+00,0.00000000000000e+00,5.99706021122459e-01
5.52560000000000e-08,0.00000000000000e+00,0.00000000000000e+00,6.01584295928180e-01
5.53200000000000e-08,0.00000000000000e+00,0.00000000000000e+00,6.03972692361131e-01
5.54480000000000e-08,0.00000000000000e+00,0.00000000000000e+00,6.05917106989017e-01
5.57040000000000e-08,0.00000000000000e+00,0.00000000000000e+00,6.06971015219140e-01
5.62160000000000e-08,0.00000000000000e+00,0.00000000000000e+00,6.07403147271389e-01
5.72400000000000e-08,0.00000000000000e+00,0.00000000000000e+00,5.99418744458377e-01
5.88100909914363e-08,0.00000000000000e+00,0.00000000000000e+00,6.00254206158752e-01
6.06666621015051e-08,0.00000000000000e+00,0.00000000000000e+00,5.99602586811878e-01
6.43798043216427e-08,0.00000000000000e+00,0.00000000000000e+00,6.00152334549680e-01
6.50000000000000e-08,0.00000000000000e+00,0.00000000000000e+00,5.99883636615192e-01
6.50100000000000e-08,5.99999999999886e-02,0.00000000000000e+00,6.00284736003160e-01
6.50300000000000e-08,1.79999999999966e-01,0.00000000000000e+00,6.00993987189685e-01
6.50700000000000e-08,4.19999999999920e-01,0.00000000000000e+00,6.02017354334034e-01
6.51000000000000e-08,5.99999999999966e-01,0.00000000000000e+00,6.01945934783189e-01
6.51080000000000e-08,6.00000000000000e-01,0.00000000000000e+00,6.01680767693326e-01
6.51240000000000e-08,6.00000000000000e-01,0.00000000000000e+00,6.01183823208631e-01
6.51560000000000e-08,6.00000000000000e-01,0.00000000000000e+00,6.00279356317114e-01
6.52200000000000e-08,6.00000000000000e-01,0.00000000000000e+00,5.99050249714952e-01
6.53480000000000e-08,6.00000000000000e-01,0.00000000000000e+00,5.97765840468375e-01
6.56040000000000e-08,6.00000000000000e-01,0.00000000000000e+00,5.97706113990494e-01
6.61159999999999e-08,6.00000000000000e-01,0.00000000000000e+00,6.05778912451988e-01
6.70655251731485e-08,6.00000000000000e-01,0.00000000000000e+00,6.19113550071914e-01
6.89645755194456e-08,6.00000000000000e-01,0.00000000000000e+00,5.77904356566984e-02
7.08185229990694e-08,6.00000000000000e-01,0.00000000000000e+00,-3.54987145309356e-02
7.40669404727900e-08,6.00000000000000e-01,0.00000000000000e+00,3.10702497770303e-02
7.51000000000000e-08,6.00000000000000e-01,0.00000000000000e+00,-1.58794589046239e-02
7.51100000000000e-08,5.40000000000061e-01,0.00000000000000e+00,-1.49446723300814e-02
7.51300000000000e-08,4.20000000000084e-01,0.00000000000000e+00,-1.34833882850704e-02
7.51700000000000e-08,1.80000000000129e-01,0.00000000000000e+00,-1.22104429857006e-02
7.52000000000000e-08,8.40438829641244e-14,0.00000000000000e+00,-1.11811600645190e-02
7.52080000000000e-08,0.00000000000000e+00,0.00000000000000e+00,-1.02915887624682e-02
7.52240000000000e-08,0.00000000000000e+00,0.00000000000000e+00,-8.68467961807030e-03
7.52560000000000e-08,0.00000000000000e+00,0.00000000000000e+00,-5.85663258983604e-03
7.53200000000000e-08,0.00000000000000e+00,0.00000000000000e+00,-2.04046616183221e-03
7.54480000000000e-08,0.00000000000000e+00,0.00000000000000e+00,1.00065479817897e-03
7.57040000000000e-08,0.00000000000000e+00,0.00000000000000e+00,8.81650650715118e-04
7.62159999999999e-08,0.00000000000000e+00,0.00000000000000e+00,-4.59314070582997e-03
7.72399999999999e-08,0.00000000000000e+00,0.00000000000000e+00,4.25672519682185e-04
7.82784788869331e-08,0.00000000000000e+00,0.00000000000000e+00,4.05402443030355e-04
8.03554366607995e-08,0.00000000000000e+00,0.00000000000000e+00,-4.99123653314563e-04
8.25093000994146e-08,0.00000000000000e+00,0.00000000000000e+00,5.37894770211610e-04
8.50000000000000e-08,0.00000000000000e+00,0.00000000000000e+00,-5.24047952426648e-04
8.50100000000000e-08,5.99999999999886e-02,0.00000000000000e+00,3.21278157776245e-04
8.50300000000000e-08,1.79999999999966e-01,0.00000000000000e+00,1.83559816362559e-03
8.50700000000000e-08,4.19999999999920e-01,0.00000000000000e+00,3.89710994387311e-03
8.51000000000000e-08,5.99999999999966e-01,0.00000000000000e+00,3.66495328130115e-03
8.51080000000000e-08,6.00000000000000e-01,0.00000000000000e+00,3.11608752037805e-03
8.51240000000000e-08,6.00000000000000e-01,0.00000000000000e+00,2.03864022991740e-03
8.51560000000000e-08,6.00000000000000e-01,0.00000000000000e+00,3.02982685107769e-04
8.52200000000000e-08,6.00000000000000e-01,0.00000000000000e+00,-1.49091406360782e-03
8.53480000000000e-08,6.00000000000000e-01,0.00000000000000e+00,-1.90115253613463e-03
8.56040000000000e-08,6.00000000000000e-01,0.00000000000000e+00,-8.70371877121648e-04
8.61159999999999e-08,6.00000000000000e-01,0.00000000000000e+00,-3.04611588422078e-04
8.71399999999999e-08,6.00000000000000e-01,0.00000000000000e+00,4.02235258612878e-04
8.91744162897733e-08,6.00000000000000e-01,0.00000000000000e+00,1.98531921589279e-06
9.00000000000000e-08,6.00000000000000e-01,0.00000000000000e+00,-1.36308241986079e-04
9.00100000000000e-08,6.00000000000000e-01,5.99999999999886e-02,-8.95041637470895e-05
9.00300000000000e-08,6.00000000000000e-01,1.79999999999966e-01,-7.69099930517103e-06
9.00700000000000e-08,6.00000000000000e-01,4.19999999999920e-01,7.39823989592825e-05
9.01000000000000e-08,6.00000000000000e-01,5.99999999999966e-01,2.98500081107461e-05
9.01080000000000e-08,6.00000000000000e-01,6.00000000000000e-01,-4.73930860751814e-06
9.01240000000000e-08,6.00000000000000e-01,6.00000000000000e-01,-5.93993329757597e-05
9.01560000000000e-08,6.00000000000000e-01,6.00000000000000e-01,-1.32120400116842e-04
9.02200000000000e-08,6.00000000000000e-01,6.00000000000000e-01,-1.61567448961841e-04
9.03480000000000e-08,6.00000000000000e-01,6.00000000000000e-01,-8.32442976584774e-05
9.06040000000000e-08,6.00000000000000e-01,6.00000000000000e-01,4.62642647646033e-05
9.11159999999999e-08,6.00000000000000e-01,6.00000000000000e-01,3.12156084020174e-05
9.19521142598945e-08,6.00000000000000e-01,6.00000000000000e-01,-8.71300893180715e-06
9.36243427796837e-08,6.00000000000000e-01,6.00000000000000e-01,1.83516540064599e-05
9.51000000000000e-08,6.00000000000000e-01,6.00000000000000e-01,3.17763642690080e-06
9.51100000000000e-08,5.40000000000061e-01,6.00000000000000e-01,-3.73352980578862e-04
9.51300000000000e-08,4.20000000000084e-01,6.00000000000000e-01,-1.22522653825825e-03
9.51700000000000e-08,1.80000000000129e-01,6.00000000000000e-01,-3.22238416947505e-03
9.52000000000000e-08,8.40438829641244e-14,6.00000000000000e-01,-3.89317921844624e-03
9.52080000000000e-08,0.00000000000000e+00,6.00000000000000e-01,-3.37917710771360e-03
9.52240000000000e-08,0.00000000000000e+00,6.00000000000000e-01,-2.40564529525565e-03
9.52560000000000e-08,0.00000000000000e+00,6.00000000000000e-01,-7.50984452043482e-04
9.53200000000000e-08,0.00000000000000e+00,6.00000000000000e-01,1.26954203206880e-03
9.54480000000000e-08,0.00000000000000e+00,6.00000000000000e-01,2.46342719047205e-03
9.57040000000000e-08,0.00000000000000e+00,6.00000000000000e-01,1.64986100541749e-03
9.62159999999999e-08,0.00000000000000e+00,6.00000000000000e-01,-5.85980214940982e-04
9.72399999999999e-08,0.00000000000000e+00,6.00000000000000e-01,-4.06048476605511e-04
9.91489986723856e-08,0.00000000000000e+00,6.00000000000000e-01,1.78355999237628e-04
1.01427508333754e-07,0.00000000000000e+00,6.00000000000000e-01,-2.37242334437376e-04
1.05000000000000e-07,0.00000000000000e+00,6.00000000000000e-01,4.40015796828985e-04
1.05010000000000e-07,5.99999999999886e-02,6.00000000000000e-01,1.19166374924125e-03
1.05030000000000e-07,1.79999999999966e-01,6.00000000000000e-01,2.62700986233262e-03
1.05070000000000e-07,4.19999999999920e-01,6.00000000000000e-01,5.02148882602957e-03
1.05100000000000e-07,5.99999999999966e-01,6.00000000000000e-01,5.41614971463597e-03
1.05108000000000e-07,6.00000000000000e-01,6.00000000000000e-01,5.04871357817721e-03
1.05124000000000e-07,6.00000000000000e-01,6.00000000000000e-01,4.33180780259330e-03
1.05156000000000e-07,6.00000000000000e-01,6.00000000000000e-01,3.03059334760448e-03
1.05220000000000e-07,6.00000000000000e-01,6.00000000000000e-01,4.84393901963351e-04
1.05348000000000e-07,6.00000000000000e-01,6.00000000000000e-01,-5.27526704108064e-03
1.05604000000000e-07,6.00000000000000e-01,6.00000000000000e-01,-1.37967257487348e-02
1.06116000000000e-07,6.00000000000000e-01,6.00000000000000e-01,-2.94545382276892e-03
1.06960516799905e-07,6.00000000000000e-01,6.00000000000000e-01,3.13632454160083e-01
1.08649550399715e-07,6.00000000000000e-01,6.00000000000000e-01,6.15440636258599e-01
1.10368855881024e-07,6.00000000000000e-01,6.00000000000000e-01,5.85139179925987e-01
1.13618165836186e-07,6.00000000000000e-01,6.00000000000000e-01,6.14649311048104e-01
1.15100000000000e-07,6.00000000000000e-01,6.00000000000000e-01,5.88004871768085e-01
1.15110000000000e-07,5.40000000000061e-01,6.00000000000000e-01,5.88847216845652e-01
1.15130000000000e-07,4.20000000000084e-01,6.00000000000000e-01,5.90270693619896e-01
1.15170000000000e-07,1.80000000000129e-01,6.00000000000000e-01,5.92441346385963e-01
1.15200000000000e-07,8.40438829641244e-14,6.00000000000000e-01,5.94462139875143e-01
1.15208000000000e-07,0.00000000000000e+00,6.00000000000000e-01,5.95312702599586e-01
1.15224000000000e-07,0.00000000000000e+00,6.00000000000000e-01,5.96871315561579e-01
1.15256000000000e-07,0.00000000000000e+00,6.00000000000000e-01,5.99383200349226e-01
1.15320000000000e-07,0.00000000000000e+00,6.00000000000000e-01,6.02899542723035e-01
1.15448000000000e-07,0.00000000000000e+00,6.00000000000000e-01,6.05689527788415e-01
1.15704000000000e-07,0.00000000000000e+00,6.00000000000000e-01,6.05728593745092e-01
1.16216000000000e-07,0.00000000000000e+00,6.00000000000000e-01,5.97147848696751e-01
1.17240000000000e-07,0.00000000000000e+00,6.00000000000000e-01,5.88093967369256e-01
1.19148823061395e-07,0.00000000000000e+00,6.00000000000000e-01,6.02211329340884e-01
1.21799559142735e-07,0.00000000000000e+00,6.00000000000000e-01,5.97919099749436e-01
1.25000000000000e-07,0.00000000000000e+00,6.00000000000000e-01,6.01375656305169e-01
1.25010000000000e-07,5.99999999999092e-02,6.00000000000000e-01,6.01673473025945e-01
1.25030000000000e-07,1.79999999999886e-01,6.00000000000000e-01,6.02199442307307e-01
1.25070000000000e-07,4.19999999999841e-01,6.00000000000000e-01,6.02999359812573e-01
1.25100000000000e-07,5.99999999999886e-01,6.00000000000000e-01,6.02966489084639e-01
1.25108000000000e-07,6.00000000000000e-01,5.51999999999946e-01,6.02706530948747e-01
1.25124000000000e-07,6.00000000000000e-01,4.55999999999996e-01,6.02189838687052e-01
1.25156000000000e-07,6.00000000000000e-01,2.63999999999937e-01,6.01321854030623e-01
1.25200000000000e-07,6.00000000000000e-01,0.00000000000000e+00,6.00361540631601e-01
1.25206400000000e-07,6.00000000000000e-01,0.00000000000000e+00,6.00267307094988e-01
1.25219200000000e-07,6.00000000000000e-01,0.00000000000000e+00,6.00065250467282e-01
1.25244800000000e-07,6.00000000000000e-01,0.00000000000000e+00,5.99655633015094e-01
1.25296000000000e-07,6.00000000000000e-01,0.00000000000000e+00,5.98811923137972e-01
1.25398400000000e-07,6.00000000000000e-01,0.00000000000000e+00,5.97370085826388e-01
1.25603200000000e-07,6.00000000000000e-01,0.00000000000000e+00,5.95153980973372e-01
1.26012800000000e-07,6.00000000000000e-01,0.00000000000000e+00,5.92959778221048e-01
1.26832000000000e-07,6.00000000000000e-01,0.00000000000000e+00,5.96924865515692e-01
1.28214673969359e-07,6.00000000000000e-01,0.00000000000000e+00,6.00664084351002e-01
