Time,v(clk),v(data),v(out)
1.00000000000000e-08,6.25000000000000e-01,0.00000000000000e+00,1.95671168774078e-05
1.00100000000000e-08,6.25000000000000e-01,6.24999999999985e-02,1.90506662110373e-05
1.00300000000000e-08,6.25000000000000e-01,1.87499999999995e-01,1.46170267202317e-05
1.00700000000000e-08,6.25000000000000e-01,4.37499999999989e-01,5.38053682451467e-06
1.01000000000000e-08,6.25000000000000e-01,6.24999999999995e-01,9.35692071192540e-07
1.01080000000000e-08,6.25000000000000e-01,6.25000000000000e-01,3.69630780969188e-07
1.01240000000000e-08,6.25000000000000e-01,6.25000000000000e-01,1.40940664959677e-06
1.01560000000000e-08,6.25000000000000e-01,6.25000000000000e-01,5.74689680372942e-06
1.02200000000000e-08,6.25000000000000e-01,6.25000000000000e-01,7.23302884624022e-06
1.03480000000000e-08,6.25000000000000e-01,6.25000000000000e-01,6.19696908607525e-07
1.06040000000000e-08,6.25000000000000e-01,6.25000000000000e-01,2.05250941688953e-06
1.11160000000000e-08,6.25000000000000e-01,6.25000000000000e-01,1.85213840379027e-06
1.21400000000000e-08,6.25000000000000e-01,6.25000000000000e-01,1.68764020020903e-06
1.41880000000000e-08,6.25000000000000e-01,6.25000000000000e-01,1.62163360686689e-06
1.51000000000000e-08,6.25000000000000e-01,6.25000000000000e-01,1.39594345678097e-06
1.51100000000000e-08,5.62499999999991e-01,6.25000000000000e-01,-8.74678941278073e-05
1.51300000000000e-08,4.37499999999994e-01,6.25000000000000e-01,-2.05388978785317e-04
1.51700000000000e-08,1.87500000000000e-01,6.25000000000000e-01,-1.33701151256889e-04
1.52000000000000e-08,0.00000000000000e+00,6.25000000000000e-01,2.78156247935923e-04
1.52080000000000e-08,0.00000000000000e+00,6.25000000000000e-01,4.64627484349542e-04
1.52240000000000e-08,0.00000000000000e+00,6.25000000000000e-01,6.55123919593534e-04
1.52560000000000e-08,0.00000000000000e+00,6.25000000000000e-01,4.97967136599969e-04
1.53200000000000e-08,0.00000000000000e+00,6.25000000000000e-01,-1.56260674615376e-04
1.54480000000000e-08,0.00000000000000e+00,6.25000000000000e-01,-3.09871095021529e-04
1.57040000000000e-08,0.00000000000000e+00,6.25000000000000e-01,7.78924777954104e-05
1.60652925440759e-08,0.00000000000000e+00,6.25000000000000e-01,-1.15626428324019e-04
1.65872665991031e-08,0.00000000000000e+00,6.25000000000000e-01,2.42373526231696e-04
1.76312147091577e-08,0.00000000000000e+00,6.25000000000000e-01,-2.65818530999003e-04
1.87388558369056e-08,0.00000000000000e+00,6.25000000000000e-01,2.72603109853923e-04
2.09541380924015e-08,0.00000000000000e+00,6.25000000000000e-01,-2.71733754011442e-04
2.43882514765525e-08,0.00000000000000e+00,6.25000000000000e-01,2.70285428755299e-04
2.50000000000000e-08,0.00000000000000e+00,6.25000000000000e-01,-2.49151505351335e-04
2.50100000000000e-08,6.24999999999881e-02,6.25000000000000e-01,-5.01865628958487e-05
2.50300000000000e-08,1.87500000000006e-01,6.25000000000000e-01,2.68788634565989e-04
2.50700000000000e-08,4.37500000000000e-01,6.25000000000000e-01,5.67602513785452e-04
2.51000000000000e-08,6.25000000000000e-01,6.25000000000000e-01,-6.40100646599612e-05
2.51080000000000e-08,6.25000000000000e-01,6.25000000000000e-01,-6.15048589352810e-04
2.51240000000000e-08,6.25000000000000e-01,6.25000000000000e-01,-1.80894162249659e-03
2.51560000000000e-08,6.25000000000000e-01,6.25000000000000e-01,-3.99323311764246e-03
2.52200000000000e-08,6.25000000000000e-01,6.25000000000000e-01,-6.29122903738918e-03
2.53480000000000e-08,6.25000000000000e-01,6.25000000000000e-01,6.99253214634345e-02
2.56040000000000e-08,6.25000000000000e-01,6.25000000000000e-01,5.50132483771241e-01
2.61160000000000e-08,6.25000000000000e-01,6.25000000000000e-01,6.43981301505457e-01
2.66463331317971e-08,6.25000000000000e-01,6.25000000000000e-01,6.05895595598204e-01
2.77069993953914e-08,6.25000000000000e-01,6.25000000000000e-01,6.41744871229644e-01
2.91798084761488e-08,6.25000000000000e-01,6.25000000000000e-01,6.07600374083491e-01
3.01000000000000e-08,6.25000000000000e-01,6.25000000000000e-01,6.40398724833827e-01
3.01100000000000e-08,6.25000000000000e-01,5.62500000000033e-01,6.33249479783955e-01
3.01300000000000e-08,6.25000000000000e-01,4.37500000000015e-01,6.25603917318366e-01
3.01700000000000e-08,6.25000000000000e-01,1.87500000000021e-01,6.24852008606761e-01
3.02000000000000e-08,6.25000000000000e-01,1.50990331349021e-14,6.25028575875970e-01
3.02080000000000e-08,6.25000000000000e-01,0.00000000000000e+00,6.25014002012720e-01
3.02240000000000e-08,6.25000000000000e-01,0.00000000000000e+00,6.24992034148215e-01
3.02560000000000e-08,6.25000000000000e-01,0.00000000000000e+00,6.24974893019698e-01
3.03200000000000e-08,6.25000000000000e-01,0.00000000000000e+00,6.24972473129933e-01
3.04480000000000e-08,6.25000000000000e-01,0.00000000000000e+00,6.25005779274613e-01
3.06676123281019e-08,6.25000000000000e-01,0.00000000000000e+00,6.24985536603119e-01
3.10442281143876e-08,6.25000000000000e-01,0.00000000000000e+00,6.24983806785965e-01
3.15449264949644e-08,6.25000000000000e-01,0.00000000000000e+00,6.24995395880756e-01
3.25463232561180e-08,6.25000000000000e-01,0.00000000000000e+00,6.24981259309463e-01
3.45491167784251e-08,6.25000000000000e-01,0.00000000000000e+00,6.24998968872754e-01
3.51000000000000e-08,6.24999999999969e-01,0.00000000000000e+00,6.24981130813795e-01
3.51100000000000e-08,5.62499999999981e-01,0.00000000000000e+00,6.24902403819164e-01
3.51300000000000e-08,4.37499999999963e-01,0.00000000000000e+00,6.24823234228263e-01
3.51700000000000e-08,1.87499999999969e-01,0.00000000000000e+00,6.25610942117131e-01
3.52000000000000e-08,0.00000000000000e+00,0.00000000000000e+00,6.27899008538211e-01
3.52080000000000e-08,0.00000000000000e+00,0.00000000000000e+00,6.28469157794380e-01
3.52240000000000e-08,0.00000000000000e+00,0.00000000000000e+00,6.28950594800236e-01
3.52560000000000e-08,0.00000000000000e+00,0.00000000000000e+00,6.25465005906103e-01
3.53200000000000e-08,0.00000000000000e+00,0.00000000000000e+00,6.09651590760074e-01
3.54480000000000e-08,0.00000000000000e+00,0.00000000000000e+00,6.11900748783129e-01
3.56791453076884e-08,0.00000000000000e+00,0.00000000000000e+00,6.28855513490492e-01
3.59921980529877e-08,0.00000000000000e+00,0.00000000000000e+00,6.21102791992925e-01
3.66183035435864e-08,0.00000000000000e+00,0.00000000000000e+00,6.27713297908141e-01
3.73367751814998e-08,0.00000000000000e+00,0.00000000000000e+00,6.22254085244216e-01
3.87737184573267e-08,0.00000000000000e+00,0.00000000000000e+00,6.27322077522618e-01
3.91000000000000e-08,0.00000000000000e+00,0.00000000000000e+00,6.23096147302875e-01
3.93873886551654e-08,0.00000000000000e+00,0.00000000000000e+00,6.24781256260851e-01
3.99621659654961e-08,0.00000000000000e+00,0.00000000000000e+00,6.25049343569371e-01
4.11117205861576e-08,0.00000000000000e+00,0.00000000000000e+00,6.24831599686789e-01
4.34108298274806e-08,0.00000000000000e+00,0.00000000000000e+00,6.25060251395751e-01
4.50000000000000e-08,0.00000000000000e+00,0.00000000000000e+00,6.24861189485242e-01
4.50100000000000e-08,6.24999999999881e-02,0.00000000000000e+00,6.24974003951312e-01
4.50300000000000e-08,1.87500000000006e-01,0.00000000000000e+00,6.25087908472827e-01
4.50700000000000e-08,4.37500000000000e-01,0.00000000000000e+00,6.25020899919734e-01
4.51000000000000e-08,6.25000000000000e-01,0.00000000000000e+00,6.24843995299820e-01
4.51080000000000e-08,6.25000000000000e-01,0.00000000000000e+00,6.24769197015794e-01
4.51240000000000e-08,6.25000000000000e-01,0.00000000000000e+00,6.24690708871269e-01
4.51560000000000e-08,6.25000000000000e-01,0.00000000000000e+00,6.24682031006541e-01
4.52200000000000e-08,6.25000000000000e-01,0.00000000000000e+00,6.24835556131293e-01
4.53480000000000e-08,6.25000000000000e-01,0.00000000000000e+00,6.28580971590729e-01
4.56040000000000e-08,6.25000000000000e-01,0.00000000000000e+00,3.47116682705945e-01
4.61160000000000e-08,6.25000000000000e-01,0.00000000000000e+00,-5.32563744996969e-02
4.66041282547678e-08,6.25000000000000e-01,0.00000000000000e+00,4.12477590276206e-02
4.75803847643033e-08,6.25000000000000e-01,0.00000000000000e+00,-2.74023990148752e-02
4.86463477381148e-08,6.25000000000000e-01,0.00000000000000e+00,2.54662717099271e-02
5.00000000000000e-08,6.25000000000000e-01,0.00000000000000e+00,-1.87313348511534e-02
5.00100000000000e-08,6.25000000000000e-01,6.24999999999881e-02,-1.69294627832191e-02
5.00300000000000e-08,6.25000000000000e-01,1.87499999999964e-01,-1.23605416484630e-02
5.00700000000000e-08,6.25000000000000e-01,4.37500000000000e-01,-5.05134077464169e-03
5.01000000000000e-08,6.25000000000000e-01,6.25000000000000e-01,-2.73073504452756e-03
5.01080000000000e-08,6.25000000000000e-01,6.25000000000000e-01,-2.32423758254713e-03
5.01240000000000e-08,6.25000000000000e-01,6.25000000000000e-01,-1.64843493763940e-03
5.01560000000000e-08,6.25000000000000e-01,6.25000000000000e-01,-8.23116870431781e-04
5.02200000000000e-08,6.25000000000000e-01,6.25000000000000e-01,-1.60033326817959e-04
5.03480000000000e-08,6.25000000000000e-01,6.25000000000000e-01,2.01354932622896e-05
5.06040000000000e-08,6.25000000000000e-01,6.25000000000000e-01,-8.44505923299280e-06
5.11160000000001e-08,6.25000000000000e-01,6.25000000000000e-01,5.90286911102481e-06
5.21400000000002e-08,6.25000000000000e-01,6.25000000000000e-01,-4.56038422553835e-06
5.41880000000003e-08,6.25000000000000e-01,6.25000000000000e-01,4.68988704624331e-06
5.51000000000000e-08,6.25000000000000e-01,6.25000000000000e-01,-3.52653691378969e-06
5.51100000000000e-08,5.62500000000022e-01,6.25000000000000e-01,-9.48647338863406e-05
5.51300000000000e-08,4.37500000000005e-01,6.25000000000000e-01,-2.11563162732589e-04
5.51700000000000e-08,1.87500000000011e-01,6.25000000000000e-01,-1.37006937067662e-04
5.52000000000000e-08,0.00000000000000e+00,6.25000000000000e-01,2.73242226649900e-04
5.52080000000000e-08,0.00000000000000e+00,6.25000000000000e-01,4.56997849824212e-04
5.52240000000000e-08,0.00000000000000e+00,6.25000000000000e-01,6.34953559776580e-04
5.52560000000000e-08,0.00000000000000e+00,6.25000000000000e-01,3.53747935033205e-04
5.53200000000000e-08,0.00000000000000e+00,6.25000000000000e-01,-7.32118077698414e-04
5.54480000000000e-08,0.00000000000000e+00,6.25000000000000e-01,-5.19528482771453e-04
5.57040000000000e-08,0.00000000000000e+00,6.25000000000000e-01,2.32512323951287e-04
5.60650332243700e-08,0.00000000000000e+00,6.25000000000000e-01,-2.38083934644306e-04
5.65871313835429e-08,0.00000000000000e+00,6.25000000000000e-01,3.43710883791648e-04
5.76313277018885e-08,0.00000000000000e+00,6.25000000000000e-01,-3.60174280410454e-04
5.87384131490913e-08,0.00000000000000e+00,6.25000000000000e-01,3.59339944936863e-04
6.09525840434969e-08,0.00000000000000e+00,6.25000000000000e-01,-3.56592262506242e-04
6.43859185643991e-08,0.00000000000000e+00,6.25000000000000e-01,3.52150362112077e-04
6.50000000000000e-08,0.00000000000000e+00,6.25000000000000e-01,-3.22084410862815e-04
6.50100000000000e-08,6.24999999999881e-02,6.25000000000000e-01,-9.53714698298108e-05
6.50300000000000e-08,1.87499999999964e-01,6.25000000000000e-01,2.53242696153760e-04
6.50700000000000e-08,4.37499999999917e-01,6.25000000000000e-01,5.63017743702737e-04
6.51000000000000e-08,6.24999999999964e-01,6.25000000000000e-01,-6.41083004241927e-05
6.51080000000000e-08,6.25000000000000e-01,6.25000000000000e-01,-6.15516406016398e-04
6.51240000000000e-08,6.25000000000000e-01,6.25000000000000e-01,-1.80952593908175e-03
6.51560000000000e-08,6.25000000000000e-01,6.25000000000000e-01,-3.99335610670117e-03
6.52200000000000e-08,6.25000000000000e-01,6.25000000000000e-01,-6.29127299058839e-03
6.53480000000000e-08,6.25000000000000e-01,6.25000000000000e-01,6.99271766320557e-02
6.56040000000000e-08,6.25000000000000e-01,6.25000000000000e-01,5.50133646948822e-01
6.61159999999999e-08,6.25000000000000e-01,6.25000000000000e-01,6.43981103474446e-01
6.66463345314216e-08,6.25000000000000e-01,6.25000000000000e-01,6.05895779726187e-01
6.77070035942649e-08,6.25000000000000e-01,6.25000000000000e-01,6.41744708627185e-01
6.91798169545904e-08,6.25000000000000e-01,6.25000000000000e-01,6.07600543777883e-01
7.01000000000000e-08,6.25000000000000e-01,6.25000000000000e-01,6.40398571784155e-01
7.01100000000000e-08,6.25000000000000e-01,5.62500000000012e-01,6.33249393000937e-01
7.01300000000000e-08,6.25000000000000e-01,4.37500000000036e-01,6.25603904933281e-01
7.01700000000000e-08,6.25000000000000e-01,1.87500000000083e-01,6.24852011900261e-01
7.02000000000000e-08,6.25000000000000e-01,3.57491813929300e-14,6.25028576466383e-01
7.02080000000000e-08,6.25000000000000e-01,0.00000000000000e+00,6.25014001692228e-01
7.02240000000000e-08,6.25000000000000e-01,0.00000000000000e+00,6.24992032840778e-01
7.02560000000000e-08,6.25000000000000e-01,0.00000000000000e+00,6.24974892635429e-01
7.03200000000000e-08,6.25000000000000e-01,0.00000000000000e+00,6.24972473294710e-01
7.04480000000000e-08,6.25000000000000e-01,0.00000000000000e+00,6.25005779231276e-01
7.06676124701138e-08,6.25000000000000e-01,0.00000000000000e+00,6.24985536501172e-01
7.10442281451022e-08,6.25000000000000e-01,0.00000000000000e+00,6.24983807228797e-01
7.15449270656713e-08,6.25000000000000e-01,0.00000000000000e+00,6.24995395413846e-01
7.25463249068097e-08,6.25000000000000e-01,0.00000000000000e+00,6.24981259413645e-01
7.45491205890863e-08,6.25000000000000e-01,0.00000000000000e+00,6.24998968707549e-01
7.51000000000000e-08,6.25000000000000e-01,0.00000000000000e+00,6.24981130648924e-01
7.51100000000000e-08,5.62500000000064e-01,0.00000000000000e+00,6.24902402150288e-01
7.51300000000000e-08,4.37500000000087e-01,0.00000000000000e+00,6.24823231811201e-01
7.51700000000000e-08,1.87500000000135e-01,0.00000000000000e+00,6.25610941873854e-01
7.52000000000000e-08,8.74855743404623e-14,0.00000000000000e+00,6.27899008090103e-01
7.52080000000000e-08,0.00000000000000e+00,0.00000000000000e+00,6.28469156118066e-01
7.52240000000000e-08,0.00000000000000e+00,0.00000000000000e+00,6.28950590164787e-01
7.52560000000000e-08,0.00000000000000e+00,0.00000000000000e+00,6.25464992383726e-01
7.53200000000000e-08,0.00000000000000e+00,0.00000000000000e+00,6.09651578159717e-01
7.54480000000000e-08,0.00000000000000e+00,0.00000000000000e+00,6.11900755815638e-01
7.56791453053879e-08,0.00000000000000e+00,0.00000000000000e+00,6.28855511179206e-01
7.59921980507320e-08,0.00000000000000e+00,0.00000000000000e+00,6.21102793674250e-01
7.66183035414201e-08,0.00000000000000e+00,0.00000000000000e+00,6.27713296435892e-01
7.73367751775073e-08,0.00000000000000e+00,0.00000000000000e+00,6.22254086564130e-01
7.81000000000000e-08,0.00000000000000e+00,0.00000000000000e+00,6.27167443451267e-01
7.82436943272175e-08,0.00000000000000e+00,0.00000000000000e+00,6.25203399953881e-01
7.85310829816523e-08,0.00000000000000e+00,0.00000000000000e+00,6.24677841197008e-01
7.91058602905221e-08,0.00000000000000e+00,0.00000000000000e+00,6.25103701946406e-01
8.02554149082617e-08,0.00000000000000e+00,0.00000000000000e+00,6.24758784986530e-01
8.25545241437407e-08,0.00000000000000e+00,0.00000000000000e+00,6.25117151883255e-01
8.50000000000000e-08,0.00000000000000e+00,0.00000000000000e+00,6.24800033227819e-01
8.50100000000000e-08,6.24999999999881e-02,0.00000000000000e+00,6.24924859544494e-01
8.50300000000000e-08,1.87499999999964e-01,0.00000000000000e+00,6.25058541698131e-01
8.50700000000000e-08,4.37499999999917e-01,0.00000000000000e+00,6.25016675808477e-01
8.51000000000000e-08,6.24999999999964e-01,0.00000000000000e+00,6.24858518211346e-01
8.51080000000000e-08,6.25000000000000e-01,0.00000000000000e+00,6.24781207885006e-01
8.51240000000000e-08,6.25000000000000e-01,0.00000000000000e+00,6.24696721559512e-01
8.51560000000000e-08,6.25000000000000e-01,0.00000000000000e+00,6.24682482881382e-01
8.52200000000000e-08,6.25000000000000e-01,0.00000000000000e+00,6.24833778492375e-01
8.53480000000000e-08,6.25000000000000e-01,0.00000000000000e+00,6.28583449532624e-01
8.56040000000000e-08,6.25000000000000e-01,0.00000000000000e+00,3.47069074165556e-01
8.61159999999999e-08,6.25000000000000e-01,0.00000000000000e+00,-5.32676723398196e-02
8.66041362310890e-08,6.25000000000000e-01,0.00000000000000e+00,4.12580087173148e-02
8.75804086932672e-08,6.25000000000000e-01,0.00000000000000e+00,-2.74094651062153e-02
8.86463765546116e-08,6.25000000000000e-01,0.00000000000000e+00,2.54734155542530e-02
9.00000000000000e-08,6.25000000000000e-01,0.00000000000000e+00,-1.87369014705658e-02
9.00100000000000e-08,6.25000000000000e-01,6.24999999999881e-02,-1.69335683226079e-02
9.00300000000000e-08,6.25000000000000e-01,1.87499999999964e-01,-1.23628420576434e-02
9.00700000000000e-08,6.25000000000000e-01,4.37499999999917e-01,-5.05236119299268e-03
9.01000000000000e-08,6.25000000000000e-01,6.24999999999964e-01,-2.73121138026661e-03
9.01080000000000e-08,6.25000000000000e-01,6.25000000000000e-01,-2.32465787899783e-03
9.01240000000000e-08,6.25000000000000e-01,6.25000000000000e-01,-1.64874590447910e-03
9.01560000000000e-08,6.25000000000000e-01,6.25000000000000e-01,-8.23273134308508e-04
9.02200000000000e-08,6.25000000000000e-01,6.25000000000000e-01,-1.60067665981721e-04
9.03480000000000e-08,6.25000000000000e-01,6.25000000000000e-01,2.01413345303977e-05
9.06040000000000e-08,6.25000000000000e-01,6.25000000000000e-01,-8.44797758180194e-06
9.11159999999999e-08,6.25000000000000e-01,6.25000000000000e-01,5.90510580687070e-06
9.21399999999999e-08,6.25000000000000e-01,6.25000000000000e-01,-4.56248785745631e-06
9.41879999999998e-08,6.25000000000000e-01,6.25000000000000e-01,4.69185841110416e-06
9.51000000000000e-08,6.25000000000000e-01,6.25000000000000e-01,-3.52852882031397e-06
9.51100000000000e-08,5.62500000000064e-01,6.25000000000000e-01,-9.48672824998692e-05
9.51300000000000e-08,4.37500000000087e-01,6.25000000000000e-01,-2.11564212043699e-04
9.51700000000000e-08,1.87500000000135e-01,6.25000000000000e-01,-1.37007396175358e-04
9.52000000000000e-08,8.74855743404623e-14,6.25000000000000e-01,2.73241952340061e-04
9.52080000000000e-08,0.00000000000000e+00,6.25000000000000e-01,4.56997522230246e-04
9.52240000000000e-08,0.00000000000000e+00,6.25000000000000e-01,6.34952890604432e-04
9.52560000000000e-08,0.00000000000000e+00,6.25000000000000e-01,3.53743911790563e-04
9.53200000000000e-08,0.00000000000000e+00,6.25000000000000e-01,-7.32147939172131e-04
9.54480000000000e-08,0.00000000000000e+00,6.25000000000000e-01,-5.19543521722871e-04
9.57040000000000e-08,0.00000000000000e+00,6.25000000000000e-01,2.32522391219774e-04
9.60650331833384e-08,0.00000000000000e+00,6.25000000000000e-01,-2.38091605682660e-04
9.65871313579728e-08,0.00000000000000e+00,6.25000000000000e-01,3.43717205268950e-04
9.76313277072416e-08,0.00000000000000e+00,6.25000000000000e-01,-3.60180124000675e-04
9.87384130976404e-08,0.00000000000000e+00,6.25000000000000e-01,3.59345301513623e-04
1.00952583878438e-07,0.00000000000000e+00,6.25000000000000e-01,-3.56597439211757e-04
1.04385918430956e-07,0.00000000000000e+00,6.25000000000000e-01,3.52155384276621e-04
1.05000000000000e-07,0.00000000000000e+00,6.25000000000000e-01,-3.22088810017329e-04
1.05010000000000e-07,6.24999999999881e-02,6.25000000000000e-01,-9.53740208784470e-05
1.05030000000000e-07,1.87499999999964e-01,6.25000000000000e-01,2.53241875985077e-04
1.05070000000000e-07,4.37499999999917e-01,6.25000000000000e-01,5.63017409310543e-04
1.05100000000000e-07,6.24999999999964e-01,6.25000000000000e-01,-6.41083456328767e-05
1.05108000000000e-07,6.25000000000000e-01,6.25000000000000e-01,-6.15516488475520e-04
1.05124000000000e-07,6.25000000000000e-01,6.25000000000000e-01,-1.80952603883222e-03
1.05156000000000e-07,6.25000000000000e-01,6.25000000000000e-01,-3.99335616004122e-03
1.05220000000000e-07,6.25000000000000e-01,6.25000000000000e-01,-6.29127300006830e-03
1.05348000000000e-07,6.25000000000000e-01,6.25000000000000e-01,6.99271777086701e-02
1.05604000000000e-07,6.25000000000000e-01,6.25000000000000e-01,5.50133647675368e-01
1.06116000000000e-07,6.25000000000000e-01,6.25000000000000e-01,6.43981103343945e-01
1.06646334532318e-07,6.25000000000000e-01,6.25000000000000e-01,6.05895779837843e-01
