Time,v(clk),v(data),v(out)
1.00000000000000e-08,6.25000000000000e-01,0.00000000000000e+00,6.38872819447647e-06
1.00100000000000e-08,6.25000000000000e-01,6.24999999999985e-02,1.15436121128493e-05
1.00300000000000e-08,6.25000000000000e-01,1.87499999999995e-01,1.38881227474685e-05
1.00700000000000e-08,6.25000000000000e-01,4.37499999999989e-01,7.33658135846499e-06
1.01000000000000e-08,6.25000000000000e-01,6.24999999999995e-01,2.90054392707711e-06
1.01080000000000e-08,6.25000000000000e-01,6.25000000000000e-01,2.05223140345434e-06
1.01240000000000e-08,6.25000000000000e-01,6.25000000000000e-01,2.85722728822491e-06
1.01560000000000e-08,6.25000000000000e-01,6.25000000000000e-01,7.12156995322233e-06
1.02200000000000e-08,6.25000000000000e-01,6.25000000000000e-01,9.98758096919239e-06
1.03480000000000e-08,6.25000000000000e-01,6.25000000000000e-01,4.28479223395228e-06
1.06040000000000e-08,6.25000000000000e-01,6.25000000000000e-01,3.47344918013789e-06
1.11084019200175e-08,6.25000000000000e-01,6.25000000000000e-01,4.56963828432758e-06
1.21172057600526e-08,6.25000000000000e-01,6.25000000000000e-01,3.35042694732737e-06
1.41348134401229e-08,6.25000000000000e-01,6.25000000000000e-01,3.97665968333936e-06
1.51000000000000e-08,6.25000000000000e-01,6.25000000000000e-01,2.94083253260351e-06
1.51100000000000e-08,5.62499999999991e-01,6.25000000000000e-01,-8.94346353152026e-05
1.51300000000000e-08,4.37499999999994e-01,6.25000000000000e-01,-2.20573983915950e-04
1.51700000000000e-08,1.87500000000000e-01,6.25000000000000e-01,-1.65247664429935e-04
1.52000000000000e-08,0.00000000000000e+00,6.25000000000000e-01,2.47753635689324e-04
1.52080000000000e-08,0.00000000000000e+00,6.25000000000000e-01,4.42796718235064e-04
1.52240000000000e-08,0.00000000000000e+00,6.25000000000000e-01,6.64148833456071e-04
1.52560000000000e-08,0.00000000000000e+00,6.25000000000000e-01,5.69693941329524e-04
1.53200000000000e-08,0.00000000000000e+00,6.25000000000000e-01,-7.05673048565364e-05
1.54480000000000e-08,0.00000000000000e+00,6.25000000000000e-01,-4.09003573416708e-04
1.57040000000000e-08,0.00000000000000e+00,6.25000000000000e-01,1.08605821270560e-04
1.60789554850903e-08,0.00000000000000e+00,6.25000000000000e-01,-1.54131669946170e-04
1.66346303225699e-08,0.00000000000000e+00,6.25000000000000e-01,2.59740686468921e-04
1.77459799975292e-08,0.00000000000000e+00,6.25000000000000e-01,-2.59799102690793e-04
1.88441822292712e-08,0.00000000000000e+00,6.25000000000000e-01,2.54742846188692e-04
2.10405866927552e-08,0.00000000000000e+00,6.25000000000000e-01,-2.43270745662091e-04
2.48256403669043e-08,0.00000000000000e+00,6.25000000000000e-01,2.41565697826038e-04
2.50000000000000e-08,0.00000000000000e+00,6.25000000000000e-01,-1.06385330271200e-04
2.50100000000000e-08,6.24999999999881e-02,6.25000000000000e-01,6.03026250347583e-05
2.50300000000000e-08,1.87500000000006e-01,6.25000000000000e-01,3.26279845430863e-04
2.50700000000000e-08,4.37500000000000e-01,6.25000000000000e-01,6.16171019640156e-04
2.51000000000000e-08,6.25000000000000e-01,6.25000000000000e-01,1.94727588872450e-04
2.51080000000000e-08,6.25000000000000e-01,6.25000000000000e-01,-2.48262151618897e-04
2.51240000000000e-08,6.25000000000000e-01,6.25000000000000e-01,-1.24805534933796e-03
2.51560000000000e-08,6.25000000000000e-01,6.25000000000000e-01,-3.27902210137826e-03
2.52200000000000e-08,6.25000000000000e-01,6.25000000000000e-01,-5.79602611379654e-03
2.53480000000000e-08,6.25000000000000e-01,6.25000000000000e-01,2.48993310450208e-02
2.56040000000000e-08,6.25000000000000e-01,6.25000000000000e-01,4.86634834191511e-01
2.61160000000000e-08,6.25000000000000e-01,6.25000000000000e-01,6.49605669201642e-01
2.66363380074723e-08,6.25000000000000e-01,6.25000000000000e-01,6.02250258635203e-01
2.76770140224170e-08,6.25000000000000e-01,6.25000000000000e-01,6.45774425251041e-01
2.92058137668909e-08,6.25000000000000e-01,6.25000000000000e-01,6.03956503491407e-01
3.01000000000000e-08,6.25000000000000e-01,6.25000000000000e-01,6.43878339821004e-01
3.01100000000000e-08,6.25000000000000e-01,5.62500000000033e-01,6.35500214684599e-01
3.01300000000000e-08,6.25000000000000e-01,4.37500000000015e-01,6.26170751854603e-01
3.01700000000000e-08,6.25000000000000e-01,1.87500000000021e-01,6.24683343150711e-01
3.02000000000000e-08,6.25000000000000e-01,1.50990331349021e-14,6.24979609233874e-01
3.02080000000000e-08,6.25000000000000e-01,0.00000000000000e+00,6.24971775250294e-01
3.02240000000000e-08,6.25000000000000e-01,0.00000000000000e+00,6.24956452690879e-01
3.02560000000000e-08,6.25000000000000e-01,0.00000000000000e+00,6.24943845308793e-01
3.03200000000000e-08,6.25000000000000e-01,0.00000000000000e+00,6.24945655501990e-01
3.04480000000000e-08,6.25000000000000e-01,0.00000000000000e+00,6.24991266448162e-01
3.06891391632264e-08,6.25000000000000e-01,0.00000000000000e+00,6.24979685666949e-01
3.10696797390664e-08,6.25000000000000e-01,0.00000000000000e+00,6.24971720758880e-01
3.16104742590908e-08,6.25000000000000e-01,0.00000000000000e+00,6.24988911653804e-01
3.26920632991395e-08,6.25000000000000e-01,0.00000000000000e+00,6.24972903945764e-01
3.48552413792369e-08,6.25000000000000e-01,0.00000000000000e+00,6.24994203103057e-01
3.51000000000000e-08,6.24999999999969e-01,0.00000000000000e+00,6.24975442866206e-01
3.51100000000000e-08,5.62499999999981e-01,0.00000000000000e+00,6.24901100835598e-01
3.51300000000000e-08,4.37499999999963e-01,0.00000000000000e+00,6.24810945661480e-01
3.51700000000000e-08,1.87499999999969e-01,0.00000000000000e+00,6.25623983873716e-01
3.52000000000000e-08,0.00000000000000e+00,0.00000000000000e+00,6.27882856525042e-01
3.52080000000000e-08,0.00000000000000e+00,0.00000000000000e+00,6.28452723665023e-01
3.52240000000000e-08,0.00000000000000e+00,0.00000000000000e+00,6.28991668281171e-01
3.52560000000000e-08,0.00000000000000e+00,0.00000000000000e+00,6.26421120343215e-01
3.53200000000000e-08,0.00000000000000e+00,0.00000000000000e+00,6.11716088871973e-01
3.54480000000000e-08,0.00000000000000e+00,0.00000000000000e+00,6.09526529101813e-01
3.56874702668983e-08,0.00000000000000e+00,0.00000000000000e+00,6.27988301895163e-01
3.60236317266307e-08,0.00000000000000e+00,0.00000000000000e+00,6.21661167277441e-01
3.66640064153648e-08,0.00000000000000e+00,0.00000000000000e+00,6.27133280337415e-01
3.74226611341431e-08,0.00000000000000e+00,0.00000000000000e+00,6.22712078229742e-01
3.89399705716998e-08,0.00000000000000e+00,0.00000000000000e+00,6.26847724841845e-01
3.91000000000000e-08,0.00000000000000e+00,0.00000000000000e+00,6.23872939223837e-01
3.94034618875113e-08,0.00000000000000e+00,0.00000000000000e+00,6.24817196650439e-01
4.00103856625340e-08,0.00000000000000e+00,0.00000000000000e+00,6.24978635306010e-01
4.12242332125794e-08,0.00000000000000e+00,0.00000000000000e+00,6.24860410317334e-01
4.36519283126701e-08,0.00000000000000e+00,0.00000000000000e+00,6.24999934909216e-01
4.50000000000000e-08,0.00000000000000e+00,0.00000000000000e+00,6.24888593428562e-01
4.50100000000000e-08,6.24999999999881e-02,0.00000000000000e+00,6.24990721117564e-01
4.50300000000000e-08,1.87500000000006e-01,0.00000000000000e+00,6.25096164990716e-01
4.50700000000000e-08,4.37500000000000e-01,0.00000000000000e+00,6.25028323155483e-01
4.51000000000000e-08,6.25000000000000e-01,0.00000000000000e+00,6.24861444492755e-01
4.51080000000000e-08,6.25000000000000e-01,0.00000000000000e+00,6.24780753811089e-01
4.51240000000000e-08,6.25000000000000e-01,0.00000000000000e+00,6.24687559973959e-01
4.51560000000000e-08,6.25000000000000e-01,0.00000000000000e+00,6.24666275004695e-01
4.52200000000000e-08,6.25000000000000e-01,0.00000000000000e+00,6.24790829156199e-01
4.53480000000000e-08,6.25000000000000e-01,0.00000000000000e+00,6.26662841787187e-01
4.56040000000000e-08,6.25000000000000e-01,0.00000000000000e+00,4.89439586045579e-01
4.61160000000000e-08,6.25000000000000e-01,0.00000000000000e+00,7.73264921465527e-03
4.66328368222955e-08,6.25000000000000e-01,0.00000000000000e+00,-6.19754683875897e-03
4.76665104668865e-08,6.25000000000000e-01,0.00000000000000e+00,6.44178932421767e-03
4.89017249199683e-08,6.25000000000000e-01,0.00000000000000e+00,-5.60134814321720e-03
5.00000000000000e-08,6.25000000000000e-01,0.00000000000000e+00,5.82956719726921e-03
5.00100000000000e-08,6.25000000000000e-01,6.24999999999881e-02,3.20538371985854e-03
5.00300000000000e-08,6.25000000000000e-01,1.87499999999964e-01,5.34984620670087e-04
5.00700000000000e-08,6.25000000000000e-01,4.37500000000000e-01,1.88391770769104e-04
5.01000000000000e-08,6.25000000000000e-01,6.25000000000000e-01,4.90756630004488e-05
5.01080000000000e-08,6.25000000000000e-01,6.25000000000000e-01,6.03475145319055e-05
5.01240000000000e-08,6.25000000000000e-01,6.25000000000000e-01,6.00361632266816e-05
5.01560000000000e-08,6.25000000000000e-01,6.25000000000000e-01,3.07564954455664e-05
5.02200000000000e-08,6.25000000000000e-01,6.25000000000000e-01,9.67385011878957e-06
5.03480000000000e-08,6.25000000000000e-01,6.25000000000000e-01,9.29364356787310e-06
5.06040000000000e-08,6.25000000000000e-01,6.25000000000000e-01,-1.98213643980844e-06
5.11160000000001e-08,6.25000000000000e-01,6.25000000000000e-01,2.36572195013579e-06
5.21400000000002e-08,6.25000000000000e-01,6.25000000000000e-01,-3.17239237048253e-07
5.41880000000003e-08,6.25000000000000e-01,6.25000000000000e-01,1.57549277642575e-06
5.51000000000000e-08,6.25000000000000e-01,6.25000000000000e-01,-1.56511628513281e-07
5.51100000000000e-08,5.62500000000022e-01,6.25000000000000e-01,-9.61080310718093e-05
5.51300000000000e-08,4.37500000000005e-01,6.25000000000000e-01,-2.29171363520325e-04
5.51700000000000e-08,1.87500000000011e-01,6.25000000000000e-01,-1.71767061955791e-04
5.52000000000000e-08,0.00000000000000e+00,6.25000000000000e-01,2.38546151945213e-04
5.52080000000000e-08,0.00000000000000e+00,6.25000000000000e-01,4.31097950445561e-04
5.52240000000000e-08,0.00000000000000e+00,6.25000000000000e-01,6.32416403147984e-04
5.52560000000000e-08,0.00000000000000e+00,6.25000000000000e-01,3.87187269937875e-04
5.53200000000000e-08,0.00000000000000e+00,6.25000000000000e-01,-1.10260969100176e-03
5.54480000000000e-08,0.00000000000000e+00,6.25000000000000e-01,-1.18543435709943e-03
5.57040000000000e-08,0.00000000000000e+00,6.25000000000000e-01,4.31149351681755e-04
5.60776615025716e-08,0.00000000000000e+00,6.25000000000000e-01,-3.47478794792435e-04
5.66341851386811e-08,0.00000000000000e+00,6.25000000000000e-01,3.99717726953819e-04
5.77472324109001e-08,0.00000000000000e+00,6.25000000000000e-01,-3.82137162984941e-04
5.88442896011671e-08,0.00000000000000e+00,6.25000000000000e-01,3.61104521272615e-04
6.10384039817010e-08,0.00000000000000e+00,6.25000000000000e-01,-3.44136366748860e-04
6.48315099179915e-08,0.00000000000000e+00,6.25000000000000e-01,3.38522952855078e-04
6.50000000000000e-08,0.00000000000000e+00,6.25000000000000e-01,-1.53309527005527e-04
6.50100000000000e-08,6.24999999999881e-02,6.25000000000000e-01,4.15549942422155e-05
6.50300000000000e-08,1.87499999999964e-01,6.25000000000000e-01,3.26833067307367e-04
6.50700000000000e-08,4.37499999999917e-01,6.25000000000000e-01,6.11352491959011e-04
6.51000000000000e-08,6.24999999999964e-01,6.25000000000000e-01,1.94566651001218e-04
6.51080000000000e-08,6.25000000000000e-01,6.25000000000000e-01,-2.48961375451440e-04
6.51240000000000e-08,6.25000000000000e-01,6.25000000000000e-01,-1.24904362618165e-03
6.51560000000000e-08,6.25000000000000e-01,6.25000000000000e-01,-3.27945914785528e-03
6.52200000000000e-08,6.25000000000000e-01,6.25000000000000e-01,-5.79637898913612e-03
6.53480000000000e-08,6.25000000000000e-01,6.25000000000000e-01,2.48770579556992e-02
6.56040000000000e-08,6.25000000000000e-01,6.25000000000000e-01,4.86598264942095e-01
6.61159999999999e-08,6.25000000000000e-01,6.25000000000000e-01,6.49607013503370e-01
6.66363383508461e-08,6.25000000000000e-01,6.25000000000000e-01,6.02249637049520e-01
6.76770150525384e-08,6.25000000000000e-01,6.25000000000000e-01,6.45775292160126e-01
6.92057616538941e-08,6.25000000000000e-01,6.25000000000000e-01,6.03955822511549e-01
7.01000000000000e-08,6.25000000000000e-01,6.25000000000000e-01,6.43879154483663e-01
7.01100000000000e-08,6.25000000000000e-01,5.62500000000012e-01,6.35500645908051e-01
7.01300000000000e-08,6.25000000000000e-01,4.37500000000036e-01,6.26170760883635e-01
7.01700000000000e-08,6.25000000000000e-01,1.87500000000083e-01,6.24683311908319e-01
7.02000000000000e-08,6.25000000000000e-01,3.57491813929300e-14,6.24979602260590e-01
7.02080000000000e-08,6.25000000000000e-01,0.00000000000000e+00,6.24971768446732e-01
7.02240000000000e-08,6.25000000000000e-01,0.00000000000000e+00,6.24956446477007e-01
7.02560000000000e-08,6.25000000000000e-01,0.00000000000000e+00,6.24943840537022e-01
7.03200000000000e-08,6.25000000000000e-01,0.00000000000000e+00,6.24945651339368e-01
7.04480000000000e-08,6.25000000000000e-01,0.00000000000000e+00,6.24991263903691e-01
7.06891366069544e-08,6.25000000000000e-01,0.00000000000000e+00,6.24979685063717e-01
7.10696784266893e-08,6.25000000000000e-01,0.00000000000000e+00,6.24971720629580e-01
7.16104613652486e-08,6.25000000000000e-01,0.00000000000000e+00,6.24988910436088e-01
7.26920272423673e-08,6.25000000000000e-01,0.00000000000000e+00,6.24972904023427e-01
7.48551589966046e-08,6.25000000000000e-01,0.00000000000000e+00,6.24994201987821e-01
7.51000000000000e-08,6.25000000000000e-01,0.00000000000000e+00,6.24975443436940e-01
7.51100000000000e-08,5.62500000000064e-01,0.00000000000000e+00,6.24901101062251e-01
7.51300000000000e-08,4.37500000000087e-01,0.00000000000000e+00,6.24810945018152e-01
7.51700000000000e-08,1.87500000000135e-01,0.00000000000000e+00,6.25623983470773e-01
7.52000000000000e-08,8.74855743404623e-14,0.00000000000000e+00,6.27882854862898e-01
7.52080000000000e-08,0.00000000000000e+00,0.00000000000000e+00,6.28452720512694e-01
7.52240000000000e-08,0.00000000000000e+00,0.00000000000000e+00,6.28991658987331e-01
7.52560000000000e-08,0.00000000000000e+00,0.00000000000000e+00,6.26421076382461e-01
7.53200000000000e-08,0.00000000000000e+00,0.00000000000000e+00,6.11716020956504e-01
7.54480000000000e-08,0.00000000000000e+00,0.00000000000000e+00,6.09526532493432e-01
7.56874702948227e-08,0.00000000000000e+00,0.00000000000000e+00,6.27988307871609e-01
7.60236317447501e-08,0.00000000000000e+00,0.00000000000000e+00,6.21661162104356e-01
7.66640064706467e-08,0.00000000000000e+00,0.00000000000000e+00,6.27133284495698e-01
7.74226611912390e-08,0.00000000000000e+00,0.00000000000000e+00,6.22712074475309e-01
7.81000000000000e-08,0.00000000000000e+00,0.00000000000000e+00,6.26661411207223e-01
7.82517309441185e-08,0.00000000000000e+00,0.00000000000000e+00,6.25118160517143e-01
7.85551928323554e-08,0.00000000000000e+00,0.00000000000000e+00,6.24696597725999e-01
7.91621166088292e-08,0.00000000000000e+00,0.00000000000000e+00,6.25042799561321e-01
8.03759641617769e-08,0.00000000000000e+00,0.00000000000000e+00,6.24775602565172e-01
8.28036592676722e-08,0.00000000000000e+00,0.00000000000000e+00,6.25066914549310e-01
8.50000000000000e-08,0.00000000000000e+00,0.00000000000000e+00,6.24818466346558e-01
8.50100000000000e-08,6.24999999999881e-02,0.00000000000000e+00,6.24933953384363e-01
8.50300000000000e-08,1.87499999999964e-01,0.00000000000000e+00,6.25058985029081e-01
8.50700000000000e-08,4.37499999999917e-01,0.00000000000000e+00,6.25020100130432e-01
8.51000000000000e-08,6.24999999999964e-01,0.00000000000000e+00,6.24874642225964e-01
8.51080000000000e-08,6.25000000000000e-01,0.00000000000000e+00,6.24803945681064e-01
8.51240000000000e-08,6.25000000000000e-01,0.00000000000000e+00,6.24689986648059e-01
8.51560000000000e-08,6.25000000000000e-01,0.00000000000000e+00,6.24666732443977e-01
8.52200000000000e-08,6.25000000000000e-01,0.00000000000000e+00,6.24794660250242e-01
8.53480000000000e-08,6.25000000000000e-01,0.00000000000000e+00,6.26668863473388e-01
8.56040000000000e-08,6.25000000000000e-01,0.00000000000000e+00,4.89198049823076e-01
8.61159999999999e-08,6.25000000000000e-01,0.00000000000000e+00,7.62585336668292e-03
8.66331809869884e-08,6.25000000000000e-01,0.00000000000000e+00,-6.12927144202100e-03
8.76675429609654e-08,6.25000000000000e-01,0.00000000000000e+00,6.38891578613061e-03
8.89025537536867e-08,6.25000000000000e-01,0.00000000000000e+00,-5.55684301480076e-03
9.00000000000000e-08,6.25000000000000e-01,0.00000000000000e+00,5.79412828049046e-03
9.00100000000000e-08,6.25000000000000e-01,6.24999999999881e-02,3.17529290055642e-03
9.00300000000000e-08,6.25000000000000e-01,1.87499999999964e-01,5.13854161300481e-04
9.00700000000000e-08,6.25000000000000e-01,4.37499999999917e-01,1.78057154007677e-04
9.01000000000000e-08,6.25000000000000e-01,6.24999999999964e-01,4.29722833922355e-05
9.01080000000000e-08,6.25000000000000e-01,6.25000000000000e-01,5.49904074316765e-05
9.01240000000000e-08,6.25000000000000e-01,6.25000000000000e-01,5.60250236760623e-05
9.01560000000000e-08,6.25000000000000e-01,6.25000000000000e-01,2.85822460536211e-05
9.02200000000000e-08,6.25000000000000e-01,6.25000000000000e-01,9.01040691950877e-06
9.03480000000000e-08,6.25000000000000e-01,6.25000000000000e-01,9.31889090847321e-06
9.06040000000000e-08,6.25000000000000e-01,6.25000000000000e-01,-1.99344497752926e-06
9.11159999999999e-08,6.25000000000000e-01,6.25000000000000e-01,2.38197236508350e-06
9.21399999999999e-08,6.25000000000000e-01,6.25000000000000e-01,-3.25374303491652e-07
9.41879999999998e-08,6.25000000000000e-01,6.25000000000000e-01,1.59025778405462e-06
9.51000000000000e-08,6.25000000000000e-01,6.25000000000000e-01,-1.63668866289685e-07
9.51100000000000e-08,5.62500000000064e-01,6.25000000000000e-01,-9.61290468880771e-05
9.51300000000000e-08,4.37500000000087e-01,6.25000000000000e-01,-2.29166240674233e-04
9.51700000000000e-08,1.87500000000135e-01,6.25000000000000e-01,-1.71757124355701e-04
9.52000000000000e-08,8.74855743404623e-14,6.25000000000000e-01,2.38560691042611e-04
9.52080000000000e-08,0.00000000000000e+00,6.25000000000000e-01,4.31119945812464e-04
9.52240000000000e-08,0.00000000000000e+00,6.25000000000000e-01,6.32481805820595e-04
9.52560000000000e-08,0.00000000000000e+00,6.25000000000000e-01,3.87512185466357e-04
9.53200000000000e-08,0.00000000000000e+00,6.25000000000000e-01,-1.10102095119372e-03
9.54480000000000e-08,0.00000000000000e+00,6.25000000000000e-01,-1.18363497026554e-03
9.57040000000000e-08,0.00000000000000e+00,6.25000000000000e-01,4.30792649827594e-04
9.60776628650693e-08,0.00000000000000e+00,6.25000000000000e-01,-3.47435114047206e-04
9.66341853826003e-08,0.00000000000000e+00,6.25000000000000e-01,3.99762402441309e-04
9.77472304176624e-08,0.00000000000000e+00,6.25000000000000e-01,-3.82205767276145e-04
9.88442887023417e-08,0.00000000000000e+00,6.25000000000000e-01,3.61188106417673e-04
1.01038405271700e-07,0.00000000000000e+00,6.25000000000000e-01,-3.44225102910758e-04
1.04831499177279e-07,0.00000000000000e+00,6.25000000000000e-01,3.38613599003379e-04
1.05000000000000e-07,0.00000000000000e+00,6.25000000000000e-01,-1.53403157192401e-04
1.05010000000000e-07,6.24999999999881e-02,6.25000000000000e-01,4.14807564260294e-05
1.05030000000000e-07,1.87499999999964e-01,6.25000000000000e-01,3.26793233861158e-04
1.05070000000000e-07,4.37499999999917e-01,6.25000000000000e-01,6.11346686680503e-04
1.05100000000000e-07,6.24999999999964e-01,6.25000000000000e-01,1.94565254125853e-04
1.05108000000000e-07,6.25000000000000e-01,6.25000000000000e-01,-2.48962102189623e-04
1.05124000000000e-07,6.25000000000000e-01,6.25000000000000e-01,-1.24904350062653e-03
1.05156000000000e-07,6.25000000000000e-01,6.25000000000000e-01,-3.27945854751227e-03
1.05220000000000e-07,6.25000000000000e-01,6.25000000000000e-01,-5.79637819760894e-03
1.05348000000000e-07,6.25000000000000e-01,6.25000000000000e-01,2.48770977247011e-02
1.05604000000000e-07,6.25000000000000e-01,6.25000000000000e-01,4.86598329356833e-01
1.06116000000000e-07,6.25000000000000e-01,6.25000000000000e-01,6.49607011058046e-01
1.06636338350578e-07,6.25000000000000e-01,6.25000000000000e-01,6.02249638148268e-01
1.07677015051735e-07,6.25000000000000e-01,6.25000000000000e-01,6.45775290627044e-01
