Time,v(clk),v(data),v(out)
1.00000000000000e-08,3.30000000000000e-01,0.00000000000000e+00,5.57567067577692e-06
1.00100000000000e-08,3.30000000000000e-01,3.29999999999992e-02,6.10613251797107e-06
1.00300000000000e-08,3.30000000000000e-01,9.89999999999976e-02,7.24675914072145e-06
1.00700000000000e-08,3.30000000000000e-01,2.30999999999994e-01,8.54601684868034e-06
1.01000000000000e-08,3.30000000000000e-01,3.29999999999998e-01,9.10856724951198e-06
1.01080000000000e-08,3.30000000000000e-01,3.30000000000000e-01,9.05408416769157e-06
1.01240000000000e-08,3.30000000000000e-01,3.30000000000000e-01,9.13076330366983e-06
1.01560000000000e-08,3.30000000000000e-01,3.30000000000000e-01,9.09031251276893e-06
1.02200000000000e-08,3.30000000000000e-01,3.30000000000000e-01,9.80381573293526e-06
1.03480000000000e-08,3.30000000000000e-01,3.30000000000000e-01,1.15392493499275e-05
1.06040000000000e-08,3.30000000000000e-01,3.30000000000000e-01,1.40334995658992e-05
1.11160000000000e-08,3.30000000000000e-01,3.30000000000000e-01,1.66755556327289e-05
1.21400000000000e-08,3.30000000000000e-01,3.30000000000000e-01,1.16472501114368e-05
1.41880000000000e-08,3.30000000000000e-01,3.30000000000000e-01,1.29510676978297e-05
1.51000000000000e-08,3.30000000000000e-01,3.30000000000000e-01,1.10463821712068e-05
1.51100000000000e-08,2.96999999999995e-01,3.30000000000000e-01,-5.33607592918123e-06
1.51300000000000e-08,2.30999999999997e-01,3.30000000000000e-01,-3.72447152464789e-05
1.51700000000000e-08,9.90000000000001e-02,3.30000000000000e-01,-1.01119885971182e-04
1.52000000000000e-08,0.00000000000000e+00,3.30000000000000e-01,-1.36398726356672e-04
1.52080000000000e-08,0.00000000000000e+00,3.30000000000000e-01,-1.21483090160218e-04
1.52240000000000e-08,0.00000000000000e+00,3.30000000000000e-01,-9.40515326850258e-05
1.52560000000000e-08,0.00000000000000e+00,3.30000000000000e-01,-4.22493727037510e-05
1.53200000000000e-08,0.00000000000000e+00,3.30000000000000e-01,2.64110279201424e-05
1.54480000000000e-08,0.00000000000000e+00,3.30000000000000e-01,8.12694978531339e-05
1.57040000000000e-08,0.00000000000000e+00,3.30000000000000e-01,6.39442829920428e-05
1.62160000000000e-08,0.00000000000000e+00,3.30000000000000e-01,-1.00570015421700e-05
1.72400000000000e-08,0.00000000000000e+00,3.30000000000000e-01,-5.08640394815936e-05
1.92880000000000e-08,0.00000000000000e+00,3.30000000000000e-01,1.32221148769506e-05
2.30880000000000e-08,0.00000000000000e+00,3.30000000000000e-01,-2.09691197726018e-05
2.50000000000000e-08,0.00000000000000e+00,3.30000000000000e-01,5.90682559081456e-05
2.50100000000000e-08,3.29999999999937e-02,3.30000000000000e-01,8.58439208819041e-05
2.50300000000000e-08,9.90000000000031e-02,3.30000000000000e-01,1.29460509244627e-04
2.50700000000000e-08,2.31000000000000e-01,3.30000000000000e-01,1.81036342243361e-04
2.51000000000000e-08,3.30000000000000e-01,3.30000000000000e-01,1.89008600327500e-04
2.51080000000000e-08,3.30000000000000e-01,3.30000000000000e-01,1.74277806038899e-04
2.51240000000000e-08,3.30000000000000e-01,3.30000000000000e-01,1.43387846695087e-04
2.51560000000000e-08,3.30000000000000e-01,3.30000000000000e-01,7.55029338708850e-05
2.52200000000000e-08,3.30000000000000e-01,3.30000000000000e-01,-1.10158041670954e-04
2.53480000000000e-08,3.30000000000000e-01,3.30000000000000e-01,-6.65341281048103e-04
2.56040000000000e-08,3.30000000000000e-01,3.30000000000000e-01,-1.85400413554034e-03
2.61160000000000e-08,3.30000000000000e-01,3.30000000000000e-01,-1.03091225328805e-03
2.71400000000000e-08,3.30000000000000e-01,3.30000000000000e-01,8.69609746271839e-02
2.91880000000000e-08,3.30000000000000e-01,3.30000000000000e-01,3.11600526183074e-01
3.29880000000000e-08,3.30000000000000e-01,3.30000000000000e-01,3.35263879248022e-01
3.51000000000000e-08,3.29999999999984e-01,3.30000000000000e-01,3.24323633576353e-01
3.51100000000000e-08,2.96999999999990e-01,3.30000000000000e-01,3.24573674381809e-01
3.51300000000000e-08,2.30999999999981e-01,3.30000000000000e-01,3.25008335420279e-01
3.51700000000000e-08,9.89999999999837e-02,3.30000000000000e-01,3.25785931544713e-01
3.52000000000000e-08,0.00000000000000e+00,3.30000000000000e-01,3.26365271088277e-01
3.52080000000000e-08,0.00000000000000e+00,3.30000000000000e-01,3.26532063474961e-01
3.52240000000000e-08,0.00000000000000e+00,3.30000000000000e-01,3.26842908460728e-01
3.52560000000000e-08,0.00000000000000e+00,3.30000000000000e-01,3.27374449208822e-01
3.53200000000000e-08,0.00000000000000e+00,3.30000000000000e-01,3.28181114628592e-01
3.54480000000000e-08,0.00000000000000e+00,3.30000000000000e-01,3.29091920965669e-01
3.57040000000000e-08,0.00000000000000e+00,3.30000000000000e-01,3.29547195136272e-01
3.62160000000000e-08,0.00000000000000e+00,3.30000000000000e-01,3.27739843354299e-01
3.72400000000000e-08,0.00000000000000e+00,3.30000000000000e-01,3.19789189943513e-01
3.92880000000000e-08,0.00000000000000e+00,3.30000000000000e-01,3.20306856336351e-01
4.30880000000000e-08,0.00000000000000e+00,3.30000000000000e-01,3.30374301199623e-01
4.50000000000000e-08,0.00000000000000e+00,3.30000000000000e-01,3.28233621277267e-01
4.50100000000000e-08,3.29999999999937e-02,3.30000000000000e-01,3.28271959506406e-01
4.50300000000000e-08,9.90000000000031e-02,3.30000000000000e-01,3.28343961403263e-01
4.50700000000000e-08,2.31000000000000e-01,3.30000000000000e-01,3.28460692753495e-01
4.51000000000000e-08,3.30000000000000e-01,3.30000000000000e-01,3.28525516645450e-01
4.51080000000000e-08,3.30000000000000e-01,3.03600000000014e-01,3.28530392904655e-01
4.51240000000000e-08,3.30000000000000e-01,2.50799999999998e-01,3.28539632799219e-01
4.51560000000000e-08,3.30000000000000e-01,1.45200000000009e-01,3.28553571586546e-01
4.52000000000000e-08,3.30000000000000e-01,1.88737914186277e-14,3.28554284893532e-01
4.52064000000000e-08,3.30000000000000e-01,0.00000000000000e+00,3.28551926568309e-01
4.52192000000000e-08,3.30000000000000e-01,0.00000000000000e+00,3.28545233459009e-01
4.52448000000000e-08,3.30000000000000e-01,0.00000000000000e+00,3.28524478536103e-01
4.52960000000000e-08,3.30000000000000e-01,0.00000000000000e+00,3.28452253498152e-01
4.53984000000000e-08,3.30000000000000e-01,0.00000000000000e+00,3.28251875640658e-01
4.56032000000000e-08,3.30000000000000e-01,0.00000000000000e+00,3.27952259845874e-01
4.60128000000000e-08,3.30000000000000e-01,0.00000000000000e+00,3.27875000462747e-01
4.68320000000000e-08,3.30000000000000e-01,0.00000000000000e+00,3.28771508338169e-01
4.84704000000000e-08,3.30000000000000e-01,0.00000000000000e+00,3.30164378573167e-01
5.17472000000001e-08,3.30000000000000e-01,0.00000000000000e+00,3.29892332176176e-01
5.51000000000000e-08,3.30000000000000e-01,0.00000000000000e+00,3.30059223088894e-01
5.51100000000000e-08,2.97000000000012e-01,0.00000000000000e+00,3.30045697058424e-01
5.51300000000000e-08,2.31000000000002e-01,0.00000000000000e+00,3.30009524610580e-01
5.51700000000000e-08,9.90000000000056e-02,0.00000000000000e+00,3.29951147640303e-01
5.52000000000000e-08,0.00000000000000e+00,0.00000000000000e+00,3.29998010060279e-01
5.52080000000000e-08,0.00000000000000e+00,0.00000000000000e+00,3.30043499353124e-01
5.52240000000000e-08,0.00000000000000e+00,0.00000000000000e+00,3.30126640091061e-01
5.52560000000000e-08,0.00000000000000e+00,0.00000000000000e+00,3.30264504477917e-01
5.53200000000000e-08,0.00000000000000e+00,0.00000000000000e+00,3.30485529821744e-01
5.54480000000000e-08,0.00000000000000e+00,0.00000000000000e+00,3.30707265762378e-01
5.57040000000000e-08,0.00000000000000e+00,0.00000000000000e+00,3.30927291791952e-01
5.62160000000000e-08,0.00000000000000e+00,0.00000000000000e+00,3.31076495964557e-01
5.72400000000000e-08,0.00000000000000e+00,0.00000000000000e+00,3.30710901835320e-01
5.92880000000000e-08,0.00000000000000e+00,0.00000000000000e+00,3.27797293444987e-01
6.30880000000000e-08,0.00000000000000e+00,0.00000000000000e+00,3.28175764230392e-01
6.50000000000000e-08,0.00000000000000e+00,0.00000000000000e+00,3.29166616402047e-01
6.50100000000000e-08,3.29999999999937e-02,0.00000000000000e+00,3.29171051248550e-01
6.50300000000000e-08,9.89999999999812e-02,0.00000000000000e+00,3.29177477364484e-01
6.50700000000000e-08,2.30999999999956e-01,0.00000000000000e+00,3.29175160785685e-01
6.51000000000000e-08,3.29999999999981e-01,0.00000000000000e+00,3.29156992232571e-01
6.51080000000000e-08,3.30000000000000e-01,0.00000000000000e+00,3.29141110417930e-01
6.51240000000000e-08,3.30000000000000e-01,0.00000000000000e+00,3.29111256586732e-01
6.51560000000000e-08,3.30000000000000e-01,0.00000000000000e+00,3.29060775269337e-01
6.52200000000000e-08,3.30000000000000e-01,0.00000000000000e+00,3.28989088675263e-01
6.53480000000000e-08,3.30000000000000e-01,0.00000000000000e+00,3.28902684800387e-01
6.56040000000000e-08,3.30000000000000e-01,0.00000000000000e+00,3.28863585676326e-01
6.61159999999999e-08,3.30000000000000e-01,0.00000000000000e+00,3.29000074344287e-01
6.71399999999999e-08,3.30000000000000e-01,0.00000000000000e+00,3.31234776931927e-01
6.91879999999998e-08,3.30000000000000e-01,0.00000000000000e+00,1.21631423988434e-01
7.29879999999998e-08,3.30000000000000e-01,0.00000000000000e+00,-2.12994914563230e-02
7.51000000000000e-08,3.30000000000000e-01,0.00000000000000e+00,2.18372811642644e-02
7.51100000000000e-08,2.97000000000034e-01,0.00000000000000e+00,2.09137700893772e-02
7.51300000000000e-08,2.31000000000046e-01,0.00000000000000e+00,1.90957094621177e-02
7.51700000000000e-08,9.90000000000711e-02,0.00000000000000e+00,1.57416303213645e-02
7.52000000000000e-08,4.61852778244065e-14,0.00000000000000e+00,1.35501014133179e-02
7.52080000000000e-08,0.00000000000000e+00,0.00000000000000e+00,1.30437500357058e-02
7.52240000000000e-08,0.00000000000000e+00,0.00000000000000e+00,1.20104688824549e-02
7.52560000000000e-08,0.00000000000000e+00,0.00000000000000e+00,1.02682641883437e-02
7.53200000000000e-08,0.00000000000000e+00,0.00000000000000e+00,7.41550635405067e-03
7.54480000000000e-08,0.00000000000000e+00,0.00000000000000e+00,3.73662159494454e-03
7.57040000000000e-08,0.00000000000000e+00,0.00000000000000e+00,7.28129743147317e-04
7.62159999999999e-08,0.00000000000000e+00,0.00000000000000e+00,-1.41463041119070e-04
7.72399999999999e-08,0.00000000000000e+00,0.00000000000000e+00,-1.68359799247455e-04
7.92879999999998e-08,0.00000000000000e+00,0.00000000000000e+00,5.69062846356898e-05
8.30879999999998e-08,0.00000000000000e+00,0.00000000000000e+00,-1.80316719087851e-05
8.50000000000000e-08,0.00000000000000e+00,0.00000000000000e+00,3.02119729489415e-06
8.50100000000000e-08,3.29999999999937e-02,0.00000000000000e+00,3.46044728435288e-05
8.50300000000000e-08,9.89999999999812e-02,0.00000000000000e+00,9.06206811951450e-05
8.50700000000000e-08,2.30999999999956e-01,0.00000000000000e+00,1.62917113861689e-04
8.51000000000000e-08,3.29999999999981e-01,0.00000000000000e+00,1.72305055632666e-04
8.51080000000000e-08,3.30000000000000e-01,0.00000000000000e+00,1.58025779897250e-04
8.51240000000000e-08,3.30000000000000e-01,0.00000000000000e+00,1.30072458115100e-04
8.51560000000000e-08,3.30000000000000e-01,0.00000000000000e+00,8.10378201285614e-05
8.52200000000000e-08,3.30000000000000e-01,0.00000000000000e+00,4.45365687161761e-06
8.53480000000000e-08,3.30000000000000e-01,0.00000000000000e+00,-5.81030308934392e-05
8.56040000000000e-08,3.30000000000000e-01,0.00000000000000e+00,-5.83143263951143e-05
8.61159999999999e-08,3.30000000000000e-01,0.00000000000000e+00,-8.97276218208339e-06
8.71399999999999e-08,3.30000000000000e-01,0.00000000000000e+00,3.82165969156504e-05
8.91879999999998e-08,3.30000000000000e-01,0.00000000000000e+00,2.50621036227377e-05
9.00000000000000e-08,3.30000000000000e-01,0.00000000000000e+00,5.66674541410423e-06
9.00100000000000e-08,3.30000000000000e-01,3.29999999999937e-02,6.18984260641886e-06
9.00300000000000e-08,3.30000000000000e-01,9.89999999999812e-02,7.31199649385214e-06
9.00700000000000e-08,3.30000000000000e-01,2.30999999999956e-01,8.59703035746562e-06
9.01000000000000e-08,3.30000000000000e-01,3.29999999999981e-01,9.16366788090636e-06
9.01080000000000e-08,3.30000000000000e-01,3.30000000000000e-01,9.11580931700975e-06
9.01240000000000e-08,3.30000000000000e-01,3.30000000000000e-01,9.20316836219154e-06
9.01560000000000e-08,3.30000000000000e-01,3.30000000000000e-01,9.18449565190729e-06
9.02200000000000e-08,3.30000000000000e-01,3.30000000000000e-01,9.92981908872100e-06
9.03480000000000e-08,3.30000000000000e-01,3.30000000000000e-01,1.16343710317920e-05
9.06040000000000e-08,3.30000000000000e-01,3.30000000000000e-01,1.40015771485317e-05
9.11159999999999e-08,3.30000000000000e-01,3.30000000000000e-01,1.44208005365522e-05
9.21399999999999e-08,3.30000000000000e-01,3.30000000000000e-01,1.26989366149863e-05
9.41879999999998e-08,3.30000000000000e-01,3.30000000000000e-01,1.22238218882198e-05
9.51000000000000e-08,3.30000000000000e-01,3.30000000000000e-01,1.13302090067420e-05
9.51100000000000e-08,2.97000000000034e-01,3.30000000000000e-01,-5.05473846201115e-06
9.51300000000000e-08,2.31000000000046e-01,3.30000000000000e-01,-3.69692583093960e-05
9.51700000000000e-08,9.90000000000711e-02,3.30000000000000e-01,-1.00887078402979e-04
9.52000000000000e-08,4.61852778244065e-14,3.30000000000000e-01,-1.36202420592604e-04
9.52080000000000e-08,0.00000000000000e+00,3.30000000000000e-01,-1.21295472236879e-04
9.52240000000000e-08,0.00000000000000e+00,3.30000000000000e-01,-9.38806486571707e-05
9.52560000000000e-08,0.00000000000000e+00,3.30000000000000e-01,-4.21082257134817e-05
9.53200000000000e-08,0.00000000000000e+00,3.30000000000000e-01,2.65066847322075e-05
9.54480000000000e-08,0.00000000000000e+00,3.30000000000000e-01,8.13108006802420e-05
9.57040000000000e-08,0.00000000000000e+00,3.30000000000000e-01,6.39476765095064e-05
9.62159999999999e-08,0.00000000000000e+00,3.30000000000000e-01,-1.00663828594815e-05
9.72399999999999e-08,0.00000000000000e+00,3.30000000000000e-01,-5.08785569236407e-05
9.92879999999998e-08,0.00000000000000e+00,3.30000000000000e-01,1.32289630122321e-05
1.03088000000000e-07,0.00000000000000e+00,3.30000000000000e-01,-2.09742390774334e-05
1.05000000000000e-07,0.00000000000000e+00,3.30000000000000e-01,5.90699632398738e-05
1.05010000000000e-07,3.29999999999937e-02,3.30000000000000e-01,8.58461194257198e-05
1.05030000000000e-07,9.89999999999812e-02,3.30000000000000e-01,1.29463107989881e-04
1.05070000000000e-07,2.30999999999956e-01,3.30000000000000e-01,1.81039104386910e-04
1.05100000000000e-07,3.29999999999981e-01,3.30000000000000e-01,1.89011166138051e-04
1.05108000000000e-07,3.30000000000000e-01,3.30000000000000e-01,1.74280295725183e-04
1.05124000000000e-07,3.30000000000000e-01,3.30000000000000e-01,1.43390182588455e-04
1.05156000000000e-07,3.30000000000000e-01,3.30000000000000e-01,7.55049077083327e-05
1.05220000000000e-07,3.30000000000000e-01,3.30000000000000e-01,-1.10156947239912e-04
1.05348000000000e-07,3.30000000000000e-01,3.30000000000000e-01,-6.65341451600319e-04
1.05604000000000e-07,3.30000000000000e-01,3.30000000000000e-01,-1.85400519401118e-03
1.06116000000000e-07,3.30000000000000e-01,3.30000000000000e-01,-1.03090344727422e-03
1.07140000000000e-07,3.30000000000000e-01,3.30000000000000e-01,8.69610601873303e-02
1.09188000000000e-07,3.30000000000000e-01,3.30000000000000e-01,3.11600569189650e-01
1.12988000000000e-07,3.30000000000000e-01,3.30000000000000e-01,3.35263865921352e-01
1.15100000000000e-07,3.30000000000000e-01,3.30000000000000e-01,3.24323647907404e-01
1.15110000000000e-07,2.97000000000034e-01,3.30000000000000e-01,3.24573687839972e-01
1.15130000000000e-07,2.31000000000046e-01,3.30000000000000e-01,3.25008347437126e-01
1.15170000000000e-07,9.90000000000711e-02,3.30000000000000e-01,3.25785941057178e-01
1.15200000000000e-07,4.61852778244065e-14,3.30000000000000e-01,3.26365279060420e-01
1.15208000000000e-07,0.00000000000000e+00,3.30000000000000e-01,3.26532071093594e-01
1.15224000000000e-07,0.00000000000000e+00,3.30000000000000e-01,3.26842915407755e-01
1.15256000000000e-07,0.00000000000000e+00,3.30000000000000e-01,3.27374454996888e-01
1.15320000000000e-07,0.00000000000000e+00,3.30000000000000e-01,3.28181118669624e-01
1.15448000000000e-07,0.00000000000000e+00,3.30000000000000e-01,3.29091922948686e-01
1.15704000000000e-07,0.00000000000000e+00,3.30000000000000e-01,3.29547195520170e-01
1.16216000000000e-07,0.00000000000000e+00,3.30000000000000e-01,3.27739843090405e-01
1.17240000000000e-07,0.00000000000000e+00,3.30000000000000e-01,3.19789189693457e-01
1.19288000000000e-07,0.00000000000000e+00,3.30000000000000e-01,3.20306856439147e-01
1.23088000000000e-07,0.00000000000000e+00,3.30000000000000e-01,3.30374301237046e-01
1.25000000000000e-07,0.00000000000000e+00,3.30000000000000e-01,3.28233621245280e-01
1.25010000000000e-07,3.29999999999501e-02,3.30000000000000e-01,3.28271959474281e-01
1.25030000000000e-07,9.89999999999376e-02,3.30000000000000e-01,3.28343961370940e-01
1.25070000000000e-07,2.30999999999913e-01,3.30000000000000e-01,3.28460692723302e-01
1.25100000000000e-07,3.29999999999937e-01,3.30000000000000e-01,3.28525516616532e-01
1.25108000000000e-07,3.30000000000000e-01,3.03599999999970e-01,3.28530392875436e-01
1.25124000000000e-07,3.30000000000000e-01,2.50799999999998e-01,3.28539632770304e-01
1.25156000000000e-07,3.30000000000000e-01,1.45199999999965e-01,3.28553571560018e-01
1.25200000000000e-07,3.30000000000000e-01,0.00000000000000e+00,3.28554284868282e-01
1.25206400000000e-07,3.30000000000000e-01,0.00000000000000e+00,3.28551926543802e-01
1.25219200000000e-07,3.30000000000000e-01,0.00000000000000e+00,3.28545233434219e-01
1.25244800000000e-07,3.30000000000000e-01,0.00000000000000e+00,3.28524478511042e-01
1.25296000000000e-07,3.30000000000000e-01,0.00000000000000e+00,3.28452253476130e-01
1.25398400000000e-07,3.30000000000000e-01,0.00000000000000e+00,3.28251875626024e-01
1.25603200000000e-07,3.30000000000000e-01,0.00000000000000e+00,3.27952259845865e-01
1.26012800000000e-07,3.30000000000000e-01,0.00000000000000e+00,3.27875000461475e-01
1.26832000000000e-07,3.30000000000000e-01,0.00000000000000e+00,3.28771508339742e-01
1.28470400000000e-07,3.30000000000000e-01,0.00000000000000e+00,3.30164378576446e-01
1.31747200000001e-07,3.30000000000000e-01,0.00000000000000e+00,3.29892332173465e-01
1.35100000000000e-07,3.29999999999940e-01,0.00000000000000e+00,3.30059223090954e-01
1.35110000000000e-07,2.96999999999903e-01,0.00000000000000e+00,3.30045697059237e-01
1.35130000000000e-07,2.30999999999915e-01,0.00000000000000e+00,3.30009524611435e-01
1.35170000000000e-07,9.89999999999401e-02,0.00000000000000e+00,3.29951147642676e-01
1.35200000000000e-07,0.00000000000000e+00,0.00000000000000e+00,3.29998010061502e-01
1.35208000000000e-07,0.00000000000000e+00,0.00000000000000e+00,3.30043499354347e-01
1.35224000000000e-07,0.00000000000000e+00,0.00000000000000e+00,3.30126640092201e-01
1.35256000000000e-07,0.00000000000000e+00,0.00000000000000e+00,3.30264504478909e-01
1.35320000000000e-07,0.00000000000000e+00,0.00000000000000e+00,3.30485529822034e-01
1.35448000000000e-07,0.00000000000000e+00,0.00000000000000e+00,3.30707265764023e-01
1.35704000000000e-07,0.00000000000000e+00,0.00000000000000e+00,3.30927291792285e-01
1.36216000000000e-07,0.00000000000000e+00,0.00000000000000e+00,3.31076495970395e-01
1.37240000000000e-07,0.00000000000000e+00,0.00000000000000e+00,3.30710901838193e-01
1.39288000000000e-07,0.00000000000000e+00,0.00000000000000e+00,3.27797293446402e-01
1.43088000000000e-07,0.00000000000000e+00,0.00000000000000e+00,3.28175764242335e-01
1.45000000000000e-07,0.00000000000000e+00,0.00000000000000e+00,3.29166616398490e-01
1.45010000000000e-07,3.30000000000374e-02,0.00000000000000e+00,3.29171051248658e-01
1.45030000000000e-07,9.90000000000249e-02,0.00000000000000e+00,3.29177477369370e-01
1.45070000000000e-07,2.31000000000000e-01,0.00000000000000e+00,3.29175160794890e-01
1.45100000000000e-07,3.30000000000000e-01,0.00000000000000e+00,3.29156992241080e-01
1.45108000000000e-07,3.30000000000000e-01,0.00000000000000e+00,3.29141110427003e-01
1.45124000000000e-07,3.30000000000000e-01,0.00000000000000e+00,3.29111256596554e-01
