Time,v(clk),v(data),v(out),v(reset)
1.00000000000000e-08,3.30000000000000e-01,0.00000000000000e+00,7.67854243646352e-03,0.00000000000000e+00
1.00100000000000e-08,3.30000000000000e-01,3.29999999999992e-02,7.19282412240365e-03,0.00000000000000e+00
1.00300000000000e-08,3.30000000000000e-01,9.89999999999976e-02,6.34104832126013e-03,0.00000000000000e+00
1.00700000000000e-08,3.30000000000000e-01,2.30999999999994e-01,4.99392234945630e-03,0.00000000000000e+00
1.01000000000000e-08,3.30000000000000e-01,3.29999999999998e-01,4.29272609408496e-03,0.00000000000000e+00
1.01080000000000e-08,3.30000000000000e-01,3.30000000000000e-01,4.12595517764855e-03,0.00000000000000e+00
1.01240000000000e-08,3.30000000000000e-01,3.30000000000000e-01,3.80566972211381e-03,0.00000000000000e+00
1.01560000000000e-08,3.30000000000000e-01,3.30000000000000e-01,3.22344472991315e-03,0.00000000000000e+00
1.02200000000000e-08,3.30000000000000e-01,3.30000000000000e-01,2.33188170116317e-03,0.00000000000000e+00
1.03480000000000e-08,3.30000000000000e-01,3.30000000000000e-01,1.18872740908132e-03,0.00000000000000e+00
1.06040000000000e-08,3.30000000000000e-01,3.30000000000000e-01,2.60967350128259e-04,0.00000000000000e+00
1.11160000000000e-08,3.30000000000000e-01,3.30000000000000e-01,-2.86848899667506e-05,0.00000000000000e+00
1.21400000000000e-08,3.30000000000000e-01,3.30000000000000e-01,1.10214750792927e-05,0.00000000000000e+00
1.41880000000000e-08,3.30000000000000e-01,3.30000000000000e-01,-8.08722284320130e-06,0.00000000000000e+00
1.51000000000000e-08,3.30000000000000e-01,3.30000000000000e-01,1.38768659631930e-05,0.00000000000000e+00
1.51100000000000e-08,2.96999999999995e-01,3.30000000000000e-01,8.54785604590368e-05,3.30000000000047e-02
1.51300000000000e-08,2.30999999999997e-01,3.30000000000000e-01,1.54122188243615e-04,9.90000000000031e-02
1.51700000000000e-08,9.90000000000001e-02,3.30000000000000e-01,2.08909918315368e-04,2.31000000000000e-01
1.52000000000000e-08,0.00000000000000e+00,3.30000000000000e-01,1.98124207114205e-04,3.30000000000000e-01
1.52080000000000e-08,0.00000000000000e+00,3.30000000000000e-01,1.85835322885044e-04,3.30000000000000e-01
1.52240000000000e-08,0.00000000000000e+00,3.30000000000000e-01,1.62584875580876e-04,3.30000000000000e-01
1.52560000000000e-08,0.00000000000000e+00,3.30000000000000e-01,1.23346703232465e-04,3.30000000000000e-01
1.53200000000000e-08,0.00000000000000e+00,3.30000000000000e-01,6.11610131315520e-05,3.30000000000000e-01
1.54480000000000e-08,0.00000000000000e+00,3.30000000000000e-01,6.39338557154034e-06,3.30000000000000e-01
1.57040000000000e-08,0.00000000000000e+00,3.30000000000000e-01,-1.82300149289081e-05,3.30000000000000e-01
1.62160000000000e-08,0.00000000000000e+00,3.30000000000000e-01,-8.08675717609529e-06,3.30000000000000e-01
1.72400000000000e-08,0.00000000000000e+00,3.30000000000000e-01,-3.53668337418657e-05,3.30000000000000e-01
1.92880000000000e-08,0.00000000000000e+00,3.30000000000000e-01,-2.03956853125169e-04,3.30000000000000e-01
2.30880000000000e-08,0.00000000000000e+00,3.30000000000000e-01,1.17835115837249e-04,3.30000000000000e-01
2.50000000000000e-08,0.00000000000000e+00,3.30000000000000e-01,-1.22696660099450e-04,3.30000000000000e-01
2.50100000000000e-08,3.29999999999937e-02,3.30000000000000e-01,-1.02435525592401e-04,3.30000000000000e-01
2.50300000000000e-08,9.90000000000031e-02,3.30000000000000e-01,-6.79870840005412e-05,3.30000000000000e-01
2.50700000000000e-08,2.31000000000000e-01,3.30000000000000e-01,-2.12286610208889e-05,3.30000000000000e-01
2.51000000000000e-08,3.30000000000000e-01,3.30000000000000e-01,-1.52529315178979e-05,3.30000000000000e-01
2.51080000000000e-08,3.30000000000000e-01,3.30000000000000e-01,-3.09686307225776e-05,3.30000000000000e-01
2.51240000000000e-08,3.30000000000000e-01,3.30000000000000e-01,-6.65762742778631e-05,3.30000000000000e-01
2.51560000000000e-08,3.30000000000000e-01,3.30000000000000e-01,-1.52552841693687e-04,3.30000000000000e-01
2.52200000000000e-08,3.30000000000000e-01,3.30000000000000e-01,-3.81130103629661e-04,3.30000000000000e-01
2.53480000000000e-08,3.30000000000000e-01,3.30000000000000e-01,-8.89988158158229e-04,3.30000000000000e-01
2.56040000000000e-08,3.30000000000000e-01,3.30000000000000e-01,-1.74416471968305e-03,3.30000000000000e-01
2.61160000000000e-08,3.30000000000000e-01,3.30000000000000e-01,-3.01508877225738e-03,3.30000000000000e-01
2.71400000000000e-08,3.30000000000000e-01,3.30000000000000e-01,2.41257420073184e-02,3.30000000000000e-01
2.91880000000000e-08,3.30000000000000e-01,3.30000000000000e-01,2.01172059739185e-01,3.30000000000000e-01
3.29880000000000e-08,3.30000000000000e-01,3.30000000000000e-01,3.40424049063359e-01,3.30000000000000e-01
3.51000000000000e-08,3.29999999999984e-01,3.30000000000000e-01,3.24613834657819e-01,3.30000000000000e-01
3.51100000000000e-08,2.96999999999990e-01,3.30000000000000e-01,3.24840112760633e-01,3.30000000000000e-01
3.51300000000000e-08,2.30999999999981e-01,3.30000000000000e-01,3.25251770638547e-01,3.30000000000000e-01
3.51700000000000e-08,9.89999999999837e-02,3.30000000000000e-01,3.25972233057907e-01,3.30000000000000e-01
3.52000000000000e-08,0.00000000000000e+00,3.30000000000000e-01,3.26480138426620e-01,3.30000000000000e-01
3.52080000000000e-08,0.00000000000000e+00,3.30000000000000e-01,3.26626721542338e-01,3.30000000000000e-01
3.52240000000000e-08,0.00000000000000e+00,3.30000000000000e-01,3.26904455210499e-01,3.30000000000000e-01
3.52560000000000e-08,0.00000000000000e+00,3.30000000000000e-01,3.27398939416940e-01,3.30000000000000e-01
3.53200000000000e-08,0.00000000000000e+00,3.30000000000000e-01,3.28179063562311e-01,3.30000000000000e-01
3.54480000000000e-08,0.00000000000000e+00,3.30000000000000e-01,3.29197143996791e-01,3.30000000000000e-01
3.57040000000000e-08,0.00000000000000e+00,3.30000000000000e-01,3.30092031719993e-01,3.30000000000000e-01
3.62160000000000e-08,0.00000000000000e+00,3.30000000000000e-01,3.30202114746068e-01,3.30000000000000e-01
3.72400000000000e-08,0.00000000000000e+00,3.30000000000000e-01,3.27607531997087e-01,3.30000000000000e-01
3.92880000000000e-08,0.00000000000000e+00,3.30000000000000e-01,3.18990423652775e-01,3.30000000000000e-01
4.30880000000000e-08,0.00000000000000e+00,3.30000000000000e-01,3.22475058170501e-01,3.30000000000000e-01
4.50000000000000e-08,0.00000000000000e+00,3.30000000000000e-01,3.28110578239827e-01,3.30000000000000e-01
4.50100000000000e-08,3.29999999999937e-02,3.30000000000000e-01,3.28084375415990e-01,2.97000000000006e-01
4.50300000000000e-08,9.90000000000031e-02,3.30000000000000e-01,3.28028474339407e-01,2.30999999999997e-01
4.50700000000000e-08,2.31000000000000e-01,3.30000000000000e-01,3.27901338398059e-01,9.90000000000001e-02
4.51000000000000e-08,3.30000000000000e-01,3.30000000000000e-01,3.27899416200903e-01,0.00000000000000e+00
4.51080000000000e-08,3.30000000000000e-01,3.30000000000000e-01,3.27949981892137e-01,0.00000000000000e+00
4.51240000000000e-08,3.30000000000000e-01,3.30000000000000e-01,3.28045449630042e-01,0.00000000000000e+00
4.51560000000000e-08,3.30000000000000e-01,3.30000000000000e-01,3.28220199720498e-01,0.00000000000000e+00
4.52200000000000e-08,3.30000000000000e-01,3.30000000000000e-01,3.28537140261577e-01,0.00000000000000e+00
4.53480000000000e-08,3.30000000000000e-01,3.30000000000000e-01,3.28988820179209e-01,0.00000000000000e+00
4.56040000000000e-08,3.30000000000000e-01,3.30000000000000e-01,3.29644395379681e-01,0.00000000000000e+00
4.61160000000000e-08,3.30000000000000e-01,3.30000000000000e-01,3.30693108383376e-01,0.00000000000000e+00
4.71400000000000e-08,3.30000000000000e-01,3.30000000000000e-01,3.32097939758946e-01,0.00000000000000e+00
4.91880000000000e-08,3.30000000000000e-01,3.30000000000000e-01,2.62685371411745e-01,0.00000000000000e+00
5.01000000000000e-08,3.30000000000000e-01,3.29999999999981e-01,1.32044240658947e-01,0.00000000000000e+00
5.04800000000000e-08,3.30000000000000e-01,3.30000000000000e-01,6.26040201117545e-02,0.00000000000000e+00
5.12400000000000e-08,3.30000000000000e-01,3.30000000000000e-01,-3.45388929438195e-04,0.00000000000000e+00
5.27600000000000e-08,3.30000000000000e-01,3.30000000000000e-01,4.91763413196776e-04,0.00000000000000e+00
5.51000000000000e-08,3.30000000000000e-01,3.30000000000000e-01,-4.29399959910465e-04,0.00000000000000e+00
5.51100000000000e-08,2.97000000000012e-01,3.30000000000000e-01,-3.05518174509585e-04,3.29999999999883e-02
5.51300000000000e-08,2.31000000000002e-01,3.30000000000000e-01,-1.10137054355666e-04,9.89999999999976e-02
5.51700000000000e-08,9.90000000000056e-02,3.30000000000000e-01,6.10574009564553e-05,2.30999999999994e-01
5.52000000000000e-08,0.00000000000000e+00,3.30000000000000e-01,8.20535954243855e-05,3.30000000000000e-01
5.52080000000000e-08,0.00000000000000e+00,3.30000000000000e-01,7.62482218435272e-05,3.30000000000000e-01
5.52240000000000e-08,0.00000000000000e+00,3.30000000000000e-01,6.53045394455737e-05,3.30000000000000e-01
5.52560000000000e-08,0.00000000000000e+00,3.30000000000000e-01,4.71319344667563e-05,3.30000000000000e-01
5.53200000000000e-08,0.00000000000000e+00,3.30000000000000e-01,2.21249037627783e-05,3.30000000000000e-01
5.54480000000000e-08,0.00000000000000e+00,3.30000000000000e-01,-1.23845321944871e-06,3.30000000000000e-01
5.57040000000000e-08,0.00000000000000e+00,3.30000000000000e-01,-7.48052868907237e-06,3.30000000000000e-01
5.62160000000000e-08,0.00000000000000e+00,3.30000000000000e-01,-3.15430415815006e-06,3.30000000000000e-01
5.72400000000000e-08,0.00000000000000e+00,3.30000000000000e-01,-2.66099670167830e-05,3.30000000000000e-01
5.92880000000000e-08,0.00000000000000e+00,3.30000000000000e-01,-1.60107050723441e-04,3.30000000000000e-01
6.30880000000000e-08,0.00000000000000e+00,3.30000000000000e-01,1.03958945647714e-04,3.30000000000000e-01
6.50000000000000e-08,0.00000000000000e+00,3.30000000000000e-01,-6.39901485890871e-05,3.30000000000000e-01
6.50100000000000e-08,3.29999999999937e-02,3.30000000000000e-01,-3.88576716671730e-05,3.30000000000000e-01
6.50300000000000e-08,9.89999999999812e-02,3.30000000000000e-01,7.59265012239413e-06,3.30000000000000e-01
6.50700000000000e-08,2.30999999999956e-01,3.30000000000000e-01,7.63266440554911e-05,3.30000000000000e-01
6.51000000000000e-08,3.29999999999981e-01,3.30000000000000e-01,9.74172534470574e-05,3.30000000000000e-01
6.51080000000000e-08,3.30000000000000e-01,3.30000000000000e-01,8.64854507869293e-05,3.30000000000000e-01
6.51240000000000e-08,3.30000000000000e-01,3.30000000000000e-01,6.36758732890583e-05,3.30000000000000e-01
6.51560000000000e-08,3.30000000000000e-01,3.30000000000000e-01,1.27828468827161e-05,3.30000000000000e-01
6.52200000000000e-08,3.30000000000000e-01,3.30000000000000e-01,-1.25381449605968e-04,3.30000000000000e-01
6.53480000000000e-08,3.30000000000000e-01,3.30000000000000e-01,-5.65174885144723e-04,3.30000000000000e-01
6.56040000000000e-08,3.30000000000000e-01,3.30000000000000e-01,-1.47556199464715e-03,3.30000000000000e-01
6.61159999999999e-08,3.30000000000000e-01,3.30000000000000e-01,-2.87234591976198e-03,3.30000000000000e-01
6.71399999999999e-08,3.30000000000000e-01,3.30000000000000e-01,1.72777703514957e-02,3.30000000000000e-01
6.91879999999998e-08,3.30000000000000e-01,3.30000000000000e-01,1.88119811948196e-01,3.30000000000000e-01
7.29879999999998e-08,3.30000000000000e-01,3.30000000000000e-01,3.40520835659007e-01,3.30000000000000e-01
7.51000000000000e-08,3.30000000000000e-01,3.30000000000000e-01,3.24700953590778e-01,3.30000000000000e-01
7.51100000000000e-08,2.97000000000034e-01,3.30000000000000e-01,3.24933243913195e-01,3.30000000000000e-01
7.51300000000000e-08,2.31000000000046e-01,3.30000000000000e-01,3.25356062383700e-01,3.30000000000000e-01
7.51700000000000e-08,9.90000000000711e-02,3.30000000000000e-01,3.26079822989825e-01,3.30000000000000e-01
7.52000000000000e-08,4.61852778244065e-14,3.30000000000000e-01,3.26581805695086e-01,3.30000000000000e-01
7.52080000000000e-08,0.00000000000000e+00,3.30000000000000e-01,3.26728503929995e-01,3.30000000000000e-01
7.52240000000000e-08,0.00000000000000e+00,3.30000000000000e-01,3.27006221982510e-01,3.30000000000000e-01
7.52560000000000e-08,0.00000000000000e+00,3.30000000000000e-01,3.27499005033182e-01,3.30000000000000e-01
7.53200000000000e-08,0.00000000000000e+00,3.30000000000000e-01,3.28269308341522e-01,3.30000000000000e-01
7.54480000000000e-08,0.00000000000000e+00,3.30000000000000e-01,3.29267807979311e-01,3.30000000000000e-01
7.57040000000000e-08,0.00000000000000e+00,3.30000000000000e-01,3.30131797211000e-01,3.30000000000000e-01
7.62159999999999e-08,0.00000000000000e+00,3.30000000000000e-01,3.30201835817549e-01,3.30000000000000e-01
7.72399999999999e-08,0.00000000000000e+00,3.30000000000000e-01,3.27554359721519e-01,3.30000000000000e-01
7.92879999999998e-08,0.00000000000000e+00,3.30000000000000e-01,3.18925296539275e-01,3.30000000000000e-01
8.30879999999998e-08,0.00000000000000e+00,3.30000000000000e-01,3.22480015202582e-01,3.30000000000000e-01
8.50000000000000e-08,0.00000000000000e+00,3.30000000000000e-01,3.28111903090885e-01,3.30000000000000e-01
8.50100000000000e-08,3.29999999999937e-02,3.30000000000000e-01,3.28085469990767e-01,2.97000000000006e-01
8.50300000000000e-08,9.89999999999812e-02,3.30000000000000e-01,3.28029555341200e-01,2.31000000000019e-01
8.50700000000000e-08,2.30999999999956e-01,3.30000000000000e-01,3.27902793725593e-01,9.90000000000438e-02
8.51000000000000e-08,3.29999999999981e-01,3.30000000000000e-01,3.27900739635153e-01,1.88737914186277e-14
8.51080000000000e-08,3.30000000000000e-01,3.30000000000000e-01,3.27951277085227e-01,0.00000000000000e+00
8.51240000000000e-08,3.30000000000000e-01,3.30000000000000e-01,3.28046697996571e-01,0.00000000000000e+00
8.51560000000000e-08,3.30000000000000e-01,3.30000000000000e-01,3.28221374810327e-01,0.00000000000000e+00
8.52200000000000e-08,3.30000000000000e-01,3.30000000000000e-01,3.28538118456817e-01,0.00000000000000e+00
8.53480000000000e-08,3.30000000000000e-01,3.30000000000000e-01,3.28989399634724e-01,0.00000000000000e+00
8.56040000000000e-08,3.30000000000000e-01,3.30000000000000e-01,3.29644328244170e-01,0.00000000000000e+00
8.61159999999999e-08,3.30000000000000e-01,3.30000000000000e-01,3.30692275754049e-01,0.00000000000000e+00
8.71399999999999e-08,3.30000000000000e-01,3.30000000000000e-01,3.32096306375462e-01,0.00000000000000e+00
8.91879999999998e-08,3.30000000000000e-01,3.30000000000000e-01,2.62697168792708e-01,0.00000000000000e+00
9.01000000000000e-08,3.30000000000000e-01,3.29999999999981e-01,1.32062074243073e-01,0.00000000000000e+00
9.04800000000000e-08,3.30000000000000e-01,3.30000000000000e-01,6.26179529324245e-02,0.00000000000000e+00
9.12400000000000e-08,3.30000000000000e-01,3.30000000000000e-01,-3.42671478751224e-04,0.00000000000000e+00
9.27600000000000e-08,3.30000000000000e-01,3.30000000000000e-01,4.90183920110923e-04,0.00000000000000e+00
9.51000000000000e-08,3.30000000000000e-01,3.30000000000000e-01,-4.28172860059868e-04,0.00000000000000e+00
9.51100000000000e-08,2.97000000000034e-01,3.30000000000000e-01,-3.04387431994003e-04,3.29999999999664e-02
9.51300000000000e-08,2.31000000000046e-01,3.30000000000000e-01,-1.09134937870889e-04,9.89999999999539e-02
9.51700000000000e-08,9.90000000000711e-02,3.30000000000000e-01,6.17673655790851e-05,2.30999999999929e-01
9.52000000000000e-08,4.61852778244065e-14,3.30000000000000e-01,8.26082632435152e-05,3.29999999999954e-01
9.52080000000000e-08,0.00000000000000e+00,3.30000000000000e-01,7.67686347103586e-05,3.30000000000000e-01
9.52240000000000e-08,0.00000000000000e+00,3.30000000000000e-01,6.57598505765418e-05,3.30000000000000e-01
9.52560000000000e-08,0.00000000000000e+00,3.30000000000000e-01,4.74781448709660e-05,3.30000000000000e-01
9.53200000000000e-08,0.00000000000000e+00,3.30000000000000e-01,2.23177109844597e-05,3.30000000000000e-01
9.54480000000000e-08,0.00000000000000e+00,3.30000000000000e-01,-1.17796066638302e-06,3.30000000000000e-01
9.57040000000000e-08,0.00000000000000e+00,3.30000000000000e-01,-7.44574312601561e-06,3.30000000000000e-01
9.62159999999999e-08,0.00000000000000e+00,3.30000000000000e-01,-3.09117253158991e-06,3.30000000000000e-01
9.72399999999999e-08,0.00000000000000e+00,3.30000000000000e-01,-2.65334079398256e-05,3.30000000000000e-01
9.92879999999998e-08,0.00000000000000e+00,3.30000000000000e-01,-1.60074429986858e-04,3.30000000000000e-01
1.03088000000000e-07,0.00000000000000e+00,3.30000000000000e-01,1.03883740883885e-04,3.30000000000000e-01
1.05000000000000e-07,0.00000000000000e+00,3.30000000000000e-01,-6.38968566950473e-05,3.30000000000000e-01
1.05010000000000e-07,3.29999999999937e-02,3.30000000000000e-01,-3.87600843748115e-05,3.30000000000000e-01
1.05030000000000e-07,9.89999999999812e-02,3.30000000000000e-01,7.69318191417775e-06,3.30000000000000e-01
1.05070000000000e-07,2.30999999999956e-01,3.30000000000000e-01,7.64343819406911e-05,3.30000000000000e-01
1.05100000000000e-07,3.29999999999981e-01,3.30000000000000e-01,9.75314206235270e-05,3.30000000000000e-01
1.05108000000000e-07,3.30000000000000e-01,3.30000000000000e-01,8.66024157266596e-05,3.30000000000000e-01
1.05124000000000e-07,3.30000000000000e-01,3.30000000000000e-01,6.38011762490141e-05,3.30000000000000e-01
1.05156000000000e-07,3.30000000000000e-01,3.30000000000000e-01,1.29382179259452e-05,3.30000000000000e-01
1.05220000000000e-07,3.30000000000000e-01,3.30000000000000e-01,-1.25126845224970e-04,3.30000000000000e-01
1.05348000000000e-07,3.30000000000000e-01,3.30000000000000e-01,-5.64694589303931e-04,3.30000000000000e-01
1.05604000000000e-07,3.30000000000000e-01,3.30000000000000e-01,-1.47494869294334e-03,3.30000000000000e-01
1.06116000000000e-07,3.30000000000000e-01,3.30000000000000e-01,-2.87172274740085e-03,3.30000000000000e-01
1.07140000000000e-07,3.30000000000000e-01,3.30000000000000e-01,1.72651125880674e-02,3.30000000000000e-01
1.09188000000000e-07,3.30000000000000e-01,3.30000000000000e-01,1.88093908970698e-01,3.30000000000000e-01
1.12988000000000e-07,3.30000000000000e-01,3.30000000000000e-01,3.40521129809877e-01,3.30000000000000e-01
1.15100000000000e-07,3.30000000000000e-01,3.30000000000000e-01,3.24701343475166e-01,3.30000000000000e-01
1.15110000000000e-07,2.97000000000034e-01,3.30000000000000e-01,3.24933635293383e-01,3.30000000000000e-01
1.15130000000000e-07,2.31000000000046e-01,3.30000000000000e-01,3.25356447973750e-01,3.30000000000000e-01
1.15170000000000e-07,9.90000000000711e-02,3.30000000000000e-01,3.26084289253744e-01,3.30000000000000e-01
1.15200000000000e-07,4.61852778244065e-14,3.30000000000000e-01,3.26585076540488e-01,3.30000000000000e-01
1.15208000000000e-07,0.00000000000000e+00,3.30000000000000e-01,3.26732343915705e-01,3.30000000000000e-01
1.15224000000000e-07,0.00000000000000e+00,3.30000000000000e-01,3.27011172646696e-01,3.30000000000000e-01
1.15256000000000e-07,0.00000000000000e+00,3.30000000000000e-01,3.27505102171213e-01,3.30000000000000e-01
1.15320000000000e-07,0.00000000000000e+00,3.30000000000000e-01,3.28272245818194e-01,3.30000000000000e-01
1.15448000000000e-07,0.00000000000000e+00,3.30000000000000e-01,3.29266113757959e-01,3.30000000000000e-01
1.15704000000000e-07,0.00000000000000e+00,3.30000000000000e-01,3.30136309284790e-01,3.30000000000000e-01
1.16216000000000e-07,0.00000000000000e+00,3.30000000000000e-01,3.30197723972963e-01,3.30000000000000e-01
1.17240000000000e-07,0.00000000000000e+00,3.30000000000000e-01,3.27552602853063e-01,3.30000000000000e-01
1.19288000000000e-07,0.00000000000000e+00,3.30000000000000e-01,3.18926568811976e-01,3.30000000000000e-01
1.23088000000000e-07,0.00000000000000e+00,3.30000000000000e-01,3.22479800099581e-01,3.30000000000000e-01
1.25000000000000e-07,0.00000000000000e+00,3.30000000000000e-01,3.28111591068283e-01,3.30000000000000e-01
1.25010000000000e-07,3.29999999999501e-02,3.30000000000000e-01,3.28084579789579e-01,2.97000000000050e-01
1.25030000000000e-07,9.89999999999376e-02,3.30000000000000e-01,3.28028103057686e-01,2.31000000000062e-01
1.25070000000000e-07,2.30999999999913e-01,3.30000000000000e-01,3.27901713867182e-01,9.90000000000875e-02
