Time,v(clk),v(data),v(out)
1.00000000000000e-08,8.50000000000000e-01,0.00000000000000e+00,1.42958027218032e-05
1.00100000000000e-08,8.50000000000000e-01,8.49999999999979e-02,1.40209383970788e-05
1.00300000000000e-08,8.50000000000000e-01,2.54999999999994e-01,1.23095793020112e-05
1.00700000000000e-08,8.50000000000000e-01,5.94999999999986e-01,9.15613624815487e-06
1.01000000000000e-08,8.50000000000000e-01,8.49999999999994e-01,1.02661382246280e-05
1.01080000000000e-08,8.50000000000000e-01,8.50000000000000e-01,1.10895706038339e-05
1.01240000000000e-08,8.50000000000000e-01,8.50000000000000e-01,1.05243380673914e-05
1.01560000000000e-08,8.50000000000000e-01,8.50000000000000e-01,1.34727646815755e-05
1.02200000000000e-08,8.50000000000000e-01,8.50000000000000e-01,1.46492100751086e-05
1.03480000000000e-08,8.50000000000000e-01,8.50000000000000e-01,1.45857516598569e-05
1.06040000000000e-08,8.50000000000000e-01,8.50000000000000e-01,1.27724752393837e-05
1.11160000000000e-08,8.50000000000000e-01,8.50000000000000e-01,1.33104000629315e-05
1.21400000000000e-08,8.50000000000000e-01,8.50000000000000e-01,1.25657201765069e-05
1.41880000000000e-08,8.50000000000000e-01,8.50000000000000e-01,1.24329152372533e-05
1.51000000000000e-08,8.50000000000000e-01,8.50000000000000e-01,1.21182317157752e-05
1.51100000000000e-08,7.64999999999988e-01,8.50000000000000e-01,-5.46601146625691e-05
1.51300000000000e-08,5.94999999999992e-01,8.50000000000000e-01,-1.36822861288521e-04
1.51700000000000e-08,2.55000000000000e-01,8.50000000000000e-01,4.10977096846968e-05
1.52000000000000e-08,0.00000000000000e+00,8.50000000000000e-01,3.04140744692552e-04
1.52080000000000e-08,0.00000000000000e+00,8.50000000000000e-01,3.50594543131674e-04
1.52240000000000e-08,0.00000000000000e+00,8.50000000000000e-01,2.72783296375742e-04
1.52560000000000e-08,0.00000000000000e+00,8.50000000000000e-01,-1.47018979194724e-04
1.53200000000000e-08,0.00000000000000e+00,8.50000000000000e-01,-4.04933422338889e-04
1.54480000000000e-08,0.00000000000000e+00,8.50000000000000e-01,-2.40308295271462e-04
1.56681269423874e-08,0.00000000000000e+00,8.50000000000000e-01,1.47389158746493e-04
1.59194210835137e-08,0.00000000000000e+00,8.50000000000000e-01,2.20977235951998e-04
1.64220093657663e-08,0.00000000000000e+00,8.50000000000000e-01,-2.53894635596177e-04
1.69166973077391e-08,0.00000000000000e+00,8.50000000000000e-01,2.87939152010842e-04
1.79060731916845e-08,0.00000000000000e+00,8.50000000000000e-01,-2.60744830434850e-04
1.94301906310177e-08,0.00000000000000e+00,8.50000000000000e-01,2.78140585814554e-04
2.18140160527053e-08,0.00000000000000e+00,8.50000000000000e-01,-2.52389737224584e-04
2.50000000000000e-08,0.00000000000000e+00,8.50000000000000e-01,2.71054939963912e-04
2.50100000000000e-08,8.49999999999839e-02,8.50000000000000e-01,3.09665087728166e-04
2.50300000000000e-08,2.55000000000008e-01,8.50000000000000e-01,3.32991294679404e-04
2.50700000000000e-08,5.95000000000000e-01,8.50000000000000e-01,-2.11531690655173e-04
2.51000000000000e-08,8.50000000000000e-01,8.50000000000000e-01,-2.78305169934313e-03
2.51080000000000e-08,8.50000000000000e-01,8.50000000000000e-01,-3.85083065770554e-03
2.51240000000000e-08,8.50000000000000e-01,8.50000000000000e-01,-5.51769975352091e-03
2.51560000000000e-08,8.50000000000000e-01,8.50000000000000e-01,-1.16502989118192e-03
2.52200000000000e-08,8.50000000000000e-01,8.50000000000000e-01,1.28878240944019e-01
2.53480000000000e-08,8.50000000000000e-01,8.50000000000000e-01,7.20211381254995e-01
2.56040000000000e-08,8.50000000000000e-01,8.50000000000000e-01,8.79810939125244e-01
2.58647284714896e-08,8.50000000000000e-01,8.50000000000000e-01,8.22836508222857e-01
2.63770266311155e-08,8.50000000000000e-01,8.50000000000000e-01,8.73892704015186e-01
2.70563897332134e-08,8.50000000000000e-01,8.50000000000000e-01,8.26345096091884e-01
2.84151159374092e-08,8.50000000000000e-01,8.50000000000000e-01,8.71998266857904e-01
3.01000000000000e-08,8.50000000000000e-01,8.50000000000000e-01,8.27601988350169e-01
3.01100000000000e-08,8.50000000000000e-01,7.65000000000044e-01,8.38784761727868e-01
3.01300000000000e-08,8.50000000000000e-01,5.95000000000020e-01,8.49953519568619e-01
3.01700000000000e-08,8.50000000000000e-01,2.55000000000028e-01,8.50000579299870e-01
3.02000000000000e-08,8.50000000000000e-01,2.05391259555654e-14,8.49974108044178e-01
3.02080000000000e-08,8.50000000000000e-01,0.00000000000000e+00,8.49971044269132e-01
3.02240000000000e-08,8.50000000000000e-01,0.00000000000000e+00,8.49958774013273e-01
3.02560000000000e-08,8.50000000000000e-01,0.00000000000000e+00,8.49946190437488e-01
3.03200000000000e-08,8.50000000000000e-01,0.00000000000000e+00,8.49972448725321e-01
3.04432476227249e-08,8.50000000000000e-01,0.00000000000000e+00,8.49979951235503e-01
3.06637662320200e-08,8.50000000000000e-01,0.00000000000000e+00,8.49952018225540e-01
3.09162072568522e-08,8.50000000000000e-01,0.00000000000000e+00,8.49981533514360e-01
3.14210893065166e-08,8.50000000000000e-01,0.00000000000000e+00,8.49959071795331e-01
3.24308534058454e-08,8.50000000000000e-01,0.00000000000000e+00,8.49985066745334e-01
3.44503816045029e-08,8.50000000000000e-01,0.00000000000000e+00,8.49967409103258e-01
3.51000000000000e-08,8.49999999999958e-01,0.00000000000000e+00,8.49989433846320e-01
3.51100000000000e-08,7.64999999999974e-01,0.00000000000000e+00,8.49923146686670e-01
3.51300000000000e-08,5.94999999999950e-01,0.00000000000000e+00,8.49905303565530e-01
3.51700000000000e-08,2.54999999999958e-01,0.00000000000000e+00,8.51333379535867e-01
3.52000000000000e-08,0.00000000000000e+00,0.00000000000000e+00,8.52779488436240e-01
3.52080000000000e-08,0.00000000000000e+00,0.00000000000000e+00,8.51956465227622e-01
3.52240000000000e-08,0.00000000000000e+00,0.00000000000000e+00,8.47347545946541e-01
3.52560000000000e-08,0.00000000000000e+00,0.00000000000000e+00,8.29649768763420e-01
3.53200000000000e-08,0.00000000000000e+00,0.00000000000000e+00,8.19907465204822e-01
3.54480000000000e-08,0.00000000000000e+00,0.00000000000000e+00,8.47981028081955e-01
3.56118029669419e-08,0.00000000000000e+00,0.00000000000000e+00,8.49409925613919e-01
3.59342120453573e-08,0.00000000000000e+00,0.00000000000000e+00,8.49402642268457e-01
3.62597327343327e-08,0.00000000000000e+00,0.00000000000000e+00,8.49684501485242e-01
3.69107741122837e-08,0.00000000000000e+00,0.00000000000000e+00,8.49727312959164e-01
3.82128568681856e-08,0.00000000000000e+00,0.00000000000000e+00,8.49823668255292e-01
3.91000000000000e-08,0.00000000000000e+00,0.00000000000000e+00,8.49835745766261e-01
3.93604165511804e-08,0.00000000000000e+00,0.00000000000000e+00,8.49827216612405e-01
3.98812496535411e-08,0.00000000000000e+00,0.00000000000000e+00,8.49843273402520e-01
4.09229158582626e-08,0.00000000000000e+00,0.00000000000000e+00,8.49839380484722e-01
4.30062482677056e-08,0.00000000000000e+00,0.00000000000000e+00,8.49852515093548e-01
4.50000000000000e-08,0.00000000000000e+00,0.00000000000000e+00,8.49845941404747e-01
4.50100000000000e-08,8.49999999999839e-02,0.00000000000000e+00,8.49892827768861e-01
4.50300000000000e-08,2.55000000000008e-01,0.00000000000000e+00,8.49913938641626e-01
4.50700000000000e-08,5.95000000000000e-01,0.00000000000000e+00,8.49807183138181e-01
4.51000000000000e-08,8.50000000000000e-01,0.00000000000000e+00,8.49659166857349e-01
4.51080000000000e-08,8.50000000000000e-01,0.00000000000000e+00,8.49611225949280e-01
4.51240000000000e-08,8.50000000000000e-01,0.00000000000000e+00,8.49603048840709e-01
4.51560000000000e-08,8.50000000000000e-01,0.00000000000000e+00,8.50202422415817e-01
4.52200000000000e-08,8.50000000000000e-01,0.00000000000000e+00,8.55360430104426e-01
4.53480000000000e-08,8.50000000000000e-01,0.00000000000000e+00,5.64260563740113e-01
4.56038426773266e-08,8.50000000000000e-01,0.00000000000000e+00,-3.85364910201174e-02
4.58438549179974e-08,8.50000000000000e-01,0.00000000000000e+00,2.16825918675277e-02
4.63238793993390e-08,8.50000000000000e-01,0.00000000000000e+00,-1.36731837465768e-02
4.67891172943310e-08,8.50000000000000e-01,0.00000000000000e+00,1.00246419697547e-02
4.77195930843151e-08,8.50000000000000e-01,0.00000000000000e+00,-7.32150378677882e-03
4.95805446642834e-08,8.50000000000000e-01,0.00000000000000e+00,7.20828198085905e-03
5.00000000000000e-08,8.50000000000000e-01,0.00000000000000e+00,-3.59287970484349e-03
5.00100000000000e-08,8.50000000000000e-01,8.49999999999839e-02,-4.51301399773528e-03
5.00300000000000e-08,8.50000000000000e-01,2.54999999999952e-01,-3.74306637608900e-03
5.00700000000000e-08,8.50000000000000e-01,5.95000000000000e-01,-6.06724547815067e-04
5.01000000000000e-08,8.50000000000000e-01,8.50000000000000e-01,-4.02356926949385e-04
5.01080000000000e-08,8.50000000000000e-01,8.50000000000000e-01,-2.62029117155171e-04
5.01240000000000e-08,8.50000000000000e-01,8.50000000000000e-01,-1.18106420280623e-04
5.01560000000000e-08,8.50000000000000e-01,8.50000000000000e-01,-4.94457111381574e-05
5.02200000000000e-08,8.50000000000000e-01,8.50000000000000e-01,2.06458462884626e-05
5.03480000000000e-08,8.50000000000000e-01,8.50000000000000e-01,2.74462555403462e-06
5.06040000000000e-08,8.50000000000000e-01,8.50000000000000e-01,1.37652614369405e-05
5.11160000000001e-08,8.50000000000000e-01,8.50000000000000e-01,4.78880432592220e-06
5.21400000000002e-08,8.50000000000000e-01,8.50000000000000e-01,1.38237471333565e-05
5.41880000000003e-08,8.50000000000000e-01,8.50000000000000e-01,4.88305334746773e-06
5.51000000000000e-08,8.50000000000000e-01,8.50000000000000e-01,1.39119566001629e-05
5.51100000000000e-08,7.65000000000030e-01,8.50000000000000e-01,-5.50739652650789e-05
5.51300000000000e-08,5.95000000000006e-01,8.50000000000000e-01,-1.40479299267846e-04
5.51700000000000e-08,2.55000000000014e-01,8.50000000000000e-01,4.17033650352699e-05
5.52000000000000e-08,0.00000000000000e+00,8.50000000000000e-01,2.60258617231841e-04
5.52080000000000e-08,0.00000000000000e+00,8.50000000000000e-01,2.65255131017661e-04
5.52240000000000e-08,0.00000000000000e+00,8.50000000000000e-01,-7.56800489221110e-07
5.52560000000000e-08,0.00000000000000e+00,8.50000000000000e-01,-9.97733766635742e-04
5.53200000000000e-08,0.00000000000000e+00,8.50000000000000e-01,-1.07127572430414e-03
5.54480000000000e-08,0.00000000000000e+00,8.50000000000000e-01,4.36163108036985e-07
5.56670441405979e-08,0.00000000000000e+00,8.50000000000000e-01,1.26437889695630e-06
5.59186264061938e-08,0.00000000000000e+00,8.50000000000000e-01,3.18468568728240e-04
5.64217909373854e-08,0.00000000000000e+00,8.50000000000000e-01,-3.37587584851314e-04
5.69157179679335e-08,0.00000000000000e+00,8.50000000000000e-01,3.59492443555211e-04
5.79035720290297e-08,0.00000000000000e+00,8.50000000000000e-01,-3.29271957952868e-04
5.94301361233690e-08,0.00000000000000e+00,8.50000000000000e-01,3.43154479110516e-04
6.18136492271325e-08,0.00000000000000e+00,8.50000000000000e-01,-3.16091018548874e-04
6.50000000000000e-08,0.00000000000000e+00,8.50000000000000e-01,3.33418975621286e-04
6.50100000000000e-08,8.49999999999839e-02,8.50000000000000e-01,3.37275784739605e-04
6.50300000000000e-08,2.54999999999952e-01,8.50000000000000e-01,3.38564509216731e-04
6.50700000000000e-08,5.94999999999887e-01,8.50000000000000e-01,-2.05279214986927e-04
6.51000000000000e-08,8.49999999999951e-01,8.50000000000000e-01,-2.78452408115142e-03
6.51080000000000e-08,8.50000000000000e-01,8.50000000000000e-01,-3.85083901587867e-03
6.51240000000000e-08,8.50000000000000e-01,8.50000000000000e-01,-5.51697584091281e-03
6.51560000000000e-08,8.50000000000000e-01,8.50000000000000e-01,-1.16357133924287e-03
6.52200000000000e-08,8.50000000000000e-01,8.50000000000000e-01,1.28891801140297e-01
6.53480000000000e-08,8.50000000000000e-01,8.50000000000000e-01,7.20222157021119e-01
6.56040000000000e-08,8.50000000000000e-01,8.50000000000000e-01,8.79809538748981e-01
6.58647324338480e-08,8.50000000000000e-01,8.50000000000000e-01,8.22837692157697e-01
6.63770411806673e-08,8.50000000000000e-01,8.50000000000000e-01,8.73891711755618e-01
6.70563994491471e-08,8.50000000000000e-01,8.50000000000000e-01,8.26346101271107e-01
6.84151159861067e-08,8.50000000000000e-01,8.50000000000000e-01,8.71997344337358e-01
7.01000000000000e-08,8.50000000000000e-01,8.50000000000000e-01,8.27602942028195e-01
7.01100000000000e-08,8.50000000000000e-01,7.65000000000016e-01,8.38785293883406e-01
7.01300000000000e-08,8.50000000000000e-01,5.95000000000048e-01,8.49953531227929e-01
7.01700000000000e-08,8.50000000000000e-01,2.55000000000113e-01,8.50000568220740e-01
7.02000000000000e-08,8.50000000000000e-01,4.87387907810444e-14,8.49974111334560e-01
7.02080000000000e-08,8.50000000000000e-01,0.00000000000000e+00,8.49971045474356e-01
7.02240000000000e-08,8.50000000000000e-01,0.00000000000000e+00,8.49958771456041e-01
7.02560000000000e-08,8.50000000000000e-01,0.00000000000000e+00,8.49946187423072e-01
7.03200000000000e-08,8.50000000000000e-01,0.00000000000000e+00,8.49972449085411e-01
7.04432479087486e-08,8.50000000000000e-01,0.00000000000000e+00,8.49979950491716e-01
7.06637663128787e-08,8.50000000000000e-01,0.00000000000000e+00,8.49952019119528e-01
7.09162087088189e-08,8.50000000000000e-01,0.00000000000000e+00,8.49981532632077e-01
7.14210935006992e-08,8.50000000000000e-01,0.00000000000000e+00,8.49959073128861e-01
7.24308630844599e-08,8.50000000000000e-01,0.00000000000000e+00,8.49985066031405e-01
7.44504022519813e-08,8.50000000000000e-01,0.00000000000000e+00,8.49967410155553e-01
7.51000000000000e-08,8.50000000000000e-01,0.00000000000000e+00,8.49989431306052e-01
7.51100000000000e-08,7.65000000000086e-01,0.00000000000000e+00,8.49922921091918e-01
7.51300000000000e-08,5.95000000000119e-01,0.00000000000000e+00,8.49905000421032e-01
7.51700000000000e-08,2.55000000000183e-01,0.00000000000000e+00,8.51333408965614e-01
7.52000000000000e-08,1.19015908239817e-13,0.00000000000000e+00,8.52779498227103e-01
7.52080000000000e-08,0.00000000000000e+00,0.00000000000000e+00,8.51956337506153e-01
7.52240000000000e-08,0.00000000000000e+00,0.00000000000000e+00,8.47347389897244e-01
7.52560000000000e-08,0.00000000000000e+00,0.00000000000000e+00,8.29650015829619e-01
7.53200000000000e-08,0.00000000000000e+00,0.00000000000000e+00,8.19908207370221e-01
7.54480000000000e-08,0.00000000000000e+00,0.00000000000000e+00,8.47981148924485e-01
7.56118029643170e-08,0.00000000000000e+00,0.00000000000000e+00,8.49410001417056e-01
7.59342120346166e-08,0.00000000000000e+00,0.00000000000000e+00,8.49402580083810e-01
7.62597327224854e-08,0.00000000000000e+00,0.00000000000000e+00,8.49684559266395e-01
7.69107740982230e-08,0.00000000000000e+00,0.00000000000000e+00,8.49727260249551e-01
7.81000000000000e-08,0.00000000000000e+00,0.00000000000000e+00,8.49819378511540e-01
7.82302082751475e-08,0.00000000000000e+00,0.00000000000000e+00,8.49830601605159e-01
7.84906248254426e-08,0.00000000000000e+00,0.00000000000000e+00,8.49813868154869e-01
7.90114579260326e-08,0.00000000000000e+00,0.00000000000000e+00,8.49835489798704e-01
8.00531241272127e-08,0.00000000000000e+00,0.00000000000000e+00,8.49834832080771e-01
8.21364565295730e-08,0.00000000000000e+00,0.00000000000000e+00,8.49851702297196e-01
8.50000000000000e-08,0.00000000000000e+00,0.00000000000000e+00,8.49845801087644e-01
8.50100000000000e-08,8.49999999999839e-02,0.00000000000000e+00,8.49891637401232e-01
8.50300000000000e-08,2.54999999999952e-01,0.00000000000000e+00,8.49912266796512e-01
8.50700000000000e-08,5.94999999999887e-01,0.00000000000000e+00,8.49807071493028e-01
8.51000000000000e-08,8.49999999999951e-01,0.00000000000000e+00,8.49659288676489e-01
8.51080000000000e-08,8.50000000000000e-01,0.00000000000000e+00,8.49611418889476e-01
8.51240000000000e-08,8.50000000000000e-01,0.00000000000000e+00,8.49603383522525e-01
8.51560000000000e-08,8.50000000000000e-01,0.00000000000000e+00,8.50202817334535e-01
8.52200000000000e-08,8.50000000000000e-01,0.00000000000000e+00,8.55360222391708e-01
8.53480000000000e-08,8.50000000000000e-01,0.00000000000000e+00,5.64269915274567e-01
8.56038432806521e-08,8.50000000000000e-01,0.00000000000000e+00,-3.85328883852636e-02
8.58438556621418e-08,8.50000000000000e-01,0.00000000000000e+00,2.16802879176763e-02
8.63238804251212e-08,8.50000000000000e-01,0.00000000000000e+00,-1.36715136818963e-02
8.67891204594241e-08,8.50000000000000e-01,0.00000000000000e+00,1.00233071104929e-02
8.77196005280299e-08,8.50000000000000e-01,0.00000000000000e+00,-7.32035940560174e-03
8.95805606652414e-08,8.50000000000000e-01,0.00000000000000e+00,7.20718888208888e-03
9.00000000000000e-08,8.50000000000000e-01,0.00000000000000e+00,-3.59194899351063e-03
9.00100000000000e-08,8.50000000000000e-01,8.49999999999839e-02,-4.51238546450554e-03
9.00300000000000e-08,8.50000000000000e-01,2.54999999999952e-01,-3.74278121546814e-03
9.00700000000000e-08,8.50000000000000e-01,5.94999999999887e-01,-6.06636610664214e-04
9.01000000000000e-08,8.50000000000000e-01,8.49999999999951e-01,-4.02339439065549e-04
9.01080000000000e-08,8.50000000000000e-01,8.50000000000000e-01,-2.62010296069357e-04
9.01240000000000e-08,8.50000000000000e-01,8.50000000000000e-01,-1.18092817530141e-04
9.01560000000000e-08,8.50000000000000e-01,8.50000000000000e-01,-4.94450871626265e-05
9.02200000000000e-08,8.50000000000000e-01,8.50000000000000e-01,2.06417014693913e-05
9.03480000000000e-08,8.50000000000000e-01,8.50000000000000e-01,2.74554717125813e-06
9.06040000000000e-08,8.50000000000000e-01,8.50000000000000e-01,1.37681659952149e-05
9.11159999999999e-08,8.50000000000000e-01,8.50000000000000e-01,4.78629848637072e-06
9.21399999999999e-08,8.50000000000000e-01,8.50000000000000e-01,1.38258123223199e-05
9.41879999999998e-08,8.50000000000000e-01,8.50000000000000e-01,4.88088495382601e-06
9.51000000000000e-08,8.50000000000000e-01,8.50000000000000e-01,1.39137186399825e-05
9.51100000000000e-08,7.65000000000086e-01,8.50000000000000e-01,-5.50727222270453e-05
9.51300000000000e-08,5.95000000000119e-01,8.50000000000000e-01,-1.40478649999998e-04
9.51700000000000e-08,2.55000000000183e-01,8.50000000000000e-01,4.17034786464737e-05
9.52000000000000e-08,1.19015908239817e-13,8.50000000000000e-01,2.60256081373804e-04
9.52080000000000e-08,0.00000000000000e+00,8.50000000000000e-01,2.65250472048298e-04
9.52240000000000e-08,0.00000000000000e+00,8.50000000000000e-01,-7.66993507456126e-07
9.52560000000000e-08,0.00000000000000e+00,8.50000000000000e-01,-9.97772659203630e-04
9.53200000000000e-08,0.00000000000000e+00,8.50000000000000e-01,-1.07131466412385e-03
9.54480000000000e-08,0.00000000000000e+00,8.50000000000000e-01,4.46838776081010e-07
9.56670440592024e-08,0.00000000000000e+00,8.50000000000000e-01,1.25893544824368e-06
9.59186263459543e-08,0.00000000000000e+00,8.50000000000000e-01,3.18471734688838e-04
9.64217909194582e-08,0.00000000000000e+00,8.50000000000000e-01,-3.37590207522111e-04
9.69157178861725e-08,0.00000000000000e+00,8.50000000000000e-01,3.59494632697145e-04
9.79035718196009e-08,0.00000000000000e+00,8.50000000000000e-01,-3.29273997179688e-04
9.94301360944300e-08,0.00000000000000e+00,8.50000000000000e-01,3.43156425922514e-04
1.01813649153625e-07,0.00000000000000e+00,8.50000000000000e-01,-3.16092922594671e-04
1.05000000000000e-07,0.00000000000000e+00,8.50000000000000e-01,3.33420838958038e-04
1.05010000000000e-07,8.49999999999839e-02,8.50000000000000e-01,3.37276298704982e-04
1.05030000000000e-07,2.54999999999952e-01,8.50000000000000e-01,3.38564513536893e-04
1.05070000000000e-07,5.94999999999887e-01,8.50000000000000e-01,-2.05278759166282e-04
1.05100000000000e-07,8.49999999999951e-01,8.50000000000000e-01,-2.78452414006681e-03
1.05108000000000e-07,8.50000000000000e-01,8.50000000000000e-01,-3.85083898792433e-03
1.05124000000000e-07,8.50000000000000e-01,8.50000000000000e-01,-5.51697577737399e-03
1.05156000000000e-07,8.50000000000000e-01,8.50000000000000e-01,-1.16357122635594e-03
1.05220000000000e-07,8.50000000000000e-01,8.50000000000000e-01,1.28891802714337e-01
1.05348000000000e-07,8.50000000000000e-01,8.50000000000000e-01,7.20222158042736e-01
1.05604000000000e-07,8.50000000000000e-01,8.50000000000000e-01,8.79809538618138e-01
1.05864732434439e-07,8.50000000000000e-01,8.50000000000000e-01,8.22837692278812e-01
