Time,v(clk),v(data),v(out)
1.00000000000000e-08,8.50000000000000e-01,0.00000000000000e+00,1.43007216436425e-05
1.00100000000000e-08,8.50000000000000e-01,8.49999999999979e-02,1.40250943225853e-05
1.00300000000000e-08,8.50000000000000e-01,2.54999999999994e-01,1.23112986387466e-05
1.00700000000000e-08,8.50000000000000e-01,5.94999999999986e-01,9.15510238651274e-06
1.01000000000000e-08,8.50000000000000e-01,8.49999999999994e-01,1.02623191174656e-05
1.01080000000000e-08,8.50000000000000e-01,8.50000000000000e-01,1.10857659460367e-05
1.01240000000000e-08,8.50000000000000e-01,8.50000000000000e-01,1.05243366525370e-05
1.01560000000000e-08,8.50000000000000e-01,8.50000000000000e-01,1.34730355476342e-05
1.02200000000000e-08,8.50000000000000e-01,8.50000000000000e-01,1.46492694246131e-05
1.03480000000000e-08,8.50000000000000e-01,8.50000000000000e-01,1.45851926650065e-05
1.06040000000000e-08,8.50000000000000e-01,8.50000000000000e-01,1.27726303545822e-05
1.11160000000000e-08,8.50000000000000e-01,8.50000000000000e-01,1.33104391811471e-05
1.21400000000000e-08,8.50000000000000e-01,8.50000000000000e-01,1.25656744041748e-05
1.41880000000000e-08,8.50000000000000e-01,8.50000000000000e-01,1.24330146019092e-05
1.51000000000000e-08,8.50000000000000e-01,8.50000000000000e-01,1.21181100018056e-05
1.51100000000000e-08,7.64999999999988e-01,8.50000000000000e-01,-5.46601210175829e-05
1.51300000000000e-08,5.94999999999992e-01,8.50000000000000e-01,-1.36822657945790e-04
1.51700000000000e-08,2.55000000000000e-01,8.50000000000000e-01,4.10978168528392e-05
1.52000000000000e-08,0.00000000000000e+00,8.50000000000000e-01,3.04140834162435e-04
1.52080000000000e-08,0.00000000000000e+00,8.50000000000000e-01,3.50594709060417e-04
1.52240000000000e-08,0.00000000000000e+00,8.50000000000000e-01,2.72783720678654e-04
1.52560000000000e-08,0.00000000000000e+00,8.50000000000000e-01,-1.47018226993527e-04
1.53200000000000e-08,0.00000000000000e+00,8.50000000000000e-01,-4.04933083891855e-04
1.54480000000000e-08,0.00000000000000e+00,8.50000000000000e-01,-2.40308431642206e-04
1.56681269427826e-08,0.00000000000000e+00,8.50000000000000e-01,1.47389242304299e-04
1.59194210839228e-08,0.00000000000000e+00,8.50000000000000e-01,2.20977175889842e-04
1.64220093662031e-08,0.00000000000000e+00,8.50000000000000e-01,-2.53894584311125e-04
1.69166973079148e-08,0.00000000000000e+00,8.50000000000000e-01,2.87939108148656e-04
1.79060731913383e-08,0.00000000000000e+00,8.50000000000000e-01,-2.60744789614965e-04
1.94301906348225e-08,0.00000000000000e+00,8.50000000000000e-01,2.78140547118081e-04
2.18140160610762e-08,0.00000000000000e+00,8.50000000000000e-01,-2.52389699603697e-04
2.50000000000000e-08,0.00000000000000e+00,8.50000000000000e-01,2.71054903364691e-04
2.50100000000000e-08,8.49999999999839e-02,8.50000000000000e-01,3.09665064974561e-04
2.50300000000000e-08,2.55000000000008e-01,8.50000000000000e-01,3.32991287248834e-04
2.50700000000000e-08,5.95000000000000e-01,8.50000000000000e-01,-2.11531691988072e-04
2.51000000000000e-08,8.50000000000000e-01,8.50000000000000e-01,-2.78305169941241e-03
2.51080000000000e-08,8.50000000000000e-01,8.50000000000000e-01,-3.85083065796939e-03
2.51240000000000e-08,8.50000000000000e-01,8.50000000000000e-01,-5.51769975361602e-03
2.51560000000000e-08,8.50000000000000e-01,8.50000000000000e-01,-1.16502993644307e-03
2.52200000000000e-08,8.50000000000000e-01,8.50000000000000e-01,1.28878240879473e-01
2.53480000000000e-08,8.50000000000000e-01,8.50000000000000e-01,7.20211381520064e-01
2.56040000000000e-08,8.50000000000000e-01,8.50000000000000e-01,8.79810939155546e-01
2.58647284713545e-08,8.50000000000000e-01,8.50000000000000e-01,8.22836508180870e-01
2.63770266309367e-08,8.50000000000000e-01,8.50000000000000e-01,8.73892704049504e-01
2.70563897327430e-08,8.50000000000000e-01,8.50000000000000e-01,8.26345096070629e-01
2.84151159363555e-08,8.50000000000000e-01,8.50000000000000e-01,8.71998266877644e-01
3.09164207704033e-08,8.50000000000000e-01,8.50000000000000e-01,8.27434152051432e-01
3.47164207704033e-08,8.50000000000000e-01,8.50000000000000e-01,8.71471937705424e-01
3.51000000000000e-08,8.49999999999958e-01,8.50000000000000e-01,8.29867595754594e-01
3.51100000000000e-08,7.64999999999974e-01,8.50000000000000e-01,8.39877519370948e-01
3.51300000000000e-08,5.94999999999950e-01,8.50000000000000e-01,8.49916146633582e-01
3.51700000000000e-08,2.54999999999958e-01,8.50000000000000e-01,8.51347026161108e-01
3.52000000000000e-08,0.00000000000000e+00,8.50000000000000e-01,8.52807258529123e-01
3.52080000000000e-08,0.00000000000000e+00,8.50000000000000e-01,8.51972339160119e-01
3.52240000000000e-08,0.00000000000000e+00,8.50000000000000e-01,8.47295130301479e-01
3.52560000000000e-08,0.00000000000000e+00,8.50000000000000e-01,8.29524455372227e-01
3.53200000000000e-08,0.00000000000000e+00,8.50000000000000e-01,8.20171764517682e-01
3.54480000000000e-08,0.00000000000000e+00,8.50000000000000e-01,8.48068961864791e-01
3.56926898382526e-08,0.00000000000000e+00,8.50000000000000e-01,8.49407422278938e-01
3.59861456426618e-08,0.00000000000000e+00,8.50000000000000e-01,8.49620577004300e-01
3.65730572514804e-08,0.00000000000000e+00,8.50000000000000e-01,8.49596351717425e-01
3.77468804691175e-08,0.00000000000000e+00,8.50000000000000e-01,8.49933692200954e-01
4.00945269043917e-08,0.00000000000000e+00,8.50000000000000e-01,8.49705550737021e-01
4.38945269043917e-08,0.00000000000000e+00,8.50000000000000e-01,8.49990468576834e-01
4.50000000000000e-08,0.00000000000000e+00,8.50000000000000e-01,8.49706403475226e-01
4.50100000000000e-08,8.49999999999839e-02,8.50000000000000e-01,8.49856689364681e-01
4.50300000000000e-08,2.55000000000008e-01,8.50000000000000e-01,8.50002234766776e-01
4.50700000000000e-08,5.95000000000000e-01,8.50000000000000e-01,8.49727683316391e-01
4.51000000000000e-08,8.50000000000000e-01,8.50000000000000e-01,8.48478557181318e-01
4.51080000000000e-08,8.50000000000000e-01,7.82000000000035e-01,8.47974643250320e-01
4.51240000000000e-08,8.50000000000000e-01,6.45999999999994e-01,8.47113290578219e-01
4.51560000000000e-08,8.50000000000000e-01,3.74000000000023e-01,8.46222869496075e-01
4.52000000000000e-08,8.50000000000000e-01,4.87387907810444e-14,8.46614242706471e-01
4.52064000000000e-08,8.50000000000000e-01,0.00000000000000e+00,8.46828667401336e-01
4.52192000000000e-08,8.50000000000000e-01,0.00000000000000e+00,8.47227862826021e-01
4.52448000000000e-08,8.50000000000000e-01,0.00000000000000e+00,8.47890947131460e-01
4.52960000000000e-08,8.50000000000000e-01,0.00000000000000e+00,8.48799738452195e-01
4.53984000000000e-08,8.50000000000000e-01,0.00000000000000e+00,8.49676756365204e-01
4.55487700787643e-08,8.50000000000000e-01,0.00000000000000e+00,8.49963429672904e-01
4.58087397970539e-08,8.50000000000000e-01,0.00000000000000e+00,8.50011017528315e-01
4.61386024105234e-08,8.50000000000000e-01,0.00000000000000e+00,8.49995908300049e-01
4.67983276374624e-08,8.50000000000000e-01,0.00000000000000e+00,8.50002478794121e-01
4.81177780913402e-08,8.50000000000000e-01,0.00000000000000e+00,8.49998129201318e-01
5.07566789990960e-08,8.50000000000000e-01,0.00000000000000e+00,8.50001567332303e-01
5.45566789990960e-08,8.50000000000000e-01,0.00000000000000e+00,8.49998625530183e-01
5.51000000000000e-08,8.50000000000000e-01,0.00000000000000e+00,8.50000250038970e-01
5.51100000000000e-08,7.65000000000030e-01,0.00000000000000e+00,8.49948001063747e-01
5.51300000000000e-08,5.95000000000006e-01,0.00000000000000e+00,8.49928744852049e-01
5.51700000000000e-08,2.55000000000014e-01,0.00000000000000e+00,8.51397811731188e-01
5.52000000000000e-08,0.00000000000000e+00,0.00000000000000e+00,8.53908934309890e-01
5.52080000000000e-08,0.00000000000000e+00,0.00000000000000e+00,8.54430422022968e-01
5.52240000000000e-08,0.00000000000000e+00,0.00000000000000e+00,8.55210819560419e-01
5.52560000000000e-08,0.00000000000000e+00,0.00000000000000e+00,8.55740724725100e-01
5.53200000000000e-08,0.00000000000000e+00,0.00000000000000e+00,8.50788619946593e-01
5.54480000000000e-08,0.00000000000000e+00,0.00000000000000e+00,8.46563546670603e-01
5.56115668262999e-08,0.00000000000000e+00,0.00000000000000e+00,8.49493834779312e-01
5.59365530640699e-08,0.00000000000000e+00,0.00000000000000e+00,8.49092995790783e-01
5.62616289100206e-08,0.00000000000000e+00,0.00000000000000e+00,8.49854343466748e-01
5.69117806019220e-08,0.00000000000000e+00,0.00000000000000e+00,8.49539911994755e-01
5.82120839857249e-08,0.00000000000000e+00,0.00000000000000e+00,8.49990628421172e-01
6.08126907533306e-08,0.00000000000000e+00,0.00000000000000e+00,8.49679759871947e-01
6.46126907533306e-08,0.00000000000000e+00,0.00000000000000e+00,8.50010823531080e-01
6.50000000000000e-08,0.00000000000000e+00,0.00000000000000e+00,8.49733790036340e-01
6.50100000000000e-08,8.49999999999839e-02,0.00000000000000e+00,8.49804416790141e-01
6.50300000000000e-08,2.54999999999952e-01,0.00000000000000e+00,8.49869779223103e-01
6.50700000000000e-08,5.94999999999887e-01,0.00000000000000e+00,8.49806851718231e-01
6.51000000000000e-08,8.49999999999951e-01,0.00000000000000e+00,8.49659652861486e-01
6.51080000000000e-08,8.50000000000000e-01,0.00000000000000e+00,8.49609910979127e-01
6.51240000000000e-08,8.50000000000000e-01,0.00000000000000e+00,8.49598388619715e-01
6.51560000000000e-08,8.50000000000000e-01,0.00000000000000e+00,8.50195365707257e-01
6.52200000000000e-08,8.50000000000000e-01,0.00000000000000e+00,8.55363539159325e-01
6.53480000000000e-08,8.50000000000000e-01,0.00000000000000e+00,5.64301942250606e-01
6.56038181267162e-08,8.50000000000000e-01,0.00000000000000e+00,-3.85093271510789e-02
6.58438232900315e-08,8.50000000000000e-01,0.00000000000000e+00,2.16646358995226e-02
6.63238336166621e-08,8.50000000000000e-01,0.00000000000000e+00,-1.36599073565415e-02
6.67890525867153e-08,8.50000000000000e-01,0.00000000000000e+00,1.00137370103080e-02
6.77194905268217e-08,8.50000000000000e-01,0.00000000000000e+00,-7.31198075314404e-03
6.95803664070344e-08,8.50000000000000e-01,0.00000000000000e+00,7.19914032198713e-03
7.23892722540519e-08,8.50000000000000e-01,0.00000000000000e+00,-6.00949857522340e-03
7.51000000000000e-08,8.50000000000000e-01,0.00000000000000e+00,6.14200826794175e-03
7.51100000000000e-08,7.65000000000086e-01,0.00000000000000e+00,6.65657484348339e-03
7.51300000000000e-08,5.95000000000119e-01,0.00000000000000e+00,4.90050838971952e-03
7.51700000000000e-08,2.55000000000183e-01,0.00000000000000e+00,1.02452713495980e-03
7.52000000000000e-08,1.19015908239817e-13,0.00000000000000e+00,8.05031484775405e-04
7.52080000000000e-08,0.00000000000000e+00,0.00000000000000e+00,6.43425656402088e-04
7.52240000000000e-08,0.00000000000000e+00,0.00000000000000e+00,1.82328447471708e-04
7.52560000000000e-08,0.00000000000000e+00,0.00000000000000e+00,-9.32072015199868e-04
7.53200000000000e-08,0.00000000000000e+00,0.00000000000000e+00,-1.09196870307247e-03
7.54480000000000e-08,0.00000000000000e+00,0.00000000000000e+00,3.01606118407280e-04
7.56623822896256e-08,0.00000000000000e+00,0.00000000000000e+00,-1.36543211955848e-04
7.59743057539297e-08,0.00000000000000e+00,0.00000000000000e+00,1.10693625646582e-04
7.65981526825379e-08,0.00000000000000e+00,0.00000000000000e+00,-7.21256888593976e-05
7.78458465397544e-08,0.00000000000000e+00,0.00000000000000e+00,8.82470601638171e-05
8.03412342541873e-08,0.00000000000000e+00,0.00000000000000e+00,-6.29173858116149e-05
8.41412342541873e-08,0.00000000000000e+00,0.00000000000000e+00,8.35518974053205e-05
8.50000000000000e-08,0.00000000000000e+00,0.00000000000000e+00,-5.41315992997459e-05
8.50100000000000e-08,8.49999999999839e-02,0.00000000000000e+00,7.40248782936867e-05
8.50300000000000e-08,2.54999999999952e-01,0.00000000000000e+00,1.64843967898273e-04
8.50700000000000e-08,5.94999999999887e-01,0.00000000000000e+00,1.64103056312093e-05
8.51000000000000e-08,8.49999999999951e-01,0.00000000000000e+00,-1.83228170687791e-04
8.51080000000000e-08,8.50000000000000e-01,0.00000000000000e+00,-2.52498831357376e-04
8.51240000000000e-08,8.50000000000000e-01,0.00000000000000e+00,-3.13697719490247e-04
8.51560000000000e-08,8.50000000000000e-01,0.00000000000000e+00,-2.27754416857510e-04
8.52200000000000e-08,8.50000000000000e-01,0.00000000000000e+00,1.64364989837101e-05
8.53480000000000e-08,8.50000000000000e-01,0.00000000000000e+00,1.22027233813368e-04
8.56040000000000e-08,8.50000000000000e-01,0.00000000000000e+00,-4.82860524096684e-06
8.61159999999999e-08,8.50000000000000e-01,0.00000000000000e+00,4.03098109289721e-05
8.66646193196391e-08,8.50000000000000e-01,0.00000000000000e+00,4.33528755189490e-06
8.77618579589174e-08,8.50000000000000e-01,0.00000000000000e+00,2.77786364180077e-05
8.99563352374739e-08,8.50000000000000e-01,0.00000000000000e+00,2.13732224721864e-06
9.00000000000000e-08,8.50000000000000e-01,0.00000000000000e+00,1.42776447668025e-05
9.00100000000000e-08,8.50000000000000e-01,8.49999999999839e-02,1.39960284125801e-05
9.00300000000000e-08,8.50000000000000e-01,2.54999999999952e-01,1.23034735641028e-05
9.00700000000000e-08,8.50000000000000e-01,5.94999999999887e-01,9.18082748899846e-06
9.01000000000000e-08,8.50000000000000e-01,8.49999999999951e-01,1.02775444717693e-05
9.01080000000000e-08,8.50000000000000e-01,8.50000000000000e-01,1.11167177167804e-05
9.01240000000000e-08,8.50000000000000e-01,8.50000000000000e-01,1.05159714687136e-05
9.01560000000000e-08,8.50000000000000e-01,8.50000000000000e-01,1.34545059365734e-05
9.02200000000000e-08,8.50000000000000e-01,8.50000000000000e-01,1.46402525085937e-05
9.03480000000000e-08,8.50000000000000e-01,8.50000000000000e-01,1.45925193179609e-05
9.06040000000000e-08,8.50000000000000e-01,8.50000000000000e-01,1.27712689736714e-05
9.11159999999999e-08,8.50000000000000e-01,8.50000000000000e-01,1.33097793794546e-05
9.21399999999999e-08,8.50000000000000e-01,8.50000000000000e-01,1.25668026154649e-05
9.41879999999998e-08,8.50000000000000e-01,8.50000000000000e-01,1.24314488626387e-05
9.51000000000000e-08,8.50000000000000e-01,8.50000000000000e-01,1.21201490305778e-05
9.51100000000000e-08,7.65000000000086e-01,8.50000000000000e-01,-5.46461192188902e-05
9.51300000000000e-08,5.95000000000119e-01,8.50000000000000e-01,-1.36831524403344e-04
9.51700000000000e-08,2.55000000000183e-01,8.50000000000000e-01,4.10955238215327e-05
9.52000000000000e-08,1.19015908239817e-13,8.50000000000000e-01,3.04139056704768e-04
9.52080000000000e-08,0.00000000000000e+00,8.50000000000000e-01,3.50592020817428e-04
9.52240000000000e-08,0.00000000000000e+00,8.50000000000000e-01,2.72779684268865e-04
9.52560000000000e-08,0.00000000000000e+00,8.50000000000000e-01,-1.47022387520096e-04
9.53200000000000e-08,0.00000000000000e+00,8.50000000000000e-01,-4.04932601056861e-04
9.54480000000000e-08,0.00000000000000e+00,8.50000000000000e-01,-2.40309156120177e-04
9.56681267786163e-08,0.00000000000000e+00,8.50000000000000e-01,1.47390027329327e-04
9.59194209194374e-08,0.00000000000000e+00,8.50000000000000e-01,2.20978015402704e-04
9.64220092010794e-08,0.00000000000000e+00,8.50000000000000e-01,-2.53895613707497e-04
9.69166971713994e-08,0.00000000000000e+00,8.50000000000000e-01,2.87940331403485e-04
9.79060731120393e-08,0.00000000000000e+00,8.50000000000000e-01,-2.60746076635972e-04
9.94301891774123e-08,0.00000000000000e+00,8.50000000000000e-01,2.78141843187122e-04
1.01814012831075e-07,0.00000000000000e+00,8.50000000000000e-01,-2.52391006891326e-04
1.05000000000000e-07,0.00000000000000e+00,8.50000000000000e-01,2.71056208279426e-04
1.05010000000000e-07,8.49999999999839e-02,8.50000000000000e-01,3.09665905219469e-04
1.05030000000000e-07,2.54999999999952e-01,8.50000000000000e-01,3.32991426591912e-04
1.05070000000000e-07,5.94999999999887e-01,8.50000000000000e-01,-2.11531816327826e-04
1.05100000000000e-07,8.49999999999951e-01,8.50000000000000e-01,-2.78305166258108e-03
1.05108000000000e-07,8.50000000000000e-01,8.50000000000000e-01,-3.85083063386241e-03
1.05124000000000e-07,8.50000000000000e-01,8.50000000000000e-01,-5.51769980054127e-03
1.05156000000000e-07,8.50000000000000e-01,8.50000000000000e-01,-1.16503100726920e-03
1.05220000000000e-07,8.50000000000000e-01,8.50000000000000e-01,1.28878231619693e-01
1.05348000000000e-07,8.50000000000000e-01,8.50000000000000e-01,7.20211373708531e-01
1.05604000000000e-07,8.50000000000000e-01,8.50000000000000e-01,8.79810940260810e-01
1.05864728468723e-07,8.50000000000000e-01,8.50000000000000e-01,8.22836507216261e-01
1.06377026630503e-07,8.50000000000000e-01,8.50000000000000e-01,8.73892704887174e-01
1.07056389733485e-07,8.50000000000000e-01,8.50000000000000e-01,8.26345095189737e-01
1.08415115939448e-07,8.50000000000000e-01,8.50000000000000e-01,8.71998267677627e-01
1.10916420737320e-07,8.50000000000000e-01,8.50000000000000e-01,8.27434151239537e-01
1.14716420737320e-07,8.50000000000000e-01,8.50000000000000e-01,8.71471938470163e-01
1.15100000000000e-07,8.50000000000000e-01,8.50000000000000e-01,8.29867594859926e-01
1.15110000000000e-07,7.65000000000086e-01,8.50000000000000e-01,8.39877518931998e-01
1.15130000000000e-07,5.95000000000119e-01,8.50000000000000e-01,8.49916146640924e-01
1.15170000000000e-07,2.55000000000183e-01,8.50000000000000e-01,8.51347026166326e-01
1.15200000000000e-07,1.19015908239817e-13,8.50000000000000e-01,8.52807258522624e-01
1.15208000000000e-07,0.00000000000000e+00,8.50000000000000e-01,8.51972339140618e-01
1.15224000000000e-07,0.00000000000000e+00,8.50000000000000e-01,8.47295130258248e-01
1.15256000000000e-07,0.00000000000000e+00,8.50000000000000e-01,8.29524455318430e-01
1.15320000000000e-07,0.00000000000000e+00,8.50000000000000e-01,8.20171764535841e-01
1.15448000000000e-07,0.00000000000000e+00,8.50000000000000e-01,8.48068961882817e-01
1.15692689838110e-07,0.00000000000000e+00,8.50000000000000e-01,8.49407422264932e-01
1.15986145642733e-07,0.00000000000000e+00,8.50000000000000e-01,8.49620577014073e-01
1.16573057251979e-07,0.00000000000000e+00,8.50000000000000e-01,8.49596351708699e-01
1.17746880470470e-07,0.00000000000000e+00,8.50000000000000e-01,8.49933692209147e-01
1.20094526907452e-07,0.00000000000000e+00,8.50000000000000e-01,8.49705550729185e-01
1.23894526907452e-07,0.00000000000000e+00,8.50000000000000e-01,8.49990468584499e-01
1.25000000000000e-07,0.00000000000000e+00,8.50000000000000e-01,8.49706403467900e-01
1.25010000000000e-07,8.49999999998714e-02,8.50000000000000e-01,8.49856689360019e-01
1.25030000000000e-07,2.54999999999839e-01,8.50000000000000e-01,8.50002234765475e-01
1.25070000000000e-07,5.94999999999775e-01,8.50000000000000e-01,8.49727683316590e-01
1.25100000000000e-07,8.49999999999839e-01,8.50000000000000e-01,8.48478557181510e-01
1.25108000000000e-07,8.50000000000000e-01,7.81999999999923e-01,8.47974643251262e-01
1.25124000000000e-07,8.50000000000000e-01,6.45999999999994e-01,8.47113290579327e-01
1.25156000000000e-07,8.50000000000000e-01,3.73999999999910e-01,8.46222869496086e-01
1.25200000000000e-07,8.50000000000000e-01,0.00000000000000e+00,8.46614242707380e-01
1.25206400000000e-07,8.50000000000000e-01,0.00000000000000e+00,8.46828667403103e-01
1.25219200000000e-07,8.50000000000000e-01,0.00000000000000e+00,8.47227862826027e-01
1.25244800000000e-07,8.50000000000000e-01,0.00000000000000e+00,8.47890947130427e-01
1.25296000000000e-07,8.50000000000000e-01,0.00000000000000e+00,8.48799738451821e-01
1.25398400000000e-07,8.50000000000000e-01,0.00000000000000e+00,8.49676756365001e-01
1.25548770078550e-07,8.50000000000000e-01,0.00000000000000e+00,8.49963429672883e-01
1.25808739797037e-07,8.50000000000000e-01,0.00000000000000e+00,8.50011017528294e-01
1.26138602409707e-07,8.50000000000000e-01,0.00000000000000e+00,8.49995908299997e-01
1.26798327635048e-07,8.50000000000000e-01,0.00000000000000e+00,8.50002478794046e-01
1.28117778085729e-07,8.50000000000000e-01,0.00000000000000e+00,8.49998129201375e-01
1.30756678987093e-07,8.50000000000000e-01,0.00000000000000e+00,8.50001567332219e-01
1.34556678987093e-07,8.50000000000000e-01,0.00000000000000e+00,8.49998625530248e-01
1.35100000000000e-07,8.49999999999845e-01,0.00000000000000e+00,8.50000250038895e-01
1.35110000000000e-07,7.64999999999749e-01,0.00000000000000e+00,8.49948001063711e-01
