Time,v(clk),v(data),v(out)
1.00290021598027e-07,0.00000000000000e+00,6.00000000000000e-01,-1.72462975370359e-04
1.00890021598027e-07,0.00000000000000e+00,6.00000000000000e-01,1.64923296633385e-04
1.01490021598027e-07,0.00000000000000e+00,6.00000000000000e-01,-9.32288425830215e-05
1.02090021598027e-07,0.00000000000000e+00,6.00000000000000e-01,1.04579626492105e-04
1.02690021598027e-07,0.00000000000000e+00,6.00000000000000e-01,-4.83644885104391e-05
1.03290021598027e-07,0.00000000000000e+00,6.00000000000000e-01,7.16009381832201e-05
1.03890021598027e-07,0.00000000000000e+00,6.00000000000000e-01,-2.43286246974818e-05
1.04490021598027e-07,0.00000000000000e+00,6.00000000000000e-01,5.40549290924605e-05
1.05000000000000e-07,0.00000000000000e+00,6.00000000000000e-01,-1.07280025110137e-05
1.05010000000000e-07,5.99999999999886e-02,6.00000000000000e-01,3.23066165214311e-04
1.05030000000000e-07,1.79999999999966e-01,6.00000000000000e-01,8.43863418062973e-04
1.05070000000000e-07,4.19999999999920e-01,6.00000000000000e-01,1.39882088707746e-03
1.05100000000000e-07,5.99999999999966e-01,6.00000000000000e-01,9.75302880594317e-04
1.05108000000000e-07,6.00000000000000e-01,6.00000000000000e-01,4.76853683979220e-04
1.05124000000000e-07,6.00000000000000e-01,6.00000000000000e-01,-5.85018118483202e-04
1.05156000000000e-07,6.00000000000000e-01,6.00000000000000e-01,-2.53500342253653e-03
1.05220000000000e-07,6.00000000000000e-01,6.00000000000000e-01,-4.84811880697984e-03
1.05348000000000e-07,6.00000000000000e-01,6.00000000000000e-01,2.83233035175726e-03
1.05604000000000e-07,6.00000000000000e-01,6.00000000000000e-01,2.71654622008082e-01
1.06116000000000e-07,6.00000000000000e-01,6.00000000000000e-01,6.06391553688996e-01
1.06663886368823e-07,6.00000000000000e-01,6.00000000000000e-01,5.92997646211314e-01
1.07263886368824e-07,6.00000000000000e-01,6.00000000000000e-01,6.06611110351198e-01
1.07863886368824e-07,6.00000000000000e-01,6.00000000000000e-01,5.94127941165716e-01
1.08463886368824e-07,6.00000000000000e-01,6.00000000000000e-01,6.04955147482330e-01
1.09063886368824e-07,6.00000000000000e-01,6.00000000000000e-01,5.95657909187400e-01
1.09663886368824e-07,6.00000000000000e-01,6.00000000000000e-01,6.03593643780952e-01
1.10100000000000e-07,6.00000000000000e-01,6.00000000000000e-01,5.97033109391522e-01
1.10110000000000e-07,6.00000000000000e-01,5.40000000000091e-01,5.97866257405105e-01
1.10130000000000e-07,6.00000000000000e-01,4.20000000000114e-01,5.99025198954533e-01
1.10170000000000e-07,6.00000000000000e-01,1.80000000000159e-01,5.99815022422090e-01
1.10200000000000e-07,6.00000000000000e-01,1.13686837721616e-13,5.99961533293648e-01
1.10208000000000e-07,6.00000000000000e-01,0.00000000000000e+00,5.99983048729782e-01
1.10224000000000e-07,6.00000000000000e-01,0.00000000000000e+00,6.00006510534008e-01
1.10256000000000e-07,6.00000000000000e-01,0.00000000000000e+00,5.99996565834560e-01
1.10320000000000e-07,6.00000000000000e-01,0.00000000000000e+00,5.99926476606953e-01
1.10448000000000e-07,6.00000000000000e-01,0.00000000000000e+00,5.99888469274264e-01
1.10704000000000e-07,6.00000000000000e-01,0.00000000000000e+00,6.00018882409156e-01
1.11060844452172e-07,6.00000000000000e-01,0.00000000000000e+00,5.99940903886698e-01
1.11660844452172e-07,6.00000000000000e-01,0.00000000000000e+00,5.99968022131918e-01
1.12260844452172e-07,6.00000000000000e-01,0.00000000000000e+00,5.99970365020296e-01
1.12860844452172e-07,6.00000000000000e-01,0.00000000000000e+00,5.99957877799445e-01
1.13460844452172e-07,6.00000000000000e-01,0.00000000000000e+00,5.99981918297913e-01
1.14060844452172e-07,6.00000000000000e-01,0.00000000000000e+00,5.99956904095905e-01
1.14660844452172e-07,6.00000000000000e-01,0.00000000000000e+00,5.99984361938356e-01
1.15100000000000e-07,6.00000000000000e-01,0.00000000000000e+00,5.99958843249862e-01
1.15110000000000e-07,5.40000000000061e-01,0.00000000000000e+00,5.99804923958381e-01
1.15130000000000e-07,4.20000000000084e-01,0.00000000000000e+00,5.99611524384894e-01
1.15170000000000e-07,1.80000000000129e-01,0.00000000000000e+00,6.00538046662786e-01
1.15200000000000e-07,8.40438829641244e-14,0.00000000000000e+00,6.03354882002883e-01
1.15208000000000e-07,0.00000000000000e+00,0.00000000000000e+00,6.04281909205348e-01
1.15224000000000e-07,0.00000000000000e+00,0.00000000000000e+00,6.05643456433128e-01
1.15256000000000e-07,0.00000000000000e+00,0.00000000000000e+00,6.06669185452076e-01
1.15320000000000e-07,0.00000000000000e+00,0.00000000000000e+00,6.04777957529448e-01
1.15448000000000e-07,0.00000000000000e+00,0.00000000000000e+00,5.91263283872668e-01
1.15704000000000e-07,0.00000000000000e+00,0.00000000000000e+00,5.90419535916294e-01
1.16113106037445e-07,0.00000000000000e+00,0.00000000000000e+00,6.03807757802021e-01
1.16614095455531e-07,0.00000000000000e+00,0.00000000000000e+00,5.96303476985818e-01
1.17100000000000e-07,0.00000000000000e+00,0.00000000000000e+00,6.01835031096772e-01
1.17160000000000e-07,0.00000000000000e+00,0.00000000000000e+00,6.00568559412439e-01
1.17280000000000e-07,0.00000000000000e+00,0.00000000000000e+00,5.99547597800372e-01
1.17520000000000e-07,0.00000000000000e+00,0.00000000000000e+00,5.99746590347020e-01
1.18000000000000e-07,0.00000000000000e+00,0.00000000000000e+00,5.99720258881025e-01
1.18600000000000e-07,0.00000000000000e+00,0.00000000000000e+00,5.99796448529452e-01
1.19200000000000e-07,0.00000000000000e+00,0.00000000000000e+00,5.99792492213550e-01
1.19800000000000e-07,0.00000000000000e+00,0.00000000000000e+00,5.99825115425583e-01
1.20400000000000e-07,0.00000000000000e+00,0.00000000000000e+00,5.99826875206623e-01
1.21000000000000e-07,0.00000000000000e+00,0.00000000000000e+00,5.99842405259043e-01
1.21600000000000e-07,0.00000000000000e+00,0.00000000000000e+00,5.99844945067770e-01
1.22200000000000e-07,0.00000000000000e+00,0.00000000000000e+00,5.99850173211729e-01
1.22800000000000e-07,0.00000000000000e+00,0.00000000000000e+00,5.99856265025687e-01
1.23400000000000e-07,0.00000000000000e+00,0.00000000000000e+00,5.99858897052669e-01
1.24000000000000e-07,0.00000000000000e+00,0.00000000000000e+00,5.99861995588202e-01
1.24600000000000e-07,0.00000000000000e+00,0.00000000000000e+00,5.99861409530569e-01
1.25000000000000e-07,0.00000000000000e+00,0.00000000000000e+00,5.99865659530670e-01
1.25010000000000e-07,5.99999999999092e-02,0.00000000000000e+00,6.00060988693891e-01
1.25030000000000e-07,1.79999999999886e-01,0.00000000000000e+00,6.00352150145079e-01
1.25070000000000e-07,4.19999999999841e-01,0.00000000000000e+00,6.00383116137735e-01
1.25100000000000e-07,5.99999999999886e-01,0.00000000000000e+00,5.99975324351364e-01
1.25108000000000e-07,6.00000000000000e-01,0.00000000000000e+00,5.99777644213462e-01
1.25124000000000e-07,6.00000000000000e-01,0.00000000000000e+00,5.99476757203337e-01
1.25156000000000e-07,6.00000000000000e-01,0.00000000000000e+00,5.99208377507282e-01
1.25220000000000e-07,6.00000000000000e-01,0.00000000000000e+00,5.99300735504249e-01
1.25348000000000e-07,6.00000000000000e-01,0.00000000000000e+00,6.01127365856682e-01
1.25604000000000e-07,6.00000000000000e-01,0.00000000000000e+00,6.20729866875960e-01
1.26116000000000e-07,6.00000000000000e-01,0.00000000000000e+00,1.35403557102861e-01
1.26698940523323e-07,6.00000000000000e-01,0.00000000000000e+00,-5.88585494066210e-02
1.27298940523323e-07,6.00000000000000e-01,0.00000000000000e+00,4.25669861646414e-02
1.27898940523323e-07,6.00000000000000e-01,0.00000000000000e+00,-2.50722453884717e-02
1.28498940523323e-07,6.00000000000000e-01,0.00000000000000e+00,1.73123624947703e-02
1.29098940523323e-07,6.00000000000000e-01,0.00000000000000e+00,-1.11692220040740e-02
1.29698940523323e-07,6.00000000000000e-01,0.00000000000000e+00,7.77536249425815e-03
1.30000000000000e-07,6.00000000000000e-01,0.00000000000000e+00,-3.65661160426601e-03
