Time,v(clk),v(data),v(out)
1.00000000000000e-08,8.50000000000000e-01,0.00000000000000e+00,2.00942357500332e-05
1.00100000000000e-08,8.50000000000000e-01,8.49999999999979e-02,1.63891110521869e-05
1.00300000000000e-08,8.50000000000000e-01,2.54999999999994e-01,1.18422247013528e-05
1.00700000000000e-08,8.50000000000000e-01,5.94999999999986e-01,8.26525621036578e-06
1.01000000000000e-08,8.50000000000000e-01,8.49999999999994e-01,6.69464716476775e-06
1.01080000000000e-08,8.50000000000000e-01,8.50000000000000e-01,7.14376504658276e-06
1.01240000000000e-08,8.50000000000000e-01,8.50000000000000e-01,8.91434227259791e-06
1.01560000000000e-08,8.50000000000000e-01,8.50000000000000e-01,1.10164501912063e-05
1.02200000000000e-08,8.50000000000000e-01,8.50000000000000e-01,9.97661416039103e-06
1.03480000000000e-08,8.50000000000000e-01,8.50000000000000e-01,8.90631094628558e-06
1.06040000000000e-08,8.50000000000000e-01,8.50000000000000e-01,7.70787060287020e-06
1.10533525858042e-08,8.50000000000000e-01,8.50000000000000e-01,8.76529223082720e-06
1.19520577574127e-08,8.50000000000000e-01,8.50000000000000e-01,7.51921785729220e-06
1.37494681006295e-08,8.50000000000000e-01,8.50000000000000e-01,8.10520144819884e-06
1.51000000000000e-08,8.50000000000000e-01,8.50000000000000e-01,7.01086589929151e-06
1.51100000000000e-08,7.64999999999988e-01,8.50000000000000e-01,-6.16581386806286e-05
1.51300000000000e-08,5.94999999999992e-01,8.50000000000000e-01,-1.59045378511830e-04
1.51700000000000e-08,2.55000000000000e-01,8.50000000000000e-01,2.73763221739221e-05
1.52000000000000e-08,0.00000000000000e+00,8.50000000000000e-01,3.96064245125977e-04
1.52080000000000e-08,0.00000000000000e+00,8.50000000000000e-01,5.02059481924014e-04
1.52240000000000e-08,0.00000000000000e+00,8.50000000000000e-01,5.54657904044631e-04
1.52560000000000e-08,0.00000000000000e+00,8.50000000000000e-01,1.72544778222206e-04
1.53200000000000e-08,0.00000000000000e+00,8.50000000000000e-01,-4.26325460473991e-04
1.54480000000000e-08,0.00000000000000e+00,8.50000000000000e-01,-7.75437137907065e-05
1.56535778324015e-08,0.00000000000000e+00,8.50000000000000e-01,-2.97925166995928e-04
1.59754897906405e-08,0.00000000000000e+00,8.50000000000000e-01,3.05169674440029e-04
1.64811741664477e-08,0.00000000000000e+00,8.50000000000000e-01,-6.82790922842680e-05
1.71021927269283e-08,0.00000000000000e+00,8.50000000000000e-01,-2.90260836537989e-05
1.83109864041932e-08,0.00000000000000e+00,8.50000000000000e-01,7.57966638826497e-05
2.07285737587231e-08,0.00000000000000e+00,8.50000000000000e-01,-7.85224231847422e-05
2.45285737587231e-08,0.00000000000000e+00,8.50000000000000e-01,9.77230632422054e-05
2.50000000000000e-08,0.00000000000000e+00,8.50000000000000e-01,-1.26161416618815e-04
2.50100000000000e-08,8.49999999999839e-02,8.50000000000000e-01,5.43760469822185e-05
2.50300000000000e-08,2.55000000000008e-01,8.50000000000000e-01,3.02452339414019e-04
2.50700000000000e-08,5.95000000000000e-01,8.50000000000000e-01,5.27567352489940e-04
2.51000000000000e-08,8.50000000000000e-01,8.50000000000000e-01,-1.02830898315379e-04
2.51080000000000e-08,8.50000000000000e-01,8.50000000000000e-01,-6.60553575070361e-04
2.51240000000000e-08,8.50000000000000e-01,8.50000000000000e-01,-1.92501946623679e-03
2.51560000000000e-08,8.50000000000000e-01,8.50000000000000e-01,-4.44941372701085e-03
2.52200000000000e-08,8.50000000000000e-01,8.50000000000000e-01,-2.63918130850809e-03
2.53480000000000e-08,8.50000000000000e-01,8.50000000000000e-01,2.52074358845033e-01
2.56040000000000e-08,8.50000000000000e-01,8.50000000000000e-01,8.35782025022903e-01
2.60083344550900e-08,8.50000000000000e-01,8.50000000000000e-01,8.54347163026546e-01
2.65918170368789e-08,8.50000000000000e-01,8.50000000000000e-01,8.45769360159057e-01
2.73444110436792e-08,8.50000000000000e-01,8.50000000000000e-01,8.53884678810008e-01
2.85716096984330e-08,8.50000000000000e-01,8.50000000000000e-01,8.46125407756935e-01
3.01000000000000e-08,8.50000000000000e-01,8.50000000000000e-01,8.53677639713850e-01
3.01100000000000e-08,8.50000000000000e-01,7.65000000000044e-01,8.51710657602567e-01
3.01300000000000e-08,8.50000000000000e-01,5.95000000000020e-01,8.49899665281816e-01
3.01700000000000e-08,8.50000000000000e-01,2.55000000000028e-01,8.50042862822197e-01
3.02000000000000e-08,8.50000000000000e-01,2.05391259555654e-14,8.49968629370017e-01
3.02080000000000e-08,8.50000000000000e-01,0.00000000000000e+00,8.49975153583318e-01
3.02240000000000e-08,8.50000000000000e-01,0.00000000000000e+00,8.49978096951085e-01
3.02560000000000e-08,8.50000000000000e-01,0.00000000000000e+00,8.49969591912763e-01
3.03200000000000e-08,8.50000000000000e-01,0.00000000000000e+00,8.49987103075479e-01
3.04480000000000e-08,8.50000000000000e-01,0.00000000000000e+00,8.49985287423376e-01
3.06526254497303e-08,8.50000000000000e-01,0.00000000000000e+00,8.49980806003314e-01
3.09706155726673e-08,8.50000000000000e-01,0.00000000000000e+00,8.49984515972626e-01
3.15350873093990e-08,8.50000000000000e-01,0.00000000000000e+00,8.49984047719369e-01
3.26640307828624e-08,8.50000000000000e-01,0.00000000000000e+00,8.49986915801027e-01
3.49219177297891e-08,8.50000000000000e-01,0.00000000000000e+00,8.49988504142535e-01
3.51000000000000e-08,8.49999999999958e-01,0.00000000000000e+00,8.49988632376821e-01
3.51100000000000e-08,7.64999999999974e-01,0.00000000000000e+00,8.49932645040138e-01
3.51300000000000e-08,5.94999999999950e-01,0.00000000000000e+00,8.49910873830127e-01
3.51700000000000e-08,2.54999999999958e-01,0.00000000000000e+00,8.51452370390184e-01
3.52000000000000e-08,0.00000000000000e+00,0.00000000000000e+00,8.52783940978103e-01
3.52080000000000e-08,0.00000000000000e+00,0.00000000000000e+00,8.51668170933067e-01
3.52240000000000e-08,0.00000000000000e+00,0.00000000000000e+00,8.46644324253899e-01
3.52560000000000e-08,0.00000000000000e+00,0.00000000000000e+00,8.29768301393101e-01
3.53200000000000e-08,0.00000000000000e+00,0.00000000000000e+00,8.24127927567621e-01
3.54480000000000e-08,0.00000000000000e+00,0.00000000000000e+00,8.49458954187235e-01
3.56584318932623e-08,0.00000000000000e+00,0.00000000000000e+00,8.48836909291387e-01
3.59612003238879e-08,0.00000000000000e+00,0.00000000000000e+00,8.50083912746691e-01
3.64972040591770e-08,0.00000000000000e+00,0.00000000000000e+00,8.49375112558604e-01
3.72407019872831e-08,0.00000000000000e+00,0.00000000000000e+00,8.50252211430885e-01
3.87276978434953e-08,0.00000000000000e+00,0.00000000000000e+00,8.49542821316230e-01
3.91000000000000e-08,0.00000000000000e+00,0.00000000000000e+00,8.50252766068315e-01
3.93973991712425e-08,0.00000000000000e+00,0.00000000000000e+00,8.49942631250844e-01
3.99921975137273e-08,0.00000000000000e+00,0.00000000000000e+00,8.49924420804173e-01
4.11817941986971e-08,0.00000000000000e+00,0.00000000000000e+00,8.49957739223318e-01
4.35609875686367e-08,0.00000000000000e+00,0.00000000000000e+00,8.49946038477002e-01
4.50000000000000e-08,0.00000000000000e+00,0.00000000000000e+00,8.49971831183006e-01
4.50100000000000e-08,8.49999999999839e-02,0.00000000000000e+00,8.50011253920471e-01
4.50300000000000e-08,2.55000000000008e-01,0.00000000000000e+00,8.50023316889995e-01
4.50700000000000e-08,5.95000000000000e-01,0.00000000000000e+00,8.49964297500433e-01
4.51000000000000e-08,8.50000000000000e-01,0.00000000000000e+00,8.49867396749948e-01
4.51080000000000e-08,8.50000000000000e-01,0.00000000000000e+00,8.49828844605457e-01
4.51240000000000e-08,8.50000000000000e-01,0.00000000000000e+00,8.49807037913786e-01
4.51560000000000e-08,8.50000000000000e-01,0.00000000000000e+00,8.49830041152598e-01
4.52200000000000e-08,8.50000000000000e-01,0.00000000000000e+00,8.50265328136317e-01
4.53480000000000e-08,8.50000000000000e-01,0.00000000000000e+00,8.57656648794325e-01
4.56040000000000e-08,8.50000000000000e-01,0.00000000000000e+00,3.88875004267972e-01
4.59398358203057e-08,8.50000000000000e-01,0.00000000000000e+00,-7.34811543144070e-02
4.63884640531358e-08,8.50000000000000e-01,0.00000000000000e+00,4.60522698223527e-02
4.70393085597765e-08,8.50000000000000e-01,0.00000000000000e+00,-2.86764425394529e-02
4.77967856693287e-08,8.50000000000000e-01,0.00000000000000e+00,2.14665672315603e-02
4.93117398884333e-08,8.50000000000000e-01,0.00000000000000e+00,-1.72448802021262e-02
5.00000000000000e-08,8.50000000000000e-01,0.00000000000000e+00,1.20781450614620e-02
5.00100000000000e-08,8.50000000000000e-01,8.49999999999839e-02,1.12642854427786e-02
5.00300000000000e-08,8.50000000000000e-01,2.54999999999952e-01,8.83295313499838e-03
5.00700000000000e-08,8.50000000000000e-01,5.95000000000000e-01,4.26110860712035e-03
5.01000000000000e-08,8.50000000000000e-01,8.50000000000000e-01,2.57426476960811e-03
5.01080000000000e-08,8.50000000000000e-01,8.50000000000000e-01,2.25964776036862e-03
5.01240000000000e-08,8.50000000000000e-01,8.50000000000000e-01,1.65234947006973e-03
5.01560000000000e-08,8.50000000000000e-01,8.50000000000000e-01,9.32506046597725e-04
5.02200000000000e-08,8.50000000000000e-01,8.50000000000000e-01,2.79576727703006e-04
5.03480000000000e-08,8.50000000000000e-01,8.50000000000000e-01,-8.18307040743871e-06
5.06040000000000e-08,8.50000000000000e-01,8.50000000000000e-01,9.07508269686053e-06
5.10746125561986e-08,8.50000000000000e-01,8.50000000000000e-01,2.32362336393538e-06
5.20158376685958e-08,8.50000000000000e-01,8.50000000000000e-01,6.88659472902926e-06
5.38982878933901e-08,8.50000000000000e-01,8.50000000000000e-01,3.41068519188730e-06
5.51000000000000e-08,8.50000000000000e-01,8.50000000000000e-01,6.74410249821688e-06
5.51100000000000e-08,7.65000000000030e-01,8.50000000000000e-01,-5.60119985728719e-05
5.51300000000000e-08,5.95000000000006e-01,8.50000000000000e-01,-1.39577094355983e-04
5.51700000000000e-08,2.55000000000014e-01,8.50000000000000e-01,5.72882941954622e-05
5.52000000000000e-08,0.00000000000000e+00,8.50000000000000e-01,3.40618577495025e-04
5.52080000000000e-08,0.00000000000000e+00,8.50000000000000e-01,3.62349761651878e-04
5.52240000000000e-08,0.00000000000000e+00,8.50000000000000e-01,1.16801334432440e-04
5.52560000000000e-08,0.00000000000000e+00,8.50000000000000e-01,-1.23568417335225e-03
5.53200000000000e-08,0.00000000000000e+00,8.50000000000000e-01,-2.12462178408417e-03
5.54480000000000e-08,0.00000000000000e+00,8.50000000000000e-01,-3.81058400293142e-04
5.56523812589902e-08,0.00000000000000e+00,8.50000000000000e-01,-1.64706957340145e-04
5.59769612716514e-08,0.00000000000000e+00,8.50000000000000e-01,2.33551152537981e-04
5.64790229221988e-08,0.00000000000000e+00,8.50000000000000e-01,-1.01718937238586e-05
5.71018322357362e-08,0.00000000000000e+00,8.50000000000000e-01,-6.76709618160076e-05
5.83050567845529e-08,0.00000000000000e+00,8.50000000000000e-01,1.06601668266901e-04
6.07115058821864e-08,0.00000000000000e+00,8.50000000000000e-01,-1.05666228387364e-04
6.45115058821864e-08,0.00000000000000e+00,8.50000000000000e-01,1.22607516628299e-04
6.50000000000000e-08,0.00000000000000e+00,8.50000000000000e-01,-1.35778925750875e-04
6.50100000000000e-08,8.49999999999839e-02,8.50000000000000e-01,3.43487582873114e-05
6.50300000000000e-08,2.54999999999952e-01,8.50000000000000e-01,2.81592313393267e-04
6.50700000000000e-08,5.94999999999887e-01,8.50000000000000e-01,5.24367608039492e-04
6.51000000000000e-08,8.49999999999951e-01,8.50000000000000e-01,-9.06592976328974e-05
6.51080000000000e-08,8.50000000000000e-01,8.50000000000000e-01,-6.41994723225445e-04
6.51240000000000e-08,8.50000000000000e-01,8.50000000000000e-01,-1.89843879900660e-03
6.51560000000000e-08,8.50000000000000e-01,8.50000000000000e-01,-4.42594291313021e-03
6.52200000000000e-08,8.50000000000000e-01,8.50000000000000e-01,-2.72606614366768e-03
6.53480000000000e-08,8.50000000000000e-01,8.50000000000000e-01,2.50787194880305e-01
6.56040000000000e-08,8.50000000000000e-01,8.50000000000000e-01,8.35473531867866e-01
6.60095473259638e-08,8.50000000000000e-01,8.50000000000000e-01,8.54480082509639e-01
6.65922268689605e-08,8.50000000000000e-01,8.50000000000000e-01,8.45639230360943e-01
6.73461726124401e-08,8.50000000000000e-01,8.50000000000000e-01,8.54005176214599e-01
6.85731925646398e-08,8.50000000000000e-01,8.50000000000000e-01,8.46005768405746e-01
7.01000000000000e-08,8.50000000000000e-01,8.50000000000000e-01,8.53791444208522e-01
7.01100000000000e-08,8.50000000000000e-01,7.65000000000016e-01,8.51760747042501e-01
7.01300000000000e-08,8.50000000000000e-01,5.95000000000048e-01,8.49894071229132e-01
7.01700000000000e-08,8.50000000000000e-01,2.55000000000113e-01,8.50045438794342e-01
7.02000000000000e-08,8.50000000000000e-01,4.87387907810444e-14,8.49967838515021e-01
7.02080000000000e-08,8.50000000000000e-01,0.00000000000000e+00,8.49974771976479e-01
7.02240000000000e-08,8.50000000000000e-01,0.00000000000000e+00,8.49978128651978e-01
7.02560000000000e-08,8.50000000000000e-01,0.00000000000000e+00,8.49969606492116e-01
7.03200000000000e-08,8.50000000000000e-01,0.00000000000000e+00,8.49987070265667e-01
7.04480000000000e-08,8.50000000000000e-01,0.00000000000000e+00,8.49985200697620e-01
7.06526256896994e-08,8.50000000000000e-01,0.00000000000000e+00,8.49980766769770e-01
7.09706141727515e-08,8.50000000000000e-01,0.00000000000000e+00,8.49984433825614e-01
7.15348149828173e-08,8.50000000000000e-01,0.00000000000000e+00,8.49984017852468e-01
7.26632166029490e-08,8.50000000000000e-01,0.00000000000000e+00,8.49986849801109e-01
7.49200198432124e-08,8.50000000000000e-01,0.00000000000000e+00,8.49988498821039e-01
7.51000000000000e-08,8.50000000000000e-01,0.00000000000000e+00,8.49988577660873e-01
7.51100000000000e-08,7.65000000000086e-01,0.00000000000000e+00,8.49932547403298e-01
7.51300000000000e-08,5.95000000000119e-01,0.00000000000000e+00,8.49910851397556e-01
7.51700000000000e-08,2.55000000000183e-01,0.00000000000000e+00,8.51452264345604e-01
7.52000000000000e-08,1.19015908239817e-13,0.00000000000000e+00,8.52781958768940e-01
7.52080000000000e-08,0.00000000000000e+00,0.00000000000000e+00,8.51664753712582e-01
7.52240000000000e-08,0.00000000000000e+00,0.00000000000000e+00,8.46638654637415e-01
7.52560000000000e-08,0.00000000000000e+00,0.00000000000000e+00,8.29761647996688e-01
7.53200000000000e-08,0.00000000000000e+00,0.00000000000000e+00,8.24126898069698e-01
7.54480000000000e-08,0.00000000000000e+00,0.00000000000000e+00,8.49459485840316e-01
7.56584316527039e-08,0.00000000000000e+00,0.00000000000000e+00,8.48836531218954e-01
7.59611989456798e-08,0.00000000000000e+00,0.00000000000000e+00,8.50084214125742e-01
7.64972032125836e-08,0.00000000000000e+00,0.00000000000000e+00,8.49374842818347e-01
7.72406986173084e-08,0.00000000000000e+00,0.00000000000000e+00,8.50252458875864e-01
7.81000000000000e-08,0.00000000000000e+00,0.00000000000000e+00,8.49535501242576e-01
7.82486990809450e-08,0.00000000000000e+00,0.00000000000000e+00,8.49876558879643e-01
7.85460972428349e-08,0.00000000000000e+00,0.00000000000000e+00,8.49938439278438e-01
7.91408935666147e-08,0.00000000000000e+00,0.00000000000000e+00,8.49901990644229e-01
8.03304862141744e-08,0.00000000000000e+00,0.00000000000000e+00,8.49960987042990e-01
8.27096715092938e-08,0.00000000000000e+00,0.00000000000000e+00,8.49932803300710e-01
8.50000000000000e-08,0.00000000000000e+00,0.00000000000000e+00,8.49981945390980e-01
8.50100000000000e-08,8.49999999999839e-02,0.00000000000000e+00,8.50021521646326e-01
8.50300000000000e-08,2.54999999999952e-01,0.00000000000000e+00,8.50030919138958e-01
8.50700000000000e-08,5.94999999999887e-01,0.00000000000000e+00,8.49965349367228e-01
8.51000000000000e-08,8.49999999999951e-01,0.00000000000000e+00,8.49867373396205e-01
8.51080000000000e-08,8.50000000000000e-01,0.00000000000000e+00,8.49830400131654e-01
8.51240000000000e-08,8.50000000000000e-01,0.00000000000000e+00,8.49809923857624e-01
8.51560000000000e-08,8.50000000000000e-01,0.00000000000000e+00,8.49826105140878e-01
8.52200000000000e-08,8.50000000000000e-01,0.00000000000000e+00,8.50259650792650e-01
8.53480000000000e-08,8.50000000000000e-01,0.00000000000000e+00,8.57662034710986e-01
8.56040000000000e-08,8.50000000000000e-01,0.00000000000000e+00,3.88847355221643e-01
8.59395962380892e-08,8.50000000000000e-01,0.00000000000000e+00,-7.34011867160850e-02
8.63883303164722e-08,8.50000000000000e-01,0.00000000000000e+00,4.60044622680717e-02
8.70388793336092e-08,8.50000000000000e-01,0.00000000000000e+00,-2.86425757580190e-02
8.77963618976651e-08,8.50000000000000e-01,0.00000000000000e+00,2.14400065189163e-02
8.93113270257767e-08,8.50000000000000e-01,0.00000000000000e+00,-1.72238490960970e-02
9.00000000000000e-08,8.50000000000000e-01,0.00000000000000e+00,1.20656814470719e-02
9.00100000000000e-08,8.50000000000000e-01,8.49999999999839e-02,1.12534360438403e-02
9.00300000000000e-08,8.50000000000000e-01,2.54999999999952e-01,8.82502627421082e-03
9.00700000000000e-08,8.50000000000000e-01,5.94999999999887e-01,4.25720549242704e-03
9.01000000000000e-08,8.50000000000000e-01,8.49999999999951e-01,2.57192901087937e-03
9.01080000000000e-08,8.50000000000000e-01,8.50000000000000e-01,2.25759299765621e-03
9.01240000000000e-08,8.50000000000000e-01,8.50000000000000e-01,1.65085021483453e-03
9.01560000000000e-08,8.50000000000000e-01,8.50000000000000e-01,9.31668484710615e-04
9.02200000000000e-08,8.50000000000000e-01,8.50000000000000e-01,2.79331642181267e-04
9.03480000000000e-08,8.50000000000000e-01,8.50000000000000e-01,-8.17621338537744e-06
9.06040000000000e-08,8.50000000000000e-01,8.50000000000000e-01,9.07263575938844e-06
9.10747024018514e-08,8.50000000000000e-01,8.50000000000000e-01,2.32336851862386e-06
9.20161072055544e-08,8.50000000000000e-01,8.50000000000000e-01,6.88589254545756e-06
9.38989168129603e-08,8.50000000000000e-01,8.50000000000000e-01,3.40973143456592e-06
9.51000000000000e-08,8.50000000000000e-01,8.50000000000000e-01,6.74372508955353e-06
9.51100000000000e-08,7.65000000000086e-01,8.50000000000000e-01,-5.60164472899610e-05
9.51300000000000e-08,5.95000000000119e-01,8.50000000000000e-01,-1.39588340761554e-04
9.51700000000000e-08,2.55000000000183e-01,8.50000000000000e-01,5.72708107275527e-05
9.52000000000000e-08,1.19015908239817e-13,8.50000000000000e-01,3.40579144258737e-04
9.52080000000000e-08,0.00000000000000e+00,8.50000000000000e-01,3.62288073931766e-04
9.52240000000000e-08,0.00000000000000e+00,8.50000000000000e-01,1.16683850545973e-04
9.52560000000000e-08,0.00000000000000e+00,8.50000000000000e-01,-1.23604262557352e-03
9.53200000000000e-08,0.00000000000000e+00,8.50000000000000e-01,-2.12525313670971e-03
9.54480000000000e-08,0.00000000000000e+00,8.50000000000000e-01,-3.81281970817125e-04
9.56523810772467e-08,0.00000000000000e+00,8.50000000000000e-01,-1.64599064289124e-04
9.59769611861270e-08,0.00000000000000e+00,8.50000000000000e-01,2.33483207341772e-04
9.64790222738971e-08,0.00000000000000e+00,8.50000000000000e-01,-1.01202931433141e-05
9.71018316352408e-08,0.00000000000000e+00,8.50000000000000e-01,-6.77129158101683e-05
9.83050550350741e-08,0.00000000000000e+00,8.50000000000000e-01,1.06639357196553e-04
1.00711501834741e-07,0.00000000000000e+00,8.50000000000000e-01,-1.05702000993703e-04
1.04511501834741e-07,0.00000000000000e+00,8.50000000000000e-01,1.22642033905023e-04
1.05000000000000e-07,0.00000000000000e+00,8.50000000000000e-01,-1.35805628526251e-04
1.05010000000000e-07,8.49999999999839e-02,8.50000000000000e-01,3.43309133053887e-05
1.05030000000000e-07,2.54999999999952e-01,8.50000000000000e-01,2.81584110020758e-04
1.05070000000000e-07,5.94999999999887e-01,8.50000000000000e-01,5.24364395942389e-04
1.05100000000000e-07,8.49999999999951e-01,8.50000000000000e-01,-9.06591954514535e-05
1.05108000000000e-07,8.50000000000000e-01,8.50000000000000e-01,-6.41994089458572e-04
1.05124000000000e-07,8.50000000000000e-01,8.50000000000000e-01,-1.89843736679011e-03
1.05156000000000e-07,8.50000000000000e-01,8.50000000000000e-01,-4.42594134297218e-03
1.05220000000000e-07,8.50000000000000e-01,8.50000000000000e-01,-2.72607253901868e-03
1.05348000000000e-07,8.50000000000000e-01,8.50000000000000e-01,2.50787098849112e-01
1.05604000000000e-07,8.50000000000000e-01,8.50000000000000e-01,8.35473508793576e-01
1.06009547417673e-07,8.50000000000000e-01,8.50000000000000e-01,8.54480092441946e-01
