Time,v(clk),v(data),v(out),v(reset)
1.00000000000000e-08,8.50000000000000e-01,0.00000000000000e+00,3.03619886596702e-03,0.00000000000000e+00
1.00100000000000e-08,8.50000000000000e-01,8.49999999999979e-02,2.07087713791253e-03,0.00000000000000e+00
1.00300000000000e-08,8.50000000000000e-01,2.54999999999994e-01,1.00545127842037e-03,0.00000000000000e+00
1.00700000000000e-08,8.50000000000000e-01,5.94999999999986e-01,6.33777468625515e-04,0.00000000000000e+00
1.01000000000000e-08,8.50000000000000e-01,8.49999999999994e-01,4.28872671606184e-04,0.00000000000000e+00
1.01080000000000e-08,8.50000000000000e-01,8.50000000000000e-01,3.89595673159937e-04,0.00000000000000e+00
1.01240000000000e-08,8.50000000000000e-01,8.50000000000000e-01,3.17202540438266e-04,0.00000000000000e+00
1.01560000000000e-08,8.50000000000000e-01,8.50000000000000e-01,2.04793423350294e-04,0.00000000000000e+00
1.02200000000000e-08,8.50000000000000e-01,8.50000000000000e-01,7.92227839992374e-05,0.00000000000000e+00
1.03480000000000e-08,8.50000000000000e-01,8.50000000000000e-01,3.16941015085920e-05,0.00000000000000e+00
1.06040000000000e-08,8.50000000000000e-01,8.50000000000000e-01,2.59903975173524e-05,0.00000000000000e+00
1.11160000000000e-08,8.50000000000000e-01,8.50000000000000e-01,2.55128981385723e-05,0.00000000000000e+00
1.21400000000000e-08,8.50000000000000e-01,8.50000000000000e-01,2.73681756436765e-05,0.00000000000000e+00
1.41880000000000e-08,8.50000000000000e-01,8.50000000000000e-01,2.64722356215722e-05,0.00000000000000e+00
1.51000000000000e-08,8.50000000000000e-01,8.50000000000000e-01,2.66306992880560e-05,0.00000000000000e+00
1.51100000000000e-08,7.64999999999988e-01,8.50000000000000e-01,2.01231600102186e-04,8.50000000000120e-02
1.51300000000000e-08,5.94999999999992e-01,8.50000000000000e-01,3.22688055679365e-04,2.55000000000008e-01
1.51700000000000e-08,2.55000000000000e-01,8.50000000000000e-01,3.54530049437737e-04,5.95000000000000e-01
1.52000000000000e-08,0.00000000000000e+00,8.50000000000000e-01,4.58396136251857e-04,8.50000000000000e-01
1.52080000000000e-08,0.00000000000000e+00,8.50000000000000e-01,4.01874648830389e-04,8.50000000000000e-01
1.52240000000000e-08,0.00000000000000e+00,8.50000000000000e-01,1.79712413118621e-04,8.50000000000000e-01
1.52560000000000e-08,0.00000000000000e+00,8.50000000000000e-01,-8.05426937868267e-04,8.50000000000000e-01
1.53200000000000e-08,0.00000000000000e+00,8.50000000000000e-01,-1.96269559705953e-03,8.50000000000000e-01
1.54480000000000e-08,0.00000000000000e+00,8.50000000000000e-01,-8.77624171934620e-04,8.50000000000000e-01
1.56728363238679e-08,0.00000000000000e+00,8.50000000000000e-01,-1.25897790304794e-05,8.50000000000000e-01
1.59894347401470e-08,0.00000000000000e+00,8.50000000000000e-01,5.33836114133719e-05,8.50000000000000e-01
1.64279590431227e-08,0.00000000000000e+00,8.50000000000000e-01,2.54499500808910e-04,8.50000000000000e-01
1.72226689391943e-08,0.00000000000000e+00,8.50000000000000e-01,-2.42780218523505e-04,8.50000000000000e-01
1.82019057975312e-08,0.00000000000000e+00,8.50000000000000e-01,3.07681186252469e-04,8.50000000000000e-01
2.01603795142049e-08,0.00000000000000e+00,8.50000000000000e-01,-2.51686455064163e-04,8.50000000000000e-01
2.31340236239236e-08,0.00000000000000e+00,8.50000000000000e-01,3.01643514501358e-04,8.50000000000000e-01
2.50000000000000e-08,0.00000000000000e+00,8.50000000000000e-01,-2.42710733181692e-04,8.50000000000000e-01
2.50100000000000e-08,8.49999999999839e-02,8.50000000000000e-01,-6.29010691160642e-05,8.50000000000000e-01
2.50300000000000e-08,2.55000000000008e-01,8.50000000000000e-01,2.19666787318135e-04,8.50000000000000e-01
2.50700000000000e-08,5.95000000000000e-01,8.50000000000000e-01,5.25897907886624e-04,8.50000000000000e-01
2.51000000000000e-08,8.50000000000000e-01,8.50000000000000e-01,2.69396285990792e-05,8.50000000000000e-01
2.51080000000000e-08,8.50000000000000e-01,8.50000000000000e-01,-4.29226658520077e-04,8.50000000000000e-01
2.51240000000000e-08,8.50000000000000e-01,8.50000000000000e-01,-1.44816483337677e-03,8.50000000000000e-01
2.51560000000000e-08,8.50000000000000e-01,8.50000000000000e-01,-3.55691460224454e-03,8.50000000000000e-01
2.52200000000000e-08,8.50000000000000e-01,8.50000000000000e-01,-4.72279159673282e-03,8.50000000000000e-01
2.53480000000000e-08,8.50000000000000e-01,8.50000000000000e-01,1.05942057452670e-01,8.50000000000000e-01
2.56040000000000e-08,8.50000000000000e-01,8.50000000000000e-01,7.65086827391689e-01,8.50000000000000e-01
2.61160000000000e-08,8.50000000000000e-01,8.50000000000000e-01,8.72062032155922e-01,8.50000000000000e-01
2.65802482510764e-08,8.50000000000000e-01,8.50000000000000e-01,8.28969620641970e-01,8.50000000000000e-01
2.75087447532293e-08,8.50000000000000e-01,8.50000000000000e-01,8.69331034290703e-01,8.50000000000000e-01
2.88846024316807e-08,8.50000000000000e-01,8.50000000000000e-01,8.30426780120656e-01,8.50000000000000e-01
3.14113967942286e-08,8.50000000000000e-01,8.50000000000000e-01,8.68542620103132e-01,8.50000000000000e-01
3.51000000000000e-08,8.49999999999958e-01,8.50000000000000e-01,8.30960590061953e-01,8.50000000000000e-01
3.51100000000000e-08,7.64999999999974e-01,8.50000000000000e-01,8.40438960806704e-01,8.50000000000000e-01
3.51300000000000e-08,5.94999999999950e-01,8.50000000000000e-01,8.49915000485348e-01,8.50000000000000e-01
3.51700000000000e-08,2.54999999999958e-01,8.50000000000000e-01,8.51459692075834e-01,8.50000000000000e-01
3.52000000000000e-08,0.00000000000000e+00,8.50000000000000e-01,8.53214747635332e-01,8.50000000000000e-01
3.52080000000000e-08,0.00000000000000e+00,8.50000000000000e-01,8.52587219715777e-01,8.50000000000000e-01
3.52240000000000e-08,0.00000000000000e+00,8.50000000000000e-01,8.48892511879179e-01,8.50000000000000e-01
3.52560000000000e-08,0.00000000000000e+00,8.50000000000000e-01,8.34038174065060e-01,8.50000000000000e-01
3.53200000000000e-08,0.00000000000000e+00,8.50000000000000e-01,8.21974098301492e-01,8.50000000000000e-01
3.54480000000000e-08,0.00000000000000e+00,8.50000000000000e-01,8.45538665914560e-01,8.50000000000000e-01
3.57006869230412e-08,0.00000000000000e+00,8.50000000000000e-01,8.50500067490708e-01,8.50000000000000e-01
3.60039316074427e-08,0.00000000000000e+00,8.50000000000000e-01,8.48576997260516e-01,8.50000000000000e-01
3.66104209762456e-08,0.00000000000000e+00,8.50000000000000e-01,8.50531847896737e-01,8.50000000000000e-01
3.78233997138516e-08,0.00000000000000e+00,8.50000000000000e-01,8.49116564476939e-01,8.50000000000000e-01
4.02493571890635e-08,0.00000000000000e+00,8.50000000000000e-01,8.50618824749688e-01,8.50000000000000e-01
4.40493571890635e-08,0.00000000000000e+00,8.50000000000000e-01,8.49247578961467e-01,8.50000000000000e-01
4.50000000000000e-08,0.00000000000000e+00,8.50000000000000e-01,8.50568787446830e-01,8.50000000000000e-01
4.50100000000000e-08,8.49999999999839e-02,8.50000000000000e-01,8.50246310704506e-01,7.65000000000016e-01
4.50300000000000e-08,2.55000000000008e-01,8.50000000000000e-01,8.49966454653722e-01,5.94999999999992e-01
4.50700000000000e-08,5.95000000000000e-01,8.50000000000000e-01,8.54759843477698e-01,2.55000000000000e-01
4.51000000000000e-08,8.50000000000000e-01,8.50000000000000e-01,8.64946062581251e-01,0.00000000000000e+00
4.51080000000000e-08,8.50000000000000e-01,8.50000000000000e-01,8.68278996523414e-01,0.00000000000000e+00
4.51240000000000e-08,8.50000000000000e-01,8.50000000000000e-01,8.75068730630118e-01,0.00000000000000e+00
4.51560000000000e-08,8.50000000000000e-01,8.50000000000000e-01,8.78418605666735e-01,0.00000000000000e+00
4.52200000000000e-08,8.50000000000000e-01,8.50000000000000e-01,7.36014987623117e-01,0.00000000000000e+00
4.53480000000000e-08,8.50000000000000e-01,8.50000000000000e-01,2.74848064972268e-01,0.00000000000000e+00
4.55737076556751e-08,8.50000000000000e-01,8.50000000000000e-01,-1.39797010230372e-02,0.00000000000000e+00
4.58979267969058e-08,8.50000000000000e-01,8.50000000000000e-01,6.31494724666948e-03,0.00000000000000e+00
4.65394331280826e-08,8.50000000000000e-01,8.50000000000000e-01,-4.42286820652199e-03,0.00000000000000e+00
4.72501607068411e-08,8.50000000000000e-01,8.50000000000000e-01,3.47016826200406e-03,0.00000000000000e+00
4.86716158643580e-08,8.50000000000000e-01,8.50000000000000e-01,-3.01220303277000e-03,0.00000000000000e+00
5.01000000000000e-08,8.50000000000000e-01,8.49999999999951e-01,2.77441232779270e-03,0.00000000000000e+00
5.03842910315034e-08,8.50000000000000e-01,8.50000000000000e-01,3.34959398795666e-04,0.00000000000000e+00
5.09528730945102e-08,8.50000000000000e-01,8.50000000000000e-01,-1.73202038048745e-04,0.00000000000000e+00
5.20900372205237e-08,8.50000000000000e-01,8.50000000000000e-01,1.91806265406115e-04,0.00000000000000e+00
5.43643654725509e-08,8.50000000000000e-01,8.50000000000000e-01,-1.22929537927124e-04,0.00000000000000e+00
5.51000000000000e-08,8.50000000000000e-01,8.50000000000000e-01,1.37804896892085e-04,0.00000000000000e+00
5.51100000000000e-08,7.65000000000030e-01,8.50000000000000e-01,2.75114177599955e-04,8.49999999999698e-02
5.51300000000000e-08,5.95000000000006e-01,8.50000000000000e-01,3.66333156688284e-04,2.54999999999994e-01
5.51700000000000e-08,2.55000000000014e-01,8.50000000000000e-01,3.81131626292303e-04,5.94999999999986e-01
5.52000000000000e-08,0.00000000000000e+00,8.50000000000000e-01,4.78996081347521e-04,8.50000000000000e-01
5.52080000000000e-08,0.00000000000000e+00,8.50000000000000e-01,4.26471656531563e-04,8.50000000000000e-01
5.52240000000000e-08,0.00000000000000e+00,8.50000000000000e-01,2.17063828016145e-04,8.50000000000000e-01
5.52560000000000e-08,0.00000000000000e+00,8.50000000000000e-01,-7.41215837712764e-04,8.50000000000000e-01
5.53200000000000e-08,0.00000000000000e+00,8.50000000000000e-01,-1.87866875996617e-03,8.50000000000000e-01
5.54480000000000e-08,0.00000000000000e+00,8.50000000000000e-01,-8.35468380005040e-04,8.50000000000000e-01
5.56580179419022e-08,0.00000000000000e+00,8.50000000000000e-01,2.91963306891893e-04,8.50000000000000e-01
5.59805624376061e-08,0.00000000000000e+00,8.50000000000000e-01,-3.10016554574428e-04,8.50000000000000e-01
5.63952853497665e-08,0.00000000000000e+00,8.50000000000000e-01,3.38872488766347e-04,8.50000000000000e-01
5.72024843576653e-08,0.00000000000000e+00,8.50000000000000e-01,-2.15163390538899e-04,8.50000000000000e-01
5.81089289162902e-08,0.00000000000000e+00,8.50000000000000e-01,2.18351623216448e-04,8.50000000000000e-01
5.99218180335398e-08,0.00000000000000e+00,8.50000000000000e-01,-1.41988203195224e-04,8.50000000000000e-01
6.27497624008535e-08,0.00000000000000e+00,8.50000000000000e-01,1.82025505029850e-04,8.50000000000000e-01
6.50000000000000e-08,0.00000000000000e+00,8.50000000000000e-01,-1.13208051956145e-04,8.50000000000000e-01
6.50100000000000e-08,8.49999999999839e-02,8.50000000000000e-01,8.28655042788007e-06,8.50000000000000e-01
6.50300000000000e-08,2.54999999999952e-01,8.50000000000000e-01,2.12864017291536e-04,8.50000000000000e-01
6.50700000000000e-08,5.94999999999887e-01,8.50000000000000e-01,4.90226148050055e-04,8.50000000000000e-01
6.51000000000000e-08,8.49999999999951e-01,8.50000000000000e-01,-3.85366398442111e-06,8.50000000000000e-01
6.51080000000000e-08,8.50000000000000e-01,8.50000000000000e-01,-4.60677096734835e-04,8.50000000000000e-01
6.51240000000000e-08,8.50000000000000e-01,8.50000000000000e-01,-1.47802432886664e-03,8.50000000000000e-01
6.51560000000000e-08,8.50000000000000e-01,8.50000000000000e-01,-3.58144187799485e-03,8.50000000000000e-01
6.52200000000000e-08,8.50000000000000e-01,8.50000000000000e-01,-4.74681308346558e-03,8.50000000000000e-01
6.53480000000000e-08,8.50000000000000e-01,8.50000000000000e-01,1.05697206848758e-01,8.50000000000000e-01
6.56040000000000e-08,8.50000000000000e-01,8.50000000000000e-01,7.64946220295372e-01,8.50000000000000e-01
6.61159999999999e-08,8.50000000000000e-01,8.50000000000000e-01,8.72087469190260e-01,8.50000000000000e-01
6.65801288675875e-08,8.50000000000000e-01,8.50000000000000e-01,8.28946401503667e-01,8.50000000000000e-01
6.75083866027625e-08,8.50000000000000e-01,8.50000000000000e-01,8.69351964789636e-01,8.50000000000000e-01
6.88844045756332e-08,8.50000000000000e-01,8.50000000000000e-01,8.30405081618254e-01,8.50000000000000e-01
7.14102956273284e-08,8.50000000000000e-01,8.50000000000000e-01,8.68562506149096e-01,8.50000000000000e-01
7.51000000000000e-08,8.50000000000000e-01,8.50000000000000e-01,8.30939571844369e-01,8.50000000000000e-01
7.51100000000000e-08,7.65000000000086e-01,8.50000000000000e-01,8.40428497110616e-01,8.50000000000000e-01
7.51300000000000e-08,5.95000000000119e-01,8.50000000000000e-01,8.49915003192515e-01,8.50000000000000e-01
7.51700000000000e-08,2.55000000000183e-01,8.50000000000000e-01,8.51459750362277e-01,8.50000000000000e-01
7.52000000000000e-08,1.19015908239817e-13,8.50000000000000e-01,8.53214678109707e-01,8.50000000000000e-01
7.52080000000000e-08,0.00000000000000e+00,8.50000000000000e-01,8.52587139701358e-01,8.50000000000000e-01
7.52240000000000e-08,0.00000000000000e+00,8.50000000000000e-01,8.48892398526037e-01,8.50000000000000e-01
7.52560000000000e-08,0.00000000000000e+00,8.50000000000000e-01,8.34037968421501e-01,8.50000000000000e-01
7.53200000000000e-08,0.00000000000000e+00,8.50000000000000e-01,8.21974170102531e-01,8.50000000000000e-01
7.54480000000000e-08,0.00000000000000e+00,8.50000000000000e-01,8.45538850374639e-01,8.50000000000000e-01
7.57006846607906e-08,0.00000000000000e+00,8.50000000000000e-01,8.50499933927041e-01,8.50000000000000e-01
7.60039327896161e-08,0.00000000000000e+00,8.50000000000000e-01,8.48577093179948e-01,8.50000000000000e-01
7.66104290472671e-08,0.00000000000000e+00,8.50000000000000e-01,8.50531758028179e-01,8.50000000000000e-01
7.78234215625692e-08,0.00000000000000e+00,8.50000000000000e-01,8.49116653311078e-01,8.50000000000000e-01
8.02494065931733e-08,0.00000000000000e+00,8.50000000000000e-01,8.50618738175564e-01,8.50000000000000e-01
8.40494065931732e-08,0.00000000000000e+00,8.50000000000000e-01,8.49247665478871e-01,8.50000000000000e-01
8.50000000000000e-08,0.00000000000000e+00,8.50000000000000e-01,8.50568701193664e-01,8.50000000000000e-01
8.50100000000000e-08,8.49999999999839e-02,8.50000000000000e-01,8.50246281179535e-01,7.65000000000016e-01
8.50300000000000e-08,2.54999999999952e-01,8.50000000000000e-01,8.49966470317951e-01,5.95000000000048e-01
8.50700000000000e-08,5.94999999999887e-01,8.50000000000000e-01,8.54759846851856e-01,2.55000000000113e-01
8.51000000000000e-08,8.49999999999951e-01,8.50000000000000e-01,8.64946058901543e-01,4.87387907810444e-14
8.51080000000000e-08,8.50000000000000e-01,8.50000000000000e-01,8.68278994292149e-01,0.00000000000000e+00
8.51240000000000e-08,8.50000000000000e-01,8.50000000000000e-01,8.75068729284843e-01,0.00000000000000e+00
8.51560000000000e-08,8.50000000000000e-01,8.50000000000000e-01,8.78418570432967e-01,0.00000000000000e+00
8.52200000000000e-08,8.50000000000000e-01,8.50000000000000e-01,7.36014918825873e-01,0.00000000000000e+00
8.53480000000000e-08,8.50000000000000e-01,8.50000000000000e-01,2.74848087286522e-01,0.00000000000000e+00
8.55737074794347e-08,8.50000000000000e-01,8.50000000000000e-01,-1.39795860896779e-02,0.00000000000000e+00
8.58979271196870e-08,8.50000000000000e-01,8.50000000000000e-01,6.31491468554042e-03,0.00000000000000e+00
8.65393023981557e-08,8.50000000000000e-01,8.50000000000000e-01,-4.42254912859675e-03,0.00000000000000e+00
8.72500629079199e-08,8.50000000000000e-01,8.50000000000000e-01,3.46999515524604e-03,0.00000000000000e+00
8.86715839274485e-08,8.50000000000000e-01,8.50000000000000e-01,-3.01207645650518e-03,0.00000000000000e+00
9.01000000000000e-08,8.50000000000000e-01,8.49999999999951e-01,2.77431505961412e-03,0.00000000000000e+00
9.03843042039057e-08,8.50000000000000e-01,8.50000000000000e-01,3.34928208690990e-04,0.00000000000000e+00
9.09529126117171e-08,8.50000000000000e-01,8.50000000000000e-01,-1.73187142909217e-04,0.00000000000000e+00
9.20901294273399e-08,8.50000000000000e-01,8.50000000000000e-01,1.91795379447425e-04,0.00000000000000e+00
9.43645630585856e-08,8.50000000000000e-01,8.50000000000000e-01,-1.22920462984694e-04,0.00000000000000e+00
9.51000000000000e-08,8.50000000000000e-01,8.50000000000000e-01,1.37789726475252e-04,0.00000000000000e+00
9.51100000000000e-08,7.65000000000086e-01,8.50000000000000e-01,2.75103243191951e-04,8.49999999999136e-02
9.51300000000000e-08,5.95000000000119e-01,8.50000000000000e-01,3.66325599920073e-04,2.54999999999881e-01
9.51700000000000e-08,2.55000000000183e-01,8.50000000000000e-01,3.81127210231078e-04,5.94999999999817e-01
9.52000000000000e-08,1.19015908239817e-13,8.50000000000000e-01,4.78992918337792e-04,8.49999999999881e-01
9.52080000000000e-08,0.00000000000000e+00,8.50000000000000e-01,4.26468385718998e-04,8.50000000000000e-01
9.52240000000000e-08,0.00000000000000e+00,8.50000000000000e-01,2.17059640812117e-04,8.50000000000000e-01
9.52560000000000e-08,0.00000000000000e+00,8.50000000000000e-01,-7.41224975608371e-04,8.50000000000000e-01
9.53200000000000e-08,0.00000000000000e+00,8.50000000000000e-01,-1.87868256334336e-03,8.50000000000000e-01
9.54480000000000e-08,0.00000000000000e+00,8.50000000000000e-01,-8.35476247368253e-04,8.50000000000000e-01
9.56580171851337e-08,0.00000000000000e+00,8.50000000000000e-01,2.91967612680598e-04,8.50000000000000e-01
9.59805620340694e-08,0.00000000000000e+00,8.50000000000000e-01,-3.10021564690253e-04,8.50000000000000e-01
9.63952837974012e-08,0.00000000000000e+00,8.50000000000000e-01,3.38874370679788e-04,8.50000000000000e-01
9.72024845805774e-08,0.00000000000000e+00,8.50000000000000e-01,-2.15163862486652e-04,8.50000000000000e-01
9.81089247739645e-08,0.00000000000000e+00,8.50000000000000e-01,2.18351034409476e-04,8.50000000000000e-01
9.99218051607389e-08,0.00000000000000e+00,8.50000000000000e-01,-1.41987244945982e-04,8.50000000000000e-01
1.02749742166858e-07,0.00000000000000e+00,8.50000000000000e-01,1.82024383598974e-04,8.50000000000000e-01
1.05000000000000e-07,0.00000000000000e+00,8.50000000000000e-01,-1.13206932818640e-04,8.50000000000000e-01
1.05010000000000e-07,8.49999999999839e-02,8.50000000000000e-01,8.28709155539786e-06,8.50000000000000e-01
1.05030000000000e-07,2.54999999999952e-01,8.50000000000000e-01,2.12863734530985e-04,8.50000000000000e-01
1.05070000000000e-07,5.94999999999887e-01,8.50000000000000e-01,4.90225645707720e-04,8.50000000000000e-01
1.05100000000000e-07,8.49999999999951e-01,8.50000000000000e-01,-3.85393792530497e-06,8.50000000000000e-01
1.05108000000000e-07,8.50000000000000e-01,8.50000000000000e-01,-4.60677329976886e-04,8.50000000000000e-01
1.05124000000000e-07,8.50000000000000e-01,8.50000000000000e-01,-1.47802446799265e-03,8.50000000000000e-01
1.05156000000000e-07,8.50000000000000e-01,8.50000000000000e-01,-3.58144194300943e-03,8.50000000000000e-01
1.05220000000000e-07,8.50000000000000e-01,8.50000000000000e-01,-4.74681358637323e-03,8.50000000000000e-01
1.05348000000000e-07,8.50000000000000e-01,8.50000000000000e-01,1.05697196038934e-01,8.50000000000000e-01
1.05604000000000e-07,8.50000000000000e-01,8.50000000000000e-01,7.64946214317842e-01,8.50000000000000e-01
1.06116000000000e-07,8.50000000000000e-01,8.50000000000000e-01,8.72087470266381e-01,8.50000000000000e-01
1.06580128862448e-07,8.50000000000000e-01,8.50000000000000e-01,8.28946400521985e-01,8.50000000000000e-01
1.07508386587344e-07,8.50000000000000e-01,8.50000000000000e-01,8.69351965674439e-01,8.50000000000000e-01
1.08884404567120e-07,8.50000000000000e-01,8.50000000000000e-01,8.30405080707432e-01,8.50000000000000e-01
1.11410295579509e-07,8.50000000000000e-01,8.50000000000000e-01,8.68562506993966e-01,8.50000000000000e-01
1.15100000000000e-07,8.50000000000000e-01,8.50000000000000e-01,8.30939570959125e-01,8.50000000000000e-01
1.15110000000000e-07,7.65000000000086e-01,8.50000000000000e-01,8.40428496669228e-01,8.50000000000000e-01
1.15130000000000e-07,5.95000000000119e-01,8.50000000000000e-01,8.49915003194232e-01,8.50000000000000e-01
1.15170000000000e-07,2.55000000000183e-01,8.50000000000000e-01,8.51459750362862e-01,8.50000000000000e-01
