Time,v(clk),v(data),v(out),v(reset)
1.00000000000000e-08,8.50000000000000e-01,0.00000000000000e+00,3.06653516794764e-06,0.00000000000000e+00
1.00100000000000e-08,8.50000000000000e-01,8.49999999999979e-02,2.75631020497935e-06,0.00000000000000e+00
1.00300000000000e-08,8.50000000000000e-01,2.54999999999994e-01,9.67645703293940e-07,0.00000000000000e+00
1.00700000000000e-08,8.50000000000000e-01,5.94999999999986e-01,8.83502690555982e-07,0.00000000000000e+00
1.01000000000000e-08,8.50000000000000e-01,8.49999999999994e-01,2.17160439335007e-06,0.00000000000000e+00
1.01080000000000e-08,8.50000000000000e-01,8.50000000000000e-01,2.60325225459601e-06,0.00000000000000e+00
1.01240000000000e-08,8.50000000000000e-01,8.50000000000000e-01,3.53574090600217e-06,0.00000000000000e+00
1.01560000000000e-08,8.50000000000000e-01,8.50000000000000e-01,3.56633827484909e-06,0.00000000000000e+00
1.02200000000000e-08,8.50000000000000e-01,8.50000000000000e-01,2.05257024712968e-06,0.00000000000000e+00
1.03480000000000e-08,8.50000000000000e-01,8.50000000000000e-01,2.63880544770084e-06,0.00000000000000e+00
1.06040000000000e-08,8.50000000000000e-01,8.50000000000000e-01,1.83950865315086e-06,0.00000000000000e+00
1.11160000000000e-08,8.50000000000000e-01,8.50000000000000e-01,2.81894270940351e-06,0.00000000000000e+00
1.21400000000000e-08,8.50000000000000e-01,8.50000000000000e-01,1.61466401293713e-06,0.00000000000000e+00
1.41880000000000e-08,8.50000000000000e-01,8.50000000000000e-01,2.19033056324909e-06,0.00000000000000e+00
1.51000000000000e-08,8.50000000000000e-01,8.50000000000000e-01,1.27880377026254e-06,0.00000000000000e+00
1.51100000000000e-08,7.64999999999988e-01,8.50000000000000e-01,1.64778038369756e-04,8.50000000000120e-02
1.51300000000000e-08,5.94999999999992e-01,8.50000000000000e-01,2.45644420721641e-04,2.55000000000008e-01
1.51700000000000e-08,2.55000000000000e-01,8.50000000000000e-01,1.56738359356159e-04,5.95000000000000e-01
1.52000000000000e-08,0.00000000000000e+00,8.50000000000000e-01,1.86142287505450e-04,8.50000000000000e-01
1.52080000000000e-08,0.00000000000000e+00,8.50000000000000e-01,1.56433702787798e-04,8.50000000000000e-01
1.52240000000000e-08,0.00000000000000e+00,8.50000000000000e-01,8.43533483644854e-05,8.50000000000000e-01
1.52560000000000e-08,0.00000000000000e+00,8.50000000000000e-01,-6.16687492676557e-05,8.50000000000000e-01
1.53200000000000e-08,0.00000000000000e+00,8.50000000000000e-01,-2.99752153983257e-04,8.50000000000000e-01
1.54480000000000e-08,0.00000000000000e+00,8.50000000000000e-01,-1.33183631832422e-04,8.50000000000000e-01
1.56968693829017e-08,0.00000000000000e+00,8.50000000000000e-01,-2.84526128656211e-05,8.50000000000000e-01
1.59654610940331e-08,0.00000000000000e+00,8.50000000000000e-01,2.20054883860982e-04,8.50000000000000e-01
1.65026445162957e-08,0.00000000000000e+00,8.50000000000000e-01,-1.93714269743350e-04,8.50000000000000e-01
1.70499389915422e-08,0.00000000000000e+00,8.50000000000000e-01,1.69481265164315e-04,8.50000000000000e-01
1.81445279420352e-08,0.00000000000000e+00,8.50000000000000e-01,-1.54134808250820e-04,8.50000000000000e-01
2.00031763429103e-08,0.00000000000000e+00,8.50000000000000e-01,1.47642744444015e-04,8.50000000000000e-01
2.29218189620507e-08,0.00000000000000e+00,8.50000000000000e-01,-1.41213975786631e-04,8.50000000000000e-01
2.50000000000000e-08,0.00000000000000e+00,8.50000000000000e-01,1.35660064079403e-04,8.50000000000000e-01
2.50100000000000e-08,8.49999999999839e-02,8.50000000000000e-01,2.35651365203413e-04,8.50000000000000e-01
2.50300000000000e-08,2.55000000000008e-01,8.50000000000000e-01,3.35843325045951e-04,8.50000000000000e-01
2.50700000000000e-08,5.95000000000000e-01,8.50000000000000e-01,-7.19684976885210e-05,8.50000000000000e-01
2.51000000000000e-08,8.50000000000000e-01,8.50000000000000e-01,-2.68682164521464e-03,8.50000000000000e-01
2.51080000000000e-08,8.50000000000000e-01,8.50000000000000e-01,-3.80983438439311e-03,8.50000000000000e-01
2.51240000000000e-08,8.50000000000000e-01,8.50000000000000e-01,-5.71963075881911e-03,8.50000000000000e-01
2.51560000000000e-08,8.50000000000000e-01,8.50000000000000e-01,-4.43313522235561e-03,8.50000000000000e-01
2.52200000000000e-08,8.50000000000000e-01,8.50000000000000e-01,1.10458146939333e-01,8.50000000000000e-01
2.53480000000000e-08,8.50000000000000e-01,8.50000000000000e-01,6.96305815914916e-01,8.50000000000000e-01
2.56040000000000e-08,8.50000000000000e-01,8.50000000000000e-01,8.82924490090959e-01,8.50000000000000e-01
2.58689949510566e-08,8.50000000000000e-01,8.50000000000000e-01,8.20518693044316e-01,8.50000000000000e-01
2.63989848531699e-08,8.50000000000000e-01,8.50000000000000e-01,8.76061685958673e-01,8.50000000000000e-01
2.71037667179800e-08,8.50000000000000e-01,8.50000000000000e-01,8.24355186161600e-01,8.50000000000000e-01
2.85133304476002e-08,8.50000000000000e-01,8.50000000000000e-01,8.73887502193908e-01,8.50000000000000e-01
3.10829509348757e-08,8.50000000000000e-01,8.50000000000000e-01,8.25542576918087e-01,8.50000000000000e-01
3.48829509348757e-08,8.50000000000000e-01,8.50000000000000e-01,8.73269741720781e-01,8.50000000000000e-01
3.51000000000000e-08,8.49999999999958e-01,8.50000000000000e-01,8.30102405945073e-01,8.50000000000000e-01
3.51100000000000e-08,7.64999999999974e-01,8.50000000000000e-01,8.39659246335464e-01,8.50000000000000e-01
3.51300000000000e-08,5.94999999999950e-01,8.50000000000000e-01,8.49560686174315e-01,8.50000000000000e-01
3.51700000000000e-08,2.54999999999958e-01,8.50000000000000e-01,8.51325252432540e-01,8.50000000000000e-01
3.52000000000000e-08,0.00000000000000e+00,8.50000000000000e-01,8.52808469088073e-01,8.50000000000000e-01
3.52080000000000e-08,0.00000000000000e+00,8.50000000000000e-01,8.52155930562152e-01,8.50000000000000e-01
3.52240000000000e-08,0.00000000000000e+00,8.50000000000000e-01,8.47934516665794e-01,8.50000000000000e-01
3.52560000000000e-08,0.00000000000000e+00,8.50000000000000e-01,8.30740442251100e-01,8.50000000000000e-01
3.53200000000000e-08,0.00000000000000e+00,8.50000000000000e-01,8.16542139705296e-01,8.50000000000000e-01
3.54480000000000e-08,0.00000000000000e+00,8.50000000000000e-01,8.44814364329581e-01,8.50000000000000e-01
3.57040000000000e-08,0.00000000000000e+00,8.50000000000000e-01,8.51664659505606e-01,8.50000000000000e-01
3.59987691290341e-08,0.00000000000000e+00,8.50000000000000e-01,8.48131570746688e-01,8.50000000000000e-01
3.65883073871022e-08,0.00000000000000e+00,8.50000000000000e-01,8.51045953301792e-01,8.50000000000000e-01
3.77673839032385e-08,0.00000000000000e+00,8.50000000000000e-01,8.48733258327571e-01,8.50000000000000e-01
4.01255369355111e-08,0.00000000000000e+00,8.50000000000000e-01,8.51016591436859e-01,8.50000000000000e-01
4.39255369355111e-08,0.00000000000000e+00,8.50000000000000e-01,8.48886636438046e-01,8.50000000000000e-01
4.50000000000000e-08,0.00000000000000e+00,8.50000000000000e-01,8.50919221407929e-01,8.50000000000000e-01
4.50100000000000e-08,8.49999999999839e-02,8.50000000000000e-01,8.50501888390468e-01,7.65000000000016e-01
4.50300000000000e-08,2.55000000000008e-01,8.50000000000000e-01,8.49993525275619e-01,5.94999999999992e-01
4.50700000000000e-08,5.95000000000000e-01,8.50000000000000e-01,8.53746370959699e-01,2.55000000000000e-01
4.51000000000000e-08,8.50000000000000e-01,8.50000000000000e-01,8.62123608091044e-01,0.00000000000000e+00
4.51080000000000e-08,8.50000000000000e-01,8.50000000000000e-01,8.64772195321555e-01,0.00000000000000e+00
4.51240000000000e-08,8.50000000000000e-01,8.50000000000000e-01,8.69892787309627e-01,0.00000000000000e+00
4.51560000000000e-08,8.50000000000000e-01,8.50000000000000e-01,8.56783255662224e-01,0.00000000000000e+00
4.52200000000000e-08,8.50000000000000e-01,8.50000000000000e-01,5.35361215710289e-01,0.00000000000000e+00
4.53480000000000e-08,8.50000000000000e-01,8.50000000000000e-01,6.06348869574476e-03,0.00000000000000e+00
4.55238108315718e-08,8.50000000000000e-01,8.50000000000000e-01,-2.09892398306952e-03,0.00000000000000e+00
4.58395965273138e-08,8.50000000000000e-01,8.50000000000000e-01,7.15493999085649e-04,0.00000000000000e+00
4.61865887783816e-08,8.50000000000000e-01,8.50000000000000e-01,-1.00288281107405e-04,0.00000000000000e+00
4.68805732805174e-08,8.50000000000000e-01,8.50000000000000e-01,-1.91793803621282e-04,0.00000000000000e+00
4.82685422847889e-08,8.50000000000000e-01,8.50000000000000e-01,2.30665634172169e-04,0.00000000000000e+00
5.01000000000000e-08,8.50000000000000e-01,8.49999999999951e-01,-3.88826585725897e-04,0.00000000000000e+00
5.03775938008543e-08,8.50000000000000e-01,8.50000000000000e-01,1.19954683115117e-04,0.00000000000000e+00
5.09327814025629e-08,8.50000000000000e-01,8.50000000000000e-01,-9.15019093821121e-05,0.00000000000000e+00
5.20431566059801e-08,8.50000000000000e-01,8.50000000000000e-01,8.19071528440933e-05,0.00000000000000e+00
5.42639070128144e-08,8.50000000000000e-01,8.50000000000000e-01,-7.53010014186736e-05,0.00000000000000e+00
5.51000000000000e-08,8.50000000000000e-01,8.50000000000000e-01,6.46263815878879e-05,0.00000000000000e+00
5.51100000000000e-08,7.65000000000030e-01,8.50000000000000e-01,2.28032483329477e-04,8.49999999999698e-02
5.51300000000000e-08,5.95000000000006e-01,8.50000000000000e-01,2.78911414963917e-04,2.54999999999994e-01
5.51700000000000e-08,2.55000000000014e-01,8.50000000000000e-01,1.55672594474909e-04,5.94999999999986e-01
5.52000000000000e-08,0.00000000000000e+00,8.50000000000000e-01,1.69496149540357e-04,8.50000000000000e-01
5.52080000000000e-08,0.00000000000000e+00,8.50000000000000e-01,1.10193314677445e-04,8.50000000000000e-01
5.52240000000000e-08,0.00000000000000e+00,8.50000000000000e-01,-1.31991233434353e-04,8.50000000000000e-01
5.52560000000000e-08,0.00000000000000e+00,8.50000000000000e-01,-1.04992386636268e-03,8.50000000000000e-01
5.53200000000000e-08,0.00000000000000e+00,8.50000000000000e-01,-1.16349438023173e-03,8.50000000000000e-01
5.54462082734218e-08,0.00000000000000e+00,8.50000000000000e-01,3.66937120596152e-04,8.50000000000000e-01
5.56564044863803e-08,0.00000000000000e+00,8.50000000000000e-01,-3.86141571166124e-04,8.50000000000000e-01
5.59363068541173e-08,0.00000000000000e+00,8.50000000000000e-01,2.86828391356320e-04,8.50000000000000e-01
5.64961115895914e-08,0.00000000000000e+00,8.50000000000000e-01,-1.80757817681794e-04,8.50000000000000e-01
5.70138155354043e-08,0.00000000000000e+00,8.50000000000000e-01,1.03020588024980e-04,8.50000000000000e-01
5.80492234270300e-08,0.00000000000000e+00,8.50000000000000e-01,-7.03955750239668e-05,8.50000000000000e-01
6.01200392102815e-08,0.00000000000000e+00,8.50000000000000e-01,5.84152829375662e-05,8.50000000000000e-01
6.32082058195870e-08,0.00000000000000e+00,8.50000000000000e-01,-4.84309243993163e-05,8.50000000000000e-01
6.50000000000000e-08,0.00000000000000e+00,8.50000000000000e-01,3.64651409439885e-05,8.50000000000000e-01
6.50100000000000e-08,8.49999999999839e-02,8.50000000000000e-01,1.76656873378783e-04,8.50000000000000e-01
6.50300000000000e-08,2.54999999999952e-01,8.50000000000000e-01,3.46486808025230e-04,8.50000000000000e-01
6.50700000000000e-08,5.94999999999887e-01,8.50000000000000e-01,-4.98706101610749e-05,8.50000000000000e-01
6.51000000000000e-08,8.49999999999951e-01,8.50000000000000e-01,-2.69099151222046e-03,8.50000000000000e-01
6.51080000000000e-08,8.50000000000000e-01,8.50000000000000e-01,-3.81262624298775e-03,8.50000000000000e-01
6.51240000000000e-08,8.50000000000000e-01,8.50000000000000e-01,-5.71186545096816e-03,8.50000000000000e-01
6.51560000000000e-08,8.50000000000000e-01,8.50000000000000e-01,-4.34274562053276e-03,8.50000000000000e-01
6.52200000000000e-08,8.50000000000000e-01,8.50000000000000e-01,1.11494562758498e-01,8.50000000000000e-01
6.53480000000000e-08,8.50000000000000e-01,8.50000000000000e-01,6.97300493631941e-01,8.50000000000000e-01
6.56040000000000e-08,8.50000000000000e-01,8.50000000000000e-01,8.82802763050330e-01,8.50000000000000e-01
6.58692585795434e-08,8.50000000000000e-01,8.50000000000000e-01,8.20620369756515e-01,8.50000000000000e-01
6.63997757386301e-08,8.50000000000000e-01,8.50000000000000e-01,8.75973223417893e-01,8.50000000000000e-01
6.71039980514575e-08,8.50000000000000e-01,8.50000000000000e-01,8.24444301563310e-01,8.50000000000000e-01
6.85124426771121e-08,8.50000000000000e-01,8.50000000000000e-01,8.73804489750213e-01,8.50000000000000e-01
7.10865360836635e-08,8.50000000000000e-01,8.50000000000000e-01,8.25627582380117e-01,8.50000000000000e-01
7.48865360836635e-08,8.50000000000000e-01,8.50000000000000e-01,8.73189430495664e-01,8.50000000000000e-01
7.51000000000000e-08,8.50000000000000e-01,8.50000000000000e-01,8.30236869519806e-01,8.50000000000000e-01
7.51100000000000e-08,7.65000000000086e-01,8.50000000000000e-01,8.39728078990719e-01,8.50000000000000e-01
7.51300000000000e-08,5.95000000000119e-01,8.50000000000000e-01,8.49562267700086e-01,8.50000000000000e-01
7.51700000000000e-08,2.55000000000183e-01,8.50000000000000e-01,8.51324477640949e-01,8.50000000000000e-01
7.52000000000000e-08,1.19015908239817e-13,8.50000000000000e-01,8.52809871247190e-01,8.50000000000000e-01
7.52080000000000e-08,0.00000000000000e+00,8.50000000000000e-01,8.52158683739290e-01,8.50000000000000e-01
7.52240000000000e-08,0.00000000000000e+00,8.50000000000000e-01,8.47939931943585e-01,8.50000000000000e-01
7.52560000000000e-08,0.00000000000000e+00,8.50000000000000e-01,8.30747826235792e-01,8.50000000000000e-01
7.53200000000000e-08,0.00000000000000e+00,8.50000000000000e-01,8.16542945131231e-01,8.50000000000000e-01
7.54480000000000e-08,0.00000000000000e+00,8.50000000000000e-01,8.44813045955742e-01,8.50000000000000e-01
7.57040000000000e-08,0.00000000000000e+00,8.50000000000000e-01,8.51665638945023e-01,8.50000000000000e-01
7.59987691645885e-08,0.00000000000000e+00,8.50000000000000e-01,8.48130868058271e-01,8.50000000000000e-01
7.65883074937656e-08,0.00000000000000e+00,8.50000000000000e-01,8.51046570465241e-01,8.50000000000000e-01
7.77673841521198e-08,0.00000000000000e+00,8.50000000000000e-01,8.48732684696869e-01,8.50000000000000e-01
8.01255374688281e-08,0.00000000000000e+00,8.50000000000000e-01,8.51017143110800e-01,8.50000000000000e-01
8.39255374688281e-08,0.00000000000000e+00,8.50000000000000e-01,8.48886094922874e-01,8.50000000000000e-01
8.50000000000000e-08,0.00000000000000e+00,8.50000000000000e-01,8.50919722775873e-01,8.50000000000000e-01
8.50100000000000e-08,8.49999999999839e-02,8.50000000000000e-01,8.50502213526903e-01,7.65000000000016e-01
8.50300000000000e-08,2.54999999999952e-01,8.50000000000000e-01,8.49993611001048e-01,5.95000000000048e-01
8.50700000000000e-08,5.94999999999887e-01,8.50000000000000e-01,8.53746366688051e-01,2.55000000000113e-01
8.51000000000000e-08,8.49999999999951e-01,8.50000000000000e-01,8.62123591283829e-01,4.87387907810444e-14
8.51080000000000e-08,8.50000000000000e-01,8.50000000000000e-01,8.64772172663574e-01,0.00000000000000e+00
8.51240000000000e-08,8.50000000000000e-01,8.50000000000000e-01,8.69892758825355e-01,0.00000000000000e+00
8.51560000000000e-08,8.50000000000000e-01,8.50000000000000e-01,8.56783608912100e-01,0.00000000000000e+00
8.52200000000000e-08,8.50000000000000e-01,8.50000000000000e-01,5.35362020434053e-01,0.00000000000000e+00
8.53480000000000e-08,8.50000000000000e-01,8.50000000000000e-01,6.06363209821992e-03,0.00000000000000e+00
8.55238106929299e-08,8.50000000000000e-01,8.50000000000000e-01,-2.09894519216453e-03,0.00000000000000e+00
8.58395987953761e-08,8.50000000000000e-01,8.50000000000000e-01,7.15489095445535e-04,0.00000000000000e+00
8.61865902756882e-08,8.50000000000000e-01,8.50000000000000e-01,-1.00269114029633e-04,0.00000000000000e+00
8.68805732363124e-08,8.50000000000000e-01,8.50000000000000e-01,-1.91816852536432e-04,0.00000000000000e+00
8.82685391575607e-08,8.50000000000000e-01,8.50000000000000e-01,2.30687542139302e-04,0.00000000000000e+00
9.01000000000000e-08,8.50000000000000e-01,8.49999999999951e-01,-3.88852389867099e-04,0.00000000000000e+00
9.03775931842497e-08,8.50000000000000e-01,8.50000000000000e-01,1.19956508383048e-04,0.00000000000000e+00
9.09327795527490e-08,8.50000000000000e-01,8.50000000000000e-01,-9.15031351257159e-05,0.00000000000000e+00
9.20431522897477e-08,8.50000000000000e-01,8.50000000000000e-01,8.19081419241238e-05,0.00000000000000e+00
9.42638977637450e-08,8.50000000000000e-01,8.50000000000000e-01,-7.53018789834371e-05,0.00000000000000e+00
9.51000000000000e-08,8.50000000000000e-01,8.50000000000000e-01,6.46271591934417e-05,0.00000000000000e+00
9.51100000000000e-08,7.65000000000086e-01,8.50000000000000e-01,2.28033850691950e-04,8.49999999999136e-02
9.51300000000000e-08,5.95000000000119e-01,8.50000000000000e-01,2.78912055815234e-04,2.54999999999881e-01
9.51700000000000e-08,2.55000000000183e-01,8.50000000000000e-01,1.55672749549460e-04,5.94999999999817e-01
9.52000000000000e-08,1.19015908239817e-13,8.50000000000000e-01,1.69495816975618e-04,8.49999999999881e-01
9.52080000000000e-08,0.00000000000000e+00,8.50000000000000e-01,1.10191882376265e-04,8.50000000000000e-01
9.52240000000000e-08,0.00000000000000e+00,8.50000000000000e-01,-1.31994812785141e-04,8.50000000000000e-01
9.52560000000000e-08,0.00000000000000e+00,8.50000000000000e-01,-1.04993607240204e-03,8.50000000000000e-01
9.53200000000000e-08,0.00000000000000e+00,8.50000000000000e-01,-1.16351023739192e-03,8.50000000000000e-01
9.54462126245447e-08,0.00000000000000e+00,8.50000000000000e-01,3.66963124951211e-04,8.50000000000000e-01
9.56564225128017e-08,0.00000000000000e+00,8.50000000000000e-01,-3.86164488139305e-04,8.50000000000000e-01
9.59363207085277e-08,0.00000000000000e+00,8.50000000000000e-01,2.86850702361671e-04,8.50000000000000e-01
9.64961170999796e-08,0.00000000000000e+00,8.50000000000000e-01,-1.80783835974687e-04,8.50000000000000e-01
9.70138336653234e-08,0.00000000000000e+00,8.50000000000000e-01,1.03045403574671e-04,8.50000000000000e-01
9.80492667960111e-08,0.00000000000000e+00,8.50000000000000e-01,-7.04190651107757e-05,8.50000000000000e-01
1.00120133057386e-07,0.00000000000000e+00,8.50000000000000e-01,5.84381104121925e-05,8.50000000000000e-01
1.03208067258108e-07,0.00000000000000e+00,8.50000000000000e-01,-4.84523723370785e-05,8.50000000000000e-01
1.05000000000000e-07,0.00000000000000e+00,8.50000000000000e-01,3.64864296112915e-05,8.50000000000000e-01
1.05010000000000e-07,8.49999999999839e-02,8.50000000000000e-01,1.76675123148437e-04,8.50000000000000e-01
1.05030000000000e-07,2.54999999999952e-01,8.50000000000000e-01,3.46498105065304e-04,8.50000000000000e-01
1.05070000000000e-07,5.94999999999887e-01,8.50000000000000e-01,-4.98724323081887e-05,8.50000000000000e-01
1.05100000000000e-07,8.49999999999951e-01,8.50000000000000e-01,-2.69099703605913e-03,8.50000000000000e-01
1.05108000000000e-07,8.50000000000000e-01,8.50000000000000e-01,-3.81263120289593e-03,8.50000000000000e-01
1.05124000000000e-07,8.50000000000000e-01,8.50000000000000e-01,-5.71186889135457e-03,8.50000000000000e-01
1.05156000000000e-07,8.50000000000000e-01,8.50000000000000e-01,-4.34273860469147e-03,8.50000000000000e-01
1.05220000000000e-07,8.50000000000000e-01,8.50000000000000e-01,1.11494660839079e-01,8.50000000000000e-01
1.05348000000000e-07,8.50000000000000e-01,8.50000000000000e-01,6.97300586961933e-01,8.50000000000000e-01
1.05604000000000e-07,8.50000000000000e-01,8.50000000000000e-01,8.82802751607828e-01,8.50000000000000e-01
1.05869258604925e-07,8.50000000000000e-01,8.50000000000000e-01,8.20620379318491e-01,8.50000000000000e-01
1.06399775814776e-07,8.50000000000000e-01,8.50000000000000e-01,8.75973215125617e-01,8.50000000000000e-01
1.07103998075024e-07,8.50000000000000e-01,8.50000000000000e-01,8.24444309936219e-01,8.50000000000000e-01
1.08512442595522e-07,8.50000000000000e-01,8.50000000000000e-01,8.73804481964595e-01,8.50000000000000e-01
1.11086536425511e-07,8.50000000000000e-01,8.50000000000000e-01,8.25627590349122e-01,8.50000000000000e-01
1.14886536425511e-07,8.50000000000000e-01,8.50000000000000e-01,8.73189422947841e-01,8.50000000000000e-01
1.15100000000000e-07,8.50000000000000e-01,8.50000000000000e-01,8.30236882317671e-01,8.50000000000000e-01
