Time,v(clk),v(data),v(out)
1.00000000000000e-08,8.50000000000000e-01,0.00000000000000e+00,1.49468715508749e-06
1.00100000000000e-08,8.50000000000000e-01,8.49999999999979e-02,1.78929005367756e-06
1.00300000000000e-08,8.50000000000000e-01,2.54999999999994e-01,4.17615699938034e-07
1.00700000000000e-08,8.50000000000000e-01,5.94999999999986e-01,-3.02016199994065e-06
1.01000000000000e-08,8.50000000000000e-01,8.49999999999994e-01,-6.62058857972547e-07
1.01080000000000e-08,8.50000000000000e-01,8.50000000000000e-01,4.52662251362868e-07
1.01240000000000e-08,8.50000000000000e-01,8.50000000000000e-01,2.85183491714747e-06
1.01560000000000e-08,8.50000000000000e-01,8.50000000000000e-01,5.07742481799939e-06
1.02200000000000e-08,8.50000000000000e-01,8.50000000000000e-01,3.48739216745469e-06
1.03480000000000e-08,8.50000000000000e-01,8.50000000000000e-01,4.45987837743855e-07
1.06040000000000e-08,8.50000000000000e-01,8.50000000000000e-01,3.16656313027394e-06
1.11160000000000e-08,8.50000000000000e-01,8.50000000000000e-01,1.07802722307260e-06
1.21400000000000e-08,8.50000000000000e-01,8.50000000000000e-01,2.63073790035453e-06
1.41880000000000e-08,8.50000000000000e-01,8.50000000000000e-01,8.38968351270231e-07
1.51000000000000e-08,8.50000000000000e-01,8.50000000000000e-01,2.21369375357459e-06
1.51100000000000e-08,7.64999999999988e-01,8.50000000000000e-01,-6.46171059166673e-05
1.51300000000000e-08,5.94999999999992e-01,8.50000000000000e-01,-1.50657670908882e-04
1.51700000000000e-08,2.55000000000000e-01,8.50000000000000e-01,3.36722348438789e-06
1.52000000000000e-08,0.00000000000000e+00,8.50000000000000e-01,3.03400927816652e-04
1.52080000000000e-08,0.00000000000000e+00,8.50000000000000e-01,3.89575505670037e-04
1.52240000000000e-08,0.00000000000000e+00,8.50000000000000e-01,3.99503757447003e-04
1.52560000000000e-08,0.00000000000000e+00,8.50000000000000e-01,7.65190997876128e-05
1.53200000000000e-08,0.00000000000000e+00,8.50000000000000e-01,-3.19639474514327e-04
1.54480000000000e-08,0.00000000000000e+00,8.50000000000000e-01,-2.06756002607188e-04
1.57040000000000e-08,0.00000000000000e+00,8.50000000000000e-01,7.78056813863538e-05
1.59677574461557e-08,0.00000000000000e+00,8.50000000000000e-01,1.83736791299745e-04
1.64952723384670e-08,0.00000000000000e+00,8.50000000000000e-01,-2.00430692971593e-04
1.70437657245658e-08,0.00000000000000e+00,8.50000000000000e-01,2.02252562316456e-04
1.81407524967633e-08,0.00000000000000e+00,8.50000000000000e-01,-1.96125894417045e-04
1.99060064265293e-08,0.00000000000000e+00,8.50000000000000e-01,1.93158175762148e-04
2.27275650146307e-08,0.00000000000000e+00,8.50000000000000e-01,-1.89054382599920e-04
2.50000000000000e-08,0.00000000000000e+00,8.50000000000000e-01,1.86116185464941e-04
2.50100000000000e-08,8.49999999999839e-02,8.50000000000000e-01,2.58696114247239e-04
2.50300000000000e-08,2.55000000000008e-01,8.50000000000000e-01,3.26503048456522e-04
2.50700000000000e-08,5.95000000000000e-01,8.50000000000000e-01,-8.97655927209612e-05
2.51000000000000e-08,8.50000000000000e-01,8.50000000000000e-01,-2.69998476352765e-03
2.51080000000000e-08,8.50000000000000e-01,8.50000000000000e-01,-3.82108403581449e-03
2.51240000000000e-08,8.50000000000000e-01,8.50000000000000e-01,-5.72750390870780e-03
2.51560000000000e-08,8.50000000000000e-01,8.50000000000000e-01,-4.43924287997637e-03
2.52200000000000e-08,8.50000000000000e-01,8.50000000000000e-01,1.10423079097041e-01
2.53480000000000e-08,8.50000000000000e-01,8.50000000000000e-01,6.96272157662906e-01
2.56040000000000e-08,8.50000000000000e-01,8.50000000000000e-01,8.82928607438824e-01
2.58689872516355e-08,8.50000000000000e-01,8.50000000000000e-01,8.20515235101443e-01
2.63989617549065e-08,8.50000000000000e-01,8.50000000000000e-01,8.76064705997188e-01
2.71037630399935e-08,8.50000000000000e-01,8.50000000000000e-01,8.24352144191574e-01
2.85133656101675e-08,8.50000000000000e-01,8.50000000000000e-01,8.73890337803533e-01
3.01000000000000e-08,8.50000000000000e-01,8.50000000000000e-01,8.25784497628173e-01
3.01100000000000e-08,8.50000000000000e-01,7.65000000000044e-01,8.37497288752567e-01
3.01300000000000e-08,8.50000000000000e-01,5.95000000000020e-01,8.49570345889364e-01
3.01700000000000e-08,8.50000000000000e-01,2.55000000000028e-01,8.50147186024255e-01
3.02000000000000e-08,8.50000000000000e-01,2.05391259555654e-14,8.49960724997443e-01
3.02080000000000e-08,8.50000000000000e-01,0.00000000000000e+00,8.49970441309745e-01
3.02240000000000e-08,8.50000000000000e-01,0.00000000000000e+00,8.49972144999266e-01
3.02560000000000e-08,8.50000000000000e-01,0.00000000000000e+00,8.49960280123405e-01
3.03200000000000e-08,8.50000000000000e-01,0.00000000000000e+00,8.49980709707648e-01
3.04480000000000e-08,8.50000000000000e-01,0.00000000000000e+00,8.49995271268109e-01
3.06718288626685e-08,8.50000000000000e-01,0.00000000000000e+00,8.49959540920153e-01
3.09428698226238e-08,8.50000000000000e-01,0.00000000000000e+00,8.49992858296746e-01
3.14849517425344e-08,8.50000000000000e-01,0.00000000000000e+00,8.49968167747938e-01
3.25691155823557e-08,8.50000000000000e-01,0.00000000000000e+00,8.49994202836021e-01
3.46917786405392e-08,8.50000000000000e-01,0.00000000000000e+00,8.49974963277814e-01
3.51000000000000e-08,8.49999999999958e-01,0.00000000000000e+00,8.49995269269584e-01
3.51100000000000e-08,7.64999999999974e-01,0.00000000000000e+00,8.49928330741302e-01
3.51300000000000e-08,5.94999999999950e-01,0.00000000000000e+00,8.49882977907526e-01
3.51700000000000e-08,2.54999999999958e-01,0.00000000000000e+00,8.51204149503178e-01
3.52000000000000e-08,0.00000000000000e+00,0.00000000000000e+00,8.52815661566376e-01
3.52080000000000e-08,0.00000000000000e+00,0.00000000000000e+00,8.52162309722305e-01
3.52240000000000e-08,0.00000000000000e+00,0.00000000000000e+00,8.47993017566481e-01
3.52560000000000e-08,0.00000000000000e+00,0.00000000000000e+00,8.31008401837715e-01
3.53200000000000e-08,0.00000000000000e+00,0.00000000000000e+00,8.16645138765967e-01
3.54480000000000e-08,0.00000000000000e+00,0.00000000000000e+00,8.44766112547526e-01
3.56249561597606e-08,0.00000000000000e+00,0.00000000000000e+00,8.51334616775919e-01
3.59377233941799e-08,0.00000000000000e+00,0.00000000000000e+00,8.48034984452079e-01
3.62817654668808e-08,0.00000000000000e+00,0.00000000000000e+00,8.50884437836650e-01
3.69698496122825e-08,0.00000000000000e+00,0.00000000000000e+00,8.48800518509952e-01
3.83460179030860e-08,0.00000000000000e+00,0.00000000000000e+00,8.50845669638098e-01
3.91000000000000e-08,0.00000000000000e+00,0.00000000000000e+00,8.49067487921172e-01
3.93752336581607e-08,0.00000000000000e+00,0.00000000000000e+00,8.49851921742210e-01
3.99257009744821e-08,0.00000000000000e+00,0.00000000000000e+00,8.49977286531880e-01
4.10266356071249e-08,0.00000000000000e+00,0.00000000000000e+00,8.49882006384346e-01
4.32285048724106e-08,0.00000000000000e+00,0.00000000000000e+00,8.49992336641950e-01
4.50000000000000e-08,0.00000000000000e+00,0.00000000000000e+00,8.49902431055778e-01
4.50100000000000e-08,8.49999999999839e-02,0.00000000000000e+00,8.49982254271079e-01
4.50300000000000e-08,2.55000000000008e-01,0.00000000000000e+00,8.50042006346286e-01
4.50700000000000e-08,5.95000000000000e-01,0.00000000000000e+00,8.49928642832559e-01
4.51000000000000e-08,8.50000000000000e-01,0.00000000000000e+00,8.49729762322672e-01
4.51080000000000e-08,8.50000000000000e-01,0.00000000000000e+00,8.49670009884730e-01
4.51240000000000e-08,8.50000000000000e-01,0.00000000000000e+00,8.49634381914914e-01
4.51560000000000e-08,8.50000000000000e-01,0.00000000000000e+00,8.50070760738375e-01
4.52200000000000e-08,8.50000000000000e-01,0.00000000000000e+00,8.55123355645372e-01
4.53480000000000e-08,8.50000000000000e-01,0.00000000000000e+00,6.04020933464306e-01
4.56040000000000e-08,8.50000000000000e-01,0.00000000000000e+00,-1.48012981784556e-02
4.58634465478207e-08,8.50000000000000e-01,0.00000000000000e+00,8.12270989728900e-03
4.63823396434621e-08,8.50000000000000e-01,0.00000000000000e+00,-4.40057078442502e-03
4.68897719303273e-08,8.50000000000000e-01,0.00000000000000e+00,3.04898325578001e-03
4.79046365040579e-08,8.50000000000000e-01,0.00000000000000e+00,-1.58843790232494e-03
4.99343656515190e-08,8.50000000000000e-01,0.00000000000000e+00,1.76083719408029e-03
5.00000000000000e-08,8.50000000000000e-01,0.00000000000000e+00,3.65650726585471e-03
5.00100000000000e-08,8.50000000000000e-01,8.49999999999839e-02,1.44737169277144e-03
5.00300000000000e-08,8.50000000000000e-01,2.54999999999952e-01,-1.68345851734822e-04
5.00700000000000e-08,8.50000000000000e-01,5.95000000000000e-01,1.79704697441420e-04
5.01000000000000e-08,8.50000000000000e-01,8.50000000000000e-01,-1.04066239348756e-04
5.01080000000000e-08,8.50000000000000e-01,8.50000000000000e-01,-2.33895039341431e-05
5.01240000000000e-08,8.50000000000000e-01,8.50000000000000e-01,1.61169936338385e-05
5.01560000000000e-08,8.50000000000000e-01,8.50000000000000e-01,-2.12952628122903e-05
5.02200000000000e-08,8.50000000000000e-01,8.50000000000000e-01,7.51225639881309e-06
5.03480000000000e-08,8.50000000000000e-01,8.50000000000000e-01,-6.59620444440345e-06
5.06040000000000e-08,8.50000000000000e-01,8.50000000000000e-01,7.51188979233874e-06
5.11160000000001e-08,8.50000000000000e-01,8.50000000000000e-01,-5.00676994508349e-06
5.21400000000002e-08,8.50000000000000e-01,8.50000000000000e-01,5.42625930470379e-06
5.41880000000003e-08,8.50000000000000e-01,8.50000000000000e-01,-4.93339761763753e-06
5.51000000000000e-08,8.50000000000000e-01,8.50000000000000e-01,5.43945225727448e-06
5.51100000000000e-08,7.65000000000030e-01,8.50000000000000e-01,-6.43374971025373e-05
5.51300000000000e-08,5.95000000000006e-01,8.50000000000000e-01,-1.49013858429484e-04
5.51700000000000e-08,2.55000000000014e-01,8.50000000000000e-01,9.54901812271619e-06
5.52000000000000e-08,0.00000000000000e+00,8.50000000000000e-01,2.73161746326196e-04
5.52080000000000e-08,0.00000000000000e+00,8.50000000000000e-01,3.21058372575816e-04
5.52240000000000e-08,0.00000000000000e+00,8.50000000000000e-01,1.53588942451946e-04
5.52560000000000e-08,0.00000000000000e+00,8.50000000000000e-01,-9.86725761046699e-04
5.53200000000000e-08,0.00000000000000e+00,8.50000000000000e-01,-1.28570342901011e-03
5.54480000000000e-08,0.00000000000000e+00,8.50000000000000e-01,5.53722102524974e-05
5.57040000000000e-08,0.00000000000000e+00,8.50000000000000e-01,-5.90947569483954e-05
5.59679129439858e-08,0.00000000000000e+00,8.50000000000000e-01,2.53378508621178e-04
5.64957388319575e-08,0.00000000000000e+00,8.50000000000000e-01,-2.50309033743753e-04
5.70444755912057e-08,0.00000000000000e+00,8.50000000000000e-01,2.38303297283225e-04
5.81419491097022e-08,0.00000000000000e+00,8.50000000000000e-01,-2.26900400224719e-04
5.99101173308842e-08,0.00000000000000e+00,8.50000000000000e-01,2.20957999226530e-04
6.27356292981803e-08,0.00000000000000e+00,8.50000000000000e-01,-2.15268795188833e-04
6.50000000000000e-08,0.00000000000000e+00,8.50000000000000e-01,2.10414812874018e-04
6.50100000000000e-08,8.49999999999839e-02,8.50000000000000e-01,2.71410857520707e-04
6.50300000000000e-08,2.54999999999952e-01,8.50000000000000e-01,3.37814828590730e-04
6.50700000000000e-08,5.94999999999887e-01,8.50000000000000e-01,-7.91189205341797e-05
6.51000000000000e-08,8.49999999999951e-01,8.50000000000000e-01,-2.69926319389572e-03
6.51080000000000e-08,8.50000000000000e-01,8.50000000000000e-01,-3.81946440614334e-03
6.51240000000000e-08,8.50000000000000e-01,8.50000000000000e-01,-5.72598240661841e-03
6.51560000000000e-08,8.50000000000000e-01,8.50000000000000e-01,-4.43845109716254e-03
6.52200000000000e-08,8.50000000000000e-01,8.50000000000000e-01,1.10429535854424e-01
6.53480000000000e-08,8.50000000000000e-01,8.50000000000000e-01,6.96277930237129e-01
6.56040000000000e-08,8.50000000000000e-01,8.50000000000000e-01,8.82928003123661e-01
6.58689886860025e-08,8.50000000000000e-01,8.50000000000000e-01,8.20515713573763e-01
6.63989660580074e-08,8.50000000000000e-01,8.50000000000000e-01,8.76064297751454e-01
6.71037662486721e-08,8.50000000000000e-01,8.50000000000000e-01,8.24352554796819e-01
6.85133666300016e-08,8.50000000000000e-01,8.50000000000000e-01,8.73889969229177e-01
7.01000000000000e-08,8.50000000000000e-01,8.50000000000000e-01,8.25784882633612e-01
7.01100000000000e-08,8.50000000000000e-01,7.65000000000016e-01,8.37497530310376e-01
7.01300000000000e-08,8.50000000000000e-01,5.95000000000048e-01,8.49570374668988e-01
7.01700000000000e-08,8.50000000000000e-01,2.55000000000113e-01,8.50147166408540e-01
7.02000000000000e-08,8.50000000000000e-01,4.87387907810444e-14,8.49960730701375e-01
7.02080000000000e-08,8.50000000000000e-01,0.00000000000000e+00,8.49970443908625e-01
7.02240000000000e-08,8.50000000000000e-01,0.00000000000000e+00,8.49972142510211e-01
7.02560000000000e-08,8.50000000000000e-01,0.00000000000000e+00,8.49960277872098e-01
7.03200000000000e-08,8.50000000000000e-01,0.00000000000000e+00,8.49980709975598e-01
7.04480000000000e-08,8.50000000000000e-01,0.00000000000000e+00,8.49995270955071e-01
7.06718301143108e-08,8.50000000000000e-01,0.00000000000000e+00,8.49959541601411e-01
7.09428711623294e-08,8.50000000000000e-01,0.00000000000000e+00,8.49992860032788e-01
7.14849532583665e-08,8.50000000000000e-01,0.00000000000000e+00,8.49968166825612e-01
7.25691174504407e-08,8.50000000000000e-01,0.00000000000000e+00,8.49994204412811e-01
7.46917923348463e-08,8.50000000000000e-01,0.00000000000000e+00,8.49974961840303e-01
7.51000000000000e-08,8.50000000000000e-01,0.00000000000000e+00,8.49995271828331e-01
7.51100000000000e-08,7.65000000000086e-01,0.00000000000000e+00,8.49928329504614e-01
7.51300000000000e-08,5.95000000000119e-01,0.00000000000000e+00,8.49882974633914e-01
7.51700000000000e-08,2.55000000000183e-01,0.00000000000000e+00,8.51204149877606e-01
7.52000000000000e-08,1.19015908239817e-13,0.00000000000000e+00,8.52815667911711e-01
7.52080000000000e-08,0.00000000000000e+00,0.00000000000000e+00,8.52162321484766e-01
7.52240000000000e-08,0.00000000000000e+00,0.00000000000000e+00,8.47993041217611e-01
7.52560000000000e-08,0.00000000000000e+00,0.00000000000000e+00,8.31008436269725e-01
7.53200000000000e-08,0.00000000000000e+00,0.00000000000000e+00,8.16645148962547e-01
7.54480000000000e-08,0.00000000000000e+00,0.00000000000000e+00,8.44766107604717e-01
7.56249561602465e-08,0.00000000000000e+00,0.00000000000000e+00,8.51334620452373e-01
7.59377233948178e-08,0.00000000000000e+00,0.00000000000000e+00,8.48034981640358e-01
7.62817654683565e-08,0.00000000000000e+00,0.00000000000000e+00,8.50884440151112e-01
7.69698496154340e-08,0.00000000000000e+00,0.00000000000000e+00,8.48800516438571e-01
7.81000000000000e-08,0.00000000000000e+00,0.00000000000000e+00,8.50824512713527e-01
7.82376168294155e-08,0.00000000000000e+00,0.00000000000000e+00,8.50019583381553e-01
7.85128504882465e-08,0.00000000000000e+00,0.00000000000000e+00,8.49806417613397e-01
7.90633178059085e-08,0.00000000000000e+00,0.00000000000000e+00,8.49989338334635e-01
8.01642524412324e-08,0.00000000000000e+00,0.00000000000000e+00,8.49851651920837e-01
8.23661217118803e-08,0.00000000000000e+00,0.00000000000000e+00,8.50010818021810e-01
8.50000000000000e-08,0.00000000000000e+00,0.00000000000000e+00,8.49880500695168e-01
8.50100000000000e-08,8.49999999999839e-02,0.00000000000000e+00,8.49955350069449e-01
8.50300000000000e-08,2.54999999999952e-01,0.00000000000000e+00,8.50015941013308e-01
8.50700000000000e-08,5.94999999999887e-01,0.00000000000000e+00,8.49925876636409e-01
8.51000000000000e-08,8.49999999999951e-01,0.00000000000000e+00,8.49730687871057e-01
8.51080000000000e-08,8.50000000000000e-01,0.00000000000000e+00,8.49674598064912e-01
8.51240000000000e-08,8.50000000000000e-01,0.00000000000000e+00,8.49646055444679e-01
8.51560000000000e-08,8.50000000000000e-01,0.00000000000000e+00,8.50056272841635e-01
8.52200000000000e-08,8.50000000000000e-01,0.00000000000000e+00,8.55137155142241e-01
8.53480000000000e-08,8.50000000000000e-01,0.00000000000000e+00,6.04192779248066e-01
8.56040000000000e-08,8.50000000000000e-01,0.00000000000000e+00,-1.47062878038189e-02
8.58635024463892e-08,8.50000000000000e-01,0.00000000000000e+00,8.06083099194416e-03
8.63825073391676e-08,8.50000000000000e-01,0.00000000000000e+00,-4.35410456647470e-03
8.68900460968574e-08,8.50000000000000e-01,0.00000000000000e+00,3.01140696774467e-03
8.79051236122370e-08,8.50000000000000e-01,0.00000000000000e+00,-1.55575651845770e-03
8.99352786429962e-08,8.50000000000000e-01,0.00000000000000e+00,1.72944189966868e-03
9.00000000000000e-08,8.50000000000000e-01,0.00000000000000e+00,3.68626454618691e-03
9.00100000000000e-08,8.50000000000000e-01,8.49999999999839e-02,1.47655405882502e-03
9.00300000000000e-08,8.50000000000000e-01,2.54999999999952e-01,-1.47907734987920e-04
9.00700000000000e-08,8.50000000000000e-01,5.94999999999887e-01,1.83420099397050e-04
9.01000000000000e-08,8.50000000000000e-01,8.49999999999951e-01,-1.02355888631299e-04
9.01080000000000e-08,8.50000000000000e-01,8.50000000000000e-01,-2.22090868882280e-05
9.01240000000000e-08,8.50000000000000e-01,8.50000000000000e-01,1.66994445562341e-05
9.01560000000000e-08,8.50000000000000e-01,8.50000000000000e-01,-2.11027013921686e-05
9.02200000000000e-08,8.50000000000000e-01,8.50000000000000e-01,7.48905977546177e-06
9.03480000000000e-08,8.50000000000000e-01,8.50000000000000e-01,-6.57622655009932e-06
9.06040000000000e-08,8.50000000000000e-01,8.50000000000000e-01,7.48929534911957e-06
9.11159999999999e-08,8.50000000000000e-01,8.50000000000000e-01,-4.99805578195629e-06
9.21399999999999e-08,8.50000000000000e-01,8.50000000000000e-01,5.41829701199929e-06
9.41879999999998e-08,8.50000000000000e-01,8.50000000000000e-01,-4.92522105649627e-06
9.51000000000000e-08,8.50000000000000e-01,8.50000000000000e-01,5.43159968097000e-06
9.51100000000000e-08,7.65000000000086e-01,8.50000000000000e-01,-6.42833626885303e-05
9.51300000000000e-08,5.95000000000119e-01,8.50000000000000e-01,-1.49045609909457e-04
9.51700000000000e-08,2.55000000000183e-01,8.50000000000000e-01,9.53332796940765e-06
9.52000000000000e-08,1.19015908239817e-13,8.50000000000000e-01,2.73159278225889e-04
9.52080000000000e-08,0.00000000000000e+00,8.50000000000000e-01,3.21063841501823e-04
9.52240000000000e-08,0.00000000000000e+00,8.50000000000000e-01,1.53615841002611e-04
9.52560000000000e-08,0.00000000000000e+00,8.50000000000000e-01,-9.86574849320604e-04
9.53200000000000e-08,0.00000000000000e+00,8.50000000000000e-01,-1.28539430398770e-03
9.54480000000000e-08,0.00000000000000e+00,8.50000000000000e-01,5.53607410522586e-05
9.57040000000000e-08,0.00000000000000e+00,8.50000000000000e-01,-5.91199255405433e-05
9.59679118371181e-08,0.00000000000000e+00,8.50000000000000e-01,2.53423042288856e-04
9.64957355113544e-08,0.00000000000000e+00,8.50000000000000e-01,-2.50359761070826e-04
9.70444707579585e-08,0.00000000000000e+00,8.50000000000000e-01,2.38356118133814e-04
9.81419412511666e-08,0.00000000000000e+00,8.50000000000000e-01,-2.26953548362894e-04
9.99100850043925e-08,0.00000000000000e+00,8.50000000000000e-01,2.21010851121104e-04
1.02735564404278e-07,0.00000000000000e+00,8.50000000000000e-01,-2.15321554723486e-04
1.05000000000000e-07,0.00000000000000e+00,8.50000000000000e-01,2.10467400074249e-04
1.05010000000000e-07,8.49999999999839e-02,8.50000000000000e-01,2.71437588608245e-04
1.05030000000000e-07,2.54999999999952e-01,8.50000000000000e-01,3.37814287334322e-04
1.05070000000000e-07,5.94999999999887e-01,8.50000000000000e-01,-7.91228441944306e-05
1.05100000000000e-07,8.49999999999951e-01,8.50000000000000e-01,-2.69926496328095e-03
1.05108000000000e-07,8.50000000000000e-01,8.50000000000000e-01,-3.81946552136611e-03
1.05124000000000e-07,8.50000000000000e-01,8.50000000000000e-01,-5.72598301477671e-03
1.05156000000000e-07,8.50000000000000e-01,8.50000000000000e-01,-4.43845613400317e-03
1.05220000000000e-07,8.50000000000000e-01,8.50000000000000e-01,1.10429480579910e-01
1.05348000000000e-07,8.50000000000000e-01,8.50000000000000e-01,6.96277875995020e-01
1.05604000000000e-07,8.50000000000000e-01,8.50000000000000e-01,8.82928009706919e-01
1.05868988672068e-07,8.50000000000000e-01,8.50000000000000e-01,8.20515708073530e-01
