Time,v(clk),v(data),v(out)
1.00000000000000e-08,8.50000000000000e-01,0.00000000000000e+00,2.91346283484589e-05
1.00100000000000e-08,8.50000000000000e-01,8.49999999999979e-02,2.47123866104065e-05
1.00300000000000e-08,8.50000000000000e-01,2.54999999999994e-01,1.91061138160725e-05
1.00700000000000e-08,8.50000000000000e-01,5.94999999999986e-01,1.30081930685491e-05
1.01000000000000e-08,8.50000000000000e-01,8.49999999999994e-01,1.02781869331867e-05
1.01080000000000e-08,8.50000000000000e-01,8.50000000000000e-01,1.05370143739930e-05
1.01240000000000e-08,8.50000000000000e-01,8.50000000000000e-01,1.21005411432423e-05
1.01560000000000e-08,8.50000000000000e-01,8.50000000000000e-01,1.60106053544440e-05
1.02200000000000e-08,8.50000000000000e-01,8.50000000000000e-01,1.83847227919198e-05
1.03480000000000e-08,8.50000000000000e-01,8.50000000000000e-01,1.31826901112811e-05
1.06040000000000e-08,8.50000000000000e-01,8.50000000000000e-01,1.30673599523200e-05
1.11160000000000e-08,8.50000000000000e-01,8.50000000000000e-01,1.39561530586585e-05
1.21400000000000e-08,8.50000000000000e-01,8.50000000000000e-01,1.27723118080519e-05
1.41880000000000e-08,8.50000000000000e-01,8.50000000000000e-01,1.27783257791417e-05
1.51000000000000e-08,8.50000000000000e-01,8.50000000000000e-01,1.21537434092205e-05
1.51100000000000e-08,7.64999999999988e-01,8.50000000000000e-01,-6.32895183286658e-05
1.51300000000000e-08,5.94999999999992e-01,8.50000000000000e-01,-1.74785324960833e-04
1.51700000000000e-08,2.55000000000000e-01,8.50000000000000e-01,-5.55697954293596e-05
1.52000000000000e-08,0.00000000000000e+00,8.50000000000000e-01,2.79583806793549e-04
1.52080000000000e-08,0.00000000000000e+00,8.50000000000000e-01,4.02902229307500e-04
1.52240000000000e-08,0.00000000000000e+00,8.50000000000000e-01,4.97078298236975e-04
1.52560000000000e-08,0.00000000000000e+00,8.50000000000000e-01,2.25891917059129e-04
1.53200000000000e-08,0.00000000000000e+00,8.50000000000000e-01,-3.24995542450850e-04
1.54480000000000e-08,0.00000000000000e+00,8.50000000000000e-01,-2.34434425948754e-04
1.57040000000000e-08,0.00000000000000e+00,8.50000000000000e-01,-2.17666732852940e-04
1.60114487109804e-08,0.00000000000000e+00,8.50000000000000e-01,2.69528065102994e-04
1.65633583809898e-08,0.00000000000000e+00,8.50000000000000e-01,1.52097790935626e-05
1.72951725323353e-08,0.00000000000000e+00,8.50000000000000e-01,-1.02544103190109e-04
1.84782687579636e-08,0.00000000000000e+00,8.50000000000000e-01,1.64754624180339e-04
2.08444612092202e-08,0.00000000000000e+00,8.50000000000000e-01,-1.58902248908611e-04
2.46444612092202e-08,0.00000000000000e+00,8.50000000000000e-01,1.87316089502052e-04
2.50000000000000e-08,0.00000000000000e+00,8.50000000000000e-01,-1.99555060540382e-04
2.50100000000000e-08,8.49999999999839e-02,8.50000000000000e-01,-1.65617406393259e-05
2.50300000000000e-08,2.55000000000008e-01,8.50000000000000e-01,2.52170647064939e-04
2.50700000000000e-08,5.95000000000000e-01,8.50000000000000e-01,3.26104550352577e-04
2.51000000000000e-08,8.50000000000000e-01,8.50000000000000e-01,-1.16447812478001e-03
2.51080000000000e-08,8.50000000000000e-01,8.50000000000000e-01,-2.01935650213428e-03
2.51240000000000e-08,8.50000000000000e-01,8.50000000000000e-01,-3.66473914938371e-03
2.51560000000000e-08,8.50000000000000e-01,8.50000000000000e-01,-5.83784251726002e-03
2.52200000000000e-08,8.50000000000000e-01,8.50000000000000e-01,1.24371841998824e-02
2.53480000000000e-08,8.50000000000000e-01,8.50000000000000e-01,3.59652284294547e-01
2.56040000000000e-08,8.50000000000000e-01,8.50000000000000e-01,8.56307136785066e-01
2.59402811256230e-08,8.50000000000000e-01,8.50000000000000e-01,8.43357917542618e-01
2.65275638735892e-08,8.50000000000000e-01,8.50000000000000e-01,8.56453707330155e-01
2.72100246793378e-08,8.50000000000000e-01,8.50000000000000e-01,8.43889604043007e-01
2.82721083026056e-08,8.50000000000000e-01,8.50000000000000e-01,8.55818695836323e-01
3.03962755491413e-08,8.50000000000000e-01,8.50000000000000e-01,8.44263044024217e-01
3.41962755491413e-08,8.50000000000000e-01,8.50000000000000e-01,8.55644319617848e-01
3.51000000000000e-08,8.49999999999958e-01,8.50000000000000e-01,8.44616739189627e-01
3.51100000000000e-08,7.64999999999974e-01,8.50000000000000e-01,8.46946705652091e-01
3.51300000000000e-08,5.94999999999950e-01,8.50000000000000e-01,8.49558638355580e-01
3.51700000000000e-08,2.54999999999958e-01,8.50000000000000e-01,8.51275002930073e-01
3.52000000000000e-08,0.00000000000000e+00,8.50000000000000e-01,8.53274271590047e-01
3.52080000000000e-08,0.00000000000000e+00,8.50000000000000e-01,8.53380909056391e-01
3.52240000000000e-08,0.00000000000000e+00,8.50000000000000e-01,8.52025069041652e-01
3.52560000000000e-08,0.00000000000000e+00,8.50000000000000e-01,8.41290488821305e-01
3.53200000000000e-08,0.00000000000000e+00,8.50000000000000e-01,8.18405442902167e-01
3.54480000000000e-08,0.00000000000000e+00,8.50000000000000e-01,8.32281051999628e-01
3.57040000000000e-08,0.00000000000000e+00,8.50000000000000e-01,8.55086083154772e-01
3.60239415954980e-08,0.00000000000000e+00,8.50000000000000e-01,8.45053241732914e-01
3.66602485155374e-08,0.00000000000000e+00,8.50000000000000e-01,8.53269012284644e-01
3.79328623556163e-08,0.00000000000000e+00,8.50000000000000e-01,8.46415585598923e-01
4.04780900357741e-08,0.00000000000000e+00,8.50000000000000e-01,8.53053830349029e-01
4.42780900357741e-08,0.00000000000000e+00,8.50000000000000e-01,8.46729801700024e-01
4.50000000000000e-08,0.00000000000000e+00,8.50000000000000e-01,8.52576316483520e-01
4.50100000000000e-08,8.49999999999839e-02,8.50000000000000e-01,8.51862904471590e-01
4.50300000000000e-08,2.55000000000008e-01,8.50000000000000e-01,8.50821884243937e-01
4.50700000000000e-08,5.95000000000000e-01,8.50000000000000e-01,8.50042902950623e-01
4.51000000000000e-08,8.50000000000000e-01,8.50000000000000e-01,8.49173078074843e-01
4.51080000000000e-08,8.50000000000000e-01,7.82000000000035e-01,8.48733207375775e-01
4.51240000000000e-08,8.50000000000000e-01,6.45999999999994e-01,8.47943572315146e-01
4.51560000000000e-08,8.50000000000000e-01,3.74000000000023e-01,8.46929045081676e-01
4.52000000000000e-08,8.50000000000000e-01,4.87387907810444e-14,8.46318716649358e-01
4.52064000000000e-08,8.50000000000000e-01,0.00000000000000e+00,8.46308259887588e-01
4.52192000000000e-08,8.50000000000000e-01,0.00000000000000e+00,8.46329370124827e-01
4.52448000000000e-08,8.50000000000000e-01,0.00000000000000e+00,8.46628468749347e-01
4.52960000000000e-08,8.50000000000000e-01,0.00000000000000e+00,8.47580243557692e-01
4.53984000000000e-08,8.50000000000000e-01,0.00000000000000e+00,8.48901592249544e-01
4.55605703108272e-08,8.50000000000000e-01,0.00000000000000e+00,8.49709576255784e-01
4.58750578150322e-08,8.50000000000000e-01,0.00000000000000e+00,8.50023553508622e-01
4.61929141840637e-08,8.50000000000000e-01,0.00000000000000e+00,8.50002254145311e-01
4.68286269221266e-08,8.50000000000000e-01,0.00000000000000e+00,8.49996856589738e-01
4.81000523982526e-08,8.50000000000000e-01,0.00000000000000e+00,8.50003296895511e-01
5.06429033505044e-08,8.50000000000000e-01,0.00000000000000e+00,8.49996840131295e-01
5.44429033505044e-08,8.50000000000000e-01,0.00000000000000e+00,8.50003081138632e-01
5.51000000000000e-08,8.50000000000000e-01,0.00000000000000e+00,8.49997532714668e-01
5.51100000000000e-08,7.65000000000030e-01,0.00000000000000e+00,8.49923725627855e-01
5.51300000000000e-08,5.95000000000006e-01,0.00000000000000e+00,8.49891895514088e-01
5.51700000000000e-08,2.55000000000014e-01,0.00000000000000e+00,8.51234544377174e-01
5.52000000000000e-08,0.00000000000000e+00,0.00000000000000e+00,8.53653283790619e-01
5.52080000000000e-08,0.00000000000000e+00,0.00000000000000e+00,8.54199682446671e-01
5.52240000000000e-08,0.00000000000000e+00,0.00000000000000e+00,8.54972691157962e-01
5.52560000000000e-08,0.00000000000000e+00,0.00000000000000e+00,8.55735602670696e-01
5.53200000000000e-08,0.00000000000000e+00,0.00000000000000e+00,8.54637392448947e-01
5.54480000000000e-08,0.00000000000000e+00,0.00000000000000e+00,8.48635403550179e-01
5.56799837370572e-08,0.00000000000000e+00,0.00000000000000e+00,8.49077599561491e-01
5.59787891684106e-08,0.00000000000000e+00,0.00000000000000e+00,8.49590889660335e-01
5.65081999031409e-08,0.00000000000000e+00,0.00000000000000e+00,8.49450426421962e-01
5.71921273721093e-08,0.00000000000000e+00,0.00000000000000e+00,8.49912354070523e-01
5.85599823100462e-08,0.00000000000000e+00,0.00000000000000e+00,8.49617301661918e-01
6.12956921859200e-08,0.00000000000000e+00,0.00000000000000e+00,8.50044809364884e-01
6.50000000000000e-08,0.00000000000000e+00,0.00000000000000e+00,8.49673602862207e-01
6.50100000000000e-08,8.49999999999839e-02,0.00000000000000e+00,8.49830085016063e-01
6.50300000000000e-08,2.54999999999952e-01,0.00000000000000e+00,8.49990232446427e-01
6.50700000000000e-08,5.94999999999887e-01,0.00000000000000e+00,8.49911487421603e-01
6.51000000000000e-08,8.49999999999951e-01,0.00000000000000e+00,8.49723811454452e-01
6.51080000000000e-08,8.50000000000000e-01,0.00000000000000e+00,8.49665230824247e-01
6.51240000000000e-08,8.50000000000000e-01,0.00000000000000e+00,8.49575442718507e-01
6.51560000000000e-08,8.50000000000000e-01,0.00000000000000e+00,8.49618116986319e-01
6.52200000000000e-08,8.50000000000000e-01,0.00000000000000e+00,8.50981217037243e-01
6.53480000000000e-08,8.50000000000000e-01,0.00000000000000e+00,8.61391322096090e-01
6.56040000000000e-08,8.50000000000000e-01,0.00000000000000e+00,3.05595574704470e-01
6.59128455466604e-08,8.50000000000000e-01,0.00000000000000e+00,-8.53995108772910e-02
6.63519998290502e-08,8.50000000000000e-01,0.00000000000000e+00,6.01228272346275e-02
6.69798061152631e-08,8.50000000000000e-01,0.00000000000000e+00,-4.02636916573043e-02
6.77073876027484e-08,8.50000000000000e-01,0.00000000000000e+00,3.25790345167124e-02
6.91625505777192e-08,8.50000000000000e-01,0.00000000000000e+00,-2.71618369111168e-02
7.13178523980368e-08,8.50000000000000e-01,0.00000000000000e+00,2.58627138413923e-02
7.51000000000000e-08,8.50000000000000e-01,0.00000000000000e+00,-2.36340581647154e-02
7.51100000000000e-08,7.65000000000086e-01,0.00000000000000e+00,-1.95423371611163e-02
7.51300000000000e-08,5.95000000000119e-01,0.00000000000000e+00,-1.28139908500305e-02
7.51700000000000e-08,2.55000000000183e-01,0.00000000000000e+00,-5.20296087434310e-03
7.52000000000000e-08,1.19015908239817e-13,0.00000000000000e+00,-2.36774891471078e-03
7.52080000000000e-08,0.00000000000000e+00,0.00000000000000e+00,-1.88807485763341e-03
7.52240000000000e-08,0.00000000000000e+00,0.00000000000000e+00,-1.24077567801249e-03
7.52560000000000e-08,0.00000000000000e+00,0.00000000000000e+00,-1.25629649137304e-03
7.53200000000000e-08,0.00000000000000e+00,0.00000000000000e+00,-2.04204614985466e-03
7.54480000000000e-08,0.00000000000000e+00,0.00000000000000e+00,-7.48044667963223e-04
7.56845913672555e-08,0.00000000000000e+00,0.00000000000000e+00,5.28031047260746e-04
7.59991581395529e-08,0.00000000000000e+00,0.00000000000000e+00,-3.46722194615373e-04
7.65851814117196e-08,0.00000000000000e+00,0.00000000000000e+00,3.09404178407257e-04
7.77572279560531e-08,0.00000000000000e+00,0.00000000000000e+00,-2.61745983378799e-04
8.01013210447200e-08,0.00000000000000e+00,0.00000000000000e+00,2.71079897176240e-04
8.39013210447200e-08,0.00000000000000e+00,0.00000000000000e+00,-2.42231842979613e-04
8.50000000000000e-08,0.00000000000000e+00,0.00000000000000e+00,2.40209495032295e-04
8.50100000000000e-08,8.49999999999839e-02,0.00000000000000e+00,2.76195958302083e-04
8.50300000000000e-08,2.54999999999952e-01,0.00000000000000e+00,3.04879749880360e-04
8.50700000000000e-08,5.94999999999887e-01,0.00000000000000e+00,1.73123654082716e-04
8.51000000000000e-08,8.49999999999951e-01,0.00000000000000e+00,-9.26892261133919e-05
8.51080000000000e-08,8.50000000000000e-01,0.00000000000000e+00,-1.93929011309699e-04
8.51240000000000e-08,8.50000000000000e-01,0.00000000000000e+00,-3.21000879550074e-04
8.51560000000000e-08,8.50000000000000e-01,0.00000000000000e+00,-3.28465102155326e-04
8.52200000000000e-08,8.50000000000000e-01,0.00000000000000e+00,-1.47531455533007e-04
8.53480000000000e-08,8.50000000000000e-01,0.00000000000000e+00,9.81641114823836e-05
8.56040000000000e-08,8.50000000000000e-01,0.00000000000000e+00,5.98532024357369e-05
8.61159999999999e-08,8.50000000000000e-01,0.00000000000000e+00,-2.08132121365390e-06
8.68964764178855e-08,8.50000000000000e-01,0.00000000000000e+00,3.71085108119389e-05
8.79894673924757e-08,8.50000000000000e-01,0.00000000000000e+00,2.76510575437407e-07
9.00000000000000e-08,8.50000000000000e-01,0.00000000000000e+00,2.89297414638166e-05
9.00100000000000e-08,8.50000000000000e-01,8.49999999999839e-02,2.45518603779749e-05
9.00300000000000e-08,8.50000000000000e-01,2.54999999999952e-01,1.90286008619062e-05
9.00700000000000e-08,8.50000000000000e-01,5.94999999999887e-01,1.30163587008306e-05
9.01000000000000e-08,8.50000000000000e-01,8.49999999999951e-01,1.03625822067549e-05
9.01080000000000e-08,8.50000000000000e-01,8.50000000000000e-01,1.05901380861445e-05
9.01240000000000e-08,8.50000000000000e-01,8.50000000000000e-01,1.21224542642823e-05
9.01560000000000e-08,8.50000000000000e-01,8.50000000000000e-01,1.59705807543306e-05
9.02200000000000e-08,8.50000000000000e-01,8.50000000000000e-01,1.83347332832484e-05
9.03480000000000e-08,8.50000000000000e-01,8.50000000000000e-01,1.31856833877134e-05
9.06040000000000e-08,8.50000000000000e-01,8.50000000000000e-01,1.30923675498752e-05
9.11159999999999e-08,8.50000000000000e-01,8.50000000000000e-01,1.39368973407113e-05
9.21399999999999e-08,8.50000000000000e-01,8.50000000000000e-01,1.27896027770184e-05
9.41879999999998e-08,8.50000000000000e-01,8.50000000000000e-01,1.27624294439699e-05
9.51000000000000e-08,8.50000000000000e-01,8.50000000000000e-01,1.21678197882308e-05
9.51100000000000e-08,7.65000000000086e-01,8.50000000000000e-01,-6.32798463199302e-05
9.51300000000000e-08,5.95000000000119e-01,8.50000000000000e-01,-1.74781064244983e-04
9.51700000000000e-08,2.55000000000183e-01,8.50000000000000e-01,-5.55688036098026e-05
9.52000000000000e-08,1.19015908239817e-13,8.50000000000000e-01,2.79584825859810e-04
9.52080000000000e-08,0.00000000000000e+00,8.50000000000000e-01,4.02903461075466e-04
9.52240000000000e-08,0.00000000000000e+00,8.50000000000000e-01,4.97080482781201e-04
9.52560000000000e-08,0.00000000000000e+00,8.50000000000000e-01,2.25897372745941e-04
9.53200000000000e-08,0.00000000000000e+00,8.50000000000000e-01,-3.24989356809559e-04
9.54480000000000e-08,0.00000000000000e+00,8.50000000000000e-01,-2.34434323054623e-04
9.57040000000000e-08,0.00000000000000e+00,8.50000000000000e-01,-2.17667000188576e-04
9.60114486863898e-08,0.00000000000000e+00,8.50000000000000e-01,2.69528305668464e-04
9.65633583690473e-08,0.00000000000000e+00,8.50000000000000e-01,1.52095599633140e-05
9.72951724712382e-08,0.00000000000000e+00,8.50000000000000e-01,-1.02543920792609e-04
9.84782687242064e-08,0.00000000000000e+00,8.50000000000000e-01,1.64754459666542e-04
1.00844461230143e-07,0.00000000000000e+00,8.50000000000000e-01,-1.58902093288131e-04
1.04644461230143e-07,0.00000000000000e+00,8.50000000000000e-01,1.87315939944368e-04
1.05000000000000e-07,0.00000000000000e+00,8.50000000000000e-01,-1.99554968319963e-04
1.05010000000000e-07,8.49999999999839e-02,8.50000000000000e-01,-1.65616278838682e-05
1.05030000000000e-07,2.54999999999952e-01,8.50000000000000e-01,2.52170727817996e-04
1.05070000000000e-07,5.94999999999887e-01,8.50000000000000e-01,3.26104521198620e-04
1.05100000000000e-07,8.49999999999951e-01,8.50000000000000e-01,-1.16447820343475e-03
1.05108000000000e-07,8.50000000000000e-01,8.50000000000000e-01,-2.01935659017390e-03
1.05124000000000e-07,8.50000000000000e-01,8.50000000000000e-01,-3.66473923870476e-03
1.05156000000000e-07,8.50000000000000e-01,8.50000000000000e-01,-5.83784254429076e-03
1.05220000000000e-07,8.50000000000000e-01,8.50000000000000e-01,1.24371849502629e-02
1.05348000000000e-07,8.50000000000000e-01,8.50000000000000e-01,3.59652288119382e-01
1.05604000000000e-07,8.50000000000000e-01,8.50000000000000e-01,8.56307137520237e-01
1.05940281124255e-07,8.50000000000000e-01,8.50000000000000e-01,8.43357917759300e-01
1.06527563873150e-07,8.50000000000000e-01,8.50000000000000e-01,8.56453707810752e-01
1.07210024678412e-07,8.50000000000000e-01,8.50000000000000e-01,8.43889603604480e-01
1.08272108302143e-07,8.50000000000000e-01,8.50000000000000e-01,8.55818696252269e-01
1.10396275549605e-07,8.50000000000000e-01,8.50000000000000e-01,8.44263043611850e-01
1.14196275549605e-07,8.50000000000000e-01,8.50000000000000e-01,8.55644320017210e-01
1.15100000000000e-07,8.50000000000000e-01,8.50000000000000e-01,8.44616738811546e-01
1.15110000000000e-07,7.65000000000086e-01,8.50000000000000e-01,8.46946705433935e-01
1.15130000000000e-07,5.95000000000119e-01,8.50000000000000e-01,8.49558638321535e-01
1.15170000000000e-07,2.55000000000183e-01,8.50000000000000e-01,8.51275002936001e-01
1.15200000000000e-07,1.19015908239817e-13,8.50000000000000e-01,8.53274271589662e-01
1.15208000000000e-07,0.00000000000000e+00,8.50000000000000e-01,8.53380909051369e-01
1.15224000000000e-07,0.00000000000000e+00,8.50000000000000e-01,8.52025069054629e-01
1.15256000000000e-07,0.00000000000000e+00,8.50000000000000e-01,8.41290488798067e-01
1.15320000000000e-07,0.00000000000000e+00,8.50000000000000e-01,8.18405442896838e-01
1.15448000000000e-07,0.00000000000000e+00,8.50000000000000e-01,8.32281052015253e-01
1.15704000000000e-07,0.00000000000000e+00,8.50000000000000e-01,8.55086083149369e-01
1.16023941595536e-07,0.00000000000000e+00,8.50000000000000e-01,8.45053241736624e-01
1.16660248515772e-07,0.00000000000000e+00,8.50000000000000e-01,8.53269012281580e-01
1.17932862356246e-07,0.00000000000000e+00,8.50000000000000e-01,8.46415585601654e-01
1.20478090037193e-07,0.00000000000000e+00,8.50000000000000e-01,8.53053830346453e-01
1.24278090037193e-07,0.00000000000000e+00,8.50000000000000e-01,8.46729801702428e-01
1.25000000000000e-07,0.00000000000000e+00,8.50000000000000e-01,8.52576316480694e-01
1.25010000000000e-07,8.49999999998714e-02,8.50000000000000e-01,8.51862904469134e-01
1.25030000000000e-07,2.54999999999839e-01,8.50000000000000e-01,8.50821884242828e-01
1.25070000000000e-07,5.94999999999775e-01,8.50000000000000e-01,8.50042902950684e-01
1.25100000000000e-07,8.49999999999839e-01,8.50000000000000e-01,8.49173078074741e-01
1.25108000000000e-07,8.50000000000000e-01,7.81999999999923e-01,8.48733207375576e-01
1.25124000000000e-07,8.50000000000000e-01,6.45999999999994e-01,8.47943572314938e-01
1.25156000000000e-07,8.50000000000000e-01,3.73999999999910e-01,8.46929045082463e-01
1.25200000000000e-07,8.50000000000000e-01,0.00000000000000e+00,8.46318716650613e-01
1.25206400000000e-07,8.50000000000000e-01,0.00000000000000e+00,8.46308259888588e-01
1.25219200000000e-07,8.50000000000000e-01,0.00000000000000e+00,8.46329370125331e-01
1.25244800000000e-07,8.50000000000000e-01,0.00000000000000e+00,8.46628468749424e-01
1.25296000000000e-07,8.50000000000000e-01,0.00000000000000e+00,8.47580243557620e-01
1.25398400000000e-07,8.50000000000000e-01,0.00000000000000e+00,8.48901592250172e-01
1.25560570310863e-07,8.50000000000000e-01,0.00000000000000e+00,8.49709576255806e-01
1.25875057815044e-07,8.50000000000000e-01,0.00000000000000e+00,8.50023553508477e-01
1.26192914184193e-07,8.50000000000000e-01,0.00000000000000e+00,8.50002254145196e-01
1.26828626922491e-07,8.50000000000000e-01,0.00000000000000e+00,8.49996856589822e-01
1.28100052399088e-07,8.50000000000000e-01,0.00000000000000e+00,8.50003296895294e-01
1.30642903352282e-07,8.50000000000000e-01,0.00000000000000e+00,8.49996840131336e-01
1.34442903352282e-07,8.50000000000000e-01,0.00000000000000e+00,8.50003081138618e-01
1.35100000000000e-07,8.49999999999845e-01,0.00000000000000e+00,8.49997532714696e-01
1.35110000000000e-07,7.64999999999749e-01,0.00000000000000e+00,8.49923725627882e-01
1.35130000000000e-07,5.94999999999781e-01,0.00000000000000e+00,8.49891895513825e-01
1.35170000000000e-07,2.54999999999846e-01,0.00000000000000e+00,8.51234544377364e-01
