Time,v(clk),v(data),v(out)
1.00000000000000e-08,7.50000000000000e-01,0.00000000000000e+00,-2.28299057708444e-05
1.00100000000000e-08,7.50000000000000e-01,7.49999999999982e-02,-1.10289618142773e-05
1.00300000000000e-08,7.50000000000000e-01,2.24999999999995e-01,-2.06547384584699e-06
1.00700000000000e-08,7.50000000000000e-01,5.24999999999987e-01,-2.29006164961798e-06
1.01000000000000e-08,7.50000000000000e-01,7.49999999999994e-01,-3.70601561626438e-07
1.01080000000000e-08,7.50000000000000e-01,7.50000000000000e-01,6.62422571545696e-07
1.01240000000000e-08,7.50000000000000e-01,7.50000000000000e-01,3.35461259211300e-06
1.01560000000000e-08,7.50000000000000e-01,7.50000000000000e-01,3.95670667872189e-06
1.02200000000000e-08,7.50000000000000e-01,7.50000000000000e-01,1.72075796799065e-06
1.03480000000000e-08,7.50000000000000e-01,7.50000000000000e-01,1.46938675645372e-06
1.06040000000000e-08,7.50000000000000e-01,7.50000000000000e-01,2.19397480216710e-06
1.11160000000000e-08,7.50000000000000e-01,7.50000000000000e-01,1.56304716322428e-06
1.21400000000000e-08,7.50000000000000e-01,7.50000000000000e-01,1.88501080053936e-06
1.41880000000000e-08,7.50000000000000e-01,7.50000000000000e-01,1.31250345654626e-06
1.51000000000000e-08,7.50000000000000e-01,7.50000000000000e-01,1.59443535134411e-06
1.51100000000000e-08,6.74999999999989e-01,7.50000000000000e-01,-7.65641336708672e-05
1.51300000000000e-08,5.24999999999993e-01,7.50000000000000e-01,-1.50966625579424e-04
1.51700000000000e-08,2.25000000000000e-01,7.50000000000000e-01,8.86413753649132e-05
1.52000000000000e-08,0.00000000000000e+00,7.50000000000000e-01,4.45304387490505e-04
1.52080000000000e-08,0.00000000000000e+00,7.50000000000000e-01,5.08992024223887e-04
1.52240000000000e-08,0.00000000000000e+00,7.50000000000000e-01,4.01288752021139e-04
1.52560000000000e-08,0.00000000000000e+00,7.50000000000000e-01,-2.75726664915307e-04
1.53200000000000e-08,0.00000000000000e+00,7.50000000000000e-01,-3.23200140664427e-04
1.54480000000000e-08,0.00000000000000e+00,7.50000000000000e-01,-3.56243956598987e-05
1.56296437550516e-08,0.00000000000000e+00,7.50000000000000e-01,-3.44352381426126e-05
1.58792828797923e-08,0.00000000000000e+00,7.50000000000000e-01,2.64881381295174e-04
1.63772262578086e-08,0.00000000000000e+00,7.50000000000000e-01,-3.11309840455531e-04
1.68927817611018e-08,0.00000000000000e+00,7.50000000000000e-01,3.30783590667747e-04
1.79238927676882e-08,0.00000000000000e+00,7.50000000000000e-01,-3.32259888723330e-04
1.94654332970826e-08,0.00000000000000e+00,7.50000000000000e-01,3.32362137774863e-04
2.19038802901437e-08,0.00000000000000e+00,7.50000000000000e-01,-3.30848322941448e-04
2.50000000000000e-08,0.00000000000000e+00,7.50000000000000e-01,3.29727650411907e-04
2.50100000000000e-08,7.49999999999858e-02,7.50000000000000e-01,3.61515351042188e-04
2.50300000000000e-08,2.25000000000007e-01,7.50000000000000e-01,3.39305699140049e-04
2.50700000000000e-08,5.25000000000000e-01,7.50000000000000e-01,-6.33412725336152e-05
2.51000000000000e-08,7.50000000000000e-01,7.50000000000000e-01,-2.84500267892090e-03
2.51080000000000e-08,7.50000000000000e-01,7.50000000000000e-01,-4.04442293580579e-03
2.51240000000000e-08,7.50000000000000e-01,7.50000000000000e-01,-5.97433549079658e-03
2.51560000000000e-08,7.50000000000000e-01,7.50000000000000e-01,-4.12684052139763e-03
2.52200000000000e-08,7.50000000000000e-01,7.50000000000000e-01,1.56864801471297e-01
2.53480000000000e-08,7.50000000000000e-01,7.50000000000000e-01,6.96346558797111e-01
2.56040000000000e-08,7.50000000000000e-01,7.50000000000000e-01,7.64767649742006e-01
2.58800587236642e-08,7.50000000000000e-01,7.50000000000000e-01,7.35756916507707e-01
2.63562517861601e-08,7.50000000000000e-01,7.50000000000000e-01,7.62583863110832e-01
2.70226465050381e-08,7.50000000000000e-01,7.50000000000000e-01,7.37364328900436e-01
2.83554359427941e-08,7.50000000000000e-01,7.50000000000000e-01,7.61824536017953e-01
3.01000000000000e-08,7.50000000000000e-01,7.50000000000000e-01,7.37878189574093e-01
3.01100000000000e-08,7.50000000000000e-01,6.75000000000039e-01,7.44883613580018e-01
3.01300000000000e-08,7.50000000000000e-01,5.25000000000018e-01,7.50782229580263e-01
3.01700000000000e-08,7.50000000000000e-01,2.25000000000025e-01,7.49563390874241e-01
3.02000000000000e-08,7.50000000000000e-01,1.80966353013901e-14,7.50137525312027e-01
3.02080000000000e-08,7.50000000000000e-01,0.00000000000000e+00,7.50052991348542e-01
3.02240000000000e-08,7.50000000000000e-01,0.00000000000000e+00,7.49962205112279e-01
3.02560000000000e-08,7.50000000000000e-01,0.00000000000000e+00,7.49963888293448e-01
3.03200000000000e-08,7.50000000000000e-01,0.00000000000000e+00,7.50010218846519e-01
3.04322361398566e-08,7.50000000000000e-01,0.00000000000000e+00,7.49983363808520e-01
3.06197668631219e-08,7.50000000000000e-01,0.00000000000000e+00,7.49986551136853e-01
3.08772931381637e-08,7.50000000000000e-01,0.00000000000000e+00,7.49995790720465e-01
3.13923456882475e-08,7.50000000000000e-01,0.00000000000000e+00,7.49984781285809e-01
3.24224507884150e-08,7.50000000000000e-01,0.00000000000000e+00,7.49997883950073e-01
3.44826609887500e-08,7.50000000000000e-01,0.00000000000000e+00,7.49986668961108e-01
3.51000000000000e-08,7.49999999999963e-01,0.00000000000000e+00,7.49999915920829e-01
3.51100000000000e-08,6.74999999999977e-01,0.00000000000000e+00,7.49918382349753e-01
3.51300000000000e-08,5.24999999999956e-01,0.00000000000000e+00,7.49890160213867e-01
3.51700000000000e-08,2.24999999999963e-01,0.00000000000000e+00,7.51382390959253e-01
3.52000000000000e-08,0.00000000000000e+00,0.00000000000000e+00,7.53209677433392e-01
3.52080000000000e-08,0.00000000000000e+00,0.00000000000000e+00,7.51933622202433e-01
3.52240000000000e-08,0.00000000000000e+00,0.00000000000000e+00,7.45663246821734e-01
3.52560000000000e-08,0.00000000000000e+00,0.00000000000000e+00,7.29628978573949e-01
3.53200000000000e-08,0.00000000000000e+00,0.00000000000000e+00,7.36884561830931e-01
3.54480000000000e-08,0.00000000000000e+00,0.00000000000000e+00,7.53339781572382e-01
3.56024059864556e-08,0.00000000000000e+00,0.00000000000000e+00,7.46637533503332e-01
3.59112179593667e-08,0.00000000000000e+00,0.00000000000000e+00,7.52231980081065e-01
3.62634324952223e-08,0.00000000000000e+00,0.00000000000000e+00,7.47704761940123e-01
3.69678615669336e-08,0.00000000000000e+00,0.00000000000000e+00,7.51880642111536e-01
3.83767197103560e-08,0.00000000000000e+00,0.00000000000000e+00,7.48030934645358e-01
3.91000000000000e-08,0.00000000000000e+00,0.00000000000000e+00,7.51723427819841e-01
3.93817716286845e-08,0.00000000000000e+00,0.00000000000000e+00,7.50025293822123e-01
3.99453148860535e-08,0.00000000000000e+00,0.00000000000000e+00,7.49887063795365e-01
4.10724014007914e-08,0.00000000000000e+00,0.00000000000000e+00,7.50024547229793e-01
4.33265744302674e-08,0.00000000000000e+00,0.00000000000000e+00,7.49902633484293e-01
4.50000000000000e-08,0.00000000000000e+00,0.00000000000000e+00,7.50028863683409e-01
4.50100000000000e-08,7.49999999999858e-02,0.00000000000000e+00,7.50064332896561e-01
4.50300000000000e-08,2.25000000000007e-01,0.00000000000000e+00,7.50045357511128e-01
4.50700000000000e-08,5.25000000000000e-01,0.00000000000000e+00,7.49921633400227e-01
4.51000000000000e-08,7.50000000000000e-01,0.00000000000000e+00,7.49745689462157e-01
4.51080000000000e-08,7.50000000000000e-01,0.00000000000000e+00,7.49694069860801e-01
4.51240000000000e-08,7.50000000000000e-01,0.00000000000000e+00,7.49701540553348e-01
4.51560000000000e-08,7.50000000000000e-01,0.00000000000000e+00,7.50277291482671e-01
4.52200000000000e-08,7.50000000000000e-01,0.00000000000000e+00,7.57917784820257e-01
4.53480000000000e-08,7.50000000000000e-01,0.00000000000000e+00,3.93697569388888e-01
4.55750969894031e-08,7.50000000000000e-01,0.00000000000000e+00,-6.86730087695297e-02
4.57996174458622e-08,7.50000000000000e-01,0.00000000000000e+00,4.58206418269685e-02
4.62364695492771e-08,7.50000000000000e-01,0.00000000000000e+00,-3.09676280945383e-02
4.66789116235830e-08,7.50000000000000e-01,0.00000000000000e+00,2.56017899291595e-02
4.75637957721949e-08,7.50000000000000e-01,0.00000000000000e+00,-2.06043585217406e-02
4.90892039087585e-08,7.50000000000000e-01,0.00000000000000e+00,2.04037266025833e-02
5.00000000000000e-08,7.50000000000000e-01,0.00000000000000e+00,-1.65821267477280e-02
5.00100000000000e-08,7.50000000000000e-01,7.49999999999858e-02,-1.34501273111496e-02
5.00300000000000e-08,7.50000000000000e-01,2.24999999999957e-01,-6.82949604185105e-03
5.00700000000000e-08,7.50000000000000e-01,5.25000000000000e-01,-5.66632680942702e-04
5.01000000000000e-08,7.50000000000000e-01,7.50000000000000e-01,-3.43935976504520e-04
5.01080000000000e-08,7.50000000000000e-01,7.50000000000000e-01,-2.04574841663363e-04
5.01240000000000e-08,7.50000000000000e-01,7.50000000000000e-01,-7.44175619921544e-05
5.01560000000000e-08,7.50000000000000e-01,7.50000000000000e-01,-2.41175643449221e-05
5.02200000000000e-08,7.50000000000000e-01,7.50000000000000e-01,9.02185297800562e-06
5.03480000000000e-08,7.50000000000000e-01,7.50000000000000e-01,-6.68124209111595e-06
5.06040000000000e-08,7.50000000000000e-01,7.50000000000000e-01,8.91375585946805e-06
5.11160000000001e-08,7.50000000000000e-01,7.50000000000000e-01,-7.63015375792805e-06
5.21400000000002e-08,7.50000000000000e-01,7.50000000000000e-01,8.35010000419401e-06
5.41880000000003e-08,7.50000000000000e-01,7.50000000000000e-01,-7.44469041753706e-06
5.51000000000000e-08,7.50000000000000e-01,7.50000000000000e-01,8.00569112277810e-06
5.51100000000000e-08,6.75000000000027e-01,7.50000000000000e-01,-7.78555270668640e-05
5.51300000000000e-08,5.25000000000005e-01,7.50000000000000e-01,-1.56204202554466e-04
5.51700000000000e-08,2.25000000000013e-01,7.50000000000000e-01,8.52726333369982e-05
5.52000000000000e-08,0.00000000000000e+00,7.50000000000000e-01,3.81167639638011e-04
5.52080000000000e-08,0.00000000000000e+00,7.50000000000000e-01,3.54561287185681e-04
5.52240000000000e-08,0.00000000000000e+00,7.50000000000000e-01,-1.14354757877189e-04
5.52560000000000e-08,0.00000000000000e+00,7.50000000000000e-01,-1.19400285326772e-03
5.53200000000000e-08,0.00000000000000e+00,7.50000000000000e-01,-5.40773472276830e-04
5.54480000000000e-08,0.00000000000000e+00,7.50000000000000e-01,1.24949704606761e-04
5.56298225165498e-08,0.00000000000000e+00,7.50000000000000e-01,-1.58171735516549e-04
5.58793923137772e-08,0.00000000000000e+00,7.50000000000000e-01,3.65306465077177e-04
5.63776616371769e-08,0.00000000000000e+00,7.50000000000000e-01,-4.02888677933561e-04
5.68931165439028e-08,0.00000000000000e+00,7.50000000000000e-01,4.13202696102231e-04
5.79240263573546e-08,0.00000000000000e+00,7.50000000000000e-01,-4.12048496819058e-04
5.94652895938301e-08,0.00000000000000e+00,7.50000000000000e-01,4.08642531706836e-04
6.19022649624211e-08,0.00000000000000e+00,7.50000000000000e-01,-4.06203665079721e-04
6.50000000000000e-08,0.00000000000000e+00,7.50000000000000e-01,4.03422670261720e-04
6.50100000000000e-08,7.49999999999858e-02,7.50000000000000e-01,3.96442309390441e-04
6.50300000000000e-08,2.24999999999957e-01,7.50000000000000e-01,3.43088799810431e-04
6.50700000000000e-08,5.24999999999900e-01,7.50000000000000e-01,-6.26238485879060e-05
6.51000000000000e-08,7.49999999999957e-01,7.50000000000000e-01,-2.84324293172503e-03
6.51080000000000e-08,7.50000000000000e-01,7.50000000000000e-01,-4.04258184311591e-03
6.51240000000000e-08,7.50000000000000e-01,7.50000000000000e-01,-5.97314375260856e-03
6.51560000000000e-08,7.50000000000000e-01,7.50000000000000e-01,-4.13418170427739e-03
6.52200000000000e-08,7.50000000000000e-01,7.50000000000000e-01,1.56771671077801e-01
6.53480000000000e-08,7.50000000000000e-01,7.50000000000000e-01,6.96301307399496e-01
6.56040000000000e-08,7.50000000000000e-01,7.50000000000000e-01,7.64778965591867e-01
6.58800168121616e-08,7.50000000000000e-01,7.50000000000000e-01,7.35745884980667e-01
6.63562721028975e-08,7.50000000000000e-01,7.50000000000000e-01,7.62593774464063e-01
6.70226528819507e-08,7.50000000000000e-01,7.50000000000000e-01,7.37354220450406e-01
6.83554144400571e-08,7.50000000000000e-01,7.50000000000000e-01,7.61833904794121e-01
7.01000000000000e-08,7.50000000000000e-01,7.50000000000000e-01,7.37868449272672e-01
7.01100000000000e-08,7.50000000000000e-01,6.75000000000014e-01,7.44879608074539e-01
7.01300000000000e-08,7.50000000000000e-01,5.25000000000043e-01,7.50783030520938e-01
7.01700000000000e-08,7.50000000000000e-01,2.25000000000100e-01,7.49563001748374e-01
7.02000000000000e-08,7.50000000000000e-01,4.29656310529936e-14,7.50137692279621e-01
7.02080000000000e-08,7.50000000000000e-01,0.00000000000000e+00,7.50053061182390e-01
7.02240000000000e-08,7.50000000000000e-01,0.00000000000000e+00,7.49962195239199e-01
7.02560000000000e-08,7.50000000000000e-01,0.00000000000000e+00,7.49963895560270e-01
7.03200000000000e-08,7.50000000000000e-01,0.00000000000000e+00,7.50010217220818e-01
7.04322326488693e-08,7.50000000000000e-01,0.00000000000000e+00,7.49983363179396e-01
7.06197651439201e-08,7.50000000000000e-01,0.00000000000000e+00,7.49986542217924e-01
7.08772770122985e-08,7.50000000000000e-01,0.00000000000000e+00,7.49995791795900e-01
7.13923007490553e-08,7.50000000000000e-01,0.00000000000000e+00,7.49984774443410e-01
7.24223482225689e-08,7.50000000000000e-01,0.00000000000000e+00,7.49997884839264e-01
7.44824431695961e-08,7.50000000000000e-01,0.00000000000000e+00,7.49986663868456e-01
7.51000000000000e-08,7.50000000000000e-01,0.00000000000000e+00,7.49999917205262e-01
7.51100000000000e-08,6.75000000000076e-01,0.00000000000000e+00,7.49918381832948e-01
7.51300000000000e-08,5.25000000000105e-01,0.00000000000000e+00,7.49890158884513e-01
7.51700000000000e-08,2.25000000000162e-01,0.00000000000000e+00,7.51382385206065e-01
7.52000000000000e-08,1.05027098129540e-13,0.00000000000000e+00,7.53209493169015e-01
7.52080000000000e-08,0.00000000000000e+00,0.00000000000000e+00,7.51933288382186e-01
7.52240000000000e-08,0.00000000000000e+00,0.00000000000000e+00,7.45662730816764e-01
7.52560000000000e-08,0.00000000000000e+00,0.00000000000000e+00,7.29628607399574e-01
7.53200000000000e-08,0.00000000000000e+00,0.00000000000000e+00,7.36884668887284e-01
7.54480000000000e-08,0.00000000000000e+00,0.00000000000000e+00,7.53339723018417e-01
7.56024059860457e-08,0.00000000000000e+00,0.00000000000000e+00,7.46637576303824e-01
7.59112179581370e-08,0.00000000000000e+00,0.00000000000000e+00,7.52231943243567e-01
7.62634325045692e-08,0.00000000000000e+00,0.00000000000000e+00,7.47704794382586e-01
7.69678615974336e-08,0.00000000000000e+00,0.00000000000000e+00,7.51880611890990e-01
7.81000000000000e-08,0.00000000000000e+00,0.00000000000000e+00,7.48042624687980e-01
7.82408858185729e-08,0.00000000000000e+00,0.00000000000000e+00,7.49777847062106e-01
7.85226574557186e-08,0.00000000000000e+00,0.00000000000000e+00,7.50076489604996e-01
7.90862007300101e-08,0.00000000000000e+00,0.00000000000000e+00,7.49825400116200e-01
8.02132872785931e-08,0.00000000000000e+00,0.00000000000000e+00,7.50073744415206e-01
8.24674603757591e-08,0.00000000000000e+00,0.00000000000000e+00,7.49848960861799e-01
8.50000000000000e-08,0.00000000000000e+00,0.00000000000000e+00,7.50080711679419e-01
8.50100000000000e-08,7.49999999999858e-02,0.00000000000000e+00,7.50097900155632e-01
8.50300000000000e-08,2.24999999999957e-01,0.00000000000000e+00,7.50055409166807e-01
8.50700000000000e-08,5.24999999999900e-01,0.00000000000000e+00,7.49919926335065e-01
8.51000000000000e-08,7.49999999999957e-01,0.00000000000000e+00,7.49745173507856e-01
8.51080000000000e-08,7.50000000000000e-01,0.00000000000000e+00,7.49691433306006e-01
8.51240000000000e-08,7.50000000000000e-01,0.00000000000000e+00,7.49695258876811e-01
8.51560000000000e-08,7.50000000000000e-01,0.00000000000000e+00,7.50275403454129e-01
8.52200000000000e-08,7.50000000000000e-01,0.00000000000000e+00,7.57917563952052e-01
8.53480000000000e-08,7.50000000000000e-01,0.00000000000000e+00,3.93691147560655e-01
8.55750493397016e-08,7.50000000000000e-01,0.00000000000000e+00,-6.86581772454755e-02
8.57995796420205e-08,7.50000000000000e-01,0.00000000000000e+00,4.58108283723571e-02
8.62364045842890e-08,7.50000000000000e-01,0.00000000000000e+00,-3.09611504247170e-02
8.66788227601399e-08,7.50000000000000e-01,0.00000000000000e+00,2.55953816038383e-02
8.75636591118419e-08,7.50000000000000e-01,0.00000000000000e+00,-2.05992921169510e-02
8.90891279756233e-08,7.50000000000000e-01,0.00000000000000e+00,2.03985153717315e-02
9.00000000000000e-08,7.50000000000000e-01,0.00000000000000e+00,-1.65782065293952e-02
9.00100000000000e-08,7.50000000000000e-01,7.49999999999858e-02,-1.34472066199409e-02
9.00300000000000e-08,7.50000000000000e-01,2.24999999999957e-01,-6.82812608256482e-03
9.00700000000000e-08,7.50000000000000e-01,5.24999999999900e-01,-5.66475710419172e-04
9.01000000000000e-08,7.50000000000000e-01,7.49999999999957e-01,-3.43887069928335e-04
9.01080000000000e-08,7.50000000000000e-01,7.50000000000000e-01,-2.04536028932931e-04
9.01240000000000e-08,7.50000000000000e-01,7.50000000000000e-01,-7.43973085675920e-05
9.01560000000000e-08,7.50000000000000e-01,7.50000000000000e-01,-2.41131951307233e-05
9.02200000000000e-08,7.50000000000000e-01,7.50000000000000e-01,9.02164087750873e-06
9.03480000000000e-08,7.50000000000000e-01,7.50000000000000e-01,-6.68192679201957e-06
9.06040000000000e-08,7.50000000000000e-01,7.50000000000000e-01,8.91349830376212e-06
9.11159999999999e-08,7.50000000000000e-01,7.50000000000000e-01,-7.62992411935254e-06
9.21399999999999e-08,7.50000000000000e-01,7.50000000000000e-01,8.34997832555463e-06
9.41879999999998e-08,7.50000000000000e-01,7.50000000000000e-01,-7.44451327780145e-06
9.51000000000000e-08,7.50000000000000e-01,7.50000000000000e-01,8.00562931101839e-06
9.51100000000000e-08,6.75000000000076e-01,7.50000000000000e-01,-7.78559622490876e-05
9.51300000000000e-08,5.25000000000105e-01,7.50000000000000e-01,-1.56203692346923e-04
9.51700000000000e-08,2.25000000000162e-01,7.50000000000000e-01,8.52731977762713e-05
9.52000000000000e-08,1.05027098129540e-13,7.50000000000000e-01,3.81172708467964e-04
9.52080000000000e-08,0.00000000000000e+00,7.50000000000000e-01,3.54570588743983e-04
9.52240000000000e-08,0.00000000000000e+00,7.50000000000000e-01,-1.14332697448608e-04
9.52560000000000e-08,0.00000000000000e+00,7.50000000000000e-01,-1.19393769853351e-03
9.53200000000000e-08,0.00000000000000e+00,7.50000000000000e-01,-5.40744829923168e-04
9.54480000000000e-08,0.00000000000000e+00,7.50000000000000e-01,1.24930246410498e-04
9.56298225459490e-08,0.00000000000000e+00,7.50000000000000e-01,-1.58156970099858e-04
9.58793923326532e-08,0.00000000000000e+00,7.50000000000000e-01,3.65294416646112e-04
9.63776616906250e-08,0.00000000000000e+00,7.50000000000000e-01,-4.02877609022237e-04
9.68931166052022e-08,0.00000000000000e+00,7.50000000000000e-01,4.13192617655158e-04
9.79240264343566e-08,0.00000000000000e+00,7.50000000000000e-01,-4.12038795984710e-04
9.94652896575974e-08,0.00000000000000e+00,7.50000000000000e-01,4.08633148421945e-04
1.01902264953296e-07,0.00000000000000e+00,7.50000000000000e-01,-4.06194408042768e-04
1.05000000000000e-07,0.00000000000000e+00,7.50000000000000e-01,4.03413580578028e-04
1.05010000000000e-07,7.49999999999858e-02,7.50000000000000e-01,3.96438034620888e-04
1.05030000000000e-07,2.24999999999957e-01,7.50000000000000e-01,3.43088402638678e-04
1.05070000000000e-07,5.24999999999900e-01,7.50000000000000e-01,-6.26239435059864e-05
1.05100000000000e-07,7.49999999999957e-01,7.50000000000000e-01,-2.84324257943573e-03
1.05108000000000e-07,7.50000000000000e-01,7.50000000000000e-01,-4.04258167834116e-03
1.05124000000000e-07,7.50000000000000e-01,7.50000000000000e-01,-5.97314371154889e-03
1.05156000000000e-07,7.50000000000000e-01,7.50000000000000e-01,-4.13418208810225e-03
1.05220000000000e-07,7.50000000000000e-01,7.50000000000000e-01,1.56771665791573e-01
1.05348000000000e-07,7.50000000000000e-01,7.50000000000000e-01,6.96301304800843e-01
1.05604000000000e-07,7.50000000000000e-01,7.50000000000000e-01,7.64778966190974e-01
