Time,v(clk),v(data),v(out),v(reset)
1.00000000000000e-08,8.50000000000000e-01,0.00000000000000e+00,-2.55267042028448e-05,0.00000000000000e+00
1.00100000000000e-08,8.50000000000000e-01,8.49999999999979e-02,-1.68726399347036e-05,0.00000000000000e+00
1.00300000000000e-08,8.50000000000000e-01,2.54999999999994e-01,-7.12533176779051e-06,0.00000000000000e+00
1.00700000000000e-08,8.50000000000000e-01,5.94999999999986e-01,-1.01612092395786e-06,0.00000000000000e+00
1.01000000000000e-08,8.50000000000000e-01,8.49999999999994e-01,1.27036870174735e-06,0.00000000000000e+00
1.01080000000000e-08,8.50000000000000e-01,8.50000000000000e-01,1.33445563891416e-06,0.00000000000000e+00
1.01240000000000e-08,8.50000000000000e-01,8.50000000000000e-01,1.84637432626422e-06,0.00000000000000e+00
1.01560000000000e-08,8.50000000000000e-01,8.50000000000000e-01,3.41478502530884e-06,0.00000000000000e+00
1.02200000000000e-08,8.50000000000000e-01,8.50000000000000e-01,2.65480420431896e-06,0.00000000000000e+00
1.03480000000000e-08,8.50000000000000e-01,8.50000000000000e-01,8.27495941511935e-07,0.00000000000000e+00
1.06040000000000e-08,8.50000000000000e-01,8.50000000000000e-01,1.53887898683876e-06,0.00000000000000e+00
1.11160000000000e-08,8.50000000000000e-01,8.50000000000000e-01,1.15291560910755e-06,0.00000000000000e+00
1.21400000000000e-08,8.50000000000000e-01,8.50000000000000e-01,1.42339414802711e-06,0.00000000000000e+00
1.41880000000000e-08,8.50000000000000e-01,8.50000000000000e-01,6.95921206759305e-07,0.00000000000000e+00
1.51000000000000e-08,8.50000000000000e-01,8.50000000000000e-01,1.19773817713669e-06,0.00000000000000e+00
1.51100000000000e-08,7.64999999999988e-01,8.50000000000000e-01,1.70945459394084e-04,8.50000000000120e-02
1.51300000000000e-08,5.94999999999992e-01,8.50000000000000e-01,2.62228080357051e-04,2.55000000000008e-01
1.51700000000000e-08,2.55000000000000e-01,8.50000000000000e-01,1.11980414209574e-04,5.95000000000000e-01
1.52000000000000e-08,0.00000000000000e+00,8.50000000000000e-01,7.56164981666058e-05,8.50000000000000e-01
1.52080000000000e-08,0.00000000000000e+00,8.50000000000000e-01,5.18652984889539e-05,8.50000000000000e-01
1.52240000000000e-08,0.00000000000000e+00,8.50000000000000e-01,1.01153827682804e-05,8.50000000000000e-01
1.52560000000000e-08,0.00000000000000e+00,8.50000000000000e-01,-9.41939129732866e-05,8.50000000000000e-01
1.53200000000000e-08,0.00000000000000e+00,8.50000000000000e-01,-1.37711078063957e-04,8.50000000000000e-01
1.54480000000000e-08,0.00000000000000e+00,8.50000000000000e-01,-1.45196167002030e-04,8.50000000000000e-01
1.57040000000000e-08,0.00000000000000e+00,8.50000000000000e-01,-1.14295226272524e-04,8.50000000000000e-01
1.60153455642114e-08,0.00000000000000e+00,8.50000000000000e-01,2.44686990560699e-04,8.50000000000000e-01
1.66128769582875e-08,0.00000000000000e+00,8.50000000000000e-01,-1.67986066058299e-04,8.50000000000000e-01
1.72096921290561e-08,0.00000000000000e+00,8.50000000000000e-01,1.14456999248035e-04,8.50000000000000e-01
1.84033224705933e-08,0.00000000000000e+00,8.50000000000000e-01,-9.17146204295889e-05,8.50000000000000e-01
2.07905831536676e-08,0.00000000000000e+00,8.50000000000000e-01,8.25154674246149e-05,8.50000000000000e-01
2.45905831536676e-08,0.00000000000000e+00,8.50000000000000e-01,-7.60451958607439e-05,8.50000000000000e-01
2.50000000000000e-08,0.00000000000000e+00,8.50000000000000e-01,3.35784483368792e-05,8.50000000000000e-01
2.50100000000000e-08,8.49999999999839e-02,8.50000000000000e-01,1.60190652192235e-04,8.50000000000000e-01
2.50300000000000e-08,2.55000000000008e-01,8.50000000000000e-01,2.97565117248426e-04,8.50000000000000e-01
2.50700000000000e-08,5.95000000000000e-01,8.50000000000000e-01,-6.83573902913827e-04,8.50000000000000e-01
2.51000000000000e-08,8.50000000000000e-01,8.50000000000000e-01,-4.33001973820353e-03,8.50000000000000e-01
2.51080000000000e-08,8.50000000000000e-01,8.50000000000000e-01,-5.51212404564708e-03,8.50000000000000e-01
2.51240000000000e-08,8.50000000000000e-01,8.50000000000000e-01,-6.82457824237975e-03,8.50000000000000e-01
2.51560000000000e-08,8.50000000000000e-01,8.50000000000000e-01,8.47385846306960e-03,8.50000000000000e-01
2.52200000000000e-08,8.50000000000000e-01,8.50000000000000e-01,2.17437411807940e-01,8.50000000000000e-01
2.53480000000000e-08,8.50000000000000e-01,8.50000000000000e-01,7.59908894151550e-01,8.50000000000000e-01
2.56040000000000e-08,8.50000000000000e-01,8.50000000000000e-01,8.75680480187019e-01,8.50000000000000e-01
2.58680614965177e-08,8.50000000000000e-01,8.50000000000000e-01,8.28605867263182e-01,8.50000000000000e-01
2.63697766490688e-08,8.50000000000000e-01,8.50000000000000e-01,8.66964583342813e-01,8.50000000000000e-01
2.69227589180613e-08,8.50000000000000e-01,8.50000000000000e-01,8.34150843202824e-01,8.50000000000000e-01
2.80287234560463e-08,8.50000000000000e-01,8.50000000000000e-01,8.64070838624903e-01,8.50000000000000e-01
3.02406525320163e-08,8.50000000000000e-01,8.50000000000000e-01,8.35642317168290e-01,8.50000000000000e-01
3.40406525320163e-08,8.50000000000000e-01,8.50000000000000e-01,8.63406570578143e-01,8.50000000000000e-01
3.51000000000000e-08,8.49999999999958e-01,8.50000000000000e-01,8.36849094322276e-01,8.50000000000000e-01
3.51100000000000e-08,7.64999999999974e-01,8.50000000000000e-01,8.41568116147022e-01,8.50000000000000e-01
3.51300000000000e-08,5.94999999999950e-01,8.50000000000000e-01,8.47597208094008e-01,8.50000000000000e-01
3.51700000000000e-08,2.54999999999958e-01,8.50000000000000e-01,8.51010675939937e-01,8.50000000000000e-01
3.52000000000000e-08,0.00000000000000e+00,8.50000000000000e-01,8.52873474390660e-01,8.50000000000000e-01
3.52080000000000e-08,0.00000000000000e+00,8.50000000000000e-01,8.53201618099808e-01,8.50000000000000e-01
3.52240000000000e-08,0.00000000000000e+00,8.50000000000000e-01,8.52508443633769e-01,8.50000000000000e-01
3.52560000000000e-08,0.00000000000000e+00,8.50000000000000e-01,8.42875088111455e-01,8.50000000000000e-01
3.53200000000000e-08,0.00000000000000e+00,8.50000000000000e-01,8.17186742558150e-01,8.50000000000000e-01
3.54480000000000e-08,0.00000000000000e+00,8.50000000000000e-01,8.24477984784877e-01,8.50000000000000e-01
3.57040000000000e-08,0.00000000000000e+00,8.50000000000000e-01,8.55431170808637e-01,8.50000000000000e-01
3.60878113429902e-08,0.00000000000000e+00,8.50000000000000e-01,8.44943216846795e-01,8.50000000000000e-01
3.66662066467279e-08,0.00000000000000e+00,8.50000000000000e-01,8.53511078960130e-01,8.50000000000000e-01
3.78229972542032e-08,0.00000000000000e+00,8.50000000000000e-01,8.46317221451524e-01,8.50000000000000e-01
4.01365784691539e-08,0.00000000000000e+00,8.50000000000000e-01,8.53174493336870e-01,8.50000000000000e-01
4.39365784691539e-08,0.00000000000000e+00,8.50000000000000e-01,8.46652517967982e-01,8.50000000000000e-01
4.50000000000000e-08,0.00000000000000e+00,8.50000000000000e-01,8.52788128350799e-01,8.50000000000000e-01
4.50100000000000e-08,8.49999999999839e-02,8.50000000000000e-01,8.51876945942558e-01,7.65000000000016e-01
4.50300000000000e-08,2.55000000000008e-01,8.50000000000000e-01,8.50613431597187e-01,5.94999999999992e-01
4.50700000000000e-08,5.95000000000000e-01,8.50000000000000e-01,8.52550325953524e-01,2.55000000000000e-01
4.51000000000000e-08,8.50000000000000e-01,8.50000000000000e-01,8.58697503654741e-01,0.00000000000000e+00
4.51080000000000e-08,8.50000000000000e-01,8.50000000000000e-01,8.60744507968512e-01,0.00000000000000e+00
4.51240000000000e-08,8.50000000000000e-01,8.50000000000000e-01,8.64469377659370e-01,0.00000000000000e+00
4.51560000000000e-08,8.50000000000000e-01,8.50000000000000e-01,8.69612969602996e-01,0.00000000000000e+00
4.52200000000000e-08,8.50000000000000e-01,8.50000000000000e-01,6.25483013106939e-01,0.00000000000000e+00
4.53480000000000e-08,8.50000000000000e-01,8.50000000000000e-01,2.93329341149006e-02,0.00000000000000e+00
4.55345677953531e-08,8.50000000000000e-01,8.50000000000000e-01,-1.73311196165438e-02,0.00000000000000e+00
4.58363449940332e-08,8.50000000000000e-01,8.50000000000000e-01,1.33514699292919e-02,0.00000000000000e+00
4.61753390736060e-08,8.50000000000000e-01,8.50000000000000e-01,-1.02345635917529e-02,0.00000000000000e+00
4.67711375473782e-08,8.50000000000000e-01,8.50000000000000e-01,9.00842253567547e-03,0.00000000000000e+00
4.79627344949225e-08,8.50000000000000e-01,8.50000000000000e-01,-8.31176564087219e-03,0.00000000000000e+00
5.01000000000000e-08,8.50000000000000e-01,8.49999999999951e-01,8.07696864938627e-03,0.00000000000000e+00
5.03383193895089e-08,8.50000000000000e-01,8.50000000000000e-01,6.42094070401149e-04,0.00000000000000e+00
5.08149581685266e-08,8.50000000000000e-01,8.50000000000000e-01,-5.38303704926192e-04,0.00000000000000e+00
5.17682357265621e-08,8.50000000000000e-01,8.50000000000000e-01,4.94376474049851e-04,0.00000000000000e+00
5.36747908426331e-08,8.50000000000000e-01,8.50000000000000e-01,-4.72480306683750e-04,0.00000000000000e+00
5.51000000000000e-08,8.50000000000000e-01,8.50000000000000e-01,4.46410904992121e-04,0.00000000000000e+00
5.51100000000000e-08,7.65000000000030e-01,8.50000000000000e-01,4.71004655004874e-04,8.49999999999698e-02
5.51300000000000e-08,5.95000000000006e-01,8.50000000000000e-01,3.67259798416286e-04,2.54999999999994e-01
5.51700000000000e-08,2.55000000000014e-01,8.50000000000000e-01,1.10152434453926e-04,5.94999999999986e-01
5.52000000000000e-08,0.00000000000000e+00,8.50000000000000e-01,6.78884818819045e-05,8.50000000000000e-01
5.52080000000000e-08,0.00000000000000e+00,8.50000000000000e-01,3.80023417557163e-05,8.50000000000000e-01
5.52240000000000e-08,0.00000000000000e+00,8.50000000000000e-01,-3.77428977171856e-05,8.50000000000000e-01
5.52560000000000e-08,0.00000000000000e+00,8.50000000000000e-01,-4.62923209626875e-04,8.50000000000000e-01
5.53200000000000e-08,0.00000000000000e+00,8.50000000000000e-01,-8.34816812504552e-04,8.50000000000000e-01
5.54480000000000e-08,0.00000000000000e+00,8.50000000000000e-01,2.03385732012177e-04,8.50000000000000e-01
5.56894928031913e-08,0.00000000000000e+00,8.50000000000000e-01,-2.32885116016254e-04,8.50000000000000e-01
5.60060717165011e-08,0.00000000000000e+00,8.50000000000000e-01,1.49705982138870e-04,8.50000000000000e-01
5.65868912984467e-08,0.00000000000000e+00,8.50000000000000e-01,-6.68406585716472e-05,8.50000000000000e-01
5.71803835197946e-08,0.00000000000000e+00,8.50000000000000e-01,7.60007400538686e-06,8.50000000000000e-01
5.83673679624903e-08,0.00000000000000e+00,8.50000000000000e-01,1.66381174141897e-05,8.50000000000000e-01
6.07413368478819e-08,0.00000000000000e+00,8.50000000000000e-01,-2.65722646994768e-05,8.50000000000000e-01
6.45413368478819e-08,0.00000000000000e+00,8.50000000000000e-01,3.31675558102106e-05,8.50000000000000e-01
6.50000000000000e-08,0.00000000000000e+00,8.50000000000000e-01,-7.28931722915058e-05,8.50000000000000e-01
6.50100000000000e-08,8.49999999999839e-02,8.50000000000000e-01,1.24751525897290e-04,8.50000000000000e-01
6.50300000000000e-08,2.54999999999952e-01,8.50000000000000e-01,3.19110950352600e-04,8.50000000000000e-01
6.50700000000000e-08,5.94999999999887e-01,8.50000000000000e-01,-8.10194685271291e-04,8.50000000000000e-01
6.51000000000000e-08,8.49999999999951e-01,8.50000000000000e-01,-4.47043553243430e-03,8.50000000000000e-01
6.51080000000000e-08,8.50000000000000e-01,8.50000000000000e-01,-5.61111855554257e-03,8.50000000000000e-01
6.51240000000000e-08,8.50000000000000e-01,8.50000000000000e-01,-6.76850458364746e-03,8.50000000000000e-01
6.51560000000000e-08,8.50000000000000e-01,8.50000000000000e-01,9.67493737095246e-03,8.50000000000000e-01
6.52200000000000e-08,8.50000000000000e-01,8.50000000000000e-01,2.22352827331627e-01,8.50000000000000e-01
6.53480000000000e-08,8.50000000000000e-01,8.50000000000000e-01,7.62897143809148e-01,8.50000000000000e-01
6.56040000000000e-08,8.50000000000000e-01,8.50000000000000e-01,8.75118872117429e-01,8.50000000000000e-01
6.58681766781621e-08,8.50000000000000e-01,8.50000000000000e-01,8.29102507208615e-01,8.50000000000000e-01
6.63686513971152e-08,8.50000000000000e-01,8.50000000000000e-01,8.66548131337875e-01,8.50000000000000e-01
6.69205879882124e-08,8.50000000000000e-01,8.50000000000000e-01,8.34555124836325e-01,8.50000000000000e-01
6.80244611704069e-08,8.50000000000000e-01,8.50000000000000e-01,8.63707505258458e-01,8.50000000000000e-01
7.02322075347957e-08,8.50000000000000e-01,8.50000000000000e-01,8.36018207201311e-01,8.50000000000000e-01
7.40322075347957e-08,8.50000000000000e-01,8.50000000000000e-01,8.63056659065904e-01,8.50000000000000e-01
7.51000000000000e-08,8.50000000000000e-01,8.50000000000000e-01,8.37191111519190e-01,8.50000000000000e-01
7.51100000000000e-08,7.65000000000086e-01,8.50000000000000e-01,8.41775838239213e-01,8.50000000000000e-01
7.51300000000000e-08,5.95000000000119e-01,8.50000000000000e-01,8.47641409568969e-01,8.50000000000000e-01
7.51700000000000e-08,2.55000000000183e-01,8.50000000000000e-01,8.51003391696228e-01,8.50000000000000e-01
7.52000000000000e-08,1.19015908239817e-13,8.50000000000000e-01,8.52874402759852e-01,8.50000000000000e-01
7.52080000000000e-08,0.00000000000000e+00,8.50000000000000e-01,8.53204721620088e-01,8.50000000000000e-01
7.52240000000000e-08,0.00000000000000e+00,8.50000000000000e-01,8.52521176161588e-01,8.50000000000000e-01
7.52560000000000e-08,0.00000000000000e+00,8.50000000000000e-01,8.42912425774982e-01,8.50000000000000e-01
7.53200000000000e-08,0.00000000000000e+00,8.50000000000000e-01,8.17216675458449e-01,8.50000000000000e-01
7.54480000000000e-08,0.00000000000000e+00,8.50000000000000e-01,8.24466765612934e-01,8.50000000000000e-01
7.57040000000000e-08,0.00000000000000e+00,8.50000000000000e-01,8.55437804998532e-01,8.50000000000000e-01
7.60878461803126e-08,0.00000000000000e+00,8.50000000000000e-01,8.44938097562423e-01,8.50000000000000e-01
7.66662028193773e-08,0.00000000000000e+00,8.50000000000000e-01,8.53515161662573e-01,8.50000000000000e-01
7.78229160975068e-08,0.00000000000000e+00,8.50000000000000e-01,8.46313493438848e-01,8.50000000000000e-01
8.01363426537656e-08,0.00000000000000e+00,8.50000000000000e-01,8.53177978237198e-01,8.50000000000000e-01
8.39363426537656e-08,0.00000000000000e+00,8.50000000000000e-01,8.46649092617871e-01,8.50000000000000e-01
8.50000000000000e-08,0.00000000000000e+00,8.50000000000000e-01,8.52791237017237e-01,8.50000000000000e-01
8.50100000000000e-08,8.49999999999839e-02,8.50000000000000e-01,8.51879237357012e-01,7.65000000000016e-01
8.50300000000000e-08,2.54999999999952e-01,8.50000000000000e-01,8.50614502136687e-01,5.95000000000048e-01
8.50700000000000e-08,5.94999999999887e-01,8.50000000000000e-01,8.52550455201411e-01,2.55000000000113e-01
8.51000000000000e-08,8.49999999999951e-01,8.50000000000000e-01,8.58697421246408e-01,4.87387907810444e-14
8.51080000000000e-08,8.50000000000000e-01,8.50000000000000e-01,8.60744406266373e-01,0.00000000000000e+00
8.51240000000000e-08,8.50000000000000e-01,8.50000000000000e-01,8.64469258974059e-01,0.00000000000000e+00
8.51560000000000e-08,8.50000000000000e-01,8.50000000000000e-01,8.69613339979430e-01,0.00000000000000e+00
8.52200000000000e-08,8.50000000000000e-01,8.50000000000000e-01,6.25486534459027e-01,0.00000000000000e+00
8.53480000000000e-08,8.50000000000000e-01,8.50000000000000e-01,2.93356240497749e-02,0.00000000000000e+00
8.55345710967936e-08,8.50000000000000e-01,8.50000000000000e-01,-1.73326275189679e-02,0.00000000000000e+00
8.58364717440641e-08,8.50000000000000e-01,8.50000000000000e-01,1.33541754447459e-02,0.00000000000000e+00
8.61754306871386e-08,8.50000000000000e-01,8.50000000000000e-01,-1.02361960899968e-02,0.00000000000000e+00
8.67714402509534e-08,8.50000000000000e-01,8.50000000000000e-01,9.01031022986339e-03,0.00000000000000e+00
8.79634593785830e-08,8.50000000000000e-01,8.50000000000000e-01,-8.31364119165569e-03,0.00000000000000e+00
9.01000000000000e-08,8.50000000000000e-01,8.49999999999951e-01,8.07871619194045e-03,0.00000000000000e+00
9.03384038255259e-08,8.50000000000000e-01,8.50000000000000e-01,6.42046993266614e-04,0.00000000000000e+00
9.08152114765777e-08,8.50000000000000e-01,8.50000000000000e-01,-5.38296062021740e-04,0.00000000000000e+00
9.17688267786814e-08,8.50000000000000e-01,8.50000000000000e-01,4.94383714385875e-04,0.00000000000000e+00
9.36760573828888e-08,8.50000000000000e-01,8.50000000000000e-01,-4.72493953658370e-04,0.00000000000000e+00
9.51000000000000e-08,8.50000000000000e-01,8.50000000000000e-01,4.46400018949266e-04,0.00000000000000e+00
9.51100000000000e-08,7.65000000000086e-01,8.50000000000000e-01,4.71000480398463e-04,8.49999999999136e-02
9.51300000000000e-08,5.95000000000119e-01,8.50000000000000e-01,3.67261969041709e-04,2.54999999999881e-01
9.51700000000000e-08,2.55000000000183e-01,8.50000000000000e-01,1.10153162104373e-04,5.94999999999817e-01
9.52000000000000e-08,1.19015908239817e-13,8.50000000000000e-01,6.78880198871565e-05,8.49999999999881e-01
9.52080000000000e-08,0.00000000000000e+00,8.50000000000000e-01,3.80008346569094e-05,8.50000000000000e-01
9.52240000000000e-08,0.00000000000000e+00,8.50000000000000e-01,-3.77484975915138e-05,8.50000000000000e-01
9.52560000000000e-08,0.00000000000000e+00,8.50000000000000e-01,-4.62945572765182e-04,8.50000000000000e-01
9.53200000000000e-08,0.00000000000000e+00,8.50000000000000e-01,-8.34881893088460e-04,8.50000000000000e-01
9.54480000000000e-08,0.00000000000000e+00,8.50000000000000e-01,2.03396208117337e-04,8.50000000000000e-01
9.56895033565205e-08,0.00000000000000e+00,8.50000000000000e-01,-2.32889205255458e-04,8.50000000000000e-01
9.60060779896277e-08,0.00000000000000e+00,8.50000000000000e-01,1.49708294976510e-04,8.50000000000000e-01
9.65869102721423e-08,0.00000000000000e+00,8.50000000000000e-01,-6.68426962546174e-05,8.50000000000000e-01
9.71804064686812e-08,0.00000000000000e+00,8.50000000000000e-01,7.59966974799714e-06,8.50000000000000e-01
9.83673988617592e-08,0.00000000000000e+00,8.50000000000000e-01,1.66397399200850e-05,8.50000000000000e-01
1.00741383647915e-07,0.00000000000000e+00,8.50000000000000e-01,-2.65744621153331e-05,8.50000000000000e-01
1.04541383647915e-07,0.00000000000000e+00,8.50000000000000e-01,3.31701451915585e-05,8.50000000000000e-01
1.05000000000000e-07,0.00000000000000e+00,8.50000000000000e-01,-7.29019279670767e-05,8.50000000000000e-01
1.05010000000000e-07,8.49999999999839e-02,8.50000000000000e-01,1.24751227993838e-04,8.50000000000000e-01
1.05030000000000e-07,2.54999999999952e-01,8.50000000000000e-01,3.19115771438817e-04,8.50000000000000e-01
1.05070000000000e-07,5.94999999999887e-01,8.50000000000000e-01,-8.10192211599142e-04,8.50000000000000e-01
1.05100000000000e-07,8.49999999999951e-01,8.50000000000000e-01,-4.47043338732529e-03,8.50000000000000e-01
1.05108000000000e-07,8.50000000000000e-01,8.50000000000000e-01,-5.61111720384462e-03,8.50000000000000e-01
1.05124000000000e-07,8.50000000000000e-01,8.50000000000000e-01,-6.76850612623359e-03,8.50000000000000e-01
1.05156000000000e-07,8.50000000000000e-01,8.50000000000000e-01,9.67491408771765e-03,8.50000000000000e-01
1.05220000000000e-07,8.50000000000000e-01,8.50000000000000e-01,2.22352733724818e-01,8.50000000000000e-01
1.05348000000000e-07,8.50000000000000e-01,8.50000000000000e-01,7.62897087970587e-01,8.50000000000000e-01
1.05604000000000e-07,8.50000000000000e-01,8.50000000000000e-01,8.75118882729736e-01,8.50000000000000e-01
1.05868176675661e-07,8.50000000000000e-01,8.50000000000000e-01,8.29102497655058e-01,8.50000000000000e-01
1.06368651419373e-07,8.50000000000000e-01,8.50000000000000e-01,8.66548139307303e-01,8.50000000000000e-01
1.06920588026022e-07,8.50000000000000e-01,8.50000000000000e-01,8.34555117129699e-01,8.50000000000000e-01
1.08024461239321e-07,8.50000000000000e-01,8.50000000000000e-01,8.63707512152047e-01,8.50000000000000e-01
1.10232207665918e-07,8.50000000000000e-01,8.50000000000000e-01,8.36018200066180e-01,8.50000000000000e-01
1.14032207665918e-07,8.50000000000000e-01,8.50000000000000e-01,8.63056665706051e-01,8.50000000000000e-01
1.15100000000000e-07,8.50000000000000e-01,8.50000000000000e-01,8.37191104998053e-01,8.50000000000000e-01
