Time,v(clk),v(data),v(out)
1.00000000000000e-08,8.50000000000000e-01,0.00000000000000e+00,1.38323118604438e-05
1.00100000000000e-08,8.50000000000000e-01,8.49999999999979e-02,9.55184457958336e-06
1.00300000000000e-08,8.50000000000000e-01,2.54999999999994e-01,5.11691473420450e-06
1.00700000000000e-08,8.50000000000000e-01,5.94999999999986e-01,2.14468647481009e-06
1.01000000000000e-08,8.50000000000000e-01,8.49999999999994e-01,1.15436277674241e-06
1.01080000000000e-08,8.50000000000000e-01,8.50000000000000e-01,1.91188754468385e-06
1.01240000000000e-08,8.50000000000000e-01,8.50000000000000e-01,4.09992802655190e-06
1.01560000000000e-08,8.50000000000000e-01,8.50000000000000e-01,6.06553195853232e-06
1.02200000000000e-08,8.50000000000000e-01,8.50000000000000e-01,4.48305922649134e-06
1.03480000000000e-08,8.50000000000000e-01,8.50000000000000e-01,3.83352654005631e-06
1.06040000000000e-08,8.50000000000000e-01,8.50000000000000e-01,2.83143445130307e-06
1.10889197702815e-08,8.50000000000000e-01,8.50000000000000e-01,4.11419932236021e-06
1.20587593108446e-08,8.50000000000000e-01,8.50000000000000e-01,2.62969162170747e-06
1.39984383919707e-08,8.50000000000000e-01,8.50000000000000e-01,3.71484627204044e-06
1.51000000000000e-08,8.50000000000000e-01,8.50000000000000e-01,2.32999784730015e-06
1.51100000000000e-08,7.64999999999988e-01,8.50000000000000e-01,-6.30037256727223e-05
1.51300000000000e-08,5.94999999999992e-01,8.50000000000000e-01,-1.49892014980529e-04
1.51700000000000e-08,2.55000000000000e-01,8.50000000000000e-01,4.44996245969401e-05
1.52000000000000e-08,0.00000000000000e+00,8.50000000000000e-01,3.98843753845982e-04
1.52080000000000e-08,0.00000000000000e+00,8.50000000000000e-01,4.94273065577061e-04
1.52240000000000e-08,0.00000000000000e+00,8.50000000000000e-01,5.23812738681476e-04
1.52560000000000e-08,0.00000000000000e+00,8.50000000000000e-01,8.85035470134660e-05
1.53200000000000e-08,0.00000000000000e+00,8.50000000000000e-01,-4.08837985103938e-04
1.54480000000000e-08,0.00000000000000e+00,8.50000000000000e-01,-5.79550930568662e-05
1.56419246362614e-08,0.00000000000000e+00,8.50000000000000e-01,-1.99297245697942e-04
1.59539696650188e-08,0.00000000000000e+00,8.50000000000000e-01,3.11959677342141e-04
1.64960448314208e-08,0.00000000000000e+00,8.50000000000000e-01,-2.03264766418326e-04
1.70547784345279e-08,0.00000000000000e+00,8.50000000000000e-01,1.36916203286257e-04
1.81722456407423e-08,0.00000000000000e+00,8.50000000000000e-01,-1.06110326096557e-04
2.04071800531709e-08,0.00000000000000e+00,8.50000000000000e-01,9.77634210421463e-05
2.42071800531709e-08,0.00000000000000e+00,8.50000000000000e-01,-8.75985924722973e-05
2.50000000000000e-08,0.00000000000000e+00,8.50000000000000e-01,6.39183983090243e-05
2.50100000000000e-08,8.49999999999839e-02,8.50000000000000e-01,1.94884763402237e-04
2.50300000000000e-08,2.55000000000008e-01,8.50000000000000e-01,3.48120849502254e-04
2.50700000000000e-08,5.95000000000000e-01,8.50000000000000e-01,4.42605092017767e-04
2.51000000000000e-08,8.50000000000000e-01,8.50000000000000e-01,-7.26084574346225e-04
2.51080000000000e-08,8.50000000000000e-01,8.50000000000000e-01,-1.50247060528319e-03
2.51240000000000e-08,8.50000000000000e-01,8.50000000000000e-01,-3.08338100517100e-03
2.51560000000000e-08,8.50000000000000e-01,8.50000000000000e-01,-5.64129961915046e-03
2.52200000000000e-08,8.50000000000000e-01,8.50000000000000e-01,8.28946514734932e-03
2.53480000000000e-08,8.50000000000000e-01,8.50000000000000e-01,4.30362491575473e-01
2.56040000000000e-08,8.50000000000000e-01,8.50000000000000e-01,8.68591660217492e-01
2.58984817301228e-08,8.50000000000000e-01,8.50000000000000e-01,8.36287202474099e-01
2.64874451903685e-08,8.50000000000000e-01,8.50000000000000e-01,8.62981053770667e-01
2.71484979191017e-08,8.50000000000000e-01,8.50000000000000e-01,8.37466606166164e-01
2.82328548554450e-08,8.50000000000000e-01,8.50000000000000e-01,8.62081474553857e-01
3.01000000000000e-08,8.50000000000000e-01,8.50000000000000e-01,8.37996144622575e-01
3.01100000000000e-08,8.50000000000000e-01,7.65000000000044e-01,8.44833052893598e-01
3.01300000000000e-08,8.50000000000000e-01,5.95000000000020e-01,8.50741804611669e-01
3.01700000000000e-08,8.50000000000000e-01,2.55000000000028e-01,8.49648620649572e-01
3.02000000000000e-08,8.50000000000000e-01,2.05391259555654e-14,8.50117409213066e-01
3.02080000000000e-08,8.50000000000000e-01,0.00000000000000e+00,8.50044824399054e-01
3.02240000000000e-08,8.50000000000000e-01,0.00000000000000e+00,8.49975940318579e-01
3.02560000000000e-08,8.50000000000000e-01,0.00000000000000e+00,8.49978586044367e-01
3.03200000000000e-08,8.50000000000000e-01,0.00000000000000e+00,8.50008485372277e-01
3.04480000000000e-08,8.50000000000000e-01,0.00000000000000e+00,8.49986833738094e-01
3.06408905843300e-08,8.50000000000000e-01,0.00000000000000e+00,8.49993860215262e-01
3.09532544374424e-08,8.50000000000000e-01,0.00000000000000e+00,8.49988773283880e-01
3.15779821436670e-08,8.50000000000000e-01,0.00000000000000e+00,8.49993757343248e-01
3.28274375561162e-08,8.50000000000000e-01,0.00000000000000e+00,8.49991055026164e-01
3.51000000000000e-08,8.49999999999958e-01,0.00000000000000e+00,8.49994828504231e-01
3.51100000000000e-08,7.64999999999974e-01,0.00000000000000e+00,8.49934554341958e-01
3.51300000000000e-08,5.94999999999950e-01,0.00000000000000e+00,8.49913913680109e-01
3.51700000000000e-08,2.54999999999958e-01,0.00000000000000e+00,8.51441963190245e-01
3.52000000000000e-08,0.00000000000000e+00,0.00000000000000e+00,8.52541465426976e-01
3.52080000000000e-08,0.00000000000000e+00,0.00000000000000e+00,8.51073761029088e-01
3.52240000000000e-08,0.00000000000000e+00,0.00000000000000e+00,8.45098087808432e-01
3.52560000000000e-08,0.00000000000000e+00,0.00000000000000e+00,8.27288829743202e-01
3.53200000000000e-08,0.00000000000000e+00,0.00000000000000e+00,8.27070843139521e-01
3.54480000000000e-08,0.00000000000000e+00,0.00000000000000e+00,8.51509320111818e-01
3.56427209133422e-08,0.00000000000000e+00,0.00000000000000e+00,8.47741505686689e-01
3.59541818110534e-08,0.00000000000000e+00,0.00000000000000e+00,8.51170178955769e-01
3.64248141904639e-08,0.00000000000000e+00,0.00000000000000e+00,8.48520912260522e-01
3.73186609669940e-08,0.00000000000000e+00,0.00000000000000e+00,8.51113235971105e-01
3.91000000000000e-08,0.00000000000000e+00,0.00000000000000e+00,8.48759944269633e-01
3.92787693553060e-08,0.00000000000000e+00,0.00000000000000e+00,8.49857425862108e-01
3.96363080659181e-08,0.00000000000000e+00,0.00000000000000e+00,8.50021837052763e-01
4.03513854871422e-08,0.00000000000000e+00,0.00000000000000e+00,8.49885675984973e-01
4.17815403295905e-08,0.00000000000000e+00,0.00000000000000e+00,8.50027986728950e-01
4.46418500144870e-08,0.00000000000000e+00,0.00000000000000e+00,8.49906720713694e-01
4.50000000000000e-08,0.00000000000000e+00,0.00000000000000e+00,8.50027060740241e-01
4.50100000000000e-08,8.49999999999839e-02,0.00000000000000e+00,8.50051649170532e-01
4.50300000000000e-08,2.55000000000008e-01,0.00000000000000e+00,8.50039463408765e-01
4.50700000000000e-08,5.95000000000000e-01,0.00000000000000e+00,8.49967624005596e-01
4.51000000000000e-08,8.50000000000000e-01,0.00000000000000e+00,8.49862923960007e-01
4.51080000000000e-08,8.50000000000000e-01,0.00000000000000e+00,8.49832409474322e-01
4.51240000000000e-08,8.50000000000000e-01,0.00000000000000e+00,8.49798224523231e-01
4.51560000000000e-08,8.50000000000000e-01,0.00000000000000e+00,8.49846257915766e-01
4.52200000000000e-08,8.50000000000000e-01,0.00000000000000e+00,8.50828688111435e-01
4.53480000000000e-08,8.50000000000000e-01,0.00000000000000e+00,8.61303661567547e-01
4.56040000000000e-08,8.50000000000000e-01,0.00000000000000e+00,2.75112252432968e-01
4.58698283211632e-08,8.50000000000000e-01,0.00000000000000e+00,-7.22177244812498e-02
4.63608128762526e-08,8.50000000000000e-01,0.00000000000000e+00,5.28203163947441e-02
4.69143474382777e-08,8.50000000000000e-01,0.00000000000000e+00,-3.50661938557024e-02
4.77298499423556e-08,8.50000000000000e-01,0.00000000000000e+00,2.91450984602455e-02
4.93608549505115e-08,8.50000000000000e-01,0.00000000000000e+00,-2.51561949577518e-02
5.00000000000000e-08,8.50000000000000e-01,0.00000000000000e+00,1.95559436960582e-02
5.00100000000000e-08,8.50000000000000e-01,8.49999999999839e-02,1.52752486499797e-02
5.00300000000000e-08,8.50000000000000e-01,2.54999999999952e-01,9.33292498926541e-03
5.00700000000000e-08,8.50000000000000e-01,5.95000000000000e-01,4.08318491991767e-03
5.01000000000000e-08,8.50000000000000e-01,8.50000000000000e-01,2.08075555388496e-03
5.01080000000000e-08,8.50000000000000e-01,8.50000000000000e-01,1.80521176085527e-03
5.01240000000000e-08,8.50000000000000e-01,8.50000000000000e-01,1.19698675833937e-03
5.01560000000000e-08,8.50000000000000e-01,8.50000000000000e-01,5.75241811052257e-04
5.02200000000000e-08,8.50000000000000e-01,8.50000000000000e-01,1.19698727538614e-04
5.03480000000000e-08,8.50000000000000e-01,8.50000000000000e-01,-1.51919565731032e-05
5.06040000000000e-08,8.50000000000000e-01,8.50000000000000e-01,6.96005179236930e-06
5.11160000000001e-08,8.50000000000000e-01,8.50000000000000e-01,-7.20153372123569e-06
5.21400000000002e-08,8.50000000000000e-01,8.50000000000000e-01,6.80386377476406e-06
5.41880000000003e-08,8.50000000000000e-01,8.50000000000000e-01,-3.34205530046292e-06
5.51000000000000e-08,8.50000000000000e-01,8.50000000000000e-01,3.58784002864668e-06
5.51100000000000e-08,7.65000000000030e-01,8.50000000000000e-01,-6.75923712843279e-05
5.51300000000000e-08,5.95000000000006e-01,8.50000000000000e-01,-1.61804055444414e-04
5.51700000000000e-08,2.55000000000014e-01,8.50000000000000e-01,2.65615747116615e-05
5.52000000000000e-08,0.00000000000000e+00,8.50000000000000e-01,2.44298684196467e-04
5.52080000000000e-08,0.00000000000000e+00,8.50000000000000e-01,1.92736838149715e-04
5.52240000000000e-08,0.00000000000000e+00,8.50000000000000e-01,-2.36486401681474e-04
5.52560000000000e-08,0.00000000000000e+00,8.50000000000000e-01,-2.00345007033645e-03
5.53200000000000e-08,0.00000000000000e+00,8.50000000000000e-01,-2.71541720821643e-03
5.54480000000000e-08,0.00000000000000e+00,8.50000000000000e-01,-2.16914977636630e-04
5.56408965931131e-08,0.00000000000000e+00,8.50000000000000e-01,-4.19317541844044e-05
5.59537419430174e-08,0.00000000000000e+00,8.50000000000000e-01,1.87537357610380e-04
5.65311919786280e-08,0.00000000000000e+00,8.50000000000000e-01,-1.06436756625547e-04
5.70815310641689e-08,0.00000000000000e+00,8.50000000000000e-01,5.73359211125616e-05
5.81822092352507e-08,0.00000000000000e+00,8.50000000000000e-01,-3.51673160243759e-05
6.03835655774144e-08,0.00000000000000e+00,8.50000000000000e-01,3.09670594022542e-05
6.41835655774144e-08,0.00000000000000e+00,8.50000000000000e-01,-2.32784402188118e-05
6.50000000000000e-08,0.00000000000000e+00,8.50000000000000e-01,1.09221974103520e-05
6.50100000000000e-08,8.49999999999839e-02,8.50000000000000e-01,1.44135262309053e-04
6.50300000000000e-08,2.54999999999952e-01,8.50000000000000e-01,3.16378555662647e-04
6.50700000000000e-08,5.94999999999887e-01,8.50000000000000e-01,4.41905004590806e-04
6.51000000000000e-08,8.49999999999951e-01,8.50000000000000e-01,-7.20491893177772e-04
6.51080000000000e-08,8.50000000000000e-01,8.50000000000000e-01,-1.49438795574477e-03
6.51240000000000e-08,8.50000000000000e-01,8.50000000000000e-01,-3.07322849711730e-03
6.51560000000000e-08,8.50000000000000e-01,8.50000000000000e-01,-5.63486909438649e-03
6.52200000000000e-08,8.50000000000000e-01,8.50000000000000e-01,8.20515252442099e-03
6.53480000000000e-08,8.50000000000000e-01,8.50000000000000e-01,4.29855468249405e-01
6.56040000000000e-08,8.50000000000000e-01,8.50000000000000e-01,8.68538409035694e-01
6.58986177055298e-08,8.50000000000000e-01,8.50000000000000e-01,8.36327419273155e-01
6.64878531165895e-08,8.50000000000000e-01,8.50000000000000e-01,8.62944609315584e-01
6.71488708558165e-08,8.50000000000000e-01,8.50000000000000e-01,8.37502513609236e-01
6.82334814355139e-08,8.50000000000000e-01,8.50000000000000e-01,8.62047781284113e-01
7.01000000000000e-08,8.50000000000000e-01,8.50000000000000e-01,8.38030284376896e-01
7.01100000000000e-08,8.50000000000000e-01,7.65000000000016e-01,8.44848163635871e-01
7.01300000000000e-08,8.50000000000000e-01,5.95000000000048e-01,8.50740102511185e-01
7.01700000000000e-08,8.50000000000000e-01,2.55000000000113e-01,8.49649463869374e-01
7.02000000000000e-08,8.50000000000000e-01,4.87387907810444e-14,8.50117131637787e-01
7.02080000000000e-08,8.50000000000000e-01,0.00000000000000e+00,8.50044704221964e-01
7.02240000000000e-08,8.50000000000000e-01,0.00000000000000e+00,8.49975962872183e-01
7.02560000000000e-08,8.50000000000000e-01,0.00000000000000e+00,8.49978586236232e-01
7.03200000000000e-08,8.50000000000000e-01,0.00000000000000e+00,8.50008486773285e-01
7.04480000000000e-08,8.50000000000000e-01,0.00000000000000e+00,8.49986835831536e-01
7.06408906622514e-08,8.50000000000000e-01,0.00000000000000e+00,8.49993858667244e-01
7.09532307774355e-08,8.50000000000000e-01,0.00000000000000e+00,8.49988776204775e-01
7.15779110078037e-08,8.50000000000000e-01,0.00000000000000e+00,8.49993751063984e-01
7.28272714685402e-08,8.50000000000000e-01,0.00000000000000e+00,8.49991062650053e-01
7.51000000000000e-08,8.50000000000000e-01,0.00000000000000e+00,8.49994820707484e-01
7.51100000000000e-08,7.65000000000086e-01,0.00000000000000e+00,8.49934486314371e-01
7.51300000000000e-08,5.95000000000119e-01,0.00000000000000e+00,8.49913839250867e-01
7.51700000000000e-08,2.55000000000183e-01,0.00000000000000e+00,8.51441969329830e-01
7.52000000000000e-08,1.19015908239817e-13,0.00000000000000e+00,8.52541477368232e-01
7.52080000000000e-08,0.00000000000000e+00,0.00000000000000e+00,8.51073763129198e-01
7.52240000000000e-08,0.00000000000000e+00,0.00000000000000e+00,8.45098039913322e-01
7.52560000000000e-08,0.00000000000000e+00,0.00000000000000e+00,8.27288999192052e-01
7.53200000000000e-08,0.00000000000000e+00,0.00000000000000e+00,8.27071049310610e-01
7.54480000000000e-08,0.00000000000000e+00,0.00000000000000e+00,8.51509364082376e-01
7.56427209255565e-08,0.00000000000000e+00,0.00000000000000e+00,8.47741487324238e-01
7.59541817802436e-08,0.00000000000000e+00,0.00000000000000e+00,8.51170196672375e-01
7.64248142145386e-08,0.00000000000000e+00,0.00000000000000e+00,8.48520896674848e-01
7.73186606901300e-08,0.00000000000000e+00,0.00000000000000e+00,8.51113251016858e-01
7.81000000000000e-08,0.00000000000000e+00,0.00000000000000e+00,8.48785969916153e-01
7.82787692951183e-08,0.00000000000000e+00,0.00000000000000e+00,8.49843003367559e-01
7.86363078853549e-08,0.00000000000000e+00,0.00000000000000e+00,8.50004134073988e-01
7.93513850658280e-08,0.00000000000000e+00,0.00000000000000e+00,8.49877775511132e-01
8.07815394267742e-08,0.00000000000000e+00,0.00000000000000e+00,8.50019473071658e-01
8.36418481486666e-08,0.00000000000000e+00,0.00000000000000e+00,8.49906636678151e-01
8.50000000000000e-08,0.00000000000000e+00,0.00000000000000e+00,8.50031189154621e-01
8.50100000000000e-08,8.49999999999839e-02,0.00000000000000e+00,8.50052538631976e-01
8.50300000000000e-08,2.54999999999952e-01,0.00000000000000e+00,8.50037382311872e-01
8.50700000000000e-08,5.94999999999887e-01,0.00000000000000e+00,8.49966969243008e-01
8.51000000000000e-08,8.49999999999951e-01,0.00000000000000e+00,8.49862551128442e-01
8.51080000000000e-08,8.50000000000000e-01,0.00000000000000e+00,8.49831573229221e-01
8.51240000000000e-08,8.50000000000000e-01,0.00000000000000e+00,8.49798587952716e-01
8.51560000000000e-08,8.50000000000000e-01,0.00000000000000e+00,8.49827439838276e-01
8.52200000000000e-08,8.50000000000000e-01,0.00000000000000e+00,8.50847548008404e-01
8.53480000000000e-08,8.50000000000000e-01,0.00000000000000e+00,8.61272450234273e-01
8.56040000000000e-08,8.50000000000000e-01,0.00000000000000e+00,2.75110473575193e-01
8.58698370018208e-08,8.50000000000000e-01,0.00000000000000e+00,-7.22266627331891e-02
8.63608600817185e-08,8.50000000000000e-01,0.00000000000000e+00,5.28281333600876e-02
8.69145686354944e-08,8.50000000000000e-01,0.00000000000000e+00,-3.50763112277674e-02
8.77300445929868e-08,8.50000000000000e-01,0.00000000000000e+00,2.91533058230947e-02
8.93609965079718e-08,8.50000000000000e-01,0.00000000000000e+00,-2.51634972944555e-02
9.00000000000000e-08,8.50000000000000e-01,0.00000000000000e+00,1.95605694931988e-02
9.00100000000000e-08,8.50000000000000e-01,8.49999999999839e-02,1.52783310998543e-02
9.00300000000000e-08,8.50000000000000e-01,2.54999999999952e-01,9.33423902199858e-03
9.00700000000000e-08,8.50000000000000e-01,5.94999999999887e-01,4.08378097402957e-03
9.01000000000000e-08,8.50000000000000e-01,8.49999999999951e-01,2.08105884661644e-03
9.01080000000000e-08,8.50000000000000e-01,8.50000000000000e-01,1.80547340275340e-03
9.01240000000000e-08,8.50000000000000e-01,8.50000000000000e-01,1.19716021919863e-03
9.01560000000000e-08,8.50000000000000e-01,8.50000000000000e-01,5.75330181388944e-04
9.02200000000000e-08,8.50000000000000e-01,8.50000000000000e-01,1.19722961635392e-04
9.03480000000000e-08,8.50000000000000e-01,8.50000000000000e-01,-1.51935731267441e-05
9.06040000000000e-08,8.50000000000000e-01,8.50000000000000e-01,6.96529528585940e-06
9.11159999999999e-08,8.50000000000000e-01,8.50000000000000e-01,-7.20114650552481e-06
9.21399999999999e-08,8.50000000000000e-01,8.50000000000000e-01,6.80859908320022e-06
9.41879999999998e-08,8.50000000000000e-01,8.50000000000000e-01,-3.34138124598836e-06
9.51000000000000e-08,8.50000000000000e-01,8.50000000000000e-01,3.59204578826051e-06
9.51100000000000e-08,7.65000000000086e-01,8.50000000000000e-01,-6.75904934659410e-05
9.51300000000000e-08,5.95000000000119e-01,8.50000000000000e-01,-1.61804310401359e-04
9.51700000000000e-08,2.55000000000183e-01,8.50000000000000e-01,2.65672845373432e-05
9.52000000000000e-08,1.19015908239817e-13,8.50000000000000e-01,2.44448764790753e-04
9.52080000000000e-08,0.00000000000000e+00,8.50000000000000e-01,1.92985502520268e-04
9.52240000000000e-08,0.00000000000000e+00,8.50000000000000e-01,-2.36031582367888e-04
9.52560000000000e-08,0.00000000000000e+00,8.50000000000000e-01,-2.00253640220505e-03
9.53200000000000e-08,0.00000000000000e+00,8.50000000000000e-01,-2.71354838129474e-03
9.54480000000000e-08,0.00000000000000e+00,8.50000000000000e-01,-2.16341657284846e-04
9.56408965580668e-08,0.00000000000000e+00,8.50000000000000e-01,-4.23559372168536e-05
9.59537937288554e-08,0.00000000000000e+00,8.50000000000000e-01,1.87843802648070e-04
9.65315841808515e-08,0.00000000000000e+00,8.50000000000000e-01,-1.06744917398569e-04
9.70818968717576e-08,0.00000000000000e+00,8.50000000000000e-01,5.75948164700819e-05
9.81825222535697e-08,0.00000000000000e+00,8.50000000000000e-01,-3.54053847089371e-05
1.00383773017194e-07,0.00000000000000e+00,8.50000000000000e-01,3.11957853432422e-05
1.04183773017194e-07,0.00000000000000e+00,8.50000000000000e-01,-2.35019808316377e-05
1.05000000000000e-07,0.00000000000000e+00,8.50000000000000e-01,1.11205598901480e-05
1.05010000000000e-07,8.49999999999839e-02,8.50000000000000e-01,1.44254064222651e-04
1.05030000000000e-07,2.54999999999952e-01,8.50000000000000e-01,3.16417936881253e-04
1.05070000000000e-07,5.94999999999887e-01,8.50000000000000e-01,4.41955034652705e-04
1.05100000000000e-07,8.49999999999951e-01,8.50000000000000e-01,-7.20307969759554e-04
1.05108000000000e-07,8.50000000000000e-01,8.50000000000000e-01,-1.49416612481487e-03
1.05124000000000e-07,8.50000000000000e-01,8.50000000000000e-01,-3.07297894811484e-03
1.05156000000000e-07,8.50000000000000e-01,8.50000000000000e-01,-5.63471611073976e-03
1.05220000000000e-07,8.50000000000000e-01,8.50000000000000e-01,8.20301086764234e-03
1.05348000000000e-07,8.50000000000000e-01,8.50000000000000e-01,4.29842619543797e-01
1.05604000000000e-07,8.50000000000000e-01,8.50000000000000e-01,8.68537056358709e-01
1.05898621154172e-07,8.50000000000000e-01,8.50000000000000e-01,8.36328439655970e-01
1.06487863462515e-07,8.50000000000000e-01,8.50000000000000e-01,8.62943684480459e-01
1.07148880322807e-07,8.50000000000000e-01,8.50000000000000e-01,8.37503424633195e-01
