Time,v(clk),v(data),v(out),v(reset)
1.00000000000000e-08,8.50000000000000e-01,0.00000000000000e+00,1.50663708441594e-05,0.00000000000000e+00
1.00100000000000e-08,8.50000000000000e-01,8.49999999999979e-02,1.35547848486017e-05,0.00000000000000e+00
1.00300000000000e-08,8.50000000000000e-01,2.54999999999994e-01,1.13651556865046e-05,0.00000000000000e+00
1.00700000000000e-08,8.50000000000000e-01,5.94999999999986e-01,9.63283158451900e-06,0.00000000000000e+00
1.01000000000000e-08,8.50000000000000e-01,8.49999999999994e-01,9.12112679868349e-06,0.00000000000000e+00
1.01080000000000e-08,8.50000000000000e-01,8.50000000000000e-01,9.28035828184903e-06,0.00000000000000e+00
1.01240000000000e-08,8.50000000000000e-01,8.50000000000000e-01,1.02618392496812e-05,0.00000000000000e+00
1.01560000000000e-08,8.50000000000000e-01,8.50000000000000e-01,1.09573721221029e-05,0.00000000000000e+00
1.02200000000000e-08,8.50000000000000e-01,8.50000000000000e-01,1.01287695261840e-05,0.00000000000000e+00
1.03480000000000e-08,8.50000000000000e-01,8.50000000000000e-01,9.52829782398940e-06,0.00000000000000e+00
1.06040000000000e-08,8.50000000000000e-01,8.50000000000000e-01,9.21308497773068e-06,0.00000000000000e+00
1.11160000000000e-08,8.50000000000000e-01,8.50000000000000e-01,8.68687246102610e-06,0.00000000000000e+00
1.21400000000000e-08,8.50000000000000e-01,8.50000000000000e-01,8.36667322603145e-06,0.00000000000000e+00
1.41880000000000e-08,8.50000000000000e-01,8.50000000000000e-01,7.52460632380807e-06,0.00000000000000e+00
1.51000000000000e-08,8.50000000000000e-01,8.50000000000000e-01,6.49179404273691e-06,0.00000000000000e+00
1.51100000000000e-08,7.64999999999988e-01,8.50000000000000e-01,1.61240200696439e-04,8.50000000000120e-02
1.51300000000000e-08,5.94999999999992e-01,8.50000000000000e-01,2.63411799983168e-04,2.55000000000008e-01
1.51700000000000e-08,2.55000000000000e-01,8.50000000000000e-01,2.76573449639175e-04,5.95000000000000e-01
1.52000000000000e-08,0.00000000000000e+00,8.50000000000000e-01,3.93331971490246e-04,8.50000000000000e-01
1.52080000000000e-08,0.00000000000000e+00,8.50000000000000e-01,3.67167913503233e-04,8.50000000000000e-01
1.52240000000000e-08,0.00000000000000e+00,8.50000000000000e-01,2.97788009448477e-04,8.50000000000000e-01
1.52560000000000e-08,0.00000000000000e+00,8.50000000000000e-01,6.09840235449299e-06,8.50000000000000e-01
1.53200000000000e-08,0.00000000000000e+00,8.50000000000000e-01,-4.51131475457160e-04,8.50000000000000e-01
1.54480000000000e-08,0.00000000000000e+00,8.50000000000000e-01,-2.38661286586922e-05,8.50000000000000e-01
1.56548950985767e-08,0.00000000000000e+00,8.50000000000000e-01,-3.23360233699277e-04,8.50000000000000e-01
1.59755209564794e-08,0.00000000000000e+00,8.50000000000000e-01,2.64449308798442e-04,8.50000000000000e-01
1.64356753768966e-08,0.00000000000000e+00,8.50000000000000e-01,2.77354125448014e-05,8.50000000000000e-01
1.71020611416647e-08,0.00000000000000e+00,8.50000000000000e-01,-1.15326383838203e-04,8.50000000000000e-01
1.81891668376825e-08,0.00000000000000e+00,8.50000000000000e-01,1.62683808233770e-04,8.50000000000000e-01
2.03633782297181e-08,0.00000000000000e+00,8.50000000000000e-01,-1.64614378833851e-04,8.50000000000000e-01
2.41633782297181e-08,0.00000000000000e+00,8.50000000000000e-01,1.81974656235537e-04,8.50000000000000e-01
2.50000000000000e-08,0.00000000000000e+00,8.50000000000000e-01,-1.89998184400535e-04,8.50000000000000e-01
2.50100000000000e-08,8.49999999999839e-02,8.50000000000000e-01,9.14928479744948e-06,8.50000000000000e-01
2.50300000000000e-08,2.55000000000008e-01,8.50000000000000e-01,2.86441319866507e-04,8.50000000000000e-01
2.50700000000000e-08,5.95000000000000e-01,8.50000000000000e-01,5.34046765580609e-04,8.50000000000000e-01
2.51000000000000e-08,8.50000000000000e-01,8.50000000000000e-01,-7.69518608666198e-05,8.50000000000000e-01
2.51080000000000e-08,8.50000000000000e-01,8.50000000000000e-01,-6.27131112054688e-04,8.50000000000000e-01
2.51240000000000e-08,8.50000000000000e-01,8.50000000000000e-01,-1.88259133732939e-03,8.50000000000000e-01
2.51560000000000e-08,8.50000000000000e-01,8.50000000000000e-01,-4.41301553081190e-03,8.50000000000000e-01
2.52200000000000e-08,8.50000000000000e-01,8.50000000000000e-01,-2.72905686475224e-03,8.50000000000000e-01
2.53480000000000e-08,8.50000000000000e-01,8.50000000000000e-01,2.50683644279819e-01,8.50000000000000e-01
2.56040000000000e-08,8.50000000000000e-01,8.50000000000000e-01,8.35449144937161e-01,8.50000000000000e-01
2.60096354534402e-08,8.50000000000000e-01,8.50000000000000e-01,8.54490532074810e-01,8.50000000000000e-01
2.65922524903843e-08,8.50000000000000e-01,8.50000000000000e-01,8.45628989283583e-01,8.50000000000000e-01
2.73462976953541e-08,8.50000000000000e-01,8.50000000000000e-01,8.54014660722972e-01,8.50000000000000e-01
2.85733040994118e-08,8.50000000000000e-01,8.50000000000000e-01,8.45996347795690e-01,8.50000000000000e-01
3.10273169075273e-08,8.50000000000000e-01,8.50000000000000e-01,8.53837315532741e-01,8.50000000000000e-01
3.48273169075273e-08,8.50000000000000e-01,8.50000000000000e-01,8.46108537087532e-01,8.50000000000000e-01
3.51000000000000e-08,8.49999999999958e-01,8.50000000000000e-01,8.53325650739489e-01,8.50000000000000e-01
3.51100000000000e-08,7.64999999999974e-01,8.50000000000000e-01,8.51463481410770e-01,8.50000000000000e-01
3.51300000000000e-08,5.94999999999950e-01,8.50000000000000e-01,8.49836672707161e-01,8.50000000000000e-01
3.51700000000000e-08,2.54999999999958e-01,8.50000000000000e-01,8.51504652414592e-01,8.50000000000000e-01
3.52000000000000e-08,0.00000000000000e+00,8.50000000000000e-01,8.52788714643065e-01,8.50000000000000e-01
3.52080000000000e-08,0.00000000000000e+00,8.50000000000000e-01,8.51649443791751e-01,8.50000000000000e-01
3.52240000000000e-08,0.00000000000000e+00,8.50000000000000e-01,8.46546950285177e-01,8.50000000000000e-01
3.52560000000000e-08,0.00000000000000e+00,8.50000000000000e-01,8.29535859828396e-01,8.50000000000000e-01
3.53200000000000e-08,0.00000000000000e+00,8.50000000000000e-01,8.24170875103134e-01,8.50000000000000e-01
3.54480000000000e-08,0.00000000000000e+00,8.50000000000000e-01,8.49560541608500e-01,8.50000000000000e-01
3.56727413944259e-08,0.00000000000000e+00,8.50000000000000e-01,8.48723283908865e-01,8.50000000000000e-01
3.59780336527171e-08,0.00000000000000e+00,8.50000000000000e-01,8.50235532495146e-01,8.50000000000000e-01
3.65886181692994e-08,0.00000000000000e+00,8.50000000000000e-01,8.49252207686655e-01,8.50000000000000e-01
3.78097872024640e-08,0.00000000000000e+00,8.50000000000000e-01,8.50427099264274e-01,8.50000000000000e-01
4.02521252687933e-08,0.00000000000000e+00,8.50000000000000e-01,8.49417482104441e-01,8.50000000000000e-01
4.40521252687933e-08,0.00000000000000e+00,8.50000000000000e-01,8.50476888294946e-01,8.50000000000000e-01
4.50000000000000e-08,0.00000000000000e+00,8.50000000000000e-01,8.49472472594319e-01,8.50000000000000e-01
4.50100000000000e-08,8.49999999999839e-02,8.50000000000000e-01,8.49573135526922e-01,7.65000000000016e-01
4.50300000000000e-08,2.55000000000008e-01,8.50000000000000e-01,8.49785333252140e-01,5.94999999999992e-01
4.50700000000000e-08,5.95000000000000e-01,8.50000000000000e-01,8.54791803956034e-01,2.55000000000000e-01
4.51000000000000e-08,8.50000000000000e-01,8.50000000000000e-01,8.65387629855496e-01,0.00000000000000e+00
4.51080000000000e-08,8.50000000000000e-01,8.50000000000000e-01,8.69028247753513e-01,0.00000000000000e+00
4.51240000000000e-08,8.50000000000000e-01,8.50000000000000e-01,8.76846675510640e-01,0.00000000000000e+00
4.51560000000000e-08,8.50000000000000e-01,8.50000000000000e-01,8.66496646561104e-01,0.00000000000000e+00
4.52200000000000e-08,8.50000000000000e-01,8.50000000000000e-01,6.42988813663509e-01,0.00000000000000e+00
4.53480000000000e-08,8.50000000000000e-01,8.50000000000000e-01,1.49734491482966e-01,0.00000000000000e+00
4.55524280015187e-08,8.50000000000000e-01,8.50000000000000e-01,-2.51268368169012e-02,0.00000000000000e+00
4.58612920503521e-08,8.50000000000000e-01,8.50000000000000e-01,1.12097667096232e-02,0.00000000000000e+00
4.63915957917434e-08,8.50000000000000e-01,8.50000000000000e-01,-6.77652054132719e-03,0.00000000000000e+00
4.71488724718879e-08,8.50000000000000e-01,8.50000000000000e-01,4.82415252166748e-03,0.00000000000000e+00
4.84646660796189e-08,8.50000000000000e-01,8.50000000000000e-01,-3.89827596668825e-03,0.00000000000000e+00
5.01000000000000e-08,8.50000000000000e-01,8.49999999999951e-01,3.31452008445455e-03,0.00000000000000e+00
5.03631587215462e-08,8.50000000000000e-01,8.50000000000000e-01,7.23326144296939e-04,0.00000000000000e+00
5.08894761646386e-08,8.50000000000000e-01,8.50000000000000e-01,-4.46458364420511e-04,0.00000000000000e+00
5.19421110508233e-08,8.50000000000000e-01,8.50000000000000e-01,3.66689505478138e-04,0.00000000000000e+00
5.40473808231929e-08,8.50000000000000e-01,8.50000000000000e-01,-3.15625760077904e-04,0.00000000000000e+00
5.51000000000000e-08,8.50000000000000e-01,8.50000000000000e-01,2.59817765976070e-04,0.00000000000000e+00
5.51100000000000e-08,7.65000000000030e-01,8.50000000000000e-01,3.97218994234824e-04,8.49999999999698e-02
5.51300000000000e-08,5.95000000000006e-01,8.50000000000000e-01,4.35907466957652e-04,2.54999999999994e-01
5.51700000000000e-08,2.55000000000014e-01,8.50000000000000e-01,3.52909404541288e-04,5.94999999999986e-01
5.52000000000000e-08,0.00000000000000e+00,8.50000000000000e-01,4.17098899260712e-04,8.50000000000000e-01
5.52080000000000e-08,0.00000000000000e+00,8.50000000000000e-01,3.53289041158111e-04,8.50000000000000e-01
5.52240000000000e-08,0.00000000000000e+00,8.50000000000000e-01,5.77655979346753e-05,8.50000000000000e-01
5.52560000000000e-08,0.00000000000000e+00,8.50000000000000e-01,-1.05193911022344e-03,8.50000000000000e-01
5.53200000000000e-08,0.00000000000000e+00,8.50000000000000e-01,-1.71599231972112e-03,8.50000000000000e-01
5.54480000000000e-08,0.00000000000000e+00,8.50000000000000e-01,-1.88417523153336e-04,8.50000000000000e-01
5.56478068591904e-08,0.00000000000000e+00,8.50000000000000e-01,5.17728024374484e-05,8.50000000000000e-01
5.59722540820462e-08,0.00000000000000e+00,8.50000000000000e-01,-9.22911317026535e-05,8.50000000000000e-01
5.64057630720777e-08,0.00000000000000e+00,8.50000000000000e-01,1.54420619071133e-04,8.50000000000000e-01
5.70904831860834e-08,0.00000000000000e+00,8.50000000000000e-01,-1.43031498582344e-04,8.50000000000000e-01
5.84234742395302e-08,0.00000000000000e+00,8.50000000000000e-01,1.51261235790944e-04,8.50000000000000e-01
6.06426064962131e-08,0.00000000000000e+00,8.50000000000000e-01,-1.36092872459656e-04,8.50000000000000e-01
6.44426064962131e-08,0.00000000000000e+00,8.50000000000000e-01,1.45191746633388e-04,8.50000000000000e-01
6.50000000000000e-08,0.00000000000000e+00,8.50000000000000e-01,-1.15341724751727e-04,8.50000000000000e-01
6.50100000000000e-08,8.49999999999839e-02,8.50000000000000e-01,2.22552349060517e-05,8.50000000000000e-01
6.50300000000000e-08,2.54999999999952e-01,8.50000000000000e-01,2.37249660729605e-04,8.50000000000000e-01
6.50700000000000e-08,5.94999999999887e-01,8.50000000000000e-01,4.37096678463526e-04,8.50000000000000e-01
6.51000000000000e-08,8.49999999999951e-01,8.50000000000000e-01,-5.16695720142193e-04,8.50000000000000e-01
6.51080000000000e-08,8.50000000000000e-01,8.50000000000000e-01,-1.17968988254731e-03,8.50000000000000e-01
6.51240000000000e-08,8.50000000000000e-01,8.50000000000000e-01,-2.55637932256156e-03,8.50000000000000e-01
6.51560000000000e-08,8.50000000000000e-01,8.50000000000000e-01,-4.95496885002787e-03,8.50000000000000e-01
6.52200000000000e-08,8.50000000000000e-01,8.50000000000000e-01,-2.73171416668938e-04,8.50000000000000e-01
6.53480000000000e-08,8.50000000000000e-01,8.50000000000000e-01,2.81742192138019e-01,8.50000000000000e-01
6.56040000000000e-08,8.50000000000000e-01,8.50000000000000e-01,8.42457903110214e-01,8.50000000000000e-01
6.59824471696843e-08,8.50000000000000e-01,8.50000000000000e-01,8.51360385459685e-01,8.50000000000000e-01
6.65858119262589e-08,8.50000000000000e-01,8.50000000000000e-01,8.48656778415479e-01,8.50000000000000e-01
6.73095490167677e-08,8.50000000000000e-01,8.50000000000000e-01,8.51200054594352e-01,8.50000000000000e-01
6.85433949651150e-08,8.50000000000000e-01,8.50000000000000e-01,8.48785015419572e-01,8.50000000000000e-01
7.10110868618096e-08,8.50000000000000e-01,8.50000000000000e-01,8.51145903937176e-01,8.50000000000000e-01
7.48110868618096e-08,8.50000000000000e-01,8.50000000000000e-01,8.48829070732476e-01,8.50000000000000e-01
7.51000000000000e-08,8.50000000000000e-01,8.50000000000000e-01,8.50975105836393e-01,8.50000000000000e-01
7.51100000000000e-08,7.65000000000086e-01,8.50000000000000e-01,8.50441373326690e-01,8.50000000000000e-01
7.51300000000000e-08,5.95000000000119e-01,8.50000000000000e-01,8.49954609082457e-01,8.50000000000000e-01
7.51700000000000e-08,2.55000000000183e-01,8.50000000000000e-01,8.51449071950651e-01,8.50000000000000e-01
7.52000000000000e-08,1.19015908239817e-13,8.50000000000000e-01,8.52858703157137e-01,8.50000000000000e-01
7.52080000000000e-08,0.00000000000000e+00,8.50000000000000e-01,8.51746653655942e-01,8.50000000000000e-01
7.52240000000000e-08,0.00000000000000e+00,8.50000000000000e-01,8.46692932721253e-01,8.50000000000000e-01
7.52560000000000e-08,0.00000000000000e+00,8.50000000000000e-01,8.29705744167992e-01,8.50000000000000e-01
7.53200000000000e-08,0.00000000000000e+00,8.50000000000000e-01,8.24186678320449e-01,8.50000000000000e-01
7.54480000000000e-08,0.00000000000000e+00,8.50000000000000e-01,8.49541591938966e-01,8.50000000000000e-01
7.56728423905854e-08,0.00000000000000e+00,8.50000000000000e-01,8.48738079860975e-01,8.50000000000000e-01
7.59780444236781e-08,0.00000000000000e+00,8.50000000000000e-01,8.50224280695785e-01,8.50000000000000e-01
7.65884484898637e-08,0.00000000000000e+00,8.50000000000000e-01,8.49262443358357e-01,8.50000000000000e-01
7.78092566222348e-08,0.00000000000000e+00,8.50000000000000e-01,8.50417413456578e-01,8.50000000000000e-01
8.02508728869770e-08,0.00000000000000e+00,8.50000000000000e-01,8.49426887479820e-01,8.50000000000000e-01
8.40508728869770e-08,0.00000000000000e+00,8.50000000000000e-01,8.50467749142856e-01,8.50000000000000e-01
8.50000000000000e-08,0.00000000000000e+00,8.50000000000000e-01,8.49480913764210e-01,8.50000000000000e-01
8.50100000000000e-08,8.49999999999839e-02,8.50000000000000e-01,8.49580441784636e-01,7.65000000000016e-01
8.50300000000000e-08,2.54999999999952e-01,8.50000000000000e-01,8.49786612043444e-01,5.95000000000048e-01
8.50700000000000e-08,5.94999999999887e-01,8.50000000000000e-01,8.54791472978428e-01,2.55000000000113e-01
8.51000000000000e-08,8.49999999999951e-01,8.50000000000000e-01,8.65387485676849e-01,4.87387907810444e-14
8.51080000000000e-08,8.50000000000000e-01,8.50000000000000e-01,8.69028147128868e-01,0.00000000000000e+00
8.51240000000000e-08,8.50000000000000e-01,8.50000000000000e-01,8.76846757335933e-01,0.00000000000000e+00
8.51560000000000e-08,8.50000000000000e-01,8.50000000000000e-01,8.66498456220297e-01,0.00000000000000e+00
8.52200000000000e-08,8.50000000000000e-01,8.50000000000000e-01,6.42988677601143e-01,0.00000000000000e+00
8.53480000000000e-08,8.50000000000000e-01,8.50000000000000e-01,1.49732018104453e-01,0.00000000000000e+00
8.55524229546839e-08,8.50000000000000e-01,8.50000000000000e-01,-2.51241854446398e-02,0.00000000000000e+00
8.58619580208591e-08,8.50000000000000e-01,8.50000000000000e-01,1.12308780735721e-02,0.00000000000000e+00
8.63918595699606e-08,8.50000000000000e-01,8.50000000000000e-01,-6.78653412725230e-03,0.00000000000000e+00
8.71500650372910e-08,8.50000000000000e-01,8.50000000000000e-01,4.83355840051759e-03,0.00000000000000e+00
8.84682504872010e-08,8.50000000000000e-01,8.50000000000000e-01,-3.90736177862797e-03,0.00000000000000e+00
9.01000000000000e-08,8.50000000000000e-01,8.49999999999951e-01,3.32112861476241e-03,0.00000000000000e+00
9.03636370899820e-08,8.50000000000000e-01,8.50000000000000e-01,7.23609797661059e-04,0.00000000000000e+00
9.08909112699460e-08,8.50000000000000e-01,8.50000000000000e-01,-4.47051603637564e-04,0.00000000000000e+00
9.19454596298741e-08,8.50000000000000e-01,8.50000000000000e-01,3.67318518788427e-04,0.00000000000000e+00
9.40545563497302e-08,8.50000000000000e-01,8.50000000000000e-01,-3.16257191933025e-04,0.00000000000000e+00
9.51000000000000e-08,8.50000000000000e-01,8.50000000000000e-01,2.59907844971839e-04,0.00000000000000e+00
9.51100000000000e-08,7.65000000000086e-01,8.50000000000000e-01,3.97293047752087e-04,8.49999999999136e-02
9.51300000000000e-08,5.95000000000119e-01,8.50000000000000e-01,4.35957143425314e-04,2.54999999999881e-01
9.51700000000000e-08,2.55000000000183e-01,8.50000000000000e-01,3.52932469127251e-04,5.94999999999817e-01
9.52000000000000e-08,1.19015908239817e-13,8.50000000000000e-01,4.17115401629822e-04,8.49999999999881e-01
9.52080000000000e-08,0.00000000000000e+00,8.50000000000000e-01,3.53308003166505e-04,8.50000000000000e-01
9.52240000000000e-08,0.00000000000000e+00,8.50000000000000e-01,5.77997547507730e-05,8.50000000000000e-01
9.52560000000000e-08,0.00000000000000e+00,8.50000000000000e-01,-1.05177196864924e-03,8.50000000000000e-01
9.53200000000000e-08,0.00000000000000e+00,8.50000000000000e-01,-1.71578662421634e-03,8.50000000000000e-01
9.54480000000000e-08,0.00000000000000e+00,8.50000000000000e-01,-1.88323212770916e-04,8.50000000000000e-01
9.56479215583427e-08,0.00000000000000e+00,8.50000000000000e-01,5.16151706366624e-05,8.50000000000000e-01
9.59723216347802e-08,0.00000000000000e+00,8.50000000000000e-01,-9.20652327950425e-05,8.50000000000000e-01
9.64061167976715e-08,0.00000000000000e+00,8.50000000000000e-01,1.54193962195785e-04,8.50000000000000e-01
9.70907490758983e-08,0.00000000000000e+00,8.50000000000000e-01,-1.42858050910384e-04,8.50000000000000e-01
9.84253817831475e-08,0.00000000000000e+00,8.50000000000000e-01,1.51115904120700e-04,8.50000000000000e-01
1.00646599484584e-07,0.00000000000000e+00,8.50000000000000e-01,-1.35965961599246e-04,8.50000000000000e-01
1.04446599484584e-07,0.00000000000000e+00,8.50000000000000e-01,1.45074030328911e-04,8.50000000000000e-01
1.05000000000000e-07,0.00000000000000e+00,8.50000000000000e-01,-1.15128108964659e-04,8.50000000000000e-01
1.05010000000000e-07,8.49999999999839e-02,8.50000000000000e-01,2.24394967391073e-05,8.50000000000000e-01
1.05030000000000e-07,2.54999999999952e-01,8.50000000000000e-01,2.37355022209715e-04,8.50000000000000e-01
1.05070000000000e-07,5.94999999999887e-01,8.50000000000000e-01,4.37097055744289e-04,8.50000000000000e-01
1.05100000000000e-07,8.49999999999951e-01,8.50000000000000e-01,-5.16720551168401e-04,8.50000000000000e-01
1.05108000000000e-07,8.50000000000000e-01,8.50000000000000e-01,-1.17971946821213e-03,8.50000000000000e-01
1.05124000000000e-07,8.50000000000000e-01,8.50000000000000e-01,-2.55641383580330e-03,8.50000000000000e-01
1.05156000000000e-07,8.50000000000000e-01,8.50000000000000e-01,-4.95499770201265e-03,8.50000000000000e-01
1.05220000000000e-07,8.50000000000000e-01,8.50000000000000e-01,-2.73176968486936e-04,8.50000000000000e-01
1.05348000000000e-07,8.50000000000000e-01,8.50000000000000e-01,2.81742253101876e-01,8.50000000000000e-01
1.05604000000000e-07,8.50000000000000e-01,8.50000000000000e-01,8.42457916023854e-01,8.50000000000000e-01
1.05982447139472e-07,8.50000000000000e-01,8.50000000000000e-01,8.51360379575505e-01,8.50000000000000e-01
1.06585811935167e-07,8.50000000000000e-01,8.50000000000000e-01,8.48656784065601e-01,8.50000000000000e-01
1.07309548987250e-07,8.50000000000000e-01,8.50000000000000e-01,8.51200049301171e-01,8.50000000000000e-01
1.08543394948484e-07,8.50000000000000e-01,8.50000000000000e-01,8.48785020648488e-01,8.50000000000000e-01
1.11011086870953e-07,8.50000000000000e-01,8.50000000000000e-01,8.51145898855560e-01,8.50000000000000e-01
1.14811086870953e-07,8.50000000000000e-01,8.50000000000000e-01,8.48829075840242e-01,8.50000000000000e-01
1.15100000000000e-07,8.50000000000000e-01,8.50000000000000e-01,8.50975101340565e-01,8.50000000000000e-01
