Time,v(clk),v(data),v(out)
1.00000000000000e-08,8.50000000000000e-01,0.00000000000000e+00,3.41001775017074e-05
1.00100000000000e-08,8.50000000000000e-01,8.49999999999979e-02,3.44765628255972e-05
1.00300000000000e-08,8.50000000000000e-01,2.54999999999994e-01,3.36943016581576e-05
1.00700000000000e-08,8.50000000000000e-01,5.94999999999986e-01,3.02212860663481e-05
1.01000000000000e-08,8.50000000000000e-01,8.49999999999994e-01,2.85202383451116e-05
1.01080000000000e-08,8.50000000000000e-01,8.50000000000000e-01,2.81748021809386e-05
1.01240000000000e-08,8.50000000000000e-01,8.50000000000000e-01,2.87545213587953e-05
1.01560000000000e-08,8.50000000000000e-01,8.50000000000000e-01,3.22879088905936e-05
1.02200000000000e-08,8.50000000000000e-01,8.50000000000000e-01,3.55011010899423e-05
1.03480000000000e-08,8.50000000000000e-01,8.50000000000000e-01,3.25230726392761e-05
1.06040000000000e-08,8.50000000000000e-01,8.50000000000000e-01,2.99777192830745e-05
1.10500501985289e-08,8.50000000000000e-01,8.50000000000000e-01,3.13743364196324e-05
1.19421505955868e-08,8.50000000000000e-01,8.50000000000000e-01,2.96526135321155e-05
1.37263513897026e-08,8.50000000000000e-01,8.50000000000000e-01,3.03465314424722e-05
1.51000000000000e-08,8.50000000000000e-01,8.50000000000000e-01,2.84351911623753e-05
1.51100000000000e-08,7.64999999999988e-01,8.50000000000000e-01,-4.38891813916709e-05
1.51300000000000e-08,5.94999999999992e-01,8.50000000000000e-01,-1.52919332892437e-04
1.51700000000000e-08,2.55000000000000e-01,8.50000000000000e-01,1.62717318282629e-05
1.52000000000000e-08,0.00000000000000e+00,8.50000000000000e-01,3.96001612341601e-04
1.52080000000000e-08,0.00000000000000e+00,8.50000000000000e-01,5.16970687248292e-04
1.52240000000000e-08,0.00000000000000e+00,8.50000000000000e-01,6.07643136732491e-04
1.52560000000000e-08,0.00000000000000e+00,8.50000000000000e-01,2.98059562742314e-04
1.53200000000000e-08,0.00000000000000e+00,8.50000000000000e-01,-3.92369287960173e-04
1.54480000000000e-08,0.00000000000000e+00,8.50000000000000e-01,-2.05039524160872e-04
1.56739004164549e-08,0.00000000000000e+00,8.50000000000000e-01,-2.60822163397269e-04
1.59890492230606e-08,0.00000000000000e+00,8.50000000000000e-01,2.16942851904489e-04
1.64505645811378e-08,0.00000000000000e+00,8.50000000000000e-01,1.81557040834238e-04
1.71994259020429e-08,0.00000000000000e+00,8.50000000000000e-01,-2.10864660501553e-04
1.82564308422690e-08,0.00000000000000e+00,8.50000000000000e-01,2.89811839105059e-04
2.03704407227211e-08,0.00000000000000e+00,8.50000000000000e-01,-2.43007823331295e-04
2.37000480617689e-08,0.00000000000000e+00,8.50000000000000e-01,2.97053942363961e-04
2.50000000000000e-08,0.00000000000000e+00,8.50000000000000e-01,-2.44863292021381e-04
2.50100000000000e-08,8.49999999999839e-02,8.50000000000000e-01,-4.84960491007186e-05
2.50300000000000e-08,2.55000000000008e-01,8.50000000000000e-01,2.46763012706527e-04
2.50700000000000e-08,5.95000000000000e-01,8.50000000000000e-01,5.53841733938756e-04
2.51000000000000e-08,8.50000000000000e-01,8.50000000000000e-01,1.09015681672181e-04
2.51080000000000e-08,8.50000000000000e-01,8.50000000000000e-01,-3.27318334906193e-04
2.51240000000000e-08,8.50000000000000e-01,8.50000000000000e-01,-1.31378391500957e-03
2.51560000000000e-08,8.50000000000000e-01,8.50000000000000e-01,-3.42766260022190e-03
2.52200000000000e-08,8.50000000000000e-01,8.50000000000000e-01,-4.84389419910300e-03
2.53480000000000e-08,8.50000000000000e-01,8.50000000000000e-01,1.01750500891122e-01
2.56040000000000e-08,8.50000000000000e-01,8.50000000000000e-01,7.62628406749259e-01
2.61160000000000e-08,8.50000000000000e-01,8.50000000000000e-01,8.72500223134984e-01
2.65781161492620e-08,8.50000000000000e-01,8.50000000000000e-01,8.28571560588170e-01
2.75023484477860e-08,8.50000000000000e-01,8.50000000000000e-01,8.69690968798087e-01
2.88810806485247e-08,8.50000000000000e-01,8.50000000000000e-01,8.30056244278023e-01
3.01000000000000e-08,8.50000000000000e-01,8.50000000000000e-01,8.68570684716576e-01
3.01100000000000e-08,8.50000000000000e-01,7.65000000000044e-01,8.58834587261297e-01
3.01300000000000e-08,8.50000000000000e-01,5.95000000000020e-01,8.49608634124301e-01
3.01700000000000e-08,8.50000000000000e-01,2.55000000000028e-01,8.50147790305637e-01
3.02000000000000e-08,8.50000000000000e-01,2.05391259555654e-14,8.49919761996005e-01
3.02080000000000e-08,8.50000000000000e-01,0.00000000000000e+00,8.49945084027869e-01
3.02240000000000e-08,8.50000000000000e-01,0.00000000000000e+00,8.49968019803580e-01
3.02560000000000e-08,8.50000000000000e-01,0.00000000000000e+00,8.49939457539075e-01
3.03200000000000e-08,8.50000000000000e-01,0.00000000000000e+00,8.49958080136451e-01
3.04480000000000e-08,8.50000000000000e-01,0.00000000000000e+00,8.49975857144879e-01
3.06734625075195e-08,8.50000000000000e-01,0.00000000000000e+00,8.49959210597650e-01
3.09871006788534e-08,8.50000000000000e-01,0.00000000000000e+00,8.49978616746678e-01
3.15471208431912e-08,8.50000000000000e-01,0.00000000000000e+00,8.49964989901189e-01
3.26671611718668e-08,8.50000000000000e-01,0.00000000000000e+00,8.49983995729506e-01
3.49072418292180e-08,8.50000000000000e-01,0.00000000000000e+00,8.49974350842368e-01
3.51000000000000e-08,8.49999999999958e-01,0.00000000000000e+00,8.49987489586007e-01
3.51100000000000e-08,7.64999999999974e-01,0.00000000000000e+00,8.49934544198323e-01
3.51300000000000e-08,5.94999999999950e-01,0.00000000000000e+00,8.49922218959638e-01
3.51700000000000e-08,2.54999999999958e-01,0.00000000000000e+00,8.51469924930087e-01
3.52000000000000e-08,0.00000000000000e+00,0.00000000000000e+00,8.53174147303765e-01
3.52080000000000e-08,0.00000000000000e+00,0.00000000000000e+00,8.52562645018039e-01
3.52240000000000e-08,0.00000000000000e+00,0.00000000000000e+00,8.48922502132764e-01
3.52560000000000e-08,0.00000000000000e+00,0.00000000000000e+00,8.34183204760736e-01
3.53200000000000e-08,0.00000000000000e+00,0.00000000000000e+00,8.21902630512010e-01
3.54480000000000e-08,0.00000000000000e+00,0.00000000000000e+00,8.45437665378077e-01
3.56879082594575e-08,0.00000000000000e+00,0.00000000000000e+00,8.50596260233957e-01
3.59747264873286e-08,0.00000000000000e+00,0.00000000000000e+00,8.48387030418703e-01
3.65483629430707e-08,0.00000000000000e+00,0.00000000000000e+00,8.50652021828814e-01
3.72469504709822e-08,0.00000000000000e+00,0.00000000000000e+00,8.48986415717305e-01
3.86441255268053e-08,0.00000000000000e+00,0.00000000000000e+00,8.50655668934590e-01
3.91000000000000e-08,0.00000000000000e+00,0.00000000000000e+00,8.49246421985748e-01
3.93794350111646e-08,0.00000000000000e+00,0.00000000000000e+00,8.49852195526820e-01
3.99383050334939e-08,0.00000000000000e+00,0.00000000000000e+00,8.49945235827413e-01
4.10560450781523e-08,0.00000000000000e+00,0.00000000000000e+00,8.49882425129318e-01
4.32915251674693e-08,0.00000000000000e+00,0.00000000000000e+00,8.49966485201297e-01
4.50000000000000e-08,0.00000000000000e+00,0.00000000000000e+00,8.49904698491890e-01
4.50100000000000e-08,8.49999999999839e-02,0.00000000000000e+00,8.49972114473622e-01
4.50300000000000e-08,2.55000000000008e-01,0.00000000000000e+00,8.50019326735647e-01
4.50700000000000e-08,5.95000000000000e-01,0.00000000000000e+00,8.49958403360888e-01
4.51000000000000e-08,8.50000000000000e-01,0.00000000000000e+00,8.49866808305100e-01
4.51080000000000e-08,8.50000000000000e-01,0.00000000000000e+00,8.49824488254294e-01
4.51240000000000e-08,8.50000000000000e-01,0.00000000000000e+00,8.49791326157084e-01
4.51560000000000e-08,8.50000000000000e-01,0.00000000000000e+00,8.49804131707975e-01
4.52200000000000e-08,8.50000000000000e-01,0.00000000000000e+00,8.49942750349787e-01
4.53480000000000e-08,8.50000000000000e-01,0.00000000000000e+00,8.53097820652179e-01
4.56040000000000e-08,8.50000000000000e-01,0.00000000000000e+00,5.46826410683881e-01
4.60958890622689e-08,8.50000000000000e-01,0.00000000000000e+00,-5.46073908279230e-02
4.65595932205156e-08,8.50000000000000e-01,0.00000000000000e+00,2.77855931600123e-02
4.74733784976135e-08,8.50000000000000e-01,0.00000000000000e+00,-1.60168127018789e-02
4.83464093170294e-08,8.50000000000000e-01,0.00000000000000e+00,1.08022866627347e-02
5.00000000000000e-08,8.50000000000000e-01,0.00000000000000e+00,-7.02507872147585e-03
5.00100000000000e-08,8.50000000000000e-01,8.49999999999839e-02,-8.40110776153215e-03
5.00300000000000e-08,8.50000000000000e-01,2.54999999999952e-01,-8.66674354542249e-03
5.00700000000000e-08,8.50000000000000e-01,5.95000000000000e-01,-4.98356277905153e-03
5.01000000000000e-08,8.50000000000000e-01,8.50000000000000e-01,-3.33276861376205e-03
5.01080000000000e-08,8.50000000000000e-01,8.50000000000000e-01,-3.01104239918280e-03
5.01240000000000e-08,8.50000000000000e-01,8.50000000000000e-01,-2.37437283812088e-03
5.01560000000000e-08,8.50000000000000e-01,8.50000000000000e-01,-1.51709175629625e-03
5.02200000000000e-08,8.50000000000000e-01,8.50000000000000e-01,-5.96854615663618e-04
5.03480000000000e-08,8.50000000000000e-01,8.50000000000000e-01,-2.34153408523383e-05
5.06040000000000e-08,8.50000000000000e-01,8.50000000000000e-01,3.64623873026250e-05
5.10634824166611e-08,8.50000000000000e-01,8.50000000000000e-01,1.90426666538783e-05
5.19824472499832e-08,8.50000000000000e-01,8.50000000000000e-01,3.01585322414963e-05
5.38203769166275e-08,8.50000000000000e-01,8.50000000000000e-01,2.22987063722381e-05
5.51000000000000e-08,8.50000000000000e-01,8.50000000000000e-01,2.68934963039702e-05
5.51100000000000e-08,7.65000000000030e-01,8.50000000000000e-01,-5.10690997519575e-05
5.51300000000000e-08,5.95000000000006e-01,8.50000000000000e-01,-1.68048587451480e-04
5.51700000000000e-08,2.55000000000014e-01,8.50000000000000e-01,-3.46202233293680e-06
5.52000000000000e-08,0.00000000000000e+00,8.50000000000000e-01,3.39496056290786e-04
5.52080000000000e-08,0.00000000000000e+00,8.50000000000000e-01,4.18391284257261e-04
5.52240000000000e-08,0.00000000000000e+00,8.50000000000000e-01,3.39438134075248e-04
5.52560000000000e-08,0.00000000000000e+00,8.50000000000000e-01,-6.04499073821541e-04
5.53200000000000e-08,0.00000000000000e+00,8.50000000000000e-01,-1.71397819060497e-03
5.54480000000000e-08,0.00000000000000e+00,8.50000000000000e-01,-7.48540121940686e-04
5.56726699262226e-08,0.00000000000000e+00,8.50000000000000e-01,-1.51359342570538e-04
5.59897272288930e-08,0.00000000000000e+00,8.50000000000000e-01,1.85726832337873e-04
5.64486496257567e-08,0.00000000000000e+00,8.50000000000000e-01,1.93694823062172e-04
5.71981788850185e-08,0.00000000000000e+00,8.50000000000000e-01,-2.14944738959827e-04
5.82527989290465e-08,0.00000000000000e+00,8.50000000000000e-01,2.90603798889637e-04
6.03620390171025e-08,0.00000000000000e+00,8.50000000000000e-01,-2.42014961221118e-04
6.36763106960292e-08,0.00000000000000e+00,8.50000000000000e-01,2.95877502513245e-04
6.50000000000000e-08,0.00000000000000e+00,8.50000000000000e-01,-2.41371353313473e-04
6.50100000000000e-08,8.49999999999839e-02,8.50000000000000e-01,-5.24446833231051e-05
6.50300000000000e-08,2.54999999999952e-01,8.50000000000000e-01,2.38116869843347e-04
6.50700000000000e-08,5.94999999999887e-01,8.50000000000000e-01,5.51076967703262e-04
6.51000000000000e-08,8.49999999999951e-01,8.50000000000000e-01,1.11009680905078e-04
6.51080000000000e-08,8.50000000000000e-01,8.50000000000000e-01,-3.23559585578559e-04
6.51240000000000e-08,8.50000000000000e-01,8.50000000000000e-01,-1.30709720565535e-03
6.51560000000000e-08,8.50000000000000e-01,8.50000000000000e-01,-3.42031088063036e-03
6.52200000000000e-08,8.50000000000000e-01,8.50000000000000e-01,-4.84995265705922e-03
6.53480000000000e-08,8.50000000000000e-01,8.50000000000000e-01,1.01483559821479e-01
6.56040000000000e-08,8.50000000000000e-01,8.50000000000000e-01,7.62467359714069e-01
6.61159999999999e-08,8.50000000000000e-01,8.50000000000000e-01,8.72528727708174e-01
6.65779834022960e-08,8.50000000000000e-01,8.50000000000000e-01,8.28545474977739e-01
6.75019502068882e-08,8.50000000000000e-01,8.50000000000000e-01,8.69714402520290e-01
6.88808754118437e-08,8.50000000000000e-01,8.50000000000000e-01,8.30032055112728e-01
7.01000000000000e-08,8.50000000000000e-01,8.50000000000000e-01,8.68592934227825e-01
7.01100000000000e-08,8.50000000000000e-01,7.65000000000016e-01,8.58845036445979e-01
7.01300000000000e-08,8.50000000000000e-01,5.95000000000048e-01,8.49608012840166e-01
7.01700000000000e-08,8.50000000000000e-01,2.55000000000113e-01,8.50148040565222e-01
7.02000000000000e-08,8.50000000000000e-01,4.87387907810444e-14,8.49919695386229e-01
7.02080000000000e-08,8.50000000000000e-01,0.00000000000000e+00,8.49945043902932e-01
7.02240000000000e-08,8.50000000000000e-01,0.00000000000000e+00,8.49968007174125e-01
7.02560000000000e-08,8.50000000000000e-01,0.00000000000000e+00,8.49939457794680e-01
7.03200000000000e-08,8.50000000000000e-01,0.00000000000000e+00,8.49958070052032e-01
7.04480000000000e-08,8.50000000000000e-01,0.00000000000000e+00,8.49975857235851e-01
7.06734626127905e-08,8.50000000000000e-01,0.00000000000000e+00,8.49959207288138e-01
7.09871006641321e-08,8.50000000000000e-01,0.00000000000000e+00,8.49978615956953e-01
7.15470584018817e-08,8.50000000000000e-01,0.00000000000000e+00,8.49964987454386e-01
7.26669738773810e-08,8.50000000000000e-01,0.00000000000000e+00,8.49983995041055e-01
7.49068048283795e-08,8.50000000000000e-01,0.00000000000000e+00,8.49974348888715e-01
7.51000000000000e-08,8.50000000000000e-01,0.00000000000000e+00,8.49987492235830e-01
7.51100000000000e-08,7.65000000000086e-01,0.00000000000000e+00,8.49934564184612e-01
7.51300000000000e-08,5.95000000000119e-01,0.00000000000000e+00,8.49922219717587e-01
7.51700000000000e-08,2.55000000000183e-01,0.00000000000000e+00,8.51469922738185e-01
7.52000000000000e-08,1.19015908239817e-13,0.00000000000000e+00,8.53174117835891e-01
7.52080000000000e-08,0.00000000000000e+00,0.00000000000000e+00,8.52562593111756e-01
7.52240000000000e-08,0.00000000000000e+00,0.00000000000000e+00,8.48922404432276e-01
7.52560000000000e-08,0.00000000000000e+00,0.00000000000000e+00,8.34183055476873e-01
7.53200000000000e-08,0.00000000000000e+00,0.00000000000000e+00,8.21902586474637e-01
7.54480000000000e-08,0.00000000000000e+00,0.00000000000000e+00,8.45437692417985e-01
7.56879081429924e-08,0.00000000000000e+00,0.00000000000000e+00,8.50596240126244e-01
7.59747265536003e-08,0.00000000000000e+00,0.00000000000000e+00,8.48387045452468e-01
7.65483633748161e-08,0.00000000000000e+00,0.00000000000000e+00,8.50652008848516e-01
7.72469509898909e-08,0.00000000000000e+00,0.00000000000000e+00,8.48986427558453e-01
7.81000000000000e-08,0.00000000000000e+00,0.00000000000000e+00,8.50608084759985e-01
7.82397175230150e-08,0.00000000000000e+00,0.00000000000000e+00,8.49961359875843e-01
7.85191525690449e-08,0.00000000000000e+00,0.00000000000000e+00,8.49806317200068e-01
7.90780226611047e-08,0.00000000000000e+00,0.00000000000000e+00,8.49950864759949e-01
8.01957628452244e-08,0.00000000000000e+00,0.00000000000000e+00,8.49852235877470e-01
8.24312432134637e-08,0.00000000000000e+00,0.00000000000000e+00,8.49982538372210e-01
8.50000000000000e-08,0.00000000000000e+00,0.00000000000000e+00,8.49884400161843e-01
8.50100000000000e-08,8.49999999999839e-02,0.00000000000000e+00,8.49946134396771e-01
8.50300000000000e-08,2.54999999999952e-01,0.00000000000000e+00,8.49992562782715e-01
8.50700000000000e-08,5.94999999999887e-01,0.00000000000000e+00,8.49952313216609e-01
8.51000000000000e-08,8.49999999999951e-01,0.00000000000000e+00,8.49865711398328e-01
8.51080000000000e-08,8.50000000000000e-01,0.00000000000000e+00,8.49820171533449e-01
8.51240000000000e-08,8.50000000000000e-01,0.00000000000000e+00,8.49784013632743e-01
8.51560000000000e-08,8.50000000000000e-01,0.00000000000000e+00,8.49827123215392e-01
8.52200000000000e-08,8.50000000000000e-01,0.00000000000000e+00,8.49943141587194e-01
8.53480000000000e-08,8.50000000000000e-01,0.00000000000000e+00,8.53099892574422e-01
8.56040000000000e-08,8.50000000000000e-01,0.00000000000000e+00,5.46848257981627e-01
8.60958263601405e-08,8.50000000000000e-01,0.00000000000000e+00,-5.45785622844610e-02
8.65595473263861e-08,8.50000000000000e-01,0.00000000000000e+00,2.77696409392281e-02
8.74730157006109e-08,8.50000000000000e-01,0.00000000000000e+00,-1.60032759344704e-02
8.83460929671379e-08,8.50000000000000e-01,0.00000000000000e+00,1.07924522670083e-02
9.00000000000000e-08,8.50000000000000e-01,0.00000000000000e+00,-7.01741269455830e-03
9.00100000000000e-08,8.50000000000000e-01,8.49999999999839e-02,-8.39473426906286e-03
9.00300000000000e-08,8.50000000000000e-01,2.54999999999952e-01,-8.66223882256723e-03
9.00700000000000e-08,8.50000000000000e-01,5.94999999999887e-01,-4.98095214773721e-03
9.01000000000000e-08,8.50000000000000e-01,8.49999999999951e-01,-3.33102984126371e-03
9.01080000000000e-08,8.50000000000000e-01,8.50000000000000e-01,-3.00947040420037e-03
9.01240000000000e-08,8.50000000000000e-01,8.50000000000000e-01,-2.37313360811138e-03
9.01560000000000e-08,8.50000000000000e-01,8.50000000000000e-01,-1.51629328860216e-03
9.02200000000000e-08,8.50000000000000e-01,8.50000000000000e-01,-5.96529655855445e-04
9.03480000000000e-08,8.50000000000000e-01,8.50000000000000e-01,-2.33901315874058e-05
9.06040000000000e-08,8.50000000000000e-01,8.50000000000000e-01,3.64559079781002e-05
9.10633239287350e-08,8.50000000000000e-01,8.50000000000000e-01,1.90482344316865e-05
9.19819717862050e-08,8.50000000000000e-01,8.50000000000000e-01,3.01538273624318e-05
9.38192675011451e-08,8.50000000000000e-01,8.50000000000000e-01,2.23026259159416e-05
9.51000000000000e-08,8.50000000000000e-01,8.50000000000000e-01,2.68913640140648e-05
9.51100000000000e-08,7.65000000000086e-01,8.50000000000000e-01,-5.10727691784146e-05
9.51300000000000e-08,5.95000000000119e-01,8.50000000000000e-01,-1.68055150645247e-04
9.51700000000000e-08,2.55000000000183e-01,8.50000000000000e-01,-3.47088063616663e-06
9.52000000000000e-08,1.19015908239817e-13,8.50000000000000e-01,3.39495124514533e-04
9.52080000000000e-08,0.00000000000000e+00,8.50000000000000e-01,4.18396366138649e-04
9.52240000000000e-08,0.00000000000000e+00,8.50000000000000e-01,3.39459529515501e-04
9.52560000000000e-08,0.00000000000000e+00,8.50000000000000e-01,-6.04388559258262e-04
9.53200000000000e-08,0.00000000000000e+00,8.50000000000000e-01,-1.71375919128924e-03
9.54480000000000e-08,0.00000000000000e+00,8.50000000000000e-01,-7.48416949386106e-04
9.56726700648629e-08,0.00000000000000e+00,8.50000000000000e-01,-1.51386521298570e-04
9.59897273095695e-08,0.00000000000000e+00,8.50000000000000e-01,1.85738213578788e-04
9.64486499474745e-08,0.00000000000000e+00,8.50000000000000e-01,1.93687833454116e-04
9.71981792852391e-08,0.00000000000000e+00,8.50000000000000e-01,-2.14939326193292e-04
9.82527996468096e-08,0.00000000000000e+00,8.50000000000000e-01,2.90599179520817e-04
1.00362040369950e-07,0.00000000000000e+00,8.50000000000000e-01,-2.42010697164432e-04
1.03676313791579e-07,0.00000000000000e+00,8.50000000000000e-01,2.95873450261683e-04
1.05000000000000e-07,0.00000000000000e+00,8.50000000000000e-01,-2.41367736702039e-04
1.05010000000000e-07,8.49999999999839e-02,8.50000000000000e-01,-5.24423447828548e-05
1.05030000000000e-07,2.54999999999952e-01,8.50000000000000e-01,2.38117904426349e-04
1.05070000000000e-07,5.94999999999887e-01,8.50000000000000e-01,5.51077587350707e-04
1.05100000000000e-07,8.49999999999951e-01,8.50000000000000e-01,1.11009887628910e-04
1.05108000000000e-07,8.50000000000000e-01,8.50000000000000e-01,-3.23559459687317e-04
1.05124000000000e-07,8.50000000000000e-01,8.50000000000000e-01,-1.30709722592182e-03
1.05156000000000e-07,8.50000000000000e-01,8.50000000000000e-01,-3.42031100347150e-03
1.05220000000000e-07,8.50000000000000e-01,8.50000000000000e-01,-4.84995239559207e-03
1.05348000000000e-07,8.50000000000000e-01,8.50000000000000e-01,1.01483568923975e-01
1.05604000000000e-07,8.50000000000000e-01,8.50000000000000e-01,7.62467364943848e-01
1.06116000000000e-07,8.50000000000000e-01,8.50000000000000e-01,8.72528726813516e-01
1.06577983406410e-07,8.50000000000000e-01,8.50000000000000e-01,8.28545475792731e-01
