Time,v(clk),v(data),v(out)
1.00000000000000e-08,8.50000000000000e-01,0.00000000000000e+00,2.91411282523271e-05
1.00100000000000e-08,8.50000000000000e-01,8.49999999999979e-02,2.47185161415114e-05
1.00300000000000e-08,8.50000000000000e-01,2.54999999999994e-01,1.91094420983334e-05
1.00700000000000e-08,8.50000000000000e-01,5.94999999999986e-01,1.30073151798915e-05
1.01000000000000e-08,8.50000000000000e-01,8.49999999999994e-01,1.02749715257325e-05
1.01080000000000e-08,8.50000000000000e-01,8.50000000000000e-01,1.05341581955604e-05
1.01240000000000e-08,8.50000000000000e-01,8.50000000000000e-01,1.20998128126104e-05
1.01560000000000e-08,8.50000000000000e-01,8.50000000000000e-01,1.60123347611243e-05
1.02200000000000e-08,8.50000000000000e-01,8.50000000000000e-01,1.83868665609987e-05
1.03480000000000e-08,8.50000000000000e-01,8.50000000000000e-01,1.31824039887596e-05
1.06040000000000e-08,8.50000000000000e-01,8.50000000000000e-01,1.30665611970011e-05
1.11160000000000e-08,8.50000000000000e-01,8.50000000000000e-01,1.39567425521715e-05
1.21400000000000e-08,8.50000000000000e-01,8.50000000000000e-01,1.27718207698713e-05
1.41880000000000e-08,8.50000000000000e-01,8.50000000000000e-01,1.27787781353675e-05
1.51000000000000e-08,8.50000000000000e-01,8.50000000000000e-01,1.21533766516951e-05
1.51100000000000e-08,7.64999999999988e-01,8.50000000000000e-01,-6.32898211294086e-05
1.51300000000000e-08,5.94999999999992e-01,8.50000000000000e-01,-1.74785548850989e-04
1.51700000000000e-08,2.55000000000000e-01,8.50000000000000e-01,-5.55698902216586e-05
1.52000000000000e-08,0.00000000000000e+00,8.50000000000000e-01,2.79583774994013e-04
1.52080000000000e-08,0.00000000000000e+00,8.50000000000000e-01,4.02902205322381e-04
1.52240000000000e-08,0.00000000000000e+00,8.50000000000000e-01,4.97078292948747e-04
1.52560000000000e-08,0.00000000000000e+00,8.50000000000000e-01,2.25891955076003e-04
1.53200000000000e-08,0.00000000000000e+00,8.50000000000000e-01,-3.24995484794033e-04
1.54480000000000e-08,0.00000000000000e+00,8.50000000000000e-01,-2.34434420898072e-04
1.57040000000000e-08,0.00000000000000e+00,8.50000000000000e-01,-2.17666737236780e-04
1.60114487115375e-08,0.00000000000000e+00,8.50000000000000e-01,2.69528068308683e-04
1.65633583814070e-08,0.00000000000000e+00,8.50000000000000e-01,1.52097767371594e-05
1.72951725331875e-08,0.00000000000000e+00,8.50000000000000e-01,-1.02544101177339e-04
1.84782687590121e-08,0.00000000000000e+00,8.50000000000000e-01,1.64754622417706e-04
2.08444612106613e-08,0.00000000000000e+00,8.50000000000000e-01,-1.58902247329254e-04
2.46444612106613e-08,0.00000000000000e+00,8.50000000000000e-01,1.87316087938507e-04
2.50000000000000e-08,0.00000000000000e+00,8.50000000000000e-01,-1.99555059730613e-04
2.50100000000000e-08,8.49999999999839e-02,8.50000000000000e-01,-1.65617396009621e-05
2.50300000000000e-08,2.55000000000008e-01,8.50000000000000e-01,2.52170647840361e-04
2.50700000000000e-08,5.95000000000000e-01,8.50000000000000e-01,3.26104551167682e-04
2.51000000000000e-08,8.50000000000000e-01,8.50000000000000e-01,-1.16447812262020e-03
2.51080000000000e-08,8.50000000000000e-01,8.50000000000000e-01,-2.01935649982571e-03
2.51240000000000e-08,8.50000000000000e-01,8.50000000000000e-01,-3.66473914719131e-03
2.51560000000000e-08,8.50000000000000e-01,8.50000000000000e-01,-5.83784251636632e-03
2.52200000000000e-08,8.50000000000000e-01,8.50000000000000e-01,1.24371841799273e-02
2.53480000000000e-08,8.50000000000000e-01,8.50000000000000e-01,3.59652284192158e-01
2.56040000000000e-08,8.50000000000000e-01,8.50000000000000e-01,8.56307136765381e-01
2.59402811256597e-08,8.50000000000000e-01,8.50000000000000e-01,8.43357917540169e-01
2.65275638736012e-08,8.50000000000000e-01,8.50000000000000e-01,8.56453707317855e-01
2.72100246793672e-08,8.50000000000000e-01,8.50000000000000e-01,8.43889604054259e-01
2.82721083026226e-08,8.50000000000000e-01,8.50000000000000e-01,8.55818695822520e-01
3.01000000000000e-08,8.50000000000000e-01,8.50000000000000e-01,8.44280980583924e-01
3.01100000000000e-08,8.50000000000000e-01,7.65000000000044e-01,8.46832067578011e-01
3.01300000000000e-08,8.50000000000000e-01,5.95000000000020e-01,8.49643533470382e-01
3.01700000000000e-08,8.50000000000000e-01,2.55000000000028e-01,8.50070514691123e-01
3.02000000000000e-08,8.50000000000000e-01,2.05391259555654e-14,8.49988880236082e-01
3.02080000000000e-08,8.50000000000000e-01,0.00000000000000e+00,8.49984238851311e-01
3.02240000000000e-08,8.50000000000000e-01,0.00000000000000e+00,8.49975795810385e-01
3.02560000000000e-08,8.50000000000000e-01,0.00000000000000e+00,8.49964854421216e-01
3.03200000000000e-08,8.50000000000000e-01,0.00000000000000e+00,8.49967390126151e-01
3.04480000000000e-08,8.50000000000000e-01,0.00000000000000e+00,8.49983193011575e-01
3.06425091508398e-08,8.50000000000000e-01,0.00000000000000e+00,8.49958478144898e-01
3.09762772875124e-08,8.50000000000000e-01,0.00000000000000e+00,8.49968706239907e-01
3.14145863062639e-08,8.50000000000000e-01,0.00000000000000e+00,8.49968430234772e-01
3.22912043437669e-08,8.50000000000000e-01,0.00000000000000e+00,8.49970790437727e-01
3.40444404187728e-08,8.50000000000000e-01,0.00000000000000e+00,8.49975754302957e-01
3.51000000000000e-08,8.49999999999958e-01,0.00000000000000e+00,8.49975002101218e-01
3.51100000000000e-08,7.64999999999974e-01,0.00000000000000e+00,8.49915809751777e-01
3.51300000000000e-08,5.94999999999950e-01,0.00000000000000e+00,8.49868229379699e-01
3.51700000000000e-08,2.54999999999958e-01,0.00000000000000e+00,8.51185182330657e-01
3.52000000000000e-08,0.00000000000000e+00,0.00000000000000e+00,8.53243090673913e-01
3.52080000000000e-08,0.00000000000000e+00,0.00000000000000e+00,8.53351351065638e-01
3.52240000000000e-08,0.00000000000000e+00,0.00000000000000e+00,8.52025863007790e-01
3.52560000000000e-08,0.00000000000000e+00,0.00000000000000e+00,8.41450227335816e-01
3.53200000000000e-08,0.00000000000000e+00,0.00000000000000e+00,8.18345237398226e-01
3.54480000000000e-08,0.00000000000000e+00,0.00000000000000e+00,8.32210522055573e-01
3.56800733395741e-08,0.00000000000000e+00,0.00000000000000e+00,8.55004865544950e-01
3.59792304097926e-08,0.00000000000000e+00,0.00000000000000e+00,8.44845027820809e-01
3.65087350820471e-08,0.00000000000000e+00,0.00000000000000e+00,8.53172149329078e-01
3.71927399956570e-08,0.00000000000000e+00,0.00000000000000e+00,8.46608938205786e-01
3.85607498228767e-08,0.00000000000000e+00,0.00000000000000e+00,8.52653195076578e-01
3.91000000000000e-08,0.00000000000000e+00,0.00000000000000e+00,8.47456211750582e-01
3.93736019654440e-08,0.00000000000000e+00,0.00000000000000e+00,8.49614878269946e-01
3.99208058963318e-08,0.00000000000000e+00,0.00000000000000e+00,8.50004246747096e-01
4.10152137581076e-08,0.00000000000000e+00,0.00000000000000e+00,8.49690464736582e-01
4.32040294816592e-08,0.00000000000000e+00,0.00000000000000e+00,8.50007562233023e-01
4.50000000000000e-08,0.00000000000000e+00,0.00000000000000e+00,8.49724972377234e-01
4.50100000000000e-08,8.49999999999839e-02,0.00000000000000e+00,8.49829241878230e-01
4.50300000000000e-08,2.55000000000008e-01,0.00000000000000e+00,8.49936622734478e-01
4.50700000000000e-08,5.95000000000000e-01,0.00000000000000e+00,8.49885111622246e-01
4.51000000000000e-08,8.50000000000000e-01,0.00000000000000e+00,8.49715065721896e-01
4.51080000000000e-08,8.50000000000000e-01,0.00000000000000e+00,8.49646668860448e-01
4.51240000000000e-08,8.50000000000000e-01,0.00000000000000e+00,8.49577065505590e-01
4.51560000000000e-08,8.50000000000000e-01,0.00000000000000e+00,8.49616654598567e-01
4.52200000000000e-08,8.50000000000000e-01,0.00000000000000e+00,8.50999464390182e-01
4.53480000000000e-08,8.50000000000000e-01,0.00000000000000e+00,8.61372980585905e-01
4.56040000000000e-08,8.50000000000000e-01,0.00000000000000e+00,3.05243542461289e-01
4.59128776535548e-08,8.50000000000000e-01,0.00000000000000e+00,-8.54337473265060e-02
4.63522661310815e-08,8.50000000000000e-01,0.00000000000000e+00,6.01665835400569e-02
4.69802008748504e-08,8.50000000000000e-01,0.00000000000000e+00,-4.03045005101654e-02
4.77082773398730e-08,8.50000000000000e-01,0.00000000000000e+00,3.26212457762723e-02
4.91644302699182e-08,8.50000000000000e-01,0.00000000000000e+00,-2.72037603007306e-02
5.00000000000000e-08,8.50000000000000e-01,0.00000000000000e+00,2.24309432262594e-02
5.00100000000000e-08,8.50000000000000e-01,8.49999999999839e-02,1.85434527087841e-02
5.00300000000000e-08,8.50000000000000e-01,2.54999999999952e-01,1.21974732633437e-02
5.00700000000000e-08,8.50000000000000e-01,5.95000000000000e-01,5.09052149653087e-03
5.01000000000000e-08,8.50000000000000e-01,8.50000000000000e-01,2.63212505981546e-03
5.01080000000000e-08,8.50000000000000e-01,8.50000000000000e-01,2.25934965107771e-03
5.01240000000000e-08,8.50000000000000e-01,8.50000000000000e-01,1.60258517398124e-03
5.01560000000000e-08,8.50000000000000e-01,8.50000000000000e-01,8.03241955811572e-04
5.02200000000000e-08,8.50000000000000e-01,8.50000000000000e-01,1.66044343543351e-04
5.03480000000000e-08,8.50000000000000e-01,8.50000000000000e-01,-1.53257227734765e-05
5.06040000000000e-08,8.50000000000000e-01,8.50000000000000e-01,1.71745940765466e-05
5.11160000000001e-08,8.50000000000000e-01,8.50000000000000e-01,-3.61057729388915e-06
5.21400000000002e-08,8.50000000000000e-01,8.50000000000000e-01,1.66743082498817e-05
5.41880000000003e-08,8.50000000000000e-01,8.50000000000000e-01,-5.75382159691100e-07
5.51000000000000e-08,8.50000000000000e-01,8.50000000000000e-01,1.43537546576852e-05
5.51100000000000e-08,7.65000000000030e-01,8.50000000000000e-01,-6.17602280327673e-05
5.51300000000000e-08,5.95000000000006e-01,8.50000000000000e-01,-1.75595105436771e-04
5.51700000000000e-08,2.55000000000014e-01,8.50000000000000e-01,-5.40122938791909e-05
5.52000000000000e-08,0.00000000000000e+00,8.50000000000000e-01,2.49364984032413e-04
5.52080000000000e-08,0.00000000000000e+00,8.50000000000000e-01,3.47894409211583e-04
5.52240000000000e-08,0.00000000000000e+00,8.50000000000000e-01,3.43154642398896e-04
5.52560000000000e-08,0.00000000000000e+00,8.50000000000000e-01,-4.68577630275427e-04
5.53200000000000e-08,0.00000000000000e+00,8.50000000000000e-01,-1.88604408074290e-03
5.54480000000000e-08,0.00000000000000e+00,8.50000000000000e-01,-7.67683549776507e-04
5.56848257729357e-08,0.00000000000000e+00,8.50000000000000e-01,1.50717680255832e-04
5.59991922999117e-08,0.00000000000000e+00,8.50000000000000e-01,-2.30828665313439e-05
5.65105645657903e-08,0.00000000000000e+00,8.50000000000000e-01,2.92226318922562e-04
5.72415778975043e-08,0.00000000000000e+00,8.50000000000000e-01,-3.52811539718506e-04
5.83574163014632e-08,0.00000000000000e+00,8.50000000000000e-01,3.97252159829949e-04
6.05890931093811e-08,0.00000000000000e+00,8.50000000000000e-01,-3.84715629555442e-04
6.43890931093811e-08,0.00000000000000e+00,8.50000000000000e-01,4.06485584622178e-04
6.50000000000000e-08,0.00000000000000e+00,8.50000000000000e-01,-3.84074209966700e-04
6.50100000000000e-08,8.49999999999839e-02,8.50000000000000e-01,-1.28327577413406e-04
6.50300000000000e-08,2.54999999999952e-01,8.50000000000000e-01,2.18856768055317e-04
6.50700000000000e-08,5.94999999999887e-01,8.50000000000000e-01,3.39830942118043e-04
6.51000000000000e-08,8.49999999999951e-01,8.50000000000000e-01,-1.11656418161618e-03
6.51080000000000e-08,8.50000000000000e-01,8.50000000000000e-01,-1.96922838062301e-03
6.51240000000000e-08,8.50000000000000e-01,8.50000000000000e-01,-3.61605742873351e-03
6.51560000000000e-08,8.50000000000000e-01,8.50000000000000e-01,-5.81785897096392e-03
6.52200000000000e-08,8.50000000000000e-01,8.50000000000000e-01,1.21284831567355e-02
6.53480000000000e-08,8.50000000000000e-01,8.50000000000000e-01,3.58050118947069e-01
6.56040000000000e-08,8.50000000000000e-01,8.50000000000000e-01,8.55998103326918e-01
6.59408583508726e-08,8.50000000000000e-01,8.50000000000000e-01,8.43436425856930e-01
6.65277424053974e-08,8.50000000000000e-01,8.50000000000000e-01,8.56273626040779e-01
6.72106224013614e-08,8.50000000000000e-01,8.50000000000000e-01,8.44054551492239e-01
6.82724419682314e-08,8.50000000000000e-01,8.50000000000000e-01,8.55661410905020e-01
7.01000000000000e-08,8.50000000000000e-01,8.50000000000000e-01,8.44433923789750e-01
7.01100000000000e-08,8.50000000000000e-01,7.65000000000016e-01,8.46920358413797e-01
7.01300000000000e-08,8.50000000000000e-01,5.95000000000048e-01,8.49658661268537e-01
7.01700000000000e-08,8.50000000000000e-01,2.55000000000113e-01,8.50066833046960e-01
7.02000000000000e-08,8.50000000000000e-01,4.87387907810444e-14,8.49989422385029e-01
7.02080000000000e-08,8.50000000000000e-01,0.00000000000000e+00,8.49984657426744e-01
7.02240000000000e-08,8.50000000000000e-01,0.00000000000000e+00,8.49975994174452e-01
7.02560000000000e-08,8.50000000000000e-01,0.00000000000000e+00,8.49964738729916e-01
7.03200000000000e-08,8.50000000000000e-01,0.00000000000000e+00,8.49967268727930e-01
7.04480000000000e-08,8.50000000000000e-01,0.00000000000000e+00,8.49978715135170e-01
7.06424561325405e-08,8.50000000000000e-01,0.00000000000000e+00,8.49965068552437e-01
7.09762674915793e-08,8.50000000000000e-01,0.00000000000000e+00,8.49963072147987e-01
7.14143265160107e-08,8.50000000000000e-01,0.00000000000000e+00,8.49973427222902e-01
7.22904445648736e-08,8.50000000000000e-01,0.00000000000000e+00,8.49965958997074e-01
7.40426806625994e-08,8.50000000000000e-01,0.00000000000000e+00,8.49980400534011e-01
7.51000000000000e-08,8.50000000000000e-01,0.00000000000000e+00,8.49970596839571e-01
7.51100000000000e-08,7.65000000000086e-01,0.00000000000000e+00,8.49914081942152e-01
7.51300000000000e-08,5.95000000000119e-01,0.00000000000000e+00,8.49868234545701e-01
7.51700000000000e-08,2.55000000000183e-01,0.00000000000000e+00,8.51185175596323e-01
7.52000000000000e-08,1.19015908239817e-13,0.00000000000000e+00,8.53242780292937e-01
7.52080000000000e-08,0.00000000000000e+00,0.00000000000000e+00,8.53350744436994e-01
7.52240000000000e-08,0.00000000000000e+00,0.00000000000000e+00,8.52024203195568e-01
7.52560000000000e-08,0.00000000000000e+00,0.00000000000000e+00,8.41446447829705e-01
7.53200000000000e-08,0.00000000000000e+00,0.00000000000000e+00,8.18342688310931e-01
7.54480000000000e-08,0.00000000000000e+00,0.00000000000000e+00,8.32211797469213e-01
7.56800685444943e-08,0.00000000000000e+00,0.00000000000000e+00,8.55004044711466e-01
7.59792135973356e-08,0.00000000000000e+00,0.00000000000000e+00,8.44845617955648e-01
7.65087237803428e-08,0.00000000000000e+00,0.00000000000000e+00,8.53171648715541e-01
7.71926968586792e-08,0.00000000000000e+00,0.00000000000000e+00,8.46609387437972e-01
7.81000000000000e-08,0.00000000000000e+00,0.00000000000000e+00,8.52523328136373e-01
7.82367946156673e-08,0.00000000000000e+00,0.00000000000000e+00,8.50213013719093e-01
7.85103838470019e-08,0.00000000000000e+00,0.00000000000000e+00,8.49504237395791e-01
7.90575623096710e-08,0.00000000000000e+00,0.00000000000000e+00,8.50055601002353e-01
8.01519192350093e-08,0.00000000000000e+00,0.00000000000000e+00,8.49614446701351e-01
8.23406330856858e-08,0.00000000000000e+00,0.00000000000000e+00,8.50066067267860e-01
8.50000000000000e-08,0.00000000000000e+00,0.00000000000000e+00,8.49661991391059e-01
8.50100000000000e-08,8.49999999999839e-02,0.00000000000000e+00,8.49770575017760e-01
8.50300000000000e-08,2.54999999999952e-01,0.00000000000000e+00,8.49892176685368e-01
8.50700000000000e-08,5.94999999999887e-01,0.00000000000000e+00,8.49874386761468e-01
8.51000000000000e-08,8.49999999999951e-01,0.00000000000000e+00,8.49713219170095e-01
8.51080000000000e-08,8.50000000000000e-01,0.00000000000000e+00,8.49652727953652e-01
8.51240000000000e-08,8.50000000000000e-01,0.00000000000000e+00,8.49597341588429e-01
8.51560000000000e-08,8.50000000000000e-01,0.00000000000000e+00,8.49625278029394e-01
8.52200000000000e-08,8.50000000000000e-01,0.00000000000000e+00,8.51002762205158e-01
8.53480000000000e-08,8.50000000000000e-01,0.00000000000000e+00,8.61374777907837e-01
8.56040000000000e-08,8.50000000000000e-01,0.00000000000000e+00,3.05262883934471e-01
8.59128951812447e-08,8.50000000000000e-01,0.00000000000000e+00,-8.54394076987979e-02
8.63522565344190e-08,8.50000000000000e-01,0.00000000000000e+00,6.01685620228353e-02
8.69802331755772e-08,8.50000000000000e-01,0.00000000000000e+00,-4.03061376536628e-02
8.77082675874560e-08,8.50000000000000e-01,0.00000000000000e+00,3.26218827762743e-02
8.91643364112136e-08,8.50000000000000e-01,0.00000000000000e+00,-2.72038868743785e-02
9.00000000000000e-08,8.50000000000000e-01,0.00000000000000e+00,2.24314523028454e-02
9.00100000000000e-08,8.50000000000000e-01,8.49999999999839e-02,1.85444332146310e-02
9.00300000000000e-08,8.50000000000000e-01,2.54999999999952e-01,1.21984578147948e-02
9.00700000000000e-08,8.50000000000000e-01,5.94999999999887e-01,5.09082042527900e-03
9.01000000000000e-08,8.50000000000000e-01,8.49999999999951e-01,2.63234673907382e-03
9.01080000000000e-08,8.50000000000000e-01,8.50000000000000e-01,2.25952856662420e-03
9.01240000000000e-08,8.50000000000000e-01,8.50000000000000e-01,1.60270405540747e-03
9.01560000000000e-08,8.50000000000000e-01,8.50000000000000e-01,8.03300850065511e-04
9.02200000000000e-08,8.50000000000000e-01,8.50000000000000e-01,1.66051999595754e-04
9.03480000000000e-08,8.50000000000000e-01,8.50000000000000e-01,-1.53256624329454e-05
9.06040000000000e-08,8.50000000000000e-01,8.50000000000000e-01,1.71768782601701e-05
9.11159999999999e-08,8.50000000000000e-01,8.50000000000000e-01,-3.61014791564092e-06
9.21399999999999e-08,8.50000000000000e-01,8.50000000000000e-01,1.66760568996614e-05
9.41879999999998e-08,8.50000000000000e-01,8.50000000000000e-01,-5.74984029544628e-07
9.51000000000000e-08,8.50000000000000e-01,8.50000000000000e-01,1.43552768748726e-05
9.51100000000000e-08,7.65000000000086e-01,8.50000000000000e-01,-6.17593005393657e-05
9.51300000000000e-08,5.95000000000119e-01,8.50000000000000e-01,-1.75594688436573e-04
9.51700000000000e-08,2.55000000000183e-01,8.50000000000000e-01,-5.40109537048306e-05
9.52000000000000e-08,1.19015908239817e-13,8.50000000000000e-01,2.49374299419125e-04
9.52080000000000e-08,0.00000000000000e+00,8.50000000000000e-01,3.47911100740783e-04
9.52240000000000e-08,0.00000000000000e+00,8.50000000000000e-01,3.43194071952838e-04
9.52560000000000e-08,0.00000000000000e+00,8.50000000000000e-01,-4.68474927690213e-04
9.53200000000000e-08,0.00000000000000e+00,8.50000000000000e-01,-1.88572841252063e-03
9.54480000000000e-08,0.00000000000000e+00,8.50000000000000e-01,-7.67525235543680e-04
9.56848448047582e-08,0.00000000000000e+00,8.50000000000000e-01,1.50657563641497e-04
9.59992041409632e-08,0.00000000000000e+00,8.50000000000000e-01,-2.30226760039483e-05
9.65106155102434e-08,0.00000000000000e+00,8.50000000000000e-01,2.92144452082249e-04
9.72416291589150e-08,0.00000000000000e+00,8.50000000000000e-01,-3.52735277523150e-04
9.83575320216428e-08,0.00000000000000e+00,8.50000000000000e-01,3.97179932078042e-04
1.00589337747098e-07,0.00000000000000e+00,8.50000000000000e-01,-3.84645336437243e-04
1.04389337747098e-07,0.00000000000000e+00,8.50000000000000e-01,4.06417403888580e-04
1.05000000000000e-07,0.00000000000000e+00,8.50000000000000e-01,-3.84009453973813e-04
1.05010000000000e-07,8.49999999999839e-02,8.50000000000000e-01,-1.28291161399549e-04
1.05030000000000e-07,2.54999999999952e-01,8.50000000000000e-01,2.18865024896167e-04
1.05070000000000e-07,5.94999999999887e-01,8.50000000000000e-01,3.39813088816400e-04
1.05100000000000e-07,8.49999999999951e-01,8.50000000000000e-01,-1.11661537079142e-03
1.05108000000000e-07,8.50000000000000e-01,8.50000000000000e-01,-1.96928306481205e-03
1.05124000000000e-07,8.50000000000000e-01,8.50000000000000e-01,-3.61611133689163e-03
1.05156000000000e-07,8.50000000000000e-01,8.50000000000000e-01,-5.81787907494320e-03
1.05220000000000e-07,8.50000000000000e-01,8.50000000000000e-01,1.21288764152738e-02
1.05348000000000e-07,8.50000000000000e-01,8.50000000000000e-01,3.58052161593199e-01
1.05604000000000e-07,8.50000000000000e-01,8.50000000000000e-01,8.55998498490897e-01
1.05940857606883e-07,8.50000000000000e-01,8.50000000000000e-01,8.43436194846124e-01
