Time,v(clk),v(data),v(out)
1.00000000000000e-08,6.00000000000000e-01,0.00000000000000e+00,2.45973972930890e-05
1.00100000000000e-08,6.00000000000000e-01,5.99999999999985e-02,1.80560025859200e-05
1.00300000000000e-08,6.00000000000000e-01,1.79999999999996e-01,9.77972364217539e-06
1.00700000000000e-08,6.00000000000000e-01,4.19999999999990e-01,3.16747894011510e-06
1.01000000000000e-08,6.00000000000000e-01,5.99999999999995e-01,-4.80854579078260e-07
1.01080000000000e-08,6.00000000000000e-01,6.00000000000000e-01,-1.56901286324507e-07
1.01240000000000e-08,6.00000000000000e-01,6.00000000000000e-01,8.04794420342092e-07
1.01560000000000e-08,6.00000000000000e-01,6.00000000000000e-01,4.04099214101894e-06
1.02200000000000e-08,6.00000000000000e-01,6.00000000000000e-01,5.78476862886021e-06
1.03480000000000e-08,6.00000000000000e-01,6.00000000000000e-01,1.58988169465801e-06
1.06040000000000e-08,6.00000000000000e-01,6.00000000000000e-01,3.38756027164905e-06
1.11160000000000e-08,6.00000000000000e-01,6.00000000000000e-01,1.76420060650495e-06
1.21400000000000e-08,6.00000000000000e-01,6.00000000000000e-01,3.82352254708982e-06
1.41880000000000e-08,6.00000000000000e-01,6.00000000000000e-01,1.59678422923990e-06
1.51000000000000e-08,6.00000000000000e-01,6.00000000000000e-01,3.63537867226725e-06
1.51100000000000e-08,5.39999999999991e-01,6.00000000000000e-01,-3.66145072099033e-05
1.51300000000000e-08,4.19999999999994e-01,6.00000000000000e-01,-1.04231678323713e-04
1.51700000000000e-08,1.80000000000000e-01,6.00000000000000e-01,-8.30469639397577e-05
1.52000000000000e-08,0.00000000000000e+00,6.00000000000000e-01,1.06480381680353e-04
1.52080000000000e-08,0.00000000000000e+00,6.00000000000000e-01,2.02942694173112e-04
1.52240000000000e-08,0.00000000000000e+00,6.00000000000000e-01,3.04911523870084e-04
1.52560000000000e-08,0.00000000000000e+00,6.00000000000000e-01,2.23793799152862e-04
1.53200000000000e-08,0.00000000000000e+00,6.00000000000000e-01,-1.03311891063808e-04
1.54480000000000e-08,0.00000000000000e+00,6.00000000000000e-01,-1.73655240619804e-04
1.57040000000000e-08,0.00000000000000e+00,6.00000000000000e-01,-6.94072247962065e-05
1.61763888813680e-08,0.00000000000000e+00,6.00000000000000e-01,6.17001751610363e-05
1.67087620655002e-08,0.00000000000000e+00,6.00000000000000e-01,8.11951290669074e-05
1.77735084337646e-08,0.00000000000000e+00,6.00000000000000e-01,-1.13446067547623e-04
1.90825790432344e-08,0.00000000000000e+00,6.00000000000000e-01,1.34308472177687e-04
2.14905330390057e-08,0.00000000000000e+00,6.00000000000000e-01,-1.39448700540988e-04
2.50000000000000e-08,0.00000000000000e+00,6.00000000000000e-01,1.44926632177070e-04
2.50100000000000e-08,5.99999999999886e-02,6.00000000000000e-01,1.89987108598487e-04
2.50300000000000e-08,1.80000000000006e-01,6.00000000000000e-01,2.57665926730218e-04
2.50700000000000e-08,4.20000000000000e-01,6.00000000000000e-01,2.83153562440533e-04
2.51000000000000e-08,6.00000000000000e-01,6.00000000000000e-01,-5.03858192565307e-04
2.51080000000000e-08,6.00000000000000e-01,6.00000000000000e-01,-1.05732287285119e-03
2.51240000000000e-08,6.00000000000000e-01,6.00000000000000e-01,-2.23044575150452e-03
2.51560000000000e-08,6.00000000000000e-01,6.00000000000000e-01,-4.18419359761400e-03
2.52200000000000e-08,6.00000000000000e-01,6.00000000000000e-01,-3.41996050853147e-03
2.53480000000000e-08,6.00000000000000e-01,6.00000000000000e-01,1.63206110486479e-01
2.56040000000000e-08,6.00000000000000e-01,6.00000000000000e-01,5.77271897956128e-01
2.61160000000000e-08,6.00000000000000e-01,6.00000000000000e-01,6.07754111185503e-01
2.67088434281489e-08,6.00000000000000e-01,6.00000000000000e-01,5.92163872933222e-01
2.77339710779526e-08,6.00000000000000e-01,6.00000000000000e-01,6.06244403053546e-01
2.90386680238786e-08,6.00000000000000e-01,6.00000000000000e-01,5.93481128719693e-01
3.01000000000000e-08,6.00000000000000e-01,6.00000000000000e-01,6.05494980746562e-01
3.01100000000000e-08,6.00000000000000e-01,5.40000000000031e-01,6.03446916182065e-01
3.01300000000000e-08,6.00000000000000e-01,4.20000000000014e-01,6.00864619420677e-01
3.01700000000000e-08,6.00000000000000e-01,1.80000000000020e-01,5.99994712759912e-01
3.02000000000000e-08,6.00000000000000e-01,1.44328993201270e-14,6.00092164254324e-01
3.02080000000000e-08,6.00000000000000e-01,0.00000000000000e+00,6.00079513021377e-01
3.02240000000000e-08,6.00000000000000e-01,0.00000000000000e+00,6.00067593091695e-01
3.02560000000000e-08,6.00000000000000e-01,0.00000000000000e+00,6.00010881756044e-01
3.03200000000000e-08,6.00000000000000e-01,0.00000000000000e+00,5.99976784235206e-01
3.04480000000000e-08,6.00000000000000e-01,0.00000000000000e+00,5.99985106886625e-01
3.07040000000000e-08,6.00000000000000e-01,0.00000000000000e+00,5.99977929262483e-01
3.11755183018986e-08,6.00000000000000e-01,0.00000000000000e+00,5.99970392552803e-01
3.17091854817646e-08,6.00000000000000e-01,0.00000000000000e+00,5.99985445594015e-01
3.27765198414968e-08,6.00000000000000e-01,0.00000000000000e+00,5.99971074979372e-01
3.49111885609610e-08,6.00000000000000e-01,0.00000000000000e+00,5.99990077297073e-01
3.51000000000000e-08,5.99999999999970e-01,0.00000000000000e+00,5.99974081765962e-01
3.51100000000000e-08,5.39999999999982e-01,0.00000000000000e+00,5.99931870643722e-01
3.51300000000000e-08,4.19999999999965e-01,0.00000000000000e+00,5.99876888310861e-01
3.51700000000000e-08,1.79999999999970e-01,0.00000000000000e+00,6.00354016088686e-01
3.52000000000000e-08,0.00000000000000e+00,0.00000000000000e+00,6.01747280599299e-01
3.52080000000000e-08,0.00000000000000e+00,0.00000000000000e+00,6.02099384171532e-01
3.52240000000000e-08,0.00000000000000e+00,0.00000000000000e+00,6.02469219495519e-01
3.52560000000000e-08,0.00000000000000e+00,0.00000000000000e+00,6.01248324207980e-01
3.53200000000000e-08,0.00000000000000e+00,0.00000000000000e+00,5.88865704471010e-01
3.54480000000000e-08,0.00000000000000e+00,0.00000000000000e+00,5.78854803868959e-01
3.57040000000000e-08,0.00000000000000e+00,0.00000000000000e+00,5.99758191783941e-01
3.60165425012255e-08,0.00000000000000e+00,0.00000000000000e+00,5.99122475572794e-01
3.66416275036765e-08,0.00000000000000e+00,0.00000000000000e+00,6.00066667584477e-01
3.73094090334959e-08,0.00000000000000e+00,0.00000000000000e+00,5.99433432868725e-01
3.86449720931347e-08,0.00000000000000e+00,0.00000000000000e+00,6.00164421557881e-01
3.91000000000000e-08,0.00000000000000e+00,0.00000000000000e+00,5.99588901329421e-01
3.93671126119278e-08,0.00000000000000e+00,0.00000000000000e+00,5.99840885334077e-01
3.99013378357833e-08,0.00000000000000e+00,0.00000000000000e+00,5.99889805022790e-01
4.09697882834943e-08,0.00000000000000e+00,0.00000000000000e+00,5.99869568077891e-01
4.31066891789164e-08,0.00000000000000e+00,0.00000000000000e+00,5.99919421855002e-01
4.50000000000000e-08,0.00000000000000e+00,0.00000000000000e+00,5.99895649422759e-01
4.50100000000000e-08,5.99999999999886e-02,0.00000000000000e+00,5.99944439910490e-01
4.50300000000000e-08,1.80000000000006e-01,0.00000000000000e+00,5.99993342646327e-01
4.50700000000000e-08,4.20000000000000e-01,0.00000000000000e+00,5.99944883557769e-01
4.51000000000000e-08,6.00000000000000e-01,0.00000000000000e+00,5.99804332296271e-01
4.51080000000000e-08,6.00000000000000e-01,0.00000000000000e+00,5.99759777645674e-01
4.51240000000000e-08,6.00000000000000e-01,0.00000000000000e+00,5.99693091609886e-01
4.51560000000000e-08,6.00000000000000e-01,0.00000000000000e+00,5.99670728136787e-01
4.52200000000000e-08,6.00000000000000e-01,0.00000000000000e+00,6.00047462213426e-01
4.53480000000000e-08,6.00000000000000e-01,0.00000000000000e+00,6.06468336238618e-01
4.56040000000000e-08,6.00000000000000e-01,0.00000000000000e+00,2.25431158098682e-01
4.60705036047307e-08,6.00000000000000e-01,0.00000000000000e+00,-7.12359619545766e-02
4.65035568996948e-08,6.00000000000000e-01,0.00000000000000e+00,6.10402193413950e-02
4.73696634896231e-08,6.00000000000000e-01,0.00000000000000e+00,-4.12036972251093e-02
4.83281272303637e-08,6.00000000000000e-01,0.00000000000000e+00,4.04139722028293e-02
5.00000000000000e-08,6.00000000000000e-01,0.00000000000000e+00,-3.17782562333474e-02
5.00100000000000e-08,6.00000000000000e-01,5.99999999999886e-02,-2.55598637347686e-02
5.00300000000000e-08,6.00000000000000e-01,1.79999999999966e-01,-1.51349868534329e-02
5.00700000000000e-08,6.00000000000000e-01,4.20000000000000e-01,-4.44895888969378e-03
5.01000000000000e-08,6.00000000000000e-01,6.00000000000000e-01,-1.95882380139516e-03
5.01080000000000e-08,6.00000000000000e-01,6.00000000000000e-01,-1.59421856043228e-03
5.01240000000000e-08,6.00000000000000e-01,6.00000000000000e-01,-8.98828427190676e-04
5.01560000000000e-08,6.00000000000000e-01,6.00000000000000e-01,-3.69060840735395e-04
5.02200000000000e-08,6.00000000000000e-01,6.00000000000000e-01,-2.08165687237381e-05
5.03480000000000e-08,6.00000000000000e-01,6.00000000000000e-01,1.82439536912035e-06
5.06040000000000e-08,6.00000000000000e-01,6.00000000000000e-01,1.25380809361947e-06
5.11160000000001e-08,6.00000000000000e-01,6.00000000000000e-01,-4.73937830130361e-07
5.21400000000002e-08,6.00000000000000e-01,6.00000000000000e-01,2.66208454869060e-06
5.41880000000003e-08,6.00000000000000e-01,6.00000000000000e-01,-1.71518893488944e-06
5.51000000000000e-08,6.00000000000000e-01,6.00000000000000e-01,2.01164219699838e-06
5.51100000000000e-08,5.40000000000021e-01,6.00000000000000e-01,-4.62634283826951e-05
5.51300000000000e-08,4.20000000000004e-01,6.00000000000000e-01,-1.11161561826736e-04
5.51700000000000e-08,1.80000000000010e-01,6.00000000000000e-01,-8.10920869866519e-05
5.52000000000000e-08,0.00000000000000e+00,6.00000000000000e-01,1.02041184068313e-04
5.52080000000000e-08,0.00000000000000e+00,6.00000000000000e-01,1.96816904563100e-04
5.52240000000000e-08,0.00000000000000e+00,6.00000000000000e-01,2.91108710640441e-04
5.52560000000000e-08,0.00000000000000e+00,6.00000000000000e-01,1.63121957568763e-04
5.53200000000000e-08,0.00000000000000e+00,6.00000000000000e-01,-6.83420580611296e-04
5.54480000000000e-08,0.00000000000000e+00,6.00000000000000e-01,-5.42384563580446e-04
5.57040000000000e-08,0.00000000000000e+00,6.00000000000000e-01,1.57888638271713e-04
5.61752742078099e-08,0.00000000000000e+00,6.00000000000000e-01,-1.14504629086003e-04
5.67079097178100e-08,0.00000000000000e+00,6.00000000000000e-01,2.20996636989575e-04
5.77731807378103e-08,0.00000000000000e+00,6.00000000000000e-01,-2.41322614850160e-04
5.90808589069696e-08,0.00000000000000e+00,6.00000000000000e-01,2.51061968519590e-04
6.14912891175456e-08,0.00000000000000e+00,6.00000000000000e-01,-2.52019925417686e-04
6.50000000000000e-08,0.00000000000000e+00,6.00000000000000e-01,2.53472512189673e-04
6.50100000000000e-08,5.99999999999886e-02,6.00000000000000e-01,2.60319119823264e-04
6.50300000000000e-08,1.79999999999966e-01,6.00000000000000e-01,2.87831707197553e-04
6.50700000000000e-08,4.19999999999920e-01,6.00000000000000e-01,2.93572748685175e-04
6.51000000000000e-08,5.99999999999966e-01,6.00000000000000e-01,-5.03745193959584e-04
6.51080000000000e-08,6.00000000000000e-01,6.00000000000000e-01,-1.05735649586571e-03
6.51240000000000e-08,6.00000000000000e-01,6.00000000000000e-01,-2.23119262425104e-03
6.51560000000000e-08,6.00000000000000e-01,6.00000000000000e-01,-4.18534887831389e-03
6.52200000000000e-08,6.00000000000000e-01,6.00000000000000e-01,-3.41309876018395e-03
6.53480000000000e-08,6.00000000000000e-01,6.00000000000000e-01,1.63286638416681e-01
6.56040000000000e-08,6.00000000000000e-01,6.00000000000000e-01,5.77304523407938e-01
6.61159999999999e-08,6.00000000000000e-01,6.00000000000000e-01,6.07742136183314e-01
6.67088558385751e-08,6.00000000000000e-01,6.00000000000000e-01,5.92176863410577e-01
6.77339418030045e-08,6.00000000000000e-01,6.00000000000000e-01,6.06233745445215e-01
6.90386158383467e-08,6.00000000000000e-01,6.00000000000000e-01,5.93492537547684e-01
7.01000000000000e-08,6.00000000000000e-01,6.00000000000000e-01,6.05485229413619e-01
7.01100000000000e-08,6.00000000000000e-01,5.40000000000011e-01,6.03441201323765e-01
7.01300000000000e-08,6.00000000000000e-01,4.20000000000034e-01,6.00863667813925e-01
7.01700000000000e-08,6.00000000000000e-01,1.80000000000080e-01,5.99994894358815e-01
7.02000000000000e-08,6.00000000000000e-01,3.44169137633799e-14,6.00092167894804e-01
7.02080000000000e-08,6.00000000000000e-01,0.00000000000000e+00,6.00079521670150e-01
7.02240000000000e-08,6.00000000000000e-01,0.00000000000000e+00,6.00067603139381e-01
7.02560000000000e-08,6.00000000000000e-01,0.00000000000000e+00,6.00010884298152e-01
7.03200000000000e-08,6.00000000000000e-01,0.00000000000000e+00,5.99976783858655e-01
7.04480000000000e-08,6.00000000000000e-01,0.00000000000000e+00,5.99985110841427e-01
7.07040000000000e-08,6.00000000000000e-01,0.00000000000000e+00,5.99977935915321e-01
7.11755180625718e-08,6.00000000000000e-01,0.00000000000000e+00,5.99970388502252e-01
7.17091975050971e-08,6.00000000000000e-01,0.00000000000000e+00,5.99985453171882e-01
7.27765563901478e-08,6.00000000000000e-01,0.00000000000000e+00,5.99971069678774e-01
7.49112741602493e-08,6.00000000000000e-01,0.00000000000000e+00,5.99990084853034e-01
7.51000000000000e-08,6.00000000000000e-01,0.00000000000000e+00,5.99974075876060e-01
7.51100000000000e-08,5.40000000000061e-01,0.00000000000000e+00,5.99931862292131e-01
7.51300000000000e-08,4.20000000000084e-01,0.00000000000000e+00,5.99876880104444e-01
7.51700000000000e-08,1.80000000000129e-01,0.00000000000000e+00,6.00354016149012e-01
7.52000000000000e-08,8.40438829641244e-14,0.00000000000000e+00,6.01747283411272e-01
7.52080000000000e-08,0.00000000000000e+00,0.00000000000000e+00,6.02099386096635e-01
7.52240000000000e-08,0.00000000000000e+00,0.00000000000000e+00,6.02469224939645e-01
7.52560000000000e-08,0.00000000000000e+00,0.00000000000000e+00,6.01248385550663e-01
7.53200000000000e-08,0.00000000000000e+00,0.00000000000000e+00,5.88865882947580e-01
7.54480000000000e-08,0.00000000000000e+00,0.00000000000000e+00,5.78854861675468e-01
7.57040000000000e-08,0.00000000000000e+00,0.00000000000000e+00,5.99758135098285e-01
7.60165424965784e-08,0.00000000000000e+00,0.00000000000000e+00,5.99122522199119e-01
7.66416274897353e-08,0.00000000000000e+00,0.00000000000000e+00,6.00066631063878e-01
7.73094090270365e-08,0.00000000000000e+00,0.00000000000000e+00,5.99433465201480e-01
7.81000000000000e-08,0.00000000000000e+00,0.00000000000000e+00,6.00127910451916e-01
7.82335563074603e-08,0.00000000000000e+00,0.00000000000000e+00,5.99869408151423e-01
7.85006689223807e-08,0.00000000000000e+00,0.00000000000000e+00,5.99804412109931e-01
7.90348941522216e-08,0.00000000000000e+00,0.00000000000000e+00,5.99880381521723e-01
8.01033446119035e-08,0.00000000000000e+00,0.00000000000000e+00,5.99848881718444e-01
8.22402455312672e-08,0.00000000000000e+00,0.00000000000000e+00,5.99922373059944e-01
8.50000000000000e-08,0.00000000000000e+00,0.00000000000000e+00,5.99887473500607e-01
8.50100000000000e-08,5.99999999999886e-02,0.00000000000000e+00,5.99938498469291e-01
8.50300000000000e-08,1.79999999999966e-01,0.00000000000000e+00,5.99990912866750e-01
8.50700000000000e-08,4.19999999999920e-01,0.00000000000000e+00,5.99944714788156e-01
8.51000000000000e-08,5.99999999999966e-01,0.00000000000000e+00,5.99804420560156e-01
8.51080000000000e-08,6.00000000000000e-01,0.00000000000000e+00,5.99759881830441e-01
8.51240000000000e-08,6.00000000000000e-01,0.00000000000000e+00,5.99693239237092e-01
8.51560000000000e-08,6.00000000000000e-01,0.00000000000000e+00,5.99670928792784e-01
8.52200000000000e-08,6.00000000000000e-01,0.00000000000000e+00,6.00047550362103e-01
8.53480000000000e-08,6.00000000000000e-01,0.00000000000000e+00,6.06468306635119e-01
8.56040000000000e-08,6.00000000000000e-01,0.00000000000000e+00,2.25438155592061e-01
8.60705104317243e-08,6.00000000000000e-01,0.00000000000000e+00,-7.12361039827123e-02
8.65035547312432e-08,6.00000000000000e-01,0.00000000000000e+00,6.10398795971761e-02
8.73696433302810e-08,6.00000000000000e-01,0.00000000000000e+00,-4.12026130611449e-02
8.83280982428974e-08,6.00000000000000e-01,0.00000000000000e+00,4.04134771680455e-02
9.00000000000000e-08,6.00000000000000e-01,0.00000000000000e+00,-3.17778494152971e-02
9.00100000000000e-08,6.00000000000000e-01,5.99999999999886e-02,-2.55596239388525e-02
9.00300000000000e-08,6.00000000000000e-01,1.79999999999966e-01,-1.51349432952131e-02
9.00700000000000e-08,6.00000000000000e-01,4.19999999999920e-01,-4.44891474324888e-03
9.01000000000000e-08,6.00000000000000e-01,5.99999999999966e-01,-1.95882546792873e-03
9.01080000000000e-08,6.00000000000000e-01,6.00000000000000e-01,-1.59421463645776e-03
9.01240000000000e-08,6.00000000000000e-01,6.00000000000000e-01,-8.98829230280243e-04
9.01560000000000e-08,6.00000000000000e-01,6.00000000000000e-01,-3.69061229453252e-04
9.02200000000000e-08,6.00000000000000e-01,6.00000000000000e-01,-2.08165320577346e-05
9.03480000000000e-08,6.00000000000000e-01,6.00000000000000e-01,1.82440003660897e-06
9.06040000000000e-08,6.00000000000000e-01,6.00000000000000e-01,1.25394734476307e-06
9.11159999999999e-08,6.00000000000000e-01,6.00000000000000e-01,-4.74065212070426e-07
9.21399999999999e-08,6.00000000000000e-01,6.00000000000000e-01,2.66222949795673e-06
9.41879999999998e-08,6.00000000000000e-01,6.00000000000000e-01,-1.71530628249438e-06
9.51000000000000e-08,6.00000000000000e-01,6.00000000000000e-01,2.01183537647167e-06
9.51100000000000e-08,5.40000000000061e-01,6.00000000000000e-01,-4.62634111804486e-05
9.51300000000000e-08,4.20000000000084e-01,6.00000000000000e-01,-1.11161500297739e-04
9.51700000000000e-08,1.80000000000129e-01,6.00000000000000e-01,-8.10920185323333e-05
9.52000000000000e-08,8.40438829641244e-14,6.00000000000000e-01,1.02041218425046e-04
9.52080000000000e-08,0.00000000000000e+00,6.00000000000000e-01,1.96816971083119e-04
9.52240000000000e-08,0.00000000000000e+00,6.00000000000000e-01,2.91108908585892e-04
9.52560000000000e-08,0.00000000000000e+00,6.00000000000000e-01,1.63123032321834e-04
9.53200000000000e-08,0.00000000000000e+00,6.00000000000000e-01,-6.83413200275020e-04
9.54480000000000e-08,0.00000000000000e+00,6.00000000000000e-01,-5.42376491712303e-04
9.57040000000000e-08,0.00000000000000e+00,6.00000000000000e-01,1.57885317734266e-04
9.61752742283889e-08,0.00000000000000e+00,6.00000000000000e-01,-1.14502728631867e-04
9.67079097321280e-08,0.00000000000000e+00,6.00000000000000e-01,2.20995584483531e-04
9.77731807396062e-08,0.00000000000000e+00,6.00000000000000e-01,-2.41321848835211e-04
9.90808589068520e-08,0.00000000000000e+00,6.00000000000000e-01,2.51061414354804e-04
1.01491289046234e-07,0.00000000000000e+00,6.00000000000000e-01,-2.52019461816177e-04
1.05000000000000e-07,0.00000000000000e+00,6.00000000000000e-01,2.53472114660006e-04
1.05010000000000e-07,5.99999999999886e-02,6.00000000000000e-01,2.60318596188872e-04
1.05030000000000e-07,1.79999999999966e-01,6.00000000000000e-01,2.87831086408355e-04
1.05070000000000e-07,4.19999999999920e-01,6.00000000000000e-01,2.93572375809834e-04
1.05100000000000e-07,5.99999999999966e-01,6.00000000000000e-01,-5.03745362664100e-04
1.05108000000000e-07,6.00000000000000e-01,6.00000000000000e-01,-1.05735663590215e-03
1.05124000000000e-07,6.00000000000000e-01,6.00000000000000e-01,-2.23119271620038e-03
1.05156000000000e-07,6.00000000000000e-01,6.00000000000000e-01,-4.18534891821377e-03
1.05220000000000e-07,6.00000000000000e-01,6.00000000000000e-01,-3.41309878766318e-03
1.05348000000000e-07,6.00000000000000e-01,6.00000000000000e-01,1.63286638204291e-01
1.05604000000000e-07,6.00000000000000e-01,6.00000000000000e-01,5.77304523322516e-01
1.06116000000000e-07,6.00000000000000e-01,6.00000000000000e-01,6.07742136214919e-01
1.06708855838548e-07,6.00000000000000e-01,6.00000000000000e-01,5.92176863388506e-01
1.07733941803076e-07,6.00000000000000e-01,6.00000000000000e-01,6.06233745478508e-01
1.09038615838492e-07,6.00000000000000e-01,6.00000000000000e-01,5.93492537521852e-01
1.10100000000000e-07,6.00000000000000e-01,6.00000000000000e-01,6.05485229440223e-01
