Time,v(clk),v(data),v(out),v(reset)
1.00000000000000e-08,7.50000000000000e-01,0.00000000000000e+00,-2.13362710413875e-05,0.00000000000000e+00
1.00100000000000e-08,7.50000000000000e-01,7.49999999999982e-02,-1.22806209820608e-05,0.00000000000000e+00
1.00300000000000e-08,7.50000000000000e-01,2.24999999999995e-01,-2.80111634076013e-06,0.00000000000000e+00
1.00700000000000e-08,7.50000000000000e-01,5.24999999999987e-01,-2.24268034504371e-07,0.00000000000000e+00
1.01000000000000e-08,7.50000000000000e-01,7.49999999999994e-01,1.38089146877601e-06,0.00000000000000e+00
1.01080000000000e-08,7.50000000000000e-01,7.50000000000000e-01,1.79950642825721e-06,0.00000000000000e+00
1.01240000000000e-08,7.50000000000000e-01,7.50000000000000e-01,2.70845521649354e-06,0.00000000000000e+00
1.01560000000000e-08,7.50000000000000e-01,7.50000000000000e-01,3.13710990828414e-06,0.00000000000000e+00
1.02200000000000e-08,7.50000000000000e-01,7.50000000000000e-01,2.87151921515849e-06,0.00000000000000e+00
1.03480000000000e-08,7.50000000000000e-01,7.50000000000000e-01,1.91514676307555e-06,0.00000000000000e+00
1.06040000000000e-08,7.50000000000000e-01,7.50000000000000e-01,1.78865223217535e-06,0.00000000000000e+00
1.11160000000000e-08,7.50000000000000e-01,7.50000000000000e-01,1.85790334408364e-06,0.00000000000000e+00
1.21400000000000e-08,7.50000000000000e-01,7.50000000000000e-01,1.46388942512963e-06,0.00000000000000e+00
1.41880000000000e-08,7.50000000000000e-01,7.50000000000000e-01,1.47593460249275e-06,0.00000000000000e+00
1.51000000000000e-08,7.50000000000000e-01,7.50000000000000e-01,1.14865515823482e-06,0.00000000000000e+00
1.51100000000000e-08,6.74999999999989e-01,7.50000000000000e-01,1.33765025813810e-04,7.50000000000106e-02
1.51300000000000e-08,5.24999999999993e-01,7.50000000000000e-01,1.83505102285264e-04,2.25000000000007e-01
1.51700000000000e-08,2.25000000000000e-01,7.50000000000000e-01,7.35282508859750e-05,5.25000000000000e-01
1.52000000000000e-08,0.00000000000000e+00,7.50000000000000e-01,1.33972177652562e-04,7.50000000000000e-01
1.52080000000000e-08,0.00000000000000e+00,7.50000000000000e-01,1.17638540907995e-04,7.50000000000000e-01
1.52240000000000e-08,0.00000000000000e+00,7.50000000000000e-01,5.14155904565994e-05,7.50000000000000e-01
1.52560000000000e-08,0.00000000000000e+00,7.50000000000000e-01,-1.15201570245742e-04,7.50000000000000e-01
1.53200000000000e-08,0.00000000000000e+00,7.50000000000000e-01,-2.49579645999511e-04,7.50000000000000e-01
1.54480000000000e-08,0.00000000000000e+00,7.50000000000000e-01,-9.62030051611835e-05,7.50000000000000e-01
1.56952250252622e-08,0.00000000000000e+00,7.50000000000000e-01,4.00498487135928e-05,7.50000000000000e-01
1.59504833748755e-08,0.00000000000000e+00,7.50000000000000e-01,1.54332773764254e-04,7.50000000000000e-01
1.64610000741019e-08,0.00000000000000e+00,7.50000000000000e-01,-1.86983046259607e-04,7.50000000000000e-01
1.70199554695095e-08,0.00000000000000e+00,7.50000000000000e-01,1.99828954572784e-04,7.50000000000000e-01
1.80977932849175e-08,0.00000000000000e+00,7.50000000000000e-01,-2.00325109022923e-04,7.50000000000000e-01
1.96894198435445e-08,0.00000000000000e+00,7.50000000000000e-01,2.00509730327386e-04,7.50000000000000e-01
2.22532262962348e-08,0.00000000000000e+00,7.50000000000000e-01,-1.99041646244276e-04,7.50000000000000e-01
2.50000000000000e-08,0.00000000000000e+00,7.50000000000000e-01,1.98406998816171e-04,7.50000000000000e-01
2.50100000000000e-08,7.49999999999858e-02,7.50000000000000e-01,2.33114822204082e-04,7.50000000000000e-01
2.50300000000000e-08,2.25000000000007e-01,7.50000000000000e-01,2.50402906260952e-04,7.50000000000000e-01
2.50700000000000e-08,5.25000000000000e-01,7.50000000000000e-01,-2.06937487385629e-04,7.50000000000000e-01
2.51000000000000e-08,7.50000000000000e-01,7.50000000000000e-01,-2.89605607219007e-03,7.50000000000000e-01
2.51080000000000e-08,7.50000000000000e-01,7.50000000000000e-01,-3.97870366242034e-03,7.50000000000000e-01
2.51240000000000e-08,7.50000000000000e-01,7.50000000000000e-01,-5.66606851843794e-03,7.50000000000000e-01
2.51560000000000e-08,7.50000000000000e-01,7.50000000000000e-01,-9.47617713966890e-04,7.50000000000000e-01
2.52200000000000e-08,7.50000000000000e-01,7.50000000000000e-01,1.75704982614538e-01,7.50000000000000e-01
2.53480000000000e-08,7.50000000000000e-01,7.50000000000000e-01,6.94352544252972e-01,7.50000000000000e-01
2.56040000000000e-08,7.50000000000000e-01,7.50000000000000e-01,7.66325072074156e-01,7.50000000000000e-01
2.58936090273929e-08,7.50000000000000e-01,7.50000000000000e-01,7.34497463466518e-01,7.50000000000000e-01
2.63885780348626e-08,7.50000000000000e-01,7.50000000000000e-01,7.63248762777500e-01,7.50000000000000e-01
2.70363279499327e-08,7.50000000000000e-01,7.50000000000000e-01,7.36806468401951e-01,7.50000000000000e-01
2.83318277800730e-08,7.50000000000000e-01,7.50000000000000e-01,7.62154926723584e-01,7.50000000000000e-01
3.09228274403535e-08,7.50000000000000e-01,7.50000000000000e-01,7.37410898331957e-01,7.50000000000000e-01
3.47228274403536e-08,7.50000000000000e-01,7.50000000000000e-01,7.61872885874604e-01,7.50000000000000e-01
3.51000000000000e-08,7.49999999999963e-01,7.50000000000000e-01,7.38800895010717e-01,7.50000000000000e-01
3.51100000000000e-08,6.74999999999977e-01,7.50000000000000e-01,7.44491392089651e-01,7.50000000000000e-01
3.51300000000000e-08,5.24999999999956e-01,7.50000000000000e-01,7.50040102928156e-01,7.50000000000000e-01
3.51700000000000e-08,2.24999999999963e-01,7.50000000000000e-01,7.50891232635844e-01,7.50000000000000e-01
3.52000000000000e-08,0.00000000000000e+00,7.50000000000000e-01,7.52675796920574e-01,7.50000000000000e-01
3.52080000000000e-08,0.00000000000000e+00,7.50000000000000e-01,7.52344983085161e-01,7.50000000000000e-01
3.52240000000000e-08,0.00000000000000e+00,7.50000000000000e-01,7.48895941430878e-01,7.50000000000000e-01
3.52560000000000e-08,0.00000000000000e+00,7.50000000000000e-01,7.33020402887243e-01,7.50000000000000e-01
3.53200000000000e-08,0.00000000000000e+00,7.50000000000000e-01,7.23637212306199e-01,7.50000000000000e-01
3.54480000000000e-08,0.00000000000000e+00,7.50000000000000e-01,7.48992599765434e-01,7.50000000000000e-01
3.57040000000000e-08,0.00000000000000e+00,7.50000000000000e-01,7.49529499127006e-01,7.50000000000000e-01
3.60096709329546e-08,0.00000000000000e+00,7.50000000000000e-01,7.49911053759811e-01,7.50000000000000e-01
3.66210127988636e-08,0.00000000000000e+00,7.50000000000000e-01,7.49620377366562e-01,7.50000000000000e-01
3.78436965306818e-08,0.00000000000000e+00,7.50000000000000e-01,7.50128541574338e-01,7.50000000000000e-01
4.02890639943182e-08,0.00000000000000e+00,7.50000000000000e-01,7.49701808378081e-01,7.50000000000000e-01
4.40890639943182e-08,0.00000000000000e+00,7.50000000000000e-01,7.50188649501284e-01,7.50000000000000e-01
4.50000000000000e-08,0.00000000000000e+00,7.50000000000000e-01,7.49714319405726e-01,7.50000000000000e-01
4.50100000000000e-08,7.49999999999858e-02,7.50000000000000e-01,7.49752269885539e-01,6.75000000000014e-01
4.50300000000000e-08,2.25000000000007e-01,7.50000000000000e-01,7.49797773429504e-01,5.24999999999993e-01
4.50700000000000e-08,5.25000000000000e-01,7.50000000000000e-01,7.53023106641981e-01,2.25000000000000e-01
4.51000000000000e-08,7.50000000000000e-01,7.50000000000000e-01,7.60831364112115e-01,0.00000000000000e+00
4.51080000000000e-08,7.50000000000000e-01,7.50000000000000e-01,7.63527046318463e-01,0.00000000000000e+00
4.51240000000000e-08,7.50000000000000e-01,7.50000000000000e-01,7.69077612716236e-01,0.00000000000000e+00
4.51560000000000e-08,7.50000000000000e-01,7.50000000000000e-01,7.44852861023100e-01,0.00000000000000e+00
4.52200000000000e-08,7.50000000000000e-01,7.50000000000000e-01,3.76085411368973e-01,0.00000000000000e+00
4.53480000000000e-08,7.50000000000000e-01,7.50000000000000e-01,-3.81300865900790e-02,0.00000000000000e+00
4.55081566927450e-08,7.50000000000000e-01,7.50000000000000e-01,2.26386948768280e-02,0.00000000000000e+00
4.58284700782349e-08,7.50000000000000e-01,7.50000000000000e-01,-1.68300021155787e-02,0.00000000000000e+00
4.61580062177384e-08,7.50000000000000e-01,7.50000000000000e-01,1.34273222388145e-02,0.00000000000000e+00
4.68170784967453e-08,7.50000000000000e-01,7.50000000000000e-01,-1.17395363822151e-02,0.00000000000000e+00
4.81352230547591e-08,7.50000000000000e-01,7.50000000000000e-01,1.12205764191286e-02,0.00000000000000e+00
5.01000000000000e-08,7.50000000000000e-01,7.49999999999957e-01,-1.06738560542657e-02,0.00000000000000e+00
5.03636289116028e-08,7.50000000000000e-01,7.50000000000000e-01,-6.64297475410956e-04,0.00000000000000e+00
5.08908867348083e-08,7.50000000000000e-01,7.50000000000000e-01,5.61228475982352e-04,0.00000000000000e+00
5.19454023812193e-08,7.50000000000000e-01,7.50000000000000e-01,-5.13232928272568e-04,0.00000000000000e+00
5.40544336740414e-08,7.50000000000000e-01,7.50000000000000e-01,4.92690991277535e-04,0.00000000000000e+00
5.51000000000000e-08,7.50000000000000e-01,7.50000000000000e-01,-4.50519445258453e-04,0.00000000000000e+00
5.51100000000000e-08,6.75000000000027e-01,7.50000000000000e-01,-1.68165370442508e-04,7.49999999999734e-02
5.51300000000000e-08,5.25000000000005e-01,7.50000000000000e-01,6.75958252687112e-05,2.24999999999995e-01
5.51700000000000e-08,2.25000000000013e-01,7.50000000000000e-01,5.59164366805767e-05,5.24999999999987e-01
5.52000000000000e-08,0.00000000000000e+00,7.50000000000000e-01,1.11885562990431e-04,7.50000000000000e-01
5.52080000000000e-08,0.00000000000000e+00,7.50000000000000e-01,6.58576886692283e-05,7.50000000000000e-01
5.52240000000000e-08,0.00000000000000e+00,7.50000000000000e-01,-1.60365806356241e-04,7.50000000000000e-01
5.52560000000000e-08,0.00000000000000e+00,7.50000000000000e-01,-1.04296197543050e-03,7.50000000000000e-01
5.53200000000000e-08,0.00000000000000e+00,7.50000000000000e-01,-8.01586112798597e-04,7.50000000000000e-01
5.54455948555077e-08,0.00000000000000e+00,7.50000000000000e-01,4.70100447187628e-04,7.50000000000000e-01
5.56932913956139e-08,0.00000000000000e+00,7.50000000000000e-01,-5.08973335134204e-04,7.50000000000000e-01
5.59469398755346e-08,0.00000000000000e+00,7.50000000000000e-01,4.50610672795507e-04,7.50000000000000e-01
5.64542368353759e-08,0.00000000000000e+00,7.50000000000000e-01,-3.65143278160093e-04,7.50000000000000e-01
5.70125323138283e-08,0.00000000000000e+00,7.50000000000000e-01,3.02728177486696e-04,7.50000000000000e-01
5.80982948739165e-08,0.00000000000000e+00,7.50000000000000e-01,-2.70871462760181e-04,7.50000000000000e-01
5.97068937658669e-08,0.00000000000000e+00,7.50000000000000e-01,2.53711545277185e-04,7.50000000000000e-01
6.23163511686943e-08,0.00000000000000e+00,7.50000000000000e-01,-2.40871286988097e-04,7.50000000000000e-01
6.50000000000000e-08,0.00000000000000e+00,7.50000000000000e-01,2.32041878230982e-04,7.50000000000000e-01
6.50100000000000e-08,7.49999999999858e-02,7.50000000000000e-01,2.83376289690836e-04,7.50000000000000e-01
6.50300000000000e-08,2.24999999999957e-01,7.50000000000000e-01,3.25389450069928e-04,7.50000000000000e-01
6.50700000000000e-08,5.24999999999900e-01,7.50000000000000e-01,-1.67284702729940e-04,7.50000000000000e-01
6.51000000000000e-08,7.49999999999957e-01,7.50000000000000e-01,-2.88547305062432e-03,7.50000000000000e-01
6.51080000000000e-08,7.50000000000000e-01,7.50000000000000e-01,-3.96884219607612e-03,7.50000000000000e-01
6.51240000000000e-08,7.50000000000000e-01,7.50000000000000e-01,-5.65794941939074e-03,7.50000000000000e-01
6.51560000000000e-08,7.50000000000000e-01,7.50000000000000e-01,-8.76164897722673e-04,7.50000000000000e-01
6.52200000000000e-08,7.50000000000000e-01,7.50000000000000e-01,1.76232915778692e-01,7.50000000000000e-01
6.53480000000000e-08,7.50000000000000e-01,7.50000000000000e-01,6.94625627506292e-01,7.50000000000000e-01
6.56040000000000e-08,7.50000000000000e-01,7.50000000000000e-01,7.66256540774363e-01,7.50000000000000e-01
6.58936064997991e-08,7.50000000000000e-01,7.50000000000000e-01,7.34565801816739e-01,7.50000000000000e-01
6.63883786265564e-08,7.50000000000000e-01,7.50000000000000e-01,7.63190090246207e-01,7.50000000000000e-01
6.70360002134095e-08,7.50000000000000e-01,7.50000000000000e-01,7.36866349787444e-01,7.50000000000000e-01
6.83312433871158e-08,7.50000000000000e-01,7.50000000000000e-01,7.62100315560979e-01,7.50000000000000e-01
7.09217297345282e-08,7.50000000000000e-01,7.50000000000000e-01,7.37468492570748e-01,7.50000000000000e-01
7.47217297345282e-08,7.50000000000000e-01,7.50000000000000e-01,7.61819387274887e-01,7.50000000000000e-01
7.51000000000000e-08,7.50000000000000e-01,7.50000000000000e-01,7.38849163830276e-01,7.50000000000000e-01
7.51100000000000e-08,6.75000000000076e-01,7.50000000000000e-01,7.44514343661442e-01,7.50000000000000e-01
7.51300000000000e-08,5.25000000000105e-01,7.50000000000000e-01,7.50038762124064e-01,7.50000000000000e-01
7.51700000000000e-08,2.25000000000162e-01,7.50000000000000e-01,7.50891694361244e-01,7.50000000000000e-01
7.52000000000000e-08,1.05027098129540e-13,7.50000000000000e-01,7.52676184823347e-01,7.50000000000000e-01
7.52080000000000e-08,0.00000000000000e+00,7.50000000000000e-01,7.52346143267664e-01,7.50000000000000e-01
7.52240000000000e-08,0.00000000000000e+00,7.50000000000000e-01,7.48898910780154e-01,7.50000000000000e-01
7.52560000000000e-08,0.00000000000000e+00,7.50000000000000e-01,7.33024822691421e-01,7.50000000000000e-01
7.53200000000000e-08,0.00000000000000e+00,7.50000000000000e-01,7.23637478226269e-01,7.50000000000000e-01
7.54480000000000e-08,0.00000000000000e+00,7.50000000000000e-01,7.48992046623366e-01,7.50000000000000e-01
7.57040000000000e-08,0.00000000000000e+00,7.50000000000000e-01,7.49529988287979e-01,7.50000000000000e-01
7.60096709105283e-08,0.00000000000000e+00,7.50000000000000e-01,7.49910688216193e-01,7.50000000000000e-01
7.66210127315850e-08,0.00000000000000e+00,7.50000000000000e-01,7.49620713714234e-01,7.50000000000000e-01
7.78436963736984e-08,0.00000000000000e+00,7.50000000000000e-01,7.50128227723634e-01,7.50000000000000e-01
8.02890636579252e-08,0.00000000000000e+00,7.50000000000000e-01,7.49702114050999e-01,7.50000000000000e-01
8.40890636579252e-08,0.00000000000000e+00,7.50000000000000e-01,7.50188349792610e-01,7.50000000000000e-01
8.50000000000000e-08,0.00000000000000e+00,7.50000000000000e-01,7.49714597362796e-01,7.50000000000000e-01
8.50100000000000e-08,7.49999999999858e-02,7.50000000000000e-01,7.49752416102847e-01,6.75000000000014e-01
8.50300000000000e-08,2.24999999999957e-01,7.50000000000000e-01,7.49797911563684e-01,5.25000000000043e-01
8.50700000000000e-08,5.24999999999900e-01,7.50000000000000e-01,7.53023044285321e-01,2.25000000000100e-01
8.51000000000000e-08,7.49999999999957e-01,7.50000000000000e-01,7.60831331027950e-01,4.29656310529936e-14
8.51080000000000e-08,7.50000000000000e-01,7.50000000000000e-01,7.63527033846924e-01,0.00000000000000e+00
8.51240000000000e-08,7.50000000000000e-01,7.50000000000000e-01,7.69077632496499e-01,0.00000000000000e+00
8.51560000000000e-08,7.50000000000000e-01,7.50000000000000e-01,7.44852886011816e-01,0.00000000000000e+00
8.52200000000000e-08,7.50000000000000e-01,7.50000000000000e-01,3.76084756564735e-01,0.00000000000000e+00
8.53480000000000e-08,7.50000000000000e-01,7.50000000000000e-01,-3.81304836882972e-02,0.00000000000000e+00
8.55081563834791e-08,7.50000000000000e-01,7.50000000000000e-01,2.26389658592821e-02,0.00000000000000e+00
8.58284691504374e-08,7.50000000000000e-01,7.50000000000000e-01,-1.68301317859558e-02,0.00000000000000e+00
8.61580045485745e-08,7.50000000000000e-01,7.50000000000000e-01,1.34274480191705e-02,0.00000000000000e+00
8.68170753448486e-08,7.50000000000000e-01,7.50000000000000e-01,-1.17396123053586e-02,0.00000000000000e+00
8.81352169373968e-08,7.50000000000000e-01,7.50000000000000e-01,1.12206729778937e-02,0.00000000000000e+00
9.01000000000000e-08,7.50000000000000e-01,7.49999999999957e-01,-1.06739235612294e-02,0.00000000000000e+00
9.03636283185096e-08,7.50000000000000e-01,7.50000000000000e-01,-6.64302994322316e-04,0.00000000000000e+00
9.08908849555289e-08,7.50000000000000e-01,7.50000000000000e-01,5.61232699419283e-04,0.00000000000000e+00
9.19453982295675e-08,7.50000000000000e-01,7.50000000000000e-01,-5.13236545673740e-04,0.00000000000000e+00
9.40544247776448e-08,7.50000000000000e-01,7.50000000000000e-01,4.92694353117927e-04,0.00000000000000e+00
9.51000000000000e-08,7.50000000000000e-01,7.50000000000000e-01,-4.50522746241579e-04,0.00000000000000e+00
9.51100000000000e-08,6.75000000000076e-01,7.50000000000000e-01,-1.68167633959312e-04,7.49999999999237e-02
9.51300000000000e-08,5.25000000000105e-01,7.50000000000000e-01,6.75944632633624e-05,2.24999999999895e-01
9.51700000000000e-08,2.25000000000162e-01,7.50000000000000e-01,5.59161378786005e-05,5.24999999999838e-01
9.52000000000000e-08,1.05027098129540e-13,7.50000000000000e-01,1.11884556327636e-04,7.49999999999895e-01
9.52080000000000e-08,0.00000000000000e+00,7.50000000000000e-01,6.58554188274069e-05,7.50000000000000e-01
9.52240000000000e-08,0.00000000000000e+00,7.50000000000000e-01,-1.60371158436055e-04,7.50000000000000e-01
9.52560000000000e-08,0.00000000000000e+00,7.50000000000000e-01,-1.04298253811592e-03,7.50000000000000e-01
9.53200000000000e-08,0.00000000000000e+00,7.50000000000000e-01,-8.01603819824907e-04,7.50000000000000e-01
9.54455983909132e-08,0.00000000000000e+00,7.50000000000000e-01,4.70107640959221e-04,7.50000000000000e-01
9.56932918455833e-08,0.00000000000000e+00,7.50000000000000e-01,-5.08983711156825e-04,7.50000000000000e-01
9.59469443101958e-08,0.00000000000000e+00,7.50000000000000e-01,4.50626490615351e-04,7.50000000000000e-01
9.64542492394209e-08,0.00000000000000e+00,7.50000000000000e-01,-3.65156289090441e-04,7.50000000000000e-01
9.70125483203667e-08,0.00000000000000e+00,7.50000000000000e-01,3.02738566862124e-04,7.50000000000000e-01
9.80983246420362e-08,0.00000000000000e+00,7.50000000000000e-01,-2.70880844985238e-04,7.50000000000000e-01
9.97069305992278e-08,0.00000000000000e+00,7.50000000000000e-01,2.53720215328104e-04,7.50000000000000e-01
1.02316399148645e-07,0.00000000000000e+00,7.50000000000000e-01,-2.40879468607305e-04,7.50000000000000e-01
1.05000000000000e-07,0.00000000000000e+00,7.50000000000000e-01,2.32049461878698e-04,7.50000000000000e-01
1.05010000000000e-07,7.49999999999858e-02,7.50000000000000e-01,2.83382736490409e-04,7.50000000000000e-01
1.05030000000000e-07,2.24999999999957e-01,7.50000000000000e-01,3.25393675740152e-04,7.50000000000000e-01
1.05070000000000e-07,5.24999999999900e-01,7.50000000000000e-01,-1.67277767383185e-04,7.50000000000000e-01
1.05100000000000e-07,7.49999999999957e-01,7.50000000000000e-01,-2.88546442669975e-03,7.50000000000000e-01
1.05108000000000e-07,7.50000000000000e-01,7.50000000000000e-01,-3.96883505850004e-03,7.50000000000000e-01
1.05124000000000e-07,7.50000000000000e-01,7.50000000000000e-01,-5.65794606601076e-03,7.50000000000000e-01
1.05156000000000e-07,7.50000000000000e-01,7.50000000000000e-01,-8.76206640824155e-04,7.50000000000000e-01
1.05220000000000e-07,7.50000000000000e-01,7.50000000000000e-01,1.76232593784327e-01,7.50000000000000e-01
1.05348000000000e-07,7.50000000000000e-01,7.50000000000000e-01,6.94625461322814e-01,7.50000000000000e-01
1.05604000000000e-07,7.50000000000000e-01,7.50000000000000e-01,7.66256582782980e-01,7.50000000000000e-01
1.05893606495401e-07,7.50000000000000e-01,7.50000000000000e-01,7.34565759961470e-01,7.50000000000000e-01
1.06388378744730e-07,7.50000000000000e-01,7.50000000000000e-01,7.63190126198735e-01,7.50000000000000e-01
1.07036000414180e-07,7.50000000000000e-01,7.50000000000000e-01,7.36866313085468e-01,7.50000000000000e-01
1.08331243753080e-07,7.50000000000000e-01,7.50000000000000e-01,7.62100349028283e-01,7.50000000000000e-01
1.10921730430879e-07,7.50000000000000e-01,7.50000000000000e-01,7.37468457267758e-01,7.50000000000000e-01
1.14721730430879e-07,7.50000000000000e-01,7.50000000000000e-01,7.61819420065116e-01,7.50000000000000e-01
1.15100000000000e-07,7.50000000000000e-01,7.50000000000000e-01,7.38849134281858e-01,7.50000000000000e-01
