Time,v(clk),v(data),v(out)
1.00000000000000e-08,7.50000000000000e-01,0.00000000000000e+00,-1.03846713224915e-05
1.00100000000000e-08,7.50000000000000e-01,7.49999999999982e-02,-5.85544108139963e-06
1.00300000000000e-08,7.50000000000000e-01,2.24999999999995e-01,-1.49001993608733e-06
1.00700000000000e-08,7.50000000000000e-01,5.24999999999987e-01,1.11378670311635e-06
1.01000000000000e-08,7.50000000000000e-01,7.49999999999994e-01,1.52421561657595e-06
1.01080000000000e-08,7.50000000000000e-01,7.50000000000000e-01,2.61441427907433e-06
1.01240000000000e-08,7.50000000000000e-01,7.50000000000000e-01,4.53163329330875e-06
1.01560000000000e-08,7.50000000000000e-01,7.50000000000000e-01,5.11742969076801e-06
1.02200000000000e-08,7.50000000000000e-01,7.50000000000000e-01,3.18160628402092e-06
1.03480000000000e-08,7.50000000000000e-01,7.50000000000000e-01,2.52115656156071e-06
1.06040000000000e-08,7.50000000000000e-01,7.50000000000000e-01,4.21423511754067e-06
1.11160000000000e-08,7.50000000000000e-01,7.50000000000000e-01,2.60548743668664e-06
1.21400000000000e-08,7.50000000000000e-01,7.50000000000000e-01,3.77826927776270e-06
1.41880000000000e-08,7.50000000000000e-01,7.50000000000000e-01,2.20841184151994e-06
1.51000000000000e-08,7.50000000000000e-01,7.50000000000000e-01,3.36357033763491e-06
1.51100000000000e-08,6.74999999999989e-01,7.50000000000000e-01,-5.42142956597089e-05
1.51300000000000e-08,5.24999999999993e-01,7.50000000000000e-01,-1.22893691154702e-04
1.51700000000000e-08,2.25000000000000e-01,7.50000000000000e-01,6.99157787455856e-06
1.52000000000000e-08,0.00000000000000e+00,7.50000000000000e-01,2.59956237525921e-04
1.52080000000000e-08,0.00000000000000e+00,7.50000000000000e-01,3.32994190417275e-04
1.52240000000000e-08,0.00000000000000e+00,7.50000000000000e-01,3.20326484475775e-04
1.52560000000000e-08,0.00000000000000e+00,7.50000000000000e-01,-2.82417293625964e-05
1.53200000000000e-08,0.00000000000000e+00,7.50000000000000e-01,-3.24682696797453e-04
1.54480000000000e-08,0.00000000000000e+00,7.50000000000000e-01,-1.21392646533540e-04
1.57040000000000e-08,0.00000000000000e+00,7.50000000000000e-01,3.79490792867566e-05
1.59768385726576e-08,0.00000000000000e+00,7.50000000000000e-01,1.62782348171346e-04
1.65225157179729e-08,0.00000000000000e+00,7.50000000000000e-01,-1.77970224258228e-04
1.71041392462613e-08,0.00000000000000e+00,7.50000000000000e-01,1.85242900048187e-04
1.82673863028381e-08,0.00000000000000e+00,7.50000000000000e-01,-1.78498910238449e-04
2.01366311009641e-08,0.00000000000000e+00,7.50000000000000e-01,1.79593804336597e-04
2.31475935719322e-08,0.00000000000000e+00,7.50000000000000e-01,-1.74063852823951e-04
2.50000000000000e-08,0.00000000000000e+00,7.50000000000000e-01,1.73981850740577e-04
2.50100000000000e-08,7.49999999999858e-02,7.50000000000000e-01,2.31404826065963e-04
2.50300000000000e-08,2.25000000000007e-01,7.50000000000000e-01,2.84500320263545e-04
2.50700000000000e-08,5.25000000000000e-01,7.50000000000000e-01,-4.62957099293670e-05
2.51000000000000e-08,7.50000000000000e-01,7.50000000000000e-01,-2.37509502343643e-03
2.51080000000000e-08,7.50000000000000e-01,7.50000000000000e-01,-3.39865850658168e-03
2.51240000000000e-08,7.50000000000000e-01,7.50000000000000e-01,-5.11341380082552e-03
2.51560000000000e-08,7.50000000000000e-01,7.50000000000000e-01,-4.37512579083306e-03
2.52200000000000e-08,7.50000000000000e-01,7.50000000000000e-01,1.00821579047041e-01
2.53480000000000e-08,7.50000000000000e-01,7.50000000000000e-01,6.25233893486273e-01
2.56040000000000e-08,7.50000000000000e-01,7.50000000000000e-01,7.77589077386311e-01
2.58798790702331e-08,7.50000000000000e-01,7.50000000000000e-01,7.24624914773030e-01
2.64316372106992e-08,7.50000000000000e-01,7.50000000000000e-01,7.72344117345793e-01
2.71567650317578e-08,7.50000000000000e-01,7.50000000000000e-01,7.27736601858385e-01
2.86070206738752e-08,7.50000000000000e-01,7.50000000000000e-01,7.70627697157225e-01
3.01000000000000e-08,7.50000000000000e-01,7.50000000000000e-01,7.28952212908541e-01
3.01100000000000e-08,7.50000000000000e-01,6.75000000000039e-01,7.39388283277426e-01
3.01300000000000e-08,7.50000000000000e-01,5.25000000000018e-01,7.49892818179740e-01
3.01700000000000e-08,7.50000000000000e-01,2.25000000000025e-01,7.50030491290942e-01
3.02000000000000e-08,7.50000000000000e-01,1.80966353013901e-14,7.49978104653868e-01
3.02080000000000e-08,7.50000000000000e-01,0.00000000000000e+00,7.49977315509772e-01
3.02240000000000e-08,7.50000000000000e-01,0.00000000000000e+00,7.49967603381540e-01
3.02560000000000e-08,7.50000000000000e-01,0.00000000000000e+00,7.49955674944928e-01
3.03200000000000e-08,7.50000000000000e-01,0.00000000000000e+00,7.49986096769543e-01
3.04480000000000e-08,7.50000000000000e-01,0.00000000000000e+00,7.49984043088205e-01
3.06795197146445e-08,7.50000000000000e-01,0.00000000000000e+00,7.49967792747513e-01
3.09544562910615e-08,7.50000000000000e-01,0.00000000000000e+00,7.49985658305234e-01
3.15043294438956e-08,7.50000000000000e-01,0.00000000000000e+00,7.49973124264197e-01
3.26040757495638e-08,7.50000000000000e-01,0.00000000000000e+00,7.49987902887241e-01
3.48035683609002e-08,7.50000000000000e-01,0.00000000000000e+00,7.49979312202729e-01
3.51000000000000e-08,7.49999999999963e-01,0.00000000000000e+00,7.49989666036176e-01
3.51100000000000e-08,6.74999999999977e-01,0.00000000000000e+00,7.49932853800579e-01
3.51300000000000e-08,5.24999999999956e-01,0.00000000000000e+00,7.49895758230856e-01
3.51700000000000e-08,2.24999999999963e-01,0.00000000000000e+00,7.50969308717809e-01
3.52000000000000e-08,0.00000000000000e+00,0.00000000000000e+00,7.52719053687606e-01
3.52080000000000e-08,0.00000000000000e+00,0.00000000000000e+00,7.52574960184363e-01
3.52240000000000e-08,0.00000000000000e+00,0.00000000000000e+00,7.50049521903478e-01
3.52560000000000e-08,0.00000000000000e+00,0.00000000000000e+00,7.36168308153999e-01
3.53200000000000e-08,0.00000000000000e+00,0.00000000000000e+00,7.22269094400424e-01
3.54480000000000e-08,0.00000000000000e+00,0.00000000000000e+00,7.45801578152573e-01
3.56275509563848e-08,0.00000000000000e+00,0.00000000000000e+00,7.50931527289297e-01
3.59519180595766e-08,0.00000000000000e+00,0.00000000000000e+00,7.48344051352213e-01
3.63062305695066e-08,0.00000000000000e+00,0.00000000000000e+00,7.50675896044435e-01
3.70148555893668e-08,0.00000000000000e+00,0.00000000000000e+00,7.48967307607758e-01
3.84321056290872e-08,0.00000000000000e+00,0.00000000000000e+00,7.50673825565739e-01
3.91000000000000e-08,0.00000000000000e+00,0.00000000000000e+00,7.49197298086407e-01
3.93834500079441e-08,0.00000000000000e+00,0.00000000000000e+00,7.49848972131320e-01
3.99503500238322e-08,0.00000000000000e+00,0.00000000000000e+00,7.49947071700021e-01
4.10841500556085e-08,0.00000000000000e+00,0.00000000000000e+00,7.49873381225741e-01
4.33517501191610e-08,0.00000000000000e+00,0.00000000000000e+00,7.49960098444746e-01
4.50000000000000e-08,0.00000000000000e+00,0.00000000000000e+00,7.49888404230526e-01
4.50100000000000e-08,7.49999999999858e-02,0.00000000000000e+00,7.49954146733926e-01
4.50300000000000e-08,2.25000000000007e-01,0.00000000000000e+00,7.49999822194397e-01
4.50700000000000e-08,5.25000000000000e-01,0.00000000000000e+00,7.49900747901689e-01
4.51000000000000e-08,7.50000000000000e-01,0.00000000000000e+00,7.49733310129936e-01
4.51080000000000e-08,7.50000000000000e-01,0.00000000000000e+00,7.49684653849255e-01
4.51240000000000e-08,7.50000000000000e-01,0.00000000000000e+00,7.49660105102207e-01
4.51560000000000e-08,7.50000000000000e-01,0.00000000000000e+00,7.49983887409977e-01
4.52200000000000e-08,7.50000000000000e-01,0.00000000000000e+00,7.54530681860588e-01
4.53480000000000e-08,7.50000000000000e-01,0.00000000000000e+00,5.11553702868241e-01
4.56040000000000e-08,7.50000000000000e-01,0.00000000000000e+00,-2.40129398135654e-02
4.58642759212596e-08,7.50000000000000e-01,0.00000000000000e+00,1.52464807194227e-02
4.63848277637787e-08,7.50000000000000e-01,0.00000000000000e+00,-9.89605760427244e-03
4.69079861974826e-08,7.50000000000000e-01,0.00000000000000e+00,7.96842837278677e-03
4.79543030648904e-08,7.50000000000000e-01,0.00000000000000e+00,-5.90077154136992e-03
5.00000000000000e-08,7.50000000000000e-01,0.00000000000000e+00,6.07280122057279e-03
5.00100000000000e-08,7.50000000000000e-01,7.49999999999858e-02,6.34476919669469e-03
5.00300000000000e-08,7.50000000000000e-01,2.24999999999957e-01,4.39354783615357e-03
5.00700000000000e-08,7.50000000000000e-01,5.25000000000000e-01,6.19120713680546e-04
5.01000000000000e-08,7.50000000000000e-01,7.50000000000000e-01,3.44984575661664e-04
5.01080000000000e-08,7.50000000000000e-01,7.50000000000000e-01,2.17404764948595e-04
5.01240000000000e-08,7.50000000000000e-01,7.50000000000000e-01,9.43384333003117e-05
5.01560000000000e-08,7.50000000000000e-01,7.50000000000000e-01,5.19819053783760e-05
5.02200000000000e-08,7.50000000000000e-01,7.50000000000000e-01,-4.38573265865161e-06
5.03480000000000e-08,7.50000000000000e-01,7.50000000000000e-01,-3.09010233708051e-06
5.06040000000000e-08,7.50000000000000e-01,7.50000000000000e-01,1.43980323142993e-06
5.11160000000001e-08,7.50000000000000e-01,7.50000000000000e-01,2.28514266282023e-06
5.21400000000002e-08,7.50000000000000e-01,7.50000000000000e-01,-3.42488988371459e-07
5.41880000000003e-08,7.50000000000000e-01,7.50000000000000e-01,3.16156864348669e-06
5.51000000000000e-08,7.50000000000000e-01,7.50000000000000e-01,-7.86726868835103e-07
5.51100000000000e-08,6.75000000000027e-01,7.50000000000000e-01,-5.20763833564419e-05
5.51300000000000e-08,5.25000000000005e-01,7.50000000000000e-01,-1.14267132632982e-04
5.51700000000000e-08,2.25000000000013e-01,7.50000000000000e-01,1.96529125749134e-05
5.52000000000000e-08,0.00000000000000e+00,7.50000000000000e-01,2.48963840261206e-04
5.52080000000000e-08,0.00000000000000e+00,7.50000000000000e-01,3.00445522173412e-04
5.52240000000000e-08,0.00000000000000e+00,7.50000000000000e-01,1.82386844630004e-04
5.52560000000000e-08,0.00000000000000e+00,7.50000000000000e-01,-7.50396730330179e-04
5.53200000000000e-08,0.00000000000000e+00,7.50000000000000e-01,-9.74159003900354e-04
5.54480000000000e-08,0.00000000000000e+00,7.50000000000000e-01,9.86828747788528e-05
5.57040000000000e-08,0.00000000000000e+00,7.50000000000000e-01,-9.49760466248499e-05
5.59769676234431e-08,0.00000000000000e+00,7.50000000000000e-01,2.46229283645425e-04
5.65229028703294e-08,0.00000000000000e+00,7.50000000000000e-01,-2.45564630574273e-04
5.71046994239457e-08,0.00000000000000e+00,7.50000000000000e-01,2.40735825511122e-04
5.82682925311785e-08,0.00000000000000e+00,7.50000000000000e-01,-2.29811359393375e-04
6.01398746321157e-08,0.00000000000000e+00,7.50000000000000e-01,2.27988829560831e-04
6.31539530975189e-08,0.00000000000000e+00,7.50000000000000e-01,-2.20978917375134e-04
6.50000000000000e-08,0.00000000000000e+00,7.50000000000000e-01,2.18447522516957e-04
6.50100000000000e-08,7.49999999999858e-02,7.50000000000000e-01,2.55153705746490e-04
6.50300000000000e-08,2.24999999999957e-01,7.50000000000000e-01,2.95793606233663e-04
6.50700000000000e-08,5.24999999999900e-01,7.50000000000000e-01,-3.83521577259072e-05
6.51000000000000e-08,7.49999999999957e-01,7.50000000000000e-01,-2.37545091108282e-03
6.51080000000000e-08,7.50000000000000e-01,7.50000000000000e-01,-3.39793396033616e-03
6.51240000000000e-08,7.50000000000000e-01,7.50000000000000e-01,-5.11248334618522e-03
6.51560000000000e-08,7.50000000000000e-01,7.50000000000000e-01,-4.37463330547726e-03
6.52200000000000e-08,7.50000000000000e-01,7.50000000000000e-01,1.00828243505950e-01
6.53480000000000e-08,7.50000000000000e-01,7.50000000000000e-01,6.25239642188265e-01
6.56040000000000e-08,7.50000000000000e-01,7.50000000000000e-01,7.77588404879122e-01
6.58798810324878e-08,7.50000000000000e-01,7.50000000000000e-01,7.24625459319288e-01
6.64316430974633e-08,7.50000000000000e-01,7.50000000000000e-01,7.72343643810404e-01
6.71567700452410e-08,7.50000000000000e-01,7.50000000000000e-01,7.27737079545710e-01
6.86070239407965e-08,7.50000000000000e-01,7.50000000000000e-01,7.70627266230793e-01
7.01000000000000e-08,7.50000000000000e-01,7.50000000000000e-01,7.28952664444436e-01
7.01100000000000e-08,7.50000000000000e-01,6.75000000000014e-01,7.39388552215256e-01
7.01300000000000e-08,7.50000000000000e-01,5.25000000000043e-01,7.49892838509511e-01
7.01700000000000e-08,7.50000000000000e-01,2.25000000000100e-01,7.50030471818146e-01
7.02000000000000e-08,7.50000000000000e-01,4.29656310529936e-14,7.49978110473674e-01
7.02080000000000e-08,7.50000000000000e-01,0.00000000000000e+00,7.49977317901373e-01
7.02240000000000e-08,7.50000000000000e-01,0.00000000000000e+00,7.49967600677030e-01
7.02560000000000e-08,7.50000000000000e-01,0.00000000000000e+00,7.49955672700482e-01
7.03200000000000e-08,7.50000000000000e-01,0.00000000000000e+00,7.49986096660504e-01
7.04480000000000e-08,7.50000000000000e-01,0.00000000000000e+00,7.49984043012922e-01
7.06795171856369e-08,7.50000000000000e-01,0.00000000000000e+00,7.49967794696319e-01
7.09544542092405e-08,7.50000000000000e-01,0.00000000000000e+00,7.49985657205898e-01
7.15043282564475e-08,7.50000000000000e-01,0.00000000000000e+00,7.49973125938975e-01
7.26040763508616e-08,7.50000000000000e-01,0.00000000000000e+00,7.49987901246295e-01
7.48035725396898e-08,7.50000000000000e-01,0.00000000000000e+00,7.49979314187259e-01
7.51000000000000e-08,7.50000000000000e-01,0.00000000000000e+00,7.49989664411897e-01
7.51100000000000e-08,6.75000000000076e-01,0.00000000000000e+00,7.49932856525077e-01
7.51300000000000e-08,5.25000000000105e-01,0.00000000000000e+00,7.49895763369372e-01
7.51700000000000e-08,2.25000000000162e-01,0.00000000000000e+00,7.50969309029955e-01
7.52000000000000e-08,1.05027098129540e-13,0.00000000000000e+00,7.52719056885097e-01
7.52080000000000e-08,0.00000000000000e+00,0.00000000000000e+00,7.52574968744725e-01
7.52240000000000e-08,0.00000000000000e+00,0.00000000000000e+00,7.50049541370262e-01
7.52560000000000e-08,0.00000000000000e+00,0.00000000000000e+00,7.36168329741342e-01
7.53200000000000e-08,0.00000000000000e+00,0.00000000000000e+00,7.22269083583417e-01
7.54480000000000e-08,0.00000000000000e+00,0.00000000000000e+00,7.45801575655134e-01
7.56275509552193e-08,0.00000000000000e+00,0.00000000000000e+00,7.50931529303555e-01
7.59519180635454e-08,0.00000000000000e+00,0.00000000000000e+00,7.48344049854124e-01
7.63062305716060e-08,0.00000000000000e+00,0.00000000000000e+00,7.50675897270112e-01
7.70148555877271e-08,0.00000000000000e+00,0.00000000000000e+00,7.48967306524118e-01
7.81000000000000e-08,0.00000000000000e+00,0.00000000000000e+00,7.50649455942108e-01
7.82417250032243e-08,0.00000000000000e+00,0.00000000000000e+00,7.49975079327180e-01
7.85251750096727e-08,0.00000000000000e+00,0.00000000000000e+00,7.49808979699964e-01
7.90920750225697e-08,0.00000000000000e+00,0.00000000000000e+00,7.49956894745171e-01
8.02258750483636e-08,0.00000000000000e+00,0.00000000000000e+00,7.49847371577520e-01
8.24934750999513e-08,0.00000000000000e+00,0.00000000000000e+00,7.49976255501597e-01
8.50000000000000e-08,0.00000000000000e+00,0.00000000000000e+00,7.49869631281291e-01
8.50100000000000e-08,7.49999999999858e-02,0.00000000000000e+00,7.49942837086398e-01
8.50300000000000e-08,2.24999999999957e-01,0.00000000000000e+00,7.49997757796583e-01
8.50700000000000e-08,5.24999999999900e-01,0.00000000000000e+00,7.49901060276303e-01
8.51000000000000e-08,7.49999999999957e-01,0.00000000000000e+00,7.49733097300870e-01
8.51080000000000e-08,7.50000000000000e-01,0.00000000000000e+00,7.49683930296416e-01
8.51240000000000e-08,7.50000000000000e-01,0.00000000000000e+00,7.49658409413659e-01
8.51560000000000e-08,7.50000000000000e-01,0.00000000000000e+00,7.50002060667398e-01
8.52200000000000e-08,7.50000000000000e-01,0.00000000000000e+00,7.54519235264180e-01
8.53480000000000e-08,7.50000000000000e-01,0.00000000000000e+00,5.11388103101674e-01
8.56040000000000e-08,7.50000000000000e-01,0.00000000000000e+00,-2.41032209510655e-02
8.58642150316523e-08,7.50000000000000e-01,0.00000000000000e+00,1.53076631399407e-02
8.63846450949568e-08,7.50000000000000e-01,0.00000000000000e+00,-9.94132550949883e-03
8.69076866143117e-08,7.50000000000000e-01,0.00000000000000e+00,8.00780947385363e-03
8.79537696530214e-08,7.50000000000000e-01,0.00000000000000e+00,-5.93467738726692e-03
9.00000000000000e-08,7.50000000000000e-01,0.00000000000000e+00,6.10614334184325e-03
9.00100000000000e-08,7.50000000000000e-01,7.49999999999858e-02,6.36854266562555e-03
9.00300000000000e-08,7.50000000000000e-01,2.24999999999957e-01,4.40442554690541e-03
9.00700000000000e-08,7.50000000000000e-01,5.24999999999900e-01,6.21103565987144e-04
9.01000000000000e-08,7.50000000000000e-01,7.49999999999957e-01,3.45637235957534e-04
9.01080000000000e-08,7.50000000000000e-01,7.50000000000000e-01,2.17924962425849e-04
9.01240000000000e-08,7.50000000000000e-01,7.50000000000000e-01,9.46278838857423e-05
9.01560000000000e-08,7.50000000000000e-01,7.50000000000000e-01,5.20175235114995e-05
9.02200000000000e-08,7.50000000000000e-01,7.50000000000000e-01,-4.38776273565394e-06
9.03480000000000e-08,7.50000000000000e-01,7.50000000000000e-01,-3.06018636112709e-06
9.06040000000000e-08,7.50000000000000e-01,7.50000000000000e-01,1.42138801563149e-06
9.11159999999999e-08,7.50000000000000e-01,7.50000000000000e-01,2.29897105574750e-06
9.21399999999999e-08,7.50000000000000e-01,7.50000000000000e-01,-3.55612315056358e-07
9.41879999999998e-08,7.50000000000000e-01,7.50000000000000e-01,3.17275188509202e-06
9.51000000000000e-08,7.50000000000000e-01,7.50000000000000e-01,-7.98431298442911e-07
9.51100000000000e-08,6.75000000000076e-01,7.50000000000000e-01,-5.21025347350601e-05
9.51300000000000e-08,5.25000000000105e-01,7.50000000000000e-01,-1.14314110344106e-04
9.51700000000000e-08,2.25000000000162e-01,7.50000000000000e-01,1.96024571365930e-05
9.52000000000000e-08,1.05027098129540e-13,7.50000000000000e-01,2.48939398435087e-04
9.52080000000000e-08,0.00000000000000e+00,7.50000000000000e-01,3.00419739480064e-04
9.52240000000000e-08,0.00000000000000e+00,7.50000000000000e-01,1.82348430913970e-04
9.52560000000000e-08,0.00000000000000e+00,7.50000000000000e-01,-7.50533728827295e-04
9.53200000000000e-08,0.00000000000000e+00,7.50000000000000e-01,-9.74328101980310e-04
9.54480000000000e-08,0.00000000000000e+00,7.50000000000000e-01,9.87081644854178e-05
9.57040000000000e-08,0.00000000000000e+00,7.50000000000000e-01,-9.49784399369193e-05
9.59769676498016e-08,0.00000000000000e+00,7.50000000000000e-01,2.46221354447622e-04
9.65229029494048e-08,0.00000000000000e+00,7.50000000000000e-01,-2.45554011419738e-04
9.71046995383951e-08,0.00000000000000e+00,7.50000000000000e-01,2.40723720338416e-04
9.82682927163758e-08,0.00000000000000e+00,7.50000000000000e-01,-2.29798758724871e-04
1.00139875335291e-07,0.00000000000000e+00,7.50000000000000e-01,2.27976036487003e-04
1.03153954496225e-07,0.00000000000000e+00,7.50000000000000e-01,-2.20965998530169e-04
1.05000000000000e-07,0.00000000000000e+00,7.50000000000000e-01,2.18434483376422e-04
1.05010000000000e-07,7.49999999999858e-02,7.50000000000000e-01,2.55147660929968e-04
1.05030000000000e-07,2.24999999999957e-01,7.50000000000000e-01,2.95795622374917e-04
1.05070000000000e-07,5.24999999999900e-01,7.50000000000000e-01,-3.83499751883259e-05
1.05100000000000e-07,7.49999999999957e-01,7.50000000000000e-01,-2.37545032238394e-03
1.05108000000000e-07,7.50000000000000e-01,7.50000000000000e-01,-3.39793348268511e-03
1.05124000000000e-07,7.50000000000000e-01,7.50000000000000e-01,-5.11248306215192e-03
1.05156000000000e-07,7.50000000000000e-01,7.50000000000000e-01,-4.37463312986711e-03
1.05220000000000e-07,7.50000000000000e-01,7.50000000000000e-01,1.00828244541701e-01
1.05348000000000e-07,7.50000000000000e-01,7.50000000000000e-01,6.25239643360640e-01
1.05604000000000e-07,7.50000000000000e-01,7.50000000000000e-01,7.77588404788355e-01
1.05879881032673e-07,7.50000000000000e-01,7.50000000000000e-01,7.24625459393009e-01
1.06431643098018e-07,7.50000000000000e-01,7.50000000000000e-01,7.72343643744414e-01
1.07156770045139e-07,7.50000000000000e-01,7.50000000000000e-01,7.27737079621684e-01
