Time,v(clk),v(data),v(out),v(reset)
1.00000000000000e-08,7.50000000000000e-01,0.00000000000000e+00,4.66490523365120e-06,0.00000000000000e+00
1.00100000000000e-08,7.50000000000000e-01,7.49999999999982e-02,1.84956665143926e-06,0.00000000000000e+00
1.00300000000000e-08,7.50000000000000e-01,2.24999999999995e-01,-1.74252827008642e-06,0.00000000000000e+00
1.00700000000000e-08,7.50000000000000e-01,5.24999999999987e-01,-2.86549535501168e-06,0.00000000000000e+00
1.01000000000000e-08,7.50000000000000e-01,7.49999999999994e-01,-9.44027039026518e-07,0.00000000000000e+00
1.01080000000000e-08,7.50000000000000e-01,7.50000000000000e-01,-4.23819448008844e-08,0.00000000000000e+00
1.01240000000000e-08,7.50000000000000e-01,7.50000000000000e-01,1.62222353408681e-06,0.00000000000000e+00
1.01560000000000e-08,7.50000000000000e-01,7.50000000000000e-01,2.70192544867681e-06,0.00000000000000e+00
1.02200000000000e-08,7.50000000000000e-01,7.50000000000000e-01,2.59183223095399e-06,0.00000000000000e+00
1.03480000000000e-08,7.50000000000000e-01,7.50000000000000e-01,2.32011163234930e-06,0.00000000000000e+00
1.06040000000000e-08,7.50000000000000e-01,7.50000000000000e-01,2.42050909810866e-06,0.00000000000000e+00
1.11160000000000e-08,7.50000000000000e-01,7.50000000000000e-01,2.28330491899680e-06,0.00000000000000e+00
1.21400000000000e-08,7.50000000000000e-01,7.50000000000000e-01,1.98786627144147e-06,0.00000000000000e+00
1.41880000000000e-08,7.50000000000000e-01,7.50000000000000e-01,1.73827691938222e-06,0.00000000000000e+00
1.51000000000000e-08,7.50000000000000e-01,7.50000000000000e-01,1.56067875606899e-06,0.00000000000000e+00
1.51100000000000e-08,6.74999999999989e-01,7.50000000000000e-01,1.77622399246333e-04,7.50000000000106e-02
1.51300000000000e-08,5.24999999999993e-01,7.50000000000000e-01,3.18987894331067e-04,2.25000000000007e-01
1.51700000000000e-08,2.25000000000000e-01,7.50000000000000e-01,1.75728218089449e-04,5.25000000000000e-01
1.52000000000000e-08,0.00000000000000e+00,7.50000000000000e-01,7.90511279811709e-05,7.50000000000000e-01
1.52080000000000e-08,0.00000000000000e+00,7.50000000000000e-01,4.81749692991112e-05,7.50000000000000e-01
1.52240000000000e-08,0.00000000000000e+00,7.50000000000000e-01,9.88198507666932e-06,7.50000000000000e-01
1.52560000000000e-08,0.00000000000000e+00,7.50000000000000e-01,-2.73221807269852e-05,7.50000000000000e-01
1.53200000000000e-08,0.00000000000000e+00,7.50000000000000e-01,-1.33738799320937e-04,7.50000000000000e-01
1.54480000000000e-08,0.00000000000000e+00,7.50000000000000e-01,-1.16650249574031e-04,7.50000000000000e-01
1.57040000000000e-08,0.00000000000000e+00,7.50000000000000e-01,-2.14242059511696e-04,7.50000000000000e-01
1.60882068659531e-08,0.00000000000000e+00,7.50000000000000e-01,1.69716205799668e-04,7.50000000000000e-01
1.66120492327837e-08,0.00000000000000e+00,7.50000000000000e-01,4.51669416573789e-05,7.50000000000000e-01
1.74383526856489e-08,0.00000000000000e+00,7.50000000000000e-01,-1.11489325772005e-04,7.50000000000000e-01
1.85559029025300e-08,0.00000000000000e+00,7.50000000000000e-01,1.41145574418610e-04,7.50000000000000e-01
2.05236788876089e-08,0.00000000000000e+00,7.50000000000000e-01,-1.51152162661676e-04,7.50000000000000e-01
2.35786258783084e-08,0.00000000000000e+00,7.50000000000000e-01,1.56866132191682e-04,7.50000000000000e-01
2.50000000000000e-08,0.00000000000000e+00,7.50000000000000e-01,-1.63588518936858e-04,7.50000000000000e-01
2.50100000000000e-08,7.49999999999858e-02,7.50000000000000e-01,8.60023329474213e-06,7.50000000000000e-01
2.50300000000000e-08,2.25000000000007e-01,7.50000000000000e-01,2.38086174067793e-04,7.50000000000000e-01
2.50700000000000e-08,5.25000000000000e-01,7.50000000000000e-01,2.65124805931549e-06,7.50000000000000e-01
2.51000000000000e-08,7.50000000000000e-01,7.50000000000000e-01,-2.36840333231637e-03,7.50000000000000e-01
2.51080000000000e-08,7.50000000000000e-01,7.50000000000000e-01,-3.40716066817608e-03,7.50000000000000e-01
2.51240000000000e-08,7.50000000000000e-01,7.50000000000000e-01,-5.17562428445606e-03,7.50000000000000e-01
2.51560000000000e-08,7.50000000000000e-01,7.50000000000000e-01,-6.20264065259765e-03,7.50000000000000e-01
2.52200000000000e-08,7.50000000000000e-01,7.50000000000000e-01,4.15302444216097e-02,7.50000000000000e-01
2.53480000000000e-08,7.50000000000000e-01,7.50000000000000e-01,4.14441724316782e-01,7.50000000000000e-01
2.56040000000000e-08,7.50000000000000e-01,7.50000000000000e-01,7.70815651593231e-01,7.50000000000000e-01
2.59514092155402e-08,7.50000000000000e-01,7.50000000000000e-01,7.33350188921686e-01,7.50000000000000e-01
2.65552475380158e-08,7.50000000000000e-01,7.50000000000000e-01,7.65386182119419e-01,7.50000000000000e-01
2.73201991048418e-08,7.50000000000000e-01,7.50000000000000e-01,7.35968932861163e-01,7.50000000000000e-01
2.85923731810722e-08,7.50000000000000e-01,7.50000000000000e-01,7.63319221609797e-01,7.50000000000000e-01
3.10057922088096e-08,7.50000000000000e-01,7.50000000000000e-01,7.37069051961802e-01,7.50000000000000e-01
3.48057922088096e-08,7.50000000000000e-01,7.50000000000000e-01,7.62723812861097e-01,7.50000000000000e-01
3.51000000000000e-08,7.49999999999963e-01,7.50000000000000e-01,7.40011345253634e-01,7.50000000000000e-01
3.51100000000000e-08,6.74999999999977e-01,7.50000000000000e-01,7.43278260684353e-01,7.50000000000000e-01
3.51300000000000e-08,5.24999999999956e-01,7.50000000000000e-01,7.47627325334074e-01,7.50000000000000e-01
3.51700000000000e-08,2.24999999999963e-01,7.50000000000000e-01,7.50599367536716e-01,7.50000000000000e-01
3.52000000000000e-08,0.00000000000000e+00,7.50000000000000e-01,7.52340417143949e-01,7.50000000000000e-01
3.52080000000000e-08,0.00000000000000e+00,7.50000000000000e-01,7.52774251167245e-01,7.50000000000000e-01
3.52240000000000e-08,0.00000000000000e+00,7.50000000000000e-01,7.53189097890609e-01,7.50000000000000e-01
3.52560000000000e-08,0.00000000000000e+00,7.50000000000000e-01,7.50838662937259e-01,7.50000000000000e-01
3.53200000000000e-08,0.00000000000000e+00,7.50000000000000e-01,7.34390349741406e-01,7.50000000000000e-01
3.54480000000000e-08,0.00000000000000e+00,7.50000000000000e-01,7.17086237248063e-01,7.50000000000000e-01
3.57040000000000e-08,0.00000000000000e+00,7.50000000000000e-01,7.45098334743944e-01,7.50000000000000e-01
3.62160000000000e-08,0.00000000000000e+00,7.50000000000000e-01,7.51514727924956e-01,7.50000000000000e-01
3.67909155252015e-08,0.00000000000000e+00,7.50000000000000e-01,7.48218365300539e-01,7.50000000000000e-01
3.79407465756045e-08,0.00000000000000e+00,7.50000000000000e-01,7.50841783860471e-01,7.50000000000000e-01
4.02404086764106e-08,0.00000000000000e+00,7.50000000000000e-01,7.48796047728955e-01,7.50000000000000e-01
4.40404086764106e-08,0.00000000000000e+00,7.50000000000000e-01,7.50779068326967e-01,7.50000000000000e-01
4.50000000000000e-08,0.00000000000000e+00,7.50000000000000e-01,7.49078626854407e-01,7.50000000000000e-01
4.50100000000000e-08,7.49999999999858e-02,7.50000000000000e-01,7.49092267519810e-01,6.75000000000014e-01
4.50300000000000e-08,2.25000000000007e-01,7.50000000000000e-01,7.49154977512465e-01,5.24999999999993e-01
4.50700000000000e-08,5.25000000000000e-01,7.50000000000000e-01,7.51227243575396e-01,2.25000000000000e-01
4.51000000000000e-08,7.50000000000000e-01,7.50000000000000e-01,7.56005558964511e-01,0.00000000000000e+00
4.51080000000000e-08,7.50000000000000e-01,7.50000000000000e-01,7.57590857026496e-01,0.00000000000000e+00
4.51240000000000e-08,7.50000000000000e-01,7.50000000000000e-01,7.60405926325983e-01,0.00000000000000e+00
4.51560000000000e-08,7.50000000000000e-01,7.50000000000000e-01,7.65164624746385e-01,0.00000000000000e+00
4.52200000000000e-08,7.50000000000000e-01,7.50000000000000e-01,7.46791782726816e-01,0.00000000000000e+00
4.53480000000000e-08,7.50000000000000e-01,7.50000000000000e-01,2.70974866188745e-01,0.00000000000000e+00
4.56038108047834e-08,7.50000000000000e-01,7.50000000000000e-01,-7.98459342571542e-02,0.00000000000000e+00
4.58677783585339e-08,7.50000000000000e-01,7.50000000000000e-01,5.75779754849834e-02,0.00000000000000e+00
4.63957134660347e-08,7.50000000000000e-01,7.50000000000000e-01,-4.21986483464844e-02,0.00000000000000e+00
4.69472787436770e-08,7.50000000000000e-01,7.50000000000000e-01,3.68646077711652e-02,0.00000000000000e+00
4.80504092989614e-08,7.50000000000000e-01,7.50000000000000e-01,-3.14984956264051e-02,0.00000000000000e+00
4.98955578806702e-08,7.50000000000000e-01,7.50000000000000e-01,3.12657769362539e-02,0.00000000000000e+00
5.01000000000000e-08,7.50000000000000e-01,7.49999999999957e-01,-1.76562832108292e-02,0.00000000000000e+00
5.04037435350857e-08,7.50000000000000e-01,7.50000000000000e-01,-1.28807510773619e-03,0.00000000000000e+00
5.10112306052571e-08,7.50000000000000e-01,7.50000000000000e-01,1.07403192095285e-03,0.00000000000000e+00
5.22262047455999e-08,7.50000000000000e-01,7.50000000000000e-01,-9.77038940929153e-04,0.00000000000000e+00
5.46561530262855e-08,7.50000000000000e-01,7.50000000000000e-01,9.36306116301475e-04,0.00000000000000e+00
5.51000000000000e-08,7.50000000000000e-01,7.50000000000000e-01,-7.27180328902170e-04,0.00000000000000e+00
5.51100000000000e-08,6.75000000000027e-01,7.50000000000000e-01,-3.44757737454071e-04,7.49999999999734e-02
5.51300000000000e-08,5.25000000000005e-01,7.50000000000000e-01,8.07676239798355e-05,2.24999999999995e-01
5.51700000000000e-08,2.25000000000013e-01,7.50000000000000e-01,1.26221570395359e-04,5.24999999999987e-01
5.52000000000000e-08,0.00000000000000e+00,7.50000000000000e-01,6.03532604244589e-05,7.50000000000000e-01
5.52080000000000e-08,0.00000000000000e+00,7.50000000000000e-01,2.99242529084795e-05,7.50000000000000e-01
5.52240000000000e-08,0.00000000000000e+00,7.50000000000000e-01,-1.24418995010936e-05,7.50000000000000e-01
5.52560000000000e-08,0.00000000000000e+00,7.50000000000000e-01,-1.20953878130867e-04,7.50000000000000e-01
5.53200000000000e-08,0.00000000000000e+00,7.50000000000000e-01,-8.55025126307779e-04,7.50000000000000e-01
5.54480000000000e-08,0.00000000000000e+00,7.50000000000000e-01,-4.45671493083118e-04,7.50000000000000e-01
5.56895468699604e-08,0.00000000000000e+00,7.50000000000000e-01,3.25693681870872e-04,7.50000000000000e-01
5.60769300356784e-08,0.00000000000000e+00,7.50000000000000e-01,-4.08286195345491e-04,7.50000000000000e-01
5.65780161275336e-08,0.00000000000000e+00,7.50000000000000e-01,3.92362229556150e-04,7.50000000000000e-01
5.74057658159533e-08,0.00000000000000e+00,7.50000000000000e-01,-3.28640273022610e-04,7.50000000000000e-01
5.84730559129478e-08,0.00000000000000e+00,7.50000000000000e-01,2.89716634397063e-04,7.50000000000000e-01
6.03947996739161e-08,0.00000000000000e+00,7.50000000000000e-01,-2.66425037681903e-04,7.50000000000000e-01
6.33515489879894e-08,0.00000000000000e+00,7.50000000000000e-01,2.55624618122413e-04,7.50000000000000e-01
6.50000000000000e-08,0.00000000000000e+00,7.50000000000000e-01,-2.32269645289231e-04,7.50000000000000e-01
6.50100000000000e-08,7.49999999999858e-02,7.50000000000000e-01,-5.11483100723714e-05,7.50000000000000e-01
6.50300000000000e-08,2.24999999999957e-01,7.50000000000000e-01,1.76096218591673e-04,7.50000000000000e-01
6.50700000000000e-08,5.24999999999900e-01,7.50000000000000e-01,-4.70295128390530e-05,7.50000000000000e-01
6.51000000000000e-08,7.49999999999957e-01,7.50000000000000e-01,-2.39689983105448e-03,7.50000000000000e-01
6.51080000000000e-08,7.50000000000000e-01,7.50000000000000e-01,-3.43260831047890e-03,7.50000000000000e-01
6.51240000000000e-08,7.50000000000000e-01,7.50000000000000e-01,-5.19423891640566e-03,7.50000000000000e-01
6.51560000000000e-08,7.50000000000000e-01,7.50000000000000e-01,-6.25906756616972e-03,7.50000000000000e-01
6.52200000000000e-08,7.50000000000000e-01,7.50000000000000e-01,4.06818371334875e-02,7.50000000000000e-01
6.53480000000000e-08,7.50000000000000e-01,7.50000000000000e-01,4.12404820066789e-01,7.50000000000000e-01
6.56040000000000e-08,7.50000000000000e-01,7.50000000000000e-01,7.70609343496528e-01,7.50000000000000e-01
6.59519452254326e-08,7.50000000000000e-01,7.50000000000000e-01,7.33504663755563e-01,7.50000000000000e-01
6.65564272687016e-08,7.50000000000000e-01,7.50000000000000e-01,7.65268593173153e-01,7.50000000000000e-01
6.73209205435017e-08,7.50000000000000e-01,7.50000000000000e-01,7.36080593805872e-01,7.50000000000000e-01
6.85895720626154e-08,7.50000000000000e-01,7.50000000000000e-01,7.63221505585271e-01,7.50000000000000e-01
7.09949338048830e-08,7.50000000000000e-01,7.50000000000000e-01,7.37170570109156e-01,7.50000000000000e-01
7.47949338048830e-08,7.50000000000000e-01,7.50000000000000e-01,7.62631092977279e-01,7.50000000000000e-01
7.51000000000000e-08,7.50000000000000e-01,7.50000000000000e-01,7.39994424937745e-01,7.50000000000000e-01
7.51100000000000e-08,6.75000000000076e-01,7.50000000000000e-01,7.43271713834926e-01,7.50000000000000e-01
7.51300000000000e-08,5.25000000000105e-01,7.50000000000000e-01,7.47632585518481e-01,7.50000000000000e-01
7.51700000000000e-08,2.25000000000162e-01,7.50000000000000e-01,7.50605387094694e-01,7.50000000000000e-01
7.52000000000000e-08,1.05027098129540e-13,7.50000000000000e-01,7.52343661596894e-01,7.50000000000000e-01
7.52080000000000e-08,0.00000000000000e+00,7.50000000000000e-01,7.52777217159391e-01,7.50000000000000e-01
7.52240000000000e-08,0.00000000000000e+00,7.50000000000000e-01,7.53191521481402e-01,7.50000000000000e-01
7.52560000000000e-08,0.00000000000000e+00,7.50000000000000e-01,7.50837410608628e-01,7.50000000000000e-01
7.53200000000000e-08,0.00000000000000e+00,7.50000000000000e-01,7.34385040618311e-01,7.50000000000000e-01
7.54480000000000e-08,0.00000000000000e+00,7.50000000000000e-01,7.17086686244761e-01,7.50000000000000e-01
7.57040000000000e-08,0.00000000000000e+00,7.50000000000000e-01,7.45100595607911e-01,7.50000000000000e-01
7.62159999999999e-08,0.00000000000000e+00,7.50000000000000e-01,7.51512718109841e-01,7.50000000000000e-01
7.67909206723527e-08,0.00000000000000e+00,7.50000000000000e-01,7.48219880466579e-01,7.50000000000000e-01
7.79407620170583e-08,0.00000000000000e+00,7.50000000000000e-01,7.50840407129678e-01,7.50000000000000e-01
8.02404447064695e-08,0.00000000000000e+00,7.50000000000000e-01,7.48797334198348e-01,7.50000000000000e-01
8.40404447064695e-08,0.00000000000000e+00,7.50000000000000e-01,7.50777823272701e-01,7.50000000000000e-01
8.50000000000000e-08,0.00000000000000e+00,7.50000000000000e-01,7.49079715451090e-01,7.50000000000000e-01
8.50100000000000e-08,7.49999999999858e-02,7.50000000000000e-01,7.49093007143980e-01,6.75000000000014e-01
8.50300000000000e-08,2.24999999999957e-01,7.50000000000000e-01,7.49155433390820e-01,5.25000000000043e-01
8.50700000000000e-08,5.24999999999900e-01,7.50000000000000e-01,7.51227453410257e-01,2.25000000000100e-01
8.51000000000000e-08,7.49999999999957e-01,7.50000000000000e-01,7.56005656029763e-01,4.29656310529936e-14
8.51080000000000e-08,7.50000000000000e-01,7.50000000000000e-01,7.57590958695664e-01,0.00000000000000e+00
8.51240000000000e-08,7.50000000000000e-01,7.50000000000000e-01,7.60406030047180e-01,0.00000000000000e+00
8.51560000000000e-08,7.50000000000000e-01,7.50000000000000e-01,7.65164723810882e-01,0.00000000000000e+00
8.52200000000000e-08,7.50000000000000e-01,7.50000000000000e-01,7.46790791518252e-01,0.00000000000000e+00
8.53480000000000e-08,7.50000000000000e-01,7.50000000000000e-01,2.70972306270900e-01,0.00000000000000e+00
8.56038115612077e-08,7.50000000000000e-01,7.50000000000000e-01,-7.98462135057500e-02,0.00000000000000e+00
8.58677789082674e-08,7.50000000000000e-01,7.50000000000000e-01,5.75783557185030e-02,0.00000000000000e+00
8.63957136023869e-08,7.50000000000000e-01,7.50000000000000e-01,-4.21987154889847e-02,0.00000000000000e+00
8.69472796619228e-08,7.50000000000000e-01,7.50000000000000e-01,3.68647500555383e-02,0.00000000000000e+00
8.80504117809946e-08,7.50000000000000e-01,7.50000000000000e-01,-3.14985141038368e-02,0.00000000000000e+00
8.98955563798485e-08,7.50000000000000e-01,7.50000000000000e-01,3.12658762749043e-02,0.00000000000000e+00
9.01000000000000e-08,7.50000000000000e-01,7.49999999999957e-01,-1.76563322283861e-02,0.00000000000000e+00
9.04037434686469e-08,7.50000000000000e-01,7.50000000000000e-01,-1.28808307045568e-03,0.00000000000000e+00
9.10112304059408e-08,7.50000000000000e-01,7.50000000000000e-01,1.07403846566321e-03,0.00000000000000e+00
9.22262042805285e-08,7.50000000000000e-01,7.50000000000000e-01,-9.77044561963478e-04,0.00000000000000e+00
9.46561520297039e-08,7.50000000000000e-01,7.50000000000000e-01,9.36311426958489e-04,0.00000000000000e+00
9.51000000000000e-08,7.50000000000000e-01,7.50000000000000e-01,-7.27184336397577e-04,0.00000000000000e+00
9.51100000000000e-08,6.75000000000076e-01,7.50000000000000e-01,-3.44763596887836e-04,7.49999999999237e-02
9.51300000000000e-08,5.25000000000105e-01,7.50000000000000e-01,8.07667005952098e-05,2.24999999999895e-01
9.51700000000000e-08,2.25000000000162e-01,7.50000000000000e-01,1.26221438062270e-04,5.24999999999838e-01
9.52000000000000e-08,1.05027098129540e-13,7.50000000000000e-01,6.03528459907354e-05,7.49999999999895e-01
9.52080000000000e-08,0.00000000000000e+00,7.50000000000000e-01,2.99238115807690e-05,7.50000000000000e-01
9.52240000000000e-08,0.00000000000000e+00,7.50000000000000e-01,-1.24418412834962e-05,7.50000000000000e-01
9.52560000000000e-08,0.00000000000000e+00,7.50000000000000e-01,-1.20951170075143e-04,7.50000000000000e-01
9.53200000000000e-08,0.00000000000000e+00,7.50000000000000e-01,-8.55014566892298e-04,7.50000000000000e-01
9.54480000000000e-08,0.00000000000000e+00,7.50000000000000e-01,-4.45666488049095e-04,7.50000000000000e-01
9.56895263276113e-08,0.00000000000000e+00,7.50000000000000e-01,3.25686788745172e-04,7.50000000000000e-01
9.60769154255197e-08,0.00000000000000e+00,7.50000000000000e-01,-4.08294342261830e-04,7.50000000000000e-01
9.65779684989018e-08,0.00000000000000e+00,7.50000000000000e-01,3.92360640806442e-04,7.50000000000000e-01
9.74057214338281e-08,0.00000000000000e+00,7.50000000000000e-01,-3.28635790013037e-04,7.50000000000000e-01
9.84729361765294e-08,0.00000000000000e+00,7.50000000000000e-01,2.89707517178794e-04,7.50000000000000e-01
1.00394594820041e-07,0.00000000000000e+00,7.50000000000000e-01,-2.66414359809777e-04,7.50000000000000e-01
1.03351173349209e-07,0.00000000000000e+00,7.50000000000000e-01,2.55612887851704e-04,7.50000000000000e-01
1.05000000000000e-07,0.00000000000000e+00,7.50000000000000e-01,-2.32262285831259e-04,7.50000000000000e-01
1.05010000000000e-07,7.49999999999858e-02,7.50000000000000e-01,-5.11460792192789e-05,7.50000000000000e-01
1.05030000000000e-07,2.24999999999957e-01,7.50000000000000e-01,1.76093721992059e-04,7.50000000000000e-01
1.05070000000000e-07,5.24999999999900e-01,7.50000000000000e-01,-4.70274364687689e-05,7.50000000000000e-01
1.05100000000000e-07,7.49999999999957e-01,7.50000000000000e-01,-2.39689343850265e-03,7.50000000000000e-01
1.05108000000000e-07,7.50000000000000e-01,7.50000000000000e-01,-3.43260242246663e-03,7.50000000000000e-01
1.05124000000000e-07,7.50000000000000e-01,7.50000000000000e-01,-5.19423455568922e-03,7.50000000000000e-01
1.05156000000000e-07,7.50000000000000e-01,7.50000000000000e-01,-6.25907417909814e-03,7.50000000000000e-01
1.05220000000000e-07,7.50000000000000e-01,7.50000000000000e-01,4.06816930456285e-02,7.50000000000000e-01
1.05348000000000e-07,7.50000000000000e-01,7.50000000000000e-01,4.12404472017480e-01,7.50000000000000e-01
1.05604000000000e-07,7.50000000000000e-01,7.50000000000000e-01,7.70609307835581e-01,7.50000000000000e-01
1.05951945315741e-07,7.50000000000000e-01,7.50000000000000e-01,7.33504690397173e-01,7.50000000000000e-01
1.06556427475130e-07,7.50000000000000e-01,7.50000000000000e-01,7.65268572831994e-01,7.50000000000000e-01
1.07320920669772e-07,7.50000000000000e-01,7.50000000000000e-01,7.36080613095079e-01,7.50000000000000e-01
1.08589571593277e-07,7.50000000000000e-01,7.50000000000000e-01,7.63221488694609e-01,7.50000000000000e-01
1.10994931965390e-07,7.50000000000000e-01,7.50000000000000e-01,7.37170587641157e-01,7.50000000000000e-01
