Time,v(clk),v(data),v(out)
1.00000000000000e-08,7.50000000000000e-01,0.00000000000000e+00,3.93744665397587e-05
1.00100000000000e-08,7.50000000000000e-01,7.49999999999982e-02,3.00748261960471e-05
1.00300000000000e-08,7.50000000000000e-01,2.24999999999995e-01,1.80778152474650e-05
1.00700000000000e-08,7.50000000000000e-01,5.24999999999987e-01,6.69241279342703e-06
1.01000000000000e-08,7.50000000000000e-01,7.49999999999994e-01,2.17121754843980e-06
1.01080000000000e-08,7.50000000000000e-01,7.50000000000000e-01,2.64308456202067e-06
1.01240000000000e-08,7.50000000000000e-01,7.50000000000000e-01,4.23792874552215e-06
1.01560000000000e-08,7.50000000000000e-01,7.50000000000000e-01,7.38175757463572e-06
1.02200000000000e-08,7.50000000000000e-01,7.50000000000000e-01,8.59370847960256e-06
1.03480000000000e-08,7.50000000000000e-01,7.50000000000000e-01,6.82411324197732e-06
1.06040000000000e-08,7.50000000000000e-01,7.50000000000000e-01,5.64092884129327e-06
1.11160000000000e-08,7.50000000000000e-01,7.50000000000000e-01,5.18262507641885e-06
1.21400000000000e-08,7.50000000000000e-01,7.50000000000000e-01,5.31922354572636e-06
1.41880000000000e-08,7.50000000000000e-01,7.50000000000000e-01,4.30717701324114e-06
1.51000000000000e-08,7.50000000000000e-01,7.50000000000000e-01,4.79688272164887e-06
1.51100000000000e-08,6.74999999999989e-01,7.50000000000000e-01,-6.66349564969818e-05
1.51300000000000e-08,5.24999999999993e-01,7.50000000000000e-01,-1.75383310616783e-04
1.51700000000000e-08,2.25000000000000e-01,7.50000000000000e-01,-1.65165729580627e-04
1.52000000000000e-08,0.00000000000000e+00,7.50000000000000e-01,7.47609681531342e-05
1.52080000000000e-08,0.00000000000000e+00,7.50000000000000e-01,2.10535659787327e-04
1.52240000000000e-08,0.00000000000000e+00,7.50000000000000e-01,3.77005400662447e-04
1.52560000000000e-08,0.00000000000000e+00,7.50000000000000e-01,3.44388258838195e-04
1.53200000000000e-08,0.00000000000000e+00,7.50000000000000e-01,-6.70120341335970e-05
1.54480000000000e-08,0.00000000000000e+00,7.50000000000000e-01,-2.32799755566778e-04
1.57040000000000e-08,0.00000000000000e+00,7.50000000000000e-01,-1.89132075338111e-04
1.61285998165462e-08,0.00000000000000e+00,7.50000000000000e-01,1.13440304973397e-04
1.66563071818046e-08,0.00000000000000e+00,7.50000000000000e-01,1.30457856971931e-04
1.76929869530684e-08,0.00000000000000e+00,7.50000000000000e-01,-1.66697460240942e-04
1.87007690308121e-08,0.00000000000000e+00,7.50000000000000e-01,1.93592998599923e-04
2.07163331862996e-08,0.00000000000000e+00,7.50000000000000e-01,-1.90444380284692e-04
2.38074091914580e-08,0.00000000000000e+00,7.50000000000000e-01,1.96843008254577e-04
2.50000000000000e-08,0.00000000000000e+00,7.50000000000000e-01,-1.86605355736201e-04
2.50100000000000e-08,7.49999999999858e-02,7.50000000000000e-01,-2.26155611465703e-05
2.50300000000000e-08,2.25000000000007e-01,7.50000000000000e-01,2.16020640112752e-04
2.50700000000000e-08,5.25000000000000e-01,7.50000000000000e-01,1.42435878041518e-04
2.51000000000000e-08,7.50000000000000e-01,7.50000000000000e-01,-1.64661507875474e-03
2.51080000000000e-08,7.50000000000000e-01,7.50000000000000e-01,-2.54532126096989e-03
2.51240000000000e-08,7.50000000000000e-01,7.50000000000000e-01,-4.18736668959578e-03
2.51560000000000e-08,7.50000000000000e-01,7.50000000000000e-01,-6.10337189356766e-03
2.52200000000000e-08,7.50000000000000e-01,7.50000000000000e-01,9.62171051357287e-03
2.53480000000000e-08,7.50000000000000e-01,7.50000000000000e-01,2.59077788294039e-01
2.56040000000000e-08,7.50000000000000e-01,7.50000000000000e-01,7.28719124434762e-01
2.60370922957391e-08,7.50000000000000e-01,7.50000000000000e-01,7.56570161122152e-01
2.65815924965091e-08,7.50000000000000e-01,7.50000000000000e-01,7.44584386840011e-01
2.74579525976932e-08,7.50000000000000e-01,7.50000000000000e-01,7.53865076996183e-01
2.85099703726063e-08,7.50000000000000e-01,7.50000000000000e-01,7.46331558161657e-01
3.06140059224326e-08,7.50000000000000e-01,7.50000000000000e-01,7.53088723549140e-01
3.44140059224326e-08,7.50000000000000e-01,7.50000000000000e-01,7.46779213306141e-01
3.51000000000000e-08,7.49999999999963e-01,7.50000000000000e-01,7.52375479523507e-01
3.51100000000000e-08,6.74999999999977e-01,7.50000000000000e-01,7.51801889726741e-01
3.51300000000000e-08,5.24999999999956e-01,7.50000000000000e-01,7.50824094321012e-01
3.51700000000000e-08,2.24999999999963e-01,7.50000000000000e-01,7.50717585513269e-01
3.52000000000000e-08,0.00000000000000e+00,7.50000000000000e-01,7.52308563738037e-01
3.52080000000000e-08,0.00000000000000e+00,7.50000000000000e-01,7.52740960285337e-01
3.52240000000000e-08,0.00000000000000e+00,7.50000000000000e-01,7.53260120274253e-01
3.52560000000000e-08,0.00000000000000e+00,7.50000000000000e-01,7.52337709370815e-01
3.53200000000000e-08,0.00000000000000e+00,7.50000000000000e-01,7.40916824512352e-01
3.54480000000000e-08,0.00000000000000e+00,7.50000000000000e-01,7.17826558649415e-01
3.57040000000000e-08,0.00000000000000e+00,7.50000000000000e-01,7.36708969658988e-01
3.62160000000000e-08,0.00000000000000e+00,7.50000000000000e-01,7.55314896955516e-01
3.68226465417152e-08,0.00000000000000e+00,7.50000000000000e-01,7.44919946279896e-01
3.80359396251455e-08,0.00000000000000e+00,7.50000000000000e-01,7.53279692293448e-01
4.04625257920062e-08,0.00000000000000e+00,7.50000000000000e-01,7.46221059380791e-01
4.42625257920062e-08,0.00000000000000e+00,7.50000000000000e-01,7.52935016788236e-01
4.50000000000000e-08,0.00000000000000e+00,7.50000000000000e-01,7.47185816207455e-01
4.50100000000000e-08,7.49999999999858e-02,7.50000000000000e-01,7.47704224409110e-01
4.50300000000000e-08,2.25000000000007e-01,7.50000000000000e-01,7.48537254032307e-01
4.50700000000000e-08,5.25000000000000e-01,7.50000000000000e-01,7.49260797577065e-01
4.51000000000000e-08,7.50000000000000e-01,7.50000000000000e-01,7.48343104433675e-01
4.51080000000000e-08,7.50000000000000e-01,6.90000000000031e-01,7.47762665461273e-01
4.51240000000000e-08,7.50000000000000e-01,5.69999999999994e-01,7.46651596593202e-01
4.51560000000000e-08,7.50000000000000e-01,3.30000000000020e-01,7.44920129216407e-01
4.52000000000000e-08,7.50000000000000e-01,4.29656310529936e-14,7.43646284217406e-01
4.52064000000000e-08,7.50000000000000e-01,0.00000000000000e+00,7.43612081779772e-01
4.52192000000000e-08,7.50000000000000e-01,0.00000000000000e+00,7.43626625519014e-01
4.52448000000000e-08,7.50000000000000e-01,0.00000000000000e+00,7.44101081961891e-01
4.52960000000000e-08,7.50000000000000e-01,0.00000000000000e+00,7.45826467422287e-01
4.53984000000000e-08,7.50000000000000e-01,0.00000000000000e+00,7.48540617380404e-01
4.56032000000000e-08,7.50000000000000e-01,0.00000000000000e+00,7.50050831420187e-01
4.58313713362078e-08,7.50000000000000e-01,0.00000000000000e+00,7.49984632809554e-01
4.62877140086233e-08,7.50000000000000e-01,0.00000000000000e+00,7.50007538814580e-01
4.68103676668855e-08,7.50000000000000e-01,0.00000000000000e+00,7.50001244619524e-01
4.78556749834100e-08,7.50000000000000e-01,0.00000000000000e+00,7.49995701441714e-01
4.98215510842239e-08,7.50000000000000e-01,0.00000000000000e+00,7.50005579835356e-01
5.31148235807785e-08,7.50000000000000e-01,0.00000000000000e+00,7.49993700325574e-01
5.51000000000000e-08,7.50000000000000e-01,0.00000000000000e+00,7.50007293985071e-01
5.51100000000000e-08,6.75000000000027e-01,0.00000000000000e+00,7.49925500345886e-01
5.51300000000000e-08,5.25000000000005e-01,0.00000000000000e+00,7.49822301370008e-01
5.51700000000000e-08,2.25000000000013e-01,0.00000000000000e+00,7.50508867317101e-01
5.52000000000000e-08,0.00000000000000e+00,0.00000000000000e+00,7.52268108315476e-01
5.52080000000000e-08,0.00000000000000e+00,0.00000000000000e+00,7.52775227411189e-01
5.52240000000000e-08,0.00000000000000e+00,0.00000000000000e+00,7.53538267692627e-01
5.52560000000000e-08,0.00000000000000e+00,0.00000000000000e+00,7.54276380205853e-01
5.53200000000000e-08,0.00000000000000e+00,0.00000000000000e+00,7.55071054653901e-01
5.54480000000000e-08,0.00000000000000e+00,0.00000000000000e+00,7.53797446714794e-01
5.57040000000000e-08,0.00000000000000e+00,0.00000000000000e+00,7.46262718466350e-01
5.59971545615506e-08,0.00000000000000e+00,0.00000000000000e+00,7.47742823695560e-01
5.65834636846519e-08,0.00000000000000e+00,0.00000000000000e+00,7.49874101737988e-01
5.71434671121110e-08,0.00000000000000e+00,0.00000000000000e+00,7.48796748449948e-01
5.82634739670294e-08,0.00000000000000e+00,0.00000000000000e+00,7.50094103192557e-01
6.05034876768660e-08,0.00000000000000e+00,0.00000000000000e+00,7.49151291662994e-01
6.43034876768660e-08,0.00000000000000e+00,0.00000000000000e+00,7.50184814817210e-01
6.50000000000000e-08,0.00000000000000e+00,0.00000000000000e+00,7.49287523273785e-01
6.50100000000000e-08,7.49999999999858e-02,0.00000000000000e+00,7.49447618711624e-01
6.50300000000000e-08,2.24999999999957e-01,0.00000000000000e+00,7.49674809217022e-01
6.50700000000000e-08,5.24999999999900e-01,0.00000000000000e+00,7.49733658096733e-01
6.51000000000000e-08,7.49999999999957e-01,0.00000000000000e+00,7.49504380925314e-01
6.51080000000000e-08,7.50000000000000e-01,0.00000000000000e+00,7.49405680103672e-01
6.51240000000000e-08,7.50000000000000e-01,0.00000000000000e+00,7.49272239358222e-01
6.51560000000000e-08,7.50000000000000e-01,0.00000000000000e+00,7.49230097530797e-01
6.52200000000000e-08,7.50000000000000e-01,0.00000000000000e+00,7.50715148907257e-01
6.53480000000000e-08,7.50000000000000e-01,0.00000000000000e+00,7.60996178863732e-01
6.56040000000000e-08,7.50000000000000e-01,0.00000000000000e+00,2.55169208330703e-01
6.59974416774768e-08,7.50000000000000e-01,0.00000000000000e+00,-8.82174417589453e-02
6.63985310989695e-08,7.50000000000000e-01,0.00000000000000e+00,6.92956677514622e-02
6.72007099419549e-08,7.50000000000000e-01,0.00000000000000e+00,-4.92656237473596e-02
6.79679569749560e-08,7.50000000000000e-01,0.00000000000000e+00,4.42758815387235e-02
6.95024510409581e-08,7.50000000000000e-01,0.00000000000000e+00,-3.64705410752171e-02
7.16984834357766e-08,7.50000000000000e-01,0.00000000000000e+00,3.67586967630309e-02
7.51000000000000e-08,7.50000000000000e-01,0.00000000000000e+00,-3.25048580017748e-02
7.51100000000000e-08,6.75000000000076e-01,0.00000000000000e+00,-2.58841063282733e-02
7.51300000000000e-08,5.25000000000105e-01,0.00000000000000e+00,-1.51572967239098e-02
7.51700000000000e-08,2.25000000000162e-01,0.00000000000000e+00,-4.59834274952202e-03
7.52000000000000e-08,1.05027098129540e-13,0.00000000000000e+00,-1.86539913060389e-03
7.52080000000000e-08,0.00000000000000e+00,0.00000000000000e+00,-1.37881838082981e-03
7.52240000000000e-08,0.00000000000000e+00,0.00000000000000e+00,-6.47351423798403e-04
7.52560000000000e-08,0.00000000000000e+00,0.00000000000000e+00,-1.14396200994835e-04
7.53200000000000e-08,0.00000000000000e+00,0.00000000000000e+00,-5.75524036460773e-04
7.54480000000000e-08,0.00000000000000e+00,0.00000000000000e+00,-7.84053656806980e-04
7.57040000000000e-08,0.00000000000000e+00,0.00000000000000e+00,2.75123595906977e-04
7.62159999999999e-08,0.00000000000000e+00,0.00000000000000e+00,-1.70831112128230e-04
7.68040274615880e-08,0.00000000000000e+00,0.00000000000000e+00,1.23772866654092e-04
7.79800823847642e-08,0.00000000000000e+00,0.00000000000000e+00,-9.68842910113749e-05
8.03321922311166e-08,0.00000000000000e+00,0.00000000000000e+00,9.51510912770605e-05
8.41321922311166e-08,0.00000000000000e+00,0.00000000000000e+00,-8.34131706646552e-05
8.50000000000000e-08,0.00000000000000e+00,0.00000000000000e+00,7.16364776145598e-05
8.50100000000000e-08,7.49999999999858e-02,0.00000000000000e+00,1.62086655479080e-04
8.50300000000000e-08,2.24999999999957e-01,0.00000000000000e+00,2.72510270687844e-04
8.50700000000000e-08,5.24999999999900e-01,0.00000000000000e+00,1.78057008693340e-04
8.51000000000000e-08,7.49999999999957e-01,0.00000000000000e+00,-1.11224327131357e-04
8.51080000000000e-08,7.50000000000000e-01,0.00000000000000e+00,-2.11315433822128e-04
8.51240000000000e-08,7.50000000000000e-01,0.00000000000000e+00,-3.44936415610037e-04
8.51560000000000e-08,7.50000000000000e-01,0.00000000000000e+00,-4.25499407483827e-04
8.52200000000000e-08,7.50000000000000e-01,0.00000000000000e+00,-2.05250821745356e-04
8.53480000000000e-08,7.50000000000000e-01,0.00000000000000e+00,1.37350496551083e-04
8.56040000000000e-08,7.50000000000000e-01,0.00000000000000e+00,7.13760157517174e-05
8.61159999999999e-08,7.50000000000000e-01,0.00000000000000e+00,-3.50878464161208e-05
8.67536220168670e-08,7.50000000000000e-01,0.00000000000000e+00,4.97910191020051e-05
8.80288660506011e-08,7.50000000000000e-01,0.00000000000000e+00,-2.85254594968426e-05
9.00000000000000e-08,7.50000000000000e-01,0.00000000000000e+00,3.97301840141676e-05
9.00100000000000e-08,7.50000000000000e-01,7.49999999999858e-02,3.03342110068577e-05
9.00300000000000e-08,7.50000000000000e-01,2.24999999999957e-01,1.82205563280802e-05
9.00700000000000e-08,7.50000000000000e-01,5.24999999999900e-01,6.76603013891747e-06
9.01000000000000e-08,7.50000000000000e-01,7.49999999999957e-01,2.23979725196000e-06
9.01080000000000e-08,7.50000000000000e-01,7.50000000000000e-01,2.69085533526753e-06
9.01240000000000e-08,7.50000000000000e-01,7.50000000000000e-01,4.22973407739752e-06
9.01560000000000e-08,7.50000000000000e-01,7.50000000000000e-01,7.34546013296533e-06
9.02200000000000e-08,7.50000000000000e-01,7.50000000000000e-01,8.57695211160803e-06
9.03480000000000e-08,7.50000000000000e-01,7.50000000000000e-01,6.82378756437091e-06
9.06040000000000e-08,7.50000000000000e-01,7.50000000000000e-01,5.65007322665852e-06
9.11159999999999e-08,7.50000000000000e-01,7.50000000000000e-01,5.17797144550594e-06
9.21399999999999e-08,7.50000000000000e-01,7.50000000000000e-01,5.32544011410622e-06
9.41879999999998e-08,7.50000000000000e-01,7.50000000000000e-01,4.30286886819861e-06
9.51000000000000e-08,7.50000000000000e-01,7.50000000000000e-01,4.80166976593501e-06
9.51100000000000e-08,6.75000000000076e-01,7.50000000000000e-01,-6.66313702478993e-05
9.51300000000000e-08,5.25000000000105e-01,7.50000000000000e-01,-1.75380986780493e-04
9.51700000000000e-08,2.25000000000162e-01,7.50000000000000e-01,-1.65164428460055e-04
9.52000000000000e-08,1.05027098129540e-13,7.50000000000000e-01,7.47619176132905e-05
9.52080000000000e-08,0.00000000000000e+00,7.50000000000000e-01,2.10536690925446e-04
9.52240000000000e-08,0.00000000000000e+00,7.50000000000000e-01,3.77006687871120e-04
9.52560000000000e-08,0.00000000000000e+00,7.50000000000000e-01,3.44392070772435e-04
9.53200000000000e-08,0.00000000000000e+00,7.50000000000000e-01,-6.69886776104023e-05
9.54480000000000e-08,0.00000000000000e+00,7.50000000000000e-01,-2.32787722113163e-04
9.57040000000000e-08,0.00000000000000e+00,7.50000000000000e-01,-1.89140369947570e-04
9.61285997874039e-08,0.00000000000000e+00,7.50000000000000e-01,1.13446879047491e-04
9.66563071569429e-08,0.00000000000000e+00,7.50000000000000e-01,1.30452448571678e-04
9.76929870368050e-08,0.00000000000000e+00,7.50000000000000e-01,-1.66692445172726e-04
9.87007690474672e-08,0.00000000000000e+00,7.50000000000000e-01,1.93588421032375e-04
1.00716333068792e-07,0.00000000000000e+00,7.50000000000000e-01,-1.90439974631812e-04
1.03807409296486e-07,0.00000000000000e+00,7.50000000000000e-01,1.96838734019930e-04
1.05000000000000e-07,0.00000000000000e+00,7.50000000000000e-01,-1.86601359426545e-04
1.05010000000000e-07,7.49999999999858e-02,7.50000000000000e-01,-2.26131785135211e-05
1.05030000000000e-07,2.24999999999957e-01,7.50000000000000e-01,2.16021438326712e-04
1.05070000000000e-07,5.24999999999900e-01,7.50000000000000e-01,1.42436098751628e-04
1.05100000000000e-07,7.49999999999957e-01,7.50000000000000e-01,-1.64661508916697e-03
1.05108000000000e-07,7.50000000000000e-01,7.50000000000000e-01,-2.54532124443191e-03
1.05124000000000e-07,7.50000000000000e-01,7.50000000000000e-01,-4.18736666382777e-03
1.05156000000000e-07,7.50000000000000e-01,7.50000000000000e-01,-6.10337189123445e-03
1.05220000000000e-07,7.50000000000000e-01,7.50000000000000e-01,9.62171047766745e-03
1.05348000000000e-07,7.50000000000000e-01,7.50000000000000e-01,2.59077789269677e-01
1.05604000000000e-07,7.50000000000000e-01,7.50000000000000e-01,7.28719124842997e-01
1.06037092294011e-07,7.50000000000000e-01,7.50000000000000e-01,7.56570160918793e-01
1.06581592495736e-07,7.50000000000000e-01,7.50000000000000e-01,7.44584387031923e-01
1.07457952593212e-07,7.50000000000000e-01,7.50000000000000e-01,7.53865076837414e-01
1.08509970368434e-07,7.50000000000000e-01,7.50000000000000e-01,7.46331558314815e-01
1.10614005918879e-07,7.50000000000000e-01,7.50000000000000e-01,7.53088723410965e-01
1.14414005918879e-07,7.50000000000000e-01,7.50000000000000e-01,7.46779213445632e-01
1.15100000000000e-07,7.50000000000000e-01,7.50000000000000e-01,7.52375479408914e-01
1.15110000000000e-07,6.75000000000076e-01,7.50000000000000e-01,7.51801889647793e-01
1.15130000000000e-07,5.25000000000105e-01,7.50000000000000e-01,7.50824094290573e-01
1.15170000000000e-07,2.25000000000162e-01,7.50000000000000e-01,7.50717585510611e-01
1.15200000000000e-07,1.05027098129540e-13,7.50000000000000e-01,7.52308563737960e-01
1.15208000000000e-07,0.00000000000000e+00,7.50000000000000e-01,7.52740960285285e-01
1.15224000000000e-07,0.00000000000000e+00,7.50000000000000e-01,7.53260120274030e-01
1.15256000000000e-07,0.00000000000000e+00,7.50000000000000e-01,7.52337709367532e-01
1.15320000000000e-07,0.00000000000000e+00,7.50000000000000e-01,7.40916824540190e-01
1.15448000000000e-07,0.00000000000000e+00,7.50000000000000e-01,7.17826558657370e-01
1.15704000000000e-07,0.00000000000000e+00,7.50000000000000e-01,7.36708969638919e-01
1.16216000000000e-07,0.00000000000000e+00,7.50000000000000e-01,7.55314896965543e-01
1.16822646541518e-07,0.00000000000000e+00,7.50000000000000e-01,7.44919946278646e-01
1.18035939624556e-07,0.00000000000000e+00,7.50000000000000e-01,7.53279692299662e-01
1.20462525790630e-07,0.00000000000000e+00,7.50000000000000e-01,7.46221059379650e-01
1.24262525790630e-07,0.00000000000000e+00,7.50000000000000e-01,7.52935016794183e-01
1.25000000000000e-07,0.00000000000000e+00,7.50000000000000e-01,7.47185816198383e-01
1.25010000000000e-07,7.49999999998865e-02,7.50000000000000e-01,7.47704224401659e-01
1.25030000000000e-07,2.24999999999858e-01,7.50000000000000e-01,7.48537254027750e-01
1.25070000000000e-07,5.24999999999801e-01,7.50000000000000e-01,7.49260797575381e-01
1.25100000000000e-07,7.49999999999858e-01,7.50000000000000e-01,7.48343104432794e-01
1.25108000000000e-07,7.50000000000000e-01,6.89999999999932e-01,7.47762665460540e-01
1.25124000000000e-07,7.50000000000000e-01,5.69999999999994e-01,7.46651596592695e-01
1.25156000000000e-07,7.50000000000000e-01,3.29999999999921e-01,7.44920129216285e-01
1.25200000000000e-07,7.50000000000000e-01,0.00000000000000e+00,7.43646284217304e-01
1.25206400000000e-07,7.50000000000000e-01,0.00000000000000e+00,7.43612081779814e-01
1.25219200000000e-07,7.50000000000000e-01,0.00000000000000e+00,7.43626625519155e-01
1.25244800000000e-07,7.50000000000000e-01,0.00000000000000e+00,7.44101081964392e-01
1.25296000000000e-07,7.50000000000000e-01,0.00000000000000e+00,7.45826467422201e-01
1.25398400000000e-07,7.50000000000000e-01,0.00000000000000e+00,7.48540617380388e-01
1.25603200000000e-07,7.50000000000000e-01,0.00000000000000e+00,7.50050831420298e-01
1.25831371336176e-07,7.50000000000000e-01,0.00000000000000e+00,7.49984632809463e-01
1.26287714008529e-07,7.50000000000000e-01,0.00000000000000e+00,7.50007538814619e-01
1.26810367666611e-07,7.50000000000000e-01,0.00000000000000e+00,7.50001244619402e-01
1.27855674982776e-07,7.50000000000000e-01,0.00000000000000e+00,7.49995701441783e-01
1.29821551083450e-07,7.50000000000000e-01,0.00000000000000e+00,7.50005579834942e-01
1.33114823579364e-07,7.50000000000000e-01,0.00000000000000e+00,7.49993700325818e-01
1.35100000000000e-07,7.49999999999864e-01,0.00000000000000e+00,7.50007293984895e-01
1.35110000000000e-07,6.74999999999778e-01,0.00000000000000e+00,7.49925500345904e-01
1.35130000000000e-07,5.24999999999807e-01,0.00000000000000e+00,7.49822301370060e-01
