Time,v(clk),v(data),v(out)
1.00000000000000e-08,7.50000000000000e-01,0.00000000000000e+00,3.93713278832174e-05
1.00100000000000e-08,7.50000000000000e-01,7.49999999999982e-02,3.00734400015962e-05
1.00300000000000e-08,7.50000000000000e-01,2.24999999999995e-01,1.80775123722957e-05
1.00700000000000e-08,7.50000000000000e-01,5.24999999999987e-01,6.69177534231430e-06
1.01000000000000e-08,7.50000000000000e-01,7.49999999999994e-01,2.17047304539725e-06
1.01080000000000e-08,7.50000000000000e-01,7.50000000000000e-01,2.64252600654102e-06
1.01240000000000e-08,7.50000000000000e-01,7.50000000000000e-01,4.23813321740601e-06
1.01560000000000e-08,7.50000000000000e-01,7.50000000000000e-01,7.38236012734483e-06
1.02200000000000e-08,7.50000000000000e-01,7.50000000000000e-01,8.59396876311258e-06
1.03480000000000e-08,7.50000000000000e-01,7.50000000000000e-01,6.82411932903179e-06
1.06040000000000e-08,7.50000000000000e-01,7.50000000000000e-01,5.64072515361197e-06
1.11160000000000e-08,7.50000000000000e-01,7.50000000000000e-01,5.18269384738174e-06
1.21400000000000e-08,7.50000000000000e-01,7.50000000000000e-01,5.31908872629990e-06
1.41880000000000e-08,7.50000000000000e-01,7.50000000000000e-01,4.30724935710121e-06
1.51000000000000e-08,7.50000000000000e-01,7.50000000000000e-01,4.79678438910190e-06
1.51100000000000e-08,6.74999999999989e-01,7.50000000000000e-01,-6.66350339310132e-05
1.51300000000000e-08,5.24999999999993e-01,7.50000000000000e-01,-1.75383365037841e-04
1.51700000000000e-08,2.25000000000000e-01,7.50000000000000e-01,-1.65165764049381e-04
1.52000000000000e-08,0.00000000000000e+00,7.50000000000000e-01,7.47609359093571e-05
1.52080000000000e-08,0.00000000000000e+00,7.50000000000000e-01,2.10535624250857e-04
1.52240000000000e-08,0.00000000000000e+00,7.50000000000000e-01,3.77005354744234e-04
1.52560000000000e-08,0.00000000000000e+00,7.50000000000000e-01,3.44388125115322e-04
1.53200000000000e-08,0.00000000000000e+00,7.50000000000000e-01,-6.70128558573971e-05
1.54480000000000e-08,0.00000000000000e+00,7.50000000000000e-01,-2.32800179483357e-04
1.57040000000000e-08,0.00000000000000e+00,7.50000000000000e-01,-1.89131783923593e-04
1.61285998177448e-08,0.00000000000000e+00,7.50000000000000e-01,1.13440074046057e-04
1.66563071828965e-08,0.00000000000000e+00,7.50000000000000e-01,1.30458047121758e-04
1.76929869559949e-08,0.00000000000000e+00,7.50000000000000e-01,-1.66697636317915e-04
1.87007690350003e-08,0.00000000000000e+00,7.50000000000000e-01,1.93593159351016e-04
2.07163331930111e-08,0.00000000000000e+00,7.50000000000000e-01,-1.90444535022174e-04
2.38074091992340e-08,0.00000000000000e+00,7.50000000000000e-01,1.96843158383801e-04
2.50000000000000e-08,0.00000000000000e+00,7.50000000000000e-01,-1.86605496075178e-04
2.50100000000000e-08,7.49999999999858e-02,7.50000000000000e-01,-2.26156448686482e-05
2.50300000000000e-08,2.25000000000007e-01,7.50000000000000e-01,2.16020612036252e-04
2.50700000000000e-08,5.25000000000000e-01,7.50000000000000e-01,1.42435870271747e-04
2.51000000000000e-08,7.50000000000000e-01,7.50000000000000e-01,-1.64661507839530e-03
2.51080000000000e-08,7.50000000000000e-01,7.50000000000000e-01,-2.54532126156320e-03
2.51240000000000e-08,7.50000000000000e-01,7.50000000000000e-01,-4.18736669052419e-03
2.51560000000000e-08,7.50000000000000e-01,7.50000000000000e-01,-6.10337189367457e-03
2.52200000000000e-08,7.50000000000000e-01,7.50000000000000e-01,9.62171051433234e-03
2.53480000000000e-08,7.50000000000000e-01,7.50000000000000e-01,2.59077789465037e-01
2.56040000000000e-08,7.50000000000000e-01,7.50000000000000e-01,7.28719124918791e-01
2.60370922938601e-08,7.50000000000000e-01,7.50000000000000e-01,7.56570160895658e-01
2.65815924955872e-08,7.50000000000000e-01,7.50000000000000e-01,7.44584387053880e-01
2.74579525929070e-08,7.50000000000000e-01,7.50000000000000e-01,7.53865076820057e-01
2.85099703683835e-08,7.50000000000000e-01,7.50000000000000e-01,7.46331558331945e-01
3.01000000000000e-08,7.50000000000000e-01,7.50000000000000e-01,7.53009555056100e-01
3.01100000000000e-08,7.50000000000000e-01,6.75000000000039e-01,7.52392331855576e-01
3.01300000000000e-08,7.50000000000000e-01,5.25000000000018e-01,7.51284380676608e-01
3.01700000000000e-08,7.50000000000000e-01,2.25000000000025e-01,7.50277690697678e-01
3.02000000000000e-08,7.50000000000000e-01,1.80966353013901e-14,7.50165383422386e-01
3.02080000000000e-08,7.50000000000000e-01,0.00000000000000e+00,7.50144153872580e-01
3.02240000000000e-08,7.50000000000000e-01,0.00000000000000e+00,7.50112837309336e-01
3.02560000000000e-08,7.50000000000000e-01,0.00000000000000e+00,7.50023738825624e-01
3.03200000000000e-08,7.50000000000000e-01,0.00000000000000e+00,7.49943689796520e-01
3.04480000000000e-08,7.50000000000000e-01,0.00000000000000e+00,7.49935924344591e-01
3.07040000000000e-08,7.50000000000000e-01,0.00000000000000e+00,7.49955090438506e-01
3.10608062840926e-08,7.50000000000000e-01,0.00000000000000e+00,7.49915708462524e-01
3.16114433454084e-08,7.50000000000000e-01,0.00000000000000e+00,7.49954429944004e-01
3.27127174680401e-08,7.50000000000000e-01,0.00000000000000e+00,7.49932711555005e-01
3.46778585587245e-08,7.50000000000000e-01,0.00000000000000e+00,7.49962927519905e-01
3.51000000000000e-08,7.49999999999963e-01,0.00000000000000e+00,7.49946285661476e-01
3.51100000000000e-08,6.74999999999977e-01,0.00000000000000e+00,7.49864394320841e-01
3.51300000000000e-08,5.24999999999956e-01,0.00000000000000e+00,7.49774854580568e-01
3.51700000000000e-08,2.24999999999963e-01,0.00000000000000e+00,7.50487262531189e-01
3.52000000000000e-08,0.00000000000000e+00,0.00000000000000e+00,7.52156806176811e-01
3.52080000000000e-08,0.00000000000000e+00,0.00000000000000e+00,7.52605497804879e-01
3.52240000000000e-08,0.00000000000000e+00,0.00000000000000e+00,7.53145846677338e-01
3.52560000000000e-08,0.00000000000000e+00,0.00000000000000e+00,7.52287917490175e-01
3.53200000000000e-08,0.00000000000000e+00,0.00000000000000e+00,7.41150008154000e-01
3.54480000000000e-08,0.00000000000000e+00,0.00000000000000e+00,7.17634717304118e-01
3.57040000000000e-08,0.00000000000000e+00,0.00000000000000e+00,7.36378152804554e-01
3.59977910999601e-08,0.00000000000000e+00,0.00000000000000e+00,7.53608872578470e-01
3.65853732998803e-08,0.00000000000000e+00,0.00000000000000e+00,7.45696928954420e-01
3.71454484947338e-08,0.00000000000000e+00,0.00000000000000e+00,7.51838616064116e-01
3.82655988844410e-08,0.00000000000000e+00,0.00000000000000e+00,7.47516263194384e-01
3.91000000000000e-08,0.00000000000000e+00,0.00000000000000e+00,7.51224374624857e-01
3.93240300779414e-08,0.00000000000000e+00,0.00000000000000e+00,7.49902065461157e-01
3.97720902338243e-08,0.00000000000000e+00,0.00000000000000e+00,7.49457747339033e-01
4.06682105455900e-08,0.00000000000000e+00,0.00000000000000e+00,7.49800528905573e-01
4.24604511691214e-08,0.00000000000000e+00,0.00000000000000e+00,7.49550980317183e-01
4.50000000000000e-08,0.00000000000000e+00,0.00000000000000e+00,7.49808962621764e-01
4.50100000000000e-08,7.49999999999858e-02,0.00000000000000e+00,7.49859002544576e-01
4.50300000000000e-08,2.25000000000007e-01,0.00000000000000e+00,7.49908043800051e-01
4.50700000000000e-08,5.25000000000000e-01,0.00000000000000e+00,7.49802433457300e-01
4.51000000000000e-08,7.50000000000000e-01,0.00000000000000e+00,7.49531184031832e-01
4.51080000000000e-08,7.50000000000000e-01,0.00000000000000e+00,7.49428623250371e-01
4.51240000000000e-08,7.50000000000000e-01,0.00000000000000e+00,7.49290265282371e-01
4.51560000000000e-08,7.50000000000000e-01,0.00000000000000e+00,7.49238145632357e-01
4.52200000000000e-08,7.50000000000000e-01,0.00000000000000e+00,7.50721411695255e-01
4.53480000000000e-08,7.50000000000000e-01,0.00000000000000e+00,7.61008435329730e-01
4.56040000000000e-08,7.50000000000000e-01,0.00000000000000e+00,2.55056221646933e-01
4.59972884111456e-08,7.50000000000000e-01,0.00000000000000e+00,-8.82120244619512e-02
4.63984497280375e-08,7.50000000000000e-01,0.00000000000000e+00,6.92933577855165e-02
4.72007723618213e-08,7.50000000000000e-01,0.00000000000000e+00,-4.92703225541519e-02
4.79680133985178e-08,7.50000000000000e-01,0.00000000000000e+00,4.42790821328733e-02
4.95024954719108e-08,7.50000000000000e-01,0.00000000000000e+00,-3.64751654194314e-02
5.00000000000000e-08,7.50000000000000e-01,0.00000000000000e+00,2.84737212016371e-02
5.00100000000000e-08,7.50000000000000e-01,7.49999999999858e-02,2.28965678861178e-02
5.00300000000000e-08,7.50000000000000e-01,2.24999999999957e-01,1.36551161027478e-02
5.00700000000000e-08,7.50000000000000e-01,5.25000000000000e-01,4.24584713173853e-03
5.01000000000000e-08,7.50000000000000e-01,7.50000000000000e-01,1.86971986949794e-03
5.01080000000000e-08,7.50000000000000e-01,7.50000000000000e-01,1.53660443429873e-03
5.01240000000000e-08,7.50000000000000e-01,7.50000000000000e-01,9.84640713135879e-04
5.01560000000000e-08,7.50000000000000e-01,7.50000000000000e-01,3.50024252244688e-04
5.02200000000000e-08,7.50000000000000e-01,7.50000000000000e-01,4.14712564492103e-05
5.03480000000000e-08,7.50000000000000e-01,7.50000000000000e-01,-1.00477621584778e-05
5.06040000000000e-08,7.50000000000000e-01,7.50000000000000e-01,7.10936155783395e-06
5.11160000000001e-08,7.50000000000000e-01,7.50000000000000e-01,-4.56825178156775e-06
5.21400000000002e-08,7.50000000000000e-01,7.50000000000000e-01,6.26734204686816e-06
5.41880000000003e-08,7.50000000000000e-01,7.50000000000000e-01,-3.01236432627156e-06
5.51000000000000e-08,7.50000000000000e-01,7.50000000000000e-01,5.09046883288150e-06
5.51100000000000e-08,6.75000000000027e-01,7.50000000000000e-01,-6.89753401863363e-05
5.51300000000000e-08,5.25000000000005e-01,7.50000000000000e-01,-1.81837120538708e-04
5.51700000000000e-08,2.25000000000013e-01,7.50000000000000e-01,-1.65593761196785e-04
5.52000000000000e-08,0.00000000000000e+00,7.50000000000000e-01,6.73308934039871e-05
5.52080000000000e-08,0.00000000000000e+00,7.50000000000000e-01,2.01068252581191e-04
5.52240000000000e-08,0.00000000000000e+00,7.50000000000000e-01,3.57020071035399e-04
5.52560000000000e-08,0.00000000000000e+00,7.50000000000000e-01,2.88152163301907e-04
5.53200000000000e-08,0.00000000000000e+00,7.50000000000000e-01,-5.28323953469967e-04
5.54480000000000e-08,0.00000000000000e+00,7.50000000000000e-01,-7.85761846575639e-04
5.57040000000000e-08,0.00000000000000e+00,7.50000000000000e-01,5.08098885343995e-05
5.61290591011859e-08,0.00000000000000e+00,7.50000000000000e-01,-2.53016857442185e-05
5.66567499560596e-08,0.00000000000000e+00,7.50000000000000e-01,2.13865804715564e-04
5.76958149433932e-08,0.00000000000000e+00,7.50000000000000e-01,-2.46908123652762e-04
5.87036224158478e-08,0.00000000000000e+00,7.50000000000000e-01,2.54424729771427e-04
6.07192373607570e-08,0.00000000000000e+00,7.50000000000000e-01,-2.43343787952888e-04
6.38138415313016e-08,0.00000000000000e+00,7.50000000000000e-01,2.44554092697250e-04
6.50000000000000e-08,0.00000000000000e+00,7.50000000000000e-01,-2.23006000582111e-04
6.50100000000000e-08,7.49999999999858e-02,7.50000000000000e-01,-6.00735708682076e-05
6.50300000000000e-08,2.24999999999957e-01,7.50000000000000e-01,1.79815801737121e-04
6.50700000000000e-08,5.24999999999900e-01,7.50000000000000e-01,1.21522658550664e-04
6.51000000000000e-08,7.49999999999957e-01,7.50000000000000e-01,-1.65596053365989e-03
6.51080000000000e-08,7.50000000000000e-01,7.50000000000000e-01,-2.55335056344407e-03
6.51240000000000e-08,7.50000000000000e-01,7.50000000000000e-01,-4.19292548962661e-03
6.51560000000000e-08,7.50000000000000e-01,7.50000000000000e-01,-6.10588182876552e-03
6.52200000000000e-08,7.50000000000000e-01,7.50000000000000e-01,9.62074688491071e-03
6.53480000000000e-08,7.50000000000000e-01,7.50000000000000e-01,2.59076163712434e-01
6.56040000000000e-08,7.50000000000000e-01,7.50000000000000e-01,7.28718582923592e-01
6.60370965422726e-08,7.50000000000000e-01,7.50000000000000e-01,7.56570457520367e-01
6.65815944703986e-08,7.50000000000000e-01,7.50000000000000e-01,7.44584113092167e-01
6.74579600537943e-08,7.50000000000000e-01,7.50000000000000e-01,7.53865301570445e-01
6.85099796684982e-08,7.50000000000000e-01,7.50000000000000e-01,7.46331339278470e-01
7.01000000000000e-08,7.50000000000000e-01,7.50000000000000e-01,7.53009747584305e-01
7.01100000000000e-08,7.50000000000000e-01,6.75000000000014e-01,7.52392462150293e-01
7.01300000000000e-08,7.50000000000000e-01,5.25000000000043e-01,7.51284429100057e-01
7.01700000000000e-08,7.50000000000000e-01,2.25000000000100e-01,7.50277697278503e-01
7.02000000000000e-08,7.50000000000000e-01,4.29656310529936e-14,7.50165386386601e-01
7.02080000000000e-08,7.50000000000000e-01,0.00000000000000e+00,7.50144156192188e-01
7.02240000000000e-08,7.50000000000000e-01,0.00000000000000e+00,7.50112838869102e-01
7.02560000000000e-08,7.50000000000000e-01,0.00000000000000e+00,7.50023740174239e-01
7.03200000000000e-08,7.50000000000000e-01,0.00000000000000e+00,7.49943690848007e-01
7.04480000000000e-08,7.50000000000000e-01,0.00000000000000e+00,7.49935924655584e-01
7.07040000000000e-08,7.50000000000000e-01,0.00000000000000e+00,7.49955089668156e-01
7.10608077859363e-08,7.50000000000000e-01,0.00000000000000e+00,7.49915709197795e-01
7.16114449863235e-08,7.50000000000000e-01,0.00000000000000e+00,7.49954429221545e-01
7.27127193870978e-08,7.50000000000000e-01,0.00000000000000e+00,7.49932712309609e-01
7.46778743782684e-08,7.50000000000000e-01,0.00000000000000e+00,7.49962926861727e-01
7.51000000000000e-08,7.50000000000000e-01,0.00000000000000e+00,7.49946286422711e-01
7.51100000000000e-08,6.75000000000076e-01,0.00000000000000e+00,7.49864395332675e-01
7.51300000000000e-08,5.25000000000105e-01,0.00000000000000e+00,7.49774855465234e-01
7.51700000000000e-08,2.25000000000162e-01,0.00000000000000e+00,7.50487262512291e-01
7.52000000000000e-08,1.05027098129540e-13,0.00000000000000e+00,7.52156806211530e-01
7.52080000000000e-08,0.00000000000000e+00,0.00000000000000e+00,7.52605497994898e-01
7.52240000000000e-08,0.00000000000000e+00,0.00000000000000e+00,7.53145847071957e-01
7.52560000000000e-08,0.00000000000000e+00,0.00000000000000e+00,7.52287917983550e-01
7.53200000000000e-08,0.00000000000000e+00,0.00000000000000e+00,7.41150008571778e-01
7.54480000000000e-08,0.00000000000000e+00,0.00000000000000e+00,7.17634716945670e-01
7.57040000000000e-08,0.00000000000000e+00,0.00000000000000e+00,7.36378151996441e-01
7.59977911011306e-08,0.00000000000000e+00,0.00000000000000e+00,7.53608872766610e-01
7.65853733033919e-08,0.00000000000000e+00,0.00000000000000e+00,7.45696928813818e-01
7.71454484979117e-08,0.00000000000000e+00,0.00000000000000e+00,7.51838616134081e-01
7.81000000000000e-08,0.00000000000000e+00,0.00000000000000e+00,7.47560494331303e-01
7.82120150389040e-08,0.00000000000000e+00,0.00000000000000e+00,7.48952531403974e-01
7.84360451167119e-08,0.00000000000000e+00,0.00000000000000e+00,7.49806452530102e-01
7.88841052723278e-08,0.00000000000000e+00,0.00000000000000e+00,7.49450828560054e-01
7.97802255835594e-08,0.00000000000000e+00,0.00000000000000e+00,7.49756887878291e-01
8.15724662060228e-08,0.00000000000000e+00,0.00000000000000e+00,7.49564054453376e-01
8.50000000000000e-08,0.00000000000000e+00,0.00000000000000e+00,7.49792625699914e-01
8.50100000000000e-08,7.49999999999858e-02,0.00000000000000e+00,7.49848160785914e-01
8.50300000000000e-08,2.24999999999957e-01,0.00000000000000e+00,7.49904714661071e-01
8.50700000000000e-08,5.24999999999900e-01,0.00000000000000e+00,7.49802718164388e-01
8.51000000000000e-08,7.49999999999957e-01,0.00000000000000e+00,7.49531625134142e-01
8.51080000000000e-08,7.50000000000000e-01,0.00000000000000e+00,7.49428524471666e-01
8.51240000000000e-08,7.50000000000000e-01,0.00000000000000e+00,7.49288925962622e-01
8.51560000000000e-08,7.50000000000000e-01,0.00000000000000e+00,7.49236807478302e-01
8.52200000000000e-08,7.50000000000000e-01,0.00000000000000e+00,7.50720683290132e-01
8.53480000000000e-08,7.50000000000000e-01,0.00000000000000e+00,7.61009450648939e-01
8.56040000000000e-08,7.50000000000000e-01,0.00000000000000e+00,2.55061856814669e-01
8.59972754844849e-08,7.50000000000000e-01,0.00000000000000e+00,-8.82105574636074e-02
8.63984317546095e-08,7.50000000000000e-01,0.00000000000000e+00,6.92915597951827e-02
8.72007442948585e-08,7.50000000000000e-01,0.00000000000000e+00,-4.92690405092015e-02
8.79679658010419e-08,7.50000000000000e-01,0.00000000000000e+00,4.42775663339455e-02
8.95024088134088e-08,7.50000000000000e-01,0.00000000000000e+00,-3.64738775415053e-02
9.00000000000000e-08,7.50000000000000e-01,0.00000000000000e+00,2.84742429056246e-02
9.00100000000000e-08,7.50000000000000e-01,7.49999999999858e-02,2.28971098403209e-02
9.00300000000000e-08,7.50000000000000e-01,2.24999999999957e-01,1.36555210948540e-02
9.00700000000000e-08,7.50000000000000e-01,5.24999999999900e-01,4.24594695506173e-03
9.01000000000000e-08,7.50000000000000e-01,7.49999999999957e-01,1.86978027858014e-03
9.01080000000000e-08,7.50000000000000e-01,7.50000000000000e-01,1.53665027836280e-03
9.01240000000000e-08,7.50000000000000e-01,7.50000000000000e-01,9.84667719665308e-04
9.01560000000000e-08,7.50000000000000e-01,7.50000000000000e-01,3.50030875707438e-04
9.02200000000000e-08,7.50000000000000e-01,7.50000000000000e-01,4.14699383793418e-05
9.03480000000000e-08,7.50000000000000e-01,7.50000000000000e-01,-1.00472562702611e-05
9.06040000000000e-08,7.50000000000000e-01,7.50000000000000e-01,7.10914358720109e-06
9.11159999999999e-08,7.50000000000000e-01,7.50000000000000e-01,-4.56812996957150e-06
9.21399999999999e-08,7.50000000000000e-01,7.50000000000000e-01,6.26716655251387e-06
9.41879999999998e-08,7.50000000000000e-01,7.50000000000000e-01,-3.01227001636446e-06
9.51000000000000e-08,7.50000000000000e-01,7.50000000000000e-01,5.09032621370548e-06
9.51100000000000e-08,6.75000000000076e-01,7.50000000000000e-01,-6.89753326464301e-05
9.51300000000000e-08,5.25000000000105e-01,7.50000000000000e-01,-1.81836937160826e-04
9.51700000000000e-08,2.25000000000162e-01,7.50000000000000e-01,-1.65593648190146e-04
9.52000000000000e-08,1.05027098129540e-13,7.50000000000000e-01,6.73308031266320e-05
9.52080000000000e-08,0.00000000000000e+00,7.50000000000000e-01,2.01068109852889e-04
9.52240000000000e-08,0.00000000000000e+00,7.50000000000000e-01,3.57019745312478e-04
9.52560000000000e-08,0.00000000000000e+00,7.50000000000000e-01,2.88150990983227e-04
9.53200000000000e-08,0.00000000000000e+00,7.50000000000000e-01,-5.28328827169938e-04
9.54480000000000e-08,0.00000000000000e+00,7.50000000000000e-01,-7.85771808640194e-04
9.57040000000000e-08,0.00000000000000e+00,7.50000000000000e-01,5.08122275009026e-05
9.61290591063239e-08,0.00000000000000e+00,7.50000000000000e-01,-2.53018613529804e-05
9.66567499606676e-08,0.00000000000000e+00,7.50000000000000e-01,2.13864964256846e-04
9.76958149605860e-08,0.00000000000000e+00,7.50000000000000e-01,-2.46906933223446e-04
9.87036224366750e-08,0.00000000000000e+00,7.50000000000000e-01,2.54423276635852e-04
1.00719237388853e-07,0.00000000000000e+00,7.50000000000000e-01,-2.43342225057439e-04
1.03813841574190e-07,0.00000000000000e+00,7.50000000000000e-01,2.44552473776921e-04
1.05000000000000e-07,0.00000000000000e+00,7.50000000000000e-01,-2.23004250688355e-04
1.05010000000000e-07,7.49999999999858e-02,7.50000000000000e-01,-6.00729596417146e-05
1.05030000000000e-07,2.24999999999957e-01,7.50000000000000e-01,1.79815353837556e-04
1.05070000000000e-07,5.24999999999900e-01,7.50000000000000e-01,1.21522208054808e-04
1.05100000000000e-07,7.49999999999957e-01,7.50000000000000e-01,-1.65596080720588e-03
1.05108000000000e-07,7.50000000000000e-01,7.50000000000000e-01,-2.55335078113824e-03
1.05124000000000e-07,7.50000000000000e-01,7.50000000000000e-01,-4.19292563018861e-03
1.05156000000000e-07,7.50000000000000e-01,7.50000000000000e-01,-6.10588189656353e-03
1.05220000000000e-07,7.50000000000000e-01,7.50000000000000e-01,9.62074674276546e-03
1.05348000000000e-07,7.50000000000000e-01,7.50000000000000e-01,2.59076163482661e-01
1.05604000000000e-07,7.50000000000000e-01,7.50000000000000e-01,7.28718582918654e-01
1.06037096542239e-07,7.50000000000000e-01,7.50000000000000e-01,7.56570457521464e-01
