Time,v(clk),v(data),v(out),v(reset)
1.00000000000000e-08,7.50000000000000e-01,0.00000000000000e+00,6.27975966401018e-06,0.00000000000000e+00
1.00100000000000e-08,7.50000000000000e-01,7.49999999999982e-02,7.72281283095699e-06,0.00000000000000e+00
1.00300000000000e-08,7.50000000000000e-01,2.24999999999995e-01,8.27626561085426e-06,0.00000000000000e+00
1.00700000000000e-08,7.50000000000000e-01,5.24999999999987e-01,7.13870100857439e-06,0.00000000000000e+00
1.01000000000000e-08,7.50000000000000e-01,7.49999999999994e-01,7.22454175804133e-06,0.00000000000000e+00
1.01080000000000e-08,7.50000000000000e-01,7.50000000000000e-01,7.53465354473570e-06,0.00000000000000e+00
1.01240000000000e-08,7.50000000000000e-01,7.50000000000000e-01,8.51866941410651e-06,0.00000000000000e+00
1.01560000000000e-08,7.50000000000000e-01,7.50000000000000e-01,9.89121724389447e-06,0.00000000000000e+00
1.02200000000000e-08,7.50000000000000e-01,7.50000000000000e-01,9.14698057696145e-06,0.00000000000000e+00
1.03480000000000e-08,7.50000000000000e-01,7.50000000000000e-01,8.69672651372666e-06,0.00000000000000e+00
1.06040000000000e-08,7.50000000000000e-01,7.50000000000000e-01,8.17929203667314e-06,0.00000000000000e+00
1.11160000000000e-08,7.50000000000000e-01,7.50000000000000e-01,8.19756301723151e-06,0.00000000000000e+00
1.21400000000000e-08,7.50000000000000e-01,7.50000000000000e-01,7.53236124225072e-06,0.00000000000000e+00
1.41880000000000e-08,7.50000000000000e-01,7.50000000000000e-01,7.22440798792655e-06,0.00000000000000e+00
1.51000000000000e-08,7.50000000000000e-01,7.50000000000000e-01,6.77168920729110e-06,0.00000000000000e+00
1.51100000000000e-08,6.74999999999989e-01,7.50000000000000e-01,1.72052315785973e-04,7.50000000000106e-02
1.51300000000000e-08,5.24999999999993e-01,7.50000000000000e-01,2.92056264369192e-04,2.25000000000007e-01
1.51700000000000e-08,2.25000000000000e-01,7.50000000000000e-01,2.58583017363721e-04,5.25000000000000e-01
1.52000000000000e-08,0.00000000000000e+00,7.50000000000000e-01,3.39059515664472e-04,7.50000000000000e-01
1.52080000000000e-08,0.00000000000000e+00,7.50000000000000e-01,3.30617969161090e-04,7.50000000000000e-01
1.52240000000000e-08,0.00000000000000e+00,7.50000000000000e-01,3.05705695765227e-04,7.50000000000000e-01
1.52560000000000e-08,0.00000000000000e+00,7.50000000000000e-01,1.60276307414373e-04,7.50000000000000e-01
1.53200000000000e-08,0.00000000000000e+00,7.50000000000000e-01,-2.99523829426517e-04,7.50000000000000e-01
1.54480000000000e-08,0.00000000000000e+00,7.50000000000000e-01,-1.87895784570666e-04,7.50000000000000e-01
1.56733505074408e-08,0.00000000000000e+00,7.50000000000000e-01,-7.32278622333320e-05,7.50000000000000e-01
1.60063312458518e-08,0.00000000000000e+00,7.50000000000000e-01,3.15397370501472e-06,7.50000000000000e-01
1.64647191403232e-08,0.00000000000000e+00,7.50000000000000e-01,1.99769278585015e-04,7.50000000000000e-01
1.73624891066533e-08,0.00000000000000e+00,7.50000000000000e-01,-2.23784051435191e-04,7.50000000000000e-01
1.83805795678625e-08,0.00000000000000e+00,7.50000000000000e-01,2.47406970388130e-04,7.50000000000000e-01
2.04167604902808e-08,0.00000000000000e+00,7.50000000000000e-01,-2.37795300561751e-04,7.50000000000000e-01
2.36619088679156e-08,0.00000000000000e+00,7.50000000000000e-01,2.44865490015580e-04,7.50000000000000e-01
2.50000000000000e-08,0.00000000000000e+00,7.50000000000000e-01,-2.29736164326189e-04,7.50000000000000e-01
2.50100000000000e-08,7.49999999999858e-02,7.50000000000000e-01,-6.44562434899965e-05,7.50000000000000e-01
2.50300000000000e-08,2.25000000000007e-01,7.50000000000000e-01,1.94932795281974e-04,7.50000000000000e-01
2.50700000000000e-08,5.25000000000000e-01,7.50000000000000e-01,4.78779235224928e-04,7.50000000000000e-01
2.51000000000000e-08,7.50000000000000e-01,7.50000000000000e-01,6.48570761119446e-05,7.50000000000000e-01
2.51080000000000e-08,7.50000000000000e-01,7.50000000000000e-01,-3.38224722269367e-04,7.50000000000000e-01
2.51240000000000e-08,7.50000000000000e-01,7.50000000000000e-01,-1.25997610800044e-03,7.50000000000000e-01
2.51560000000000e-08,7.50000000000000e-01,7.50000000000000e-01,-3.23760496682678e-03,7.50000000000000e-01
2.52200000000000e-08,7.50000000000000e-01,7.50000000000000e-01,-5.47362783402261e-03,7.50000000000000e-01
2.53480000000000e-08,7.50000000000000e-01,7.50000000000000e-01,7.07560182380322e-02,7.50000000000000e-01
2.56040000000000e-08,7.50000000000000e-01,7.50000000000000e-01,6.60423743178984e-01,7.50000000000000e-01
2.61160000000000e-08,7.50000000000000e-01,7.50000000000000e-01,7.72145047388004e-01,7.50000000000000e-01
2.66015634770952e-08,7.50000000000000e-01,7.50000000000000e-01,7.28784309535006e-01,7.50000000000000e-01
2.75726904312855e-08,7.50000000000000e-01,7.50000000000000e-01,7.69494757387772e-01,7.50000000000000e-01
2.90611965625942e-08,7.50000000000000e-01,7.50000000000000e-01,7.30151225375535e-01,7.50000000000000e-01
3.20382088252116e-08,7.50000000000000e-01,7.50000000000000e-01,7.68748136783628e-01,7.50000000000000e-01
3.51000000000000e-08,7.49999999999963e-01,7.50000000000000e-01,7.30679396768956e-01,7.50000000000000e-01
3.51100000000000e-08,6.74999999999977e-01,7.50000000000000e-01,7.40234540366518e-01,7.50000000000000e-01
3.51300000000000e-08,5.24999999999956e-01,7.50000000000000e-01,7.49827286188462e-01,7.50000000000000e-01
3.51700000000000e-08,2.24999999999963e-01,7.50000000000000e-01,7.51080963700208e-01,7.50000000000000e-01
3.52000000000000e-08,0.00000000000000e+00,7.50000000000000e-01,7.53026707947488e-01,7.50000000000000e-01
3.52080000000000e-08,0.00000000000000e+00,7.50000000000000e-01,7.52974000867250e-01,7.50000000000000e-01
3.52240000000000e-08,0.00000000000000e+00,7.50000000000000e-01,7.50993102629828e-01,7.50000000000000e-01
3.52560000000000e-08,0.00000000000000e+00,7.50000000000000e-01,7.39316020772095e-01,7.50000000000000e-01
3.53200000000000e-08,0.00000000000000e+00,7.50000000000000e-01,7.24479140885802e-01,7.50000000000000e-01
3.54480000000000e-08,0.00000000000000e+00,7.50000000000000e-01,7.43882694313370e-01,7.50000000000000e-01
3.57040000000000e-08,0.00000000000000e+00,7.50000000000000e-01,7.51798131276555e-01,7.50000000000000e-01
3.60226152478323e-08,0.00000000000000e+00,7.50000000000000e-01,7.47724323071987e-01,7.50000000000000e-01
3.66598457434969e-08,0.00000000000000e+00,7.50000000000000e-01,7.51390036815853e-01,7.50000000000000e-01
3.79343067348261e-08,0.00000000000000e+00,7.50000000000000e-01,7.48379541872997e-01,7.50000000000000e-01
4.04832287174845e-08,0.00000000000000e+00,7.50000000000000e-01,7.51382125175742e-01,7.50000000000000e-01
4.42832287174845e-08,0.00000000000000e+00,7.50000000000000e-01,7.48541694514638e-01,7.50000000000000e-01
4.50000000000000e-08,0.00000000000000e+00,7.50000000000000e-01,7.51222420325995e-01,7.50000000000000e-01
4.50100000000000e-08,7.49999999999858e-02,7.50000000000000e-01,7.50684559922102e-01,6.75000000000014e-01
4.50300000000000e-08,2.25000000000007e-01,7.50000000000000e-01,7.50023510185090e-01,5.24999999999993e-01
4.50700000000000e-08,5.25000000000000e-01,7.50000000000000e-01,7.53351652337251e-01,2.25000000000000e-01
4.51000000000000e-08,7.50000000000000e-01,7.50000000000000e-01,7.61991454678904e-01,0.00000000000000e+00
4.51080000000000e-08,7.50000000000000e-01,7.50000000000000e-01,7.64954744121425e-01,0.00000000000000e+00
4.51240000000000e-08,7.50000000000000e-01,7.50000000000000e-01,7.71022334475300e-01,0.00000000000000e+00
4.51560000000000e-08,7.50000000000000e-01,7.50000000000000e-01,7.82590385591971e-01,0.00000000000000e+00
4.52200000000000e-08,7.50000000000000e-01,7.50000000000000e-01,6.83492553928095e-01,0.00000000000000e+00
4.53480000000000e-08,7.50000000000000e-01,7.50000000000000e-01,2.55827651336129e-01,0.00000000000000e+00
4.55652130527477e-08,7.50000000000000e-01,7.50000000000000e-01,-1.69938132976736e-02,0.00000000000000e+00
4.58981208904337e-08,7.50000000000000e-01,7.50000000000000e-01,9.18614241070537e-03,0.00000000000000e+00
4.64663599926784e-08,7.50000000000000e-01,7.50000000000000e-01,-6.59662692719281e-03,0.00000000000000e+00
4.72370699937407e-08,7.50000000000000e-01,7.50000000000000e-01,5.54040554119293e-03,0.00000000000000e+00
4.86732306463847e-08,7.50000000000000e-01,7.50000000000000e-01,-4.94570296228860e-03,0.00000000000000e+00
5.01000000000000e-08,7.50000000000000e-01,7.49999999999957e-01,4.62125592703596e-03,0.00000000000000e+00
5.03872321305288e-08,7.50000000000000e-01,7.50000000000000e-01,4.30956047904479e-04,0.00000000000000e+00
5.09616963915864e-08,7.50000000000000e-01,7.50000000000000e-01,-2.98000201164418e-04,0.00000000000000e+00
5.21106249137016e-08,7.50000000000000e-01,7.50000000000000e-01,2.65236755325480e-04,0.00000000000000e+00
5.44084819579320e-08,7.50000000000000e-01,7.50000000000000e-01,-2.33735742657665e-04,0.00000000000000e+00
5.51000000000000e-08,7.50000000000000e-01,7.50000000000000e-01,1.85150872603856e-04,0.00000000000000e+00
5.51100000000000e-08,6.75000000000027e-01,7.50000000000000e-01,3.00331775292748e-04,7.49999999999734e-02
5.51300000000000e-08,5.25000000000005e-01,7.50000000000000e-01,3.62083518411910e-04,2.24999999999995e-01
5.51700000000000e-08,2.25000000000013e-01,7.50000000000000e-01,2.95448820758659e-04,5.24999999999987e-01
5.52000000000000e-08,0.00000000000000e+00,7.50000000000000e-01,3.47497650340076e-04,7.50000000000000e-01
5.52080000000000e-08,0.00000000000000e+00,7.50000000000000e-01,3.27841649067170e-04,7.50000000000000e-01
5.52240000000000e-08,0.00000000000000e+00,7.50000000000000e-01,2.36021605735506e-04,7.50000000000000e-01
5.52560000000000e-08,0.00000000000000e+00,7.50000000000000e-01,-4.50183090653977e-04,7.50000000000000e-01
5.53200000000000e-08,0.00000000000000e+00,7.50000000000000e-01,-1.59572851351397e-03,7.50000000000000e-01
5.54480000000000e-08,0.00000000000000e+00,7.50000000000000e-01,-7.29747578200629e-04,7.50000000000000e-01
5.56624240809084e-08,0.00000000000000e+00,7.50000000000000e-01,3.63876836153514e-04,7.50000000000000e-01
5.59995773768763e-08,0.00000000000000e+00,7.50000000000000e-01,-4.00070196054890e-04,7.50000000000000e-01
5.64446601741410e-08,0.00000000000000e+00,7.50000000000000e-01,3.53589689689907e-04,7.50000000000000e-01
5.73348257686704e-08,0.00000000000000e+00,7.50000000000000e-01,-2.76575715572195e-04,7.50000000000000e-01
5.83133831175937e-08,0.00000000000000e+00,7.50000000000000e-01,2.35854006947712e-04,7.50000000000000e-01
6.02704978154404e-08,0.00000000000000e+00,7.50000000000000e-01,-2.03187426771556e-04,7.50000000000000e-01
6.34594506952282e-08,0.00000000000000e+00,7.50000000000000e-01,1.99473619339583e-04,7.50000000000000e-01
6.50000000000000e-08,0.00000000000000e+00,7.50000000000000e-01,-1.64822865193369e-04,7.50000000000000e-01
6.50100000000000e-08,7.49999999999858e-02,7.50000000000000e-01,-4.04409086020435e-05,7.50000000000000e-01
6.50300000000000e-08,2.24999999999957e-01,7.50000000000000e-01,1.65266259600852e-04,7.50000000000000e-01
6.50700000000000e-08,5.24999999999900e-01,7.50000000000000e-01,4.41192281532762e-04,7.50000000000000e-01
6.51000000000000e-08,7.49999999999957e-01,7.50000000000000e-01,4.77322050427970e-05,7.50000000000000e-01
6.51080000000000e-08,7.50000000000000e-01,7.50000000000000e-01,-3.51046594024212e-04,7.50000000000000e-01
6.51240000000000e-08,7.50000000000000e-01,7.50000000000000e-01,-1.26448054851978e-03,7.50000000000000e-01
6.51560000000000e-08,7.50000000000000e-01,7.50000000000000e-01,-3.23577908054019e-03,7.50000000000000e-01
6.52200000000000e-08,7.50000000000000e-01,7.50000000000000e-01,-5.49092208831896e-03,7.50000000000000e-01
6.53480000000000e-08,7.50000000000000e-01,7.50000000000000e-01,6.97783512803631e-02,7.50000000000000e-01
6.56040000000000e-08,7.50000000000000e-01,7.50000000000000e-01,6.59744046594275e-01,7.50000000000000e-01
6.61159999999999e-08,7.50000000000000e-01,7.50000000000000e-01,7.72250214206671e-01,7.50000000000000e-01
6.66009712847843e-08,7.50000000000000e-01,7.50000000000000e-01,7.28689001974691e-01,7.50000000000000e-01
6.75709138543531e-08,7.50000000000000e-01,7.50000000000000e-01,7.69580861041202e-01,7.50000000000000e-01
6.90604707777690e-08,7.50000000000000e-01,7.50000000000000e-01,7.30061910229368e-01,7.50000000000000e-01
7.20395846246007e-08,7.50000000000000e-01,7.50000000000000e-01,7.68831282204914e-01,7.50000000000000e-01
7.51000000000000e-08,7.50000000000000e-01,7.50000000000000e-01,7.30592228178183e-01,7.50000000000000e-01
7.51100000000000e-08,6.75000000000076e-01,7.50000000000000e-01,7.40191008424076e-01,7.50000000000000e-01
7.51300000000000e-08,5.25000000000105e-01,7.50000000000000e-01,7.49827410736888e-01,7.50000000000000e-01
7.51700000000000e-08,2.25000000000162e-01,7.50000000000000e-01,7.51081094792868e-01,7.50000000000000e-01
7.52000000000000e-08,1.05027098129540e-13,7.50000000000000e-01,7.53026619189054e-01,7.50000000000000e-01
7.52080000000000e-08,0.00000000000000e+00,7.50000000000000e-01,7.52973837156291e-01,7.50000000000000e-01
7.52240000000000e-08,0.00000000000000e+00,7.50000000000000e-01,7.50992716895664e-01,7.50000000000000e-01
7.52560000000000e-08,0.00000000000000e+00,7.50000000000000e-01,7.39315188833500e-01,7.50000000000000e-01
7.53200000000000e-08,0.00000000000000e+00,7.50000000000000e-01,7.24478478982129e-01,7.50000000000000e-01
7.54480000000000e-08,0.00000000000000e+00,7.50000000000000e-01,7.43883414073645e-01,7.50000000000000e-01
7.57040000000000e-08,0.00000000000000e+00,7.50000000000000e-01,7.51797723649867e-01,7.50000000000000e-01
7.60226167084485e-08,0.00000000000000e+00,7.50000000000000e-01,7.47724638692255e-01,7.50000000000000e-01
7.66598501253456e-08,0.00000000000000e+00,7.50000000000000e-01,7.51389745051418e-01,7.50000000000000e-01
7.79343169591399e-08,0.00000000000000e+00,7.50000000000000e-01,7.48379819002224e-01,7.50000000000000e-01
8.04832506267284e-08,0.00000000000000e+00,7.50000000000000e-01,7.51381853655136e-01,7.50000000000000e-01
8.42832506267284e-08,0.00000000000000e+00,7.50000000000000e-01,7.48541960961477e-01,7.50000000000000e-01
8.50000000000000e-08,0.00000000000000e+00,7.50000000000000e-01,7.51222167886360e-01,7.50000000000000e-01
8.50100000000000e-08,7.49999999999858e-02,7.50000000000000e-01,7.50684445558185e-01,6.75000000000014e-01
8.50300000000000e-08,2.24999999999957e-01,7.50000000000000e-01,7.50023469929598e-01,5.25000000000043e-01
8.50700000000000e-08,5.24999999999900e-01,7.50000000000000e-01,7.53351632705024e-01,2.25000000000100e-01
8.51000000000000e-08,7.49999999999957e-01,7.50000000000000e-01,7.61991495083324e-01,4.29656310529936e-14
8.51080000000000e-08,7.50000000000000e-01,7.50000000000000e-01,7.64954776009222e-01,0.00000000000000e+00
8.51240000000000e-08,7.50000000000000e-01,7.50000000000000e-01,7.71022346240750e-01,0.00000000000000e+00
8.51560000000000e-08,7.50000000000000e-01,7.50000000000000e-01,7.82590378321482e-01,0.00000000000000e+00
8.52200000000000e-08,7.50000000000000e-01,7.50000000000000e-01,6.83492597767673e-01,0.00000000000000e+00
8.53480000000000e-08,7.50000000000000e-01,7.50000000000000e-01,2.55827790878977e-01,0.00000000000000e+00
8.55651205569970e-08,7.50000000000000e-01,7.50000000000000e-01,-1.69516664422479e-02,0.00000000000000e+00
8.58980662454387e-08,7.50000000000000e-01,7.50000000000000e-01,9.16801600375263e-03,0.00000000000000e+00
8.64657944748992e-08,7.50000000000000e-01,7.50000000000000e-01,-6.58398187853921e-03,0.00000000000000e+00
8.72366290080508e-08,7.50000000000000e-01,7.50000000000000e-01,5.53141054034002e-03,0.00000000000000e+00
8.86719517789067e-08,7.50000000000000e-01,7.50000000000000e-01,-4.93806874256801e-03,0.00000000000000e+00
9.01000000000000e-08,7.50000000000000e-01,7.49999999999957e-01,4.61511884941236e-03,0.00000000000000e+00
9.03870645541712e-08,7.50000000000000e-01,7.50000000000000e-01,4.30071126265094e-04,0.00000000000000e+00
9.09611936625136e-08,7.50000000000000e-01,7.50000000000000e-01,-2.97373884723852e-04,0.00000000000000e+00
9.21094518791983e-08,7.50000000000000e-01,7.50000000000000e-01,2.64711703296366e-04,0.00000000000000e+00
9.44059683125678e-08,7.50000000000000e-01,7.50000000000000e-01,-2.33258913216206e-04,0.00000000000000e+00
9.51000000000000e-08,7.50000000000000e-01,7.50000000000000e-01,1.85014912528177e-04,0.00000000000000e+00
9.51100000000000e-08,6.75000000000076e-01,7.50000000000000e-01,3.00198926428311e-04,7.49999999999237e-02
9.51300000000000e-08,5.25000000000105e-01,7.50000000000000e-01,3.61972876467095e-04,2.24999999999895e-01
9.51700000000000e-08,2.25000000000162e-01,7.50000000000000e-01,2.95389829644360e-04,5.24999999999838e-01
9.52000000000000e-08,1.05027098129540e-13,7.50000000000000e-01,3.47459312669079e-04,7.49999999999895e-01
9.52080000000000e-08,0.00000000000000e+00,7.50000000000000e-01,3.27807000467722e-04,7.50000000000000e-01
9.52240000000000e-08,0.00000000000000e+00,7.50000000000000e-01,2.35992203891991e-04,7.50000000000000e-01
9.52560000000000e-08,0.00000000000000e+00,7.50000000000000e-01,-4.50211312441939e-04,7.50000000000000e-01
9.53200000000000e-08,0.00000000000000e+00,7.50000000000000e-01,-1.59576474864577e-03,7.50000000000000e-01
9.54480000000000e-08,0.00000000000000e+00,7.50000000000000e-01,-7.29766650649617e-04,7.50000000000000e-01
9.56624218067016e-08,0.00000000000000e+00,7.50000000000000e-01,3.63890352217098e-04,7.50000000000000e-01
9.59995762016519e-08,0.00000000000000e+00,7.50000000000000e-01,-4.00081187099954e-04,7.50000000000000e-01
9.64446567586326e-08,0.00000000000000e+00,7.50000000000000e-01,3.53592576163707e-04,7.50000000000000e-01
9.73348178725941e-08,0.00000000000000e+00,7.50000000000000e-01,-2.76575721400130e-04,7.50000000000000e-01
9.83133671237163e-08,0.00000000000000e+00,7.50000000000000e-01,2.35852428957992e-04,7.50000000000000e-01
1.00270465625961e-07,0.00000000000000e+00,7.50000000000000e-01,-2.03185241801788e-04,7.50000000000000e-01
1.03459403903574e-07,0.00000000000000e+00,7.50000000000000e-01,1.99471209890493e-04,7.50000000000000e-01
1.05000000000000e-07,0.00000000000000e+00,7.50000000000000e-01,-1.64820867260761e-04,7.50000000000000e-01
1.05010000000000e-07,7.49999999999858e-02,7.50000000000000e-01,-4.04394723227397e-05,7.50000000000000e-01
1.05030000000000e-07,2.24999999999957e-01,7.50000000000000e-01,1.65266322251209e-04,7.50000000000000e-01
1.05070000000000e-07,5.24999999999900e-01,7.50000000000000e-01,4.41191406260921e-04,7.50000000000000e-01
1.05100000000000e-07,7.49999999999957e-01,7.50000000000000e-01,4.77309867065942e-05,7.50000000000000e-01
1.05108000000000e-07,7.50000000000000e-01,7.50000000000000e-01,-3.51048065309792e-04,7.50000000000000e-01
1.05124000000000e-07,7.50000000000000e-01,7.50000000000000e-01,-1.26448231331679e-03,7.50000000000000e-01
1.05156000000000e-07,7.50000000000000e-01,7.50000000000000e-01,-3.23578071952001e-03,7.50000000000000e-01
1.05220000000000e-07,7.50000000000000e-01,7.50000000000000e-01,-5.49092248033561e-03,7.50000000000000e-01
1.05348000000000e-07,7.50000000000000e-01,7.50000000000000e-01,6.97783730019553e-02,7.50000000000000e-01
1.05604000000000e-07,7.50000000000000e-01,7.50000000000000e-01,6.59744062285342e-01,7.50000000000000e-01
1.06116000000000e-07,7.50000000000000e-01,7.50000000000000e-01,7.72250211812264e-01,7.50000000000000e-01
1.06600971298657e-07,7.50000000000000e-01,7.50000000000000e-01,7.28689004153875e-01,7.50000000000000e-01
1.07570913895971e-07,7.50000000000000e-01,7.50000000000000e-01,7.69580859092143e-01,7.50000000000000e-01
1.09060470794923e-07,7.50000000000000e-01,7.50000000000000e-01,7.30061912261475e-01,7.50000000000000e-01
1.12039584592827e-07,7.50000000000000e-01,7.50000000000000e-01,7.68831280299406e-01,7.50000000000000e-01
1.15100000000000e-07,7.50000000000000e-01,7.50000000000000e-01,7.30592230169152e-01,7.50000000000000e-01
1.15110000000000e-07,6.75000000000076e-01,7.50000000000000e-01,7.40191009415013e-01,7.50000000000000e-01
1.15130000000000e-07,5.25000000000105e-01,7.50000000000000e-01,7.49827410735302e-01,7.50000000000000e-01
1.15170000000000e-07,2.25000000000162e-01,7.50000000000000e-01,7.51081094795766e-01,7.50000000000000e-01
