Time,v(clk),v(data),v(out),v(reset)
1.00000000000000e-08,7.50000000000000e-01,0.00000000000000e+00,2.09794181130242e-05,0.00000000000000e+00
1.00100000000000e-08,7.50000000000000e-01,7.49999999999982e-02,2.36976864941424e-05,0.00000000000000e+00
1.00300000000000e-08,7.50000000000000e-01,2.24999999999995e-01,2.60220272274014e-05,0.00000000000000e+00
1.00700000000000e-08,7.50000000000000e-01,5.24999999999987e-01,2.55367321158884e-05,0.00000000000000e+00
1.01000000000000e-08,7.50000000000000e-01,7.49999999999994e-01,2.60078775322914e-05,0.00000000000000e+00
1.01080000000000e-08,7.50000000000000e-01,7.50000000000000e-01,2.59870866573531e-05,0.00000000000000e+00
1.01240000000000e-08,7.50000000000000e-01,7.50000000000000e-01,2.66958355081975e-05,0.00000000000000e+00
1.01560000000000e-08,7.50000000000000e-01,7.50000000000000e-01,2.83826964423903e-05,0.00000000000000e+00
1.02200000000000e-08,7.50000000000000e-01,7.50000000000000e-01,2.95104910706875e-05,0.00000000000000e+00
1.03480000000000e-08,7.50000000000000e-01,7.50000000000000e-01,2.86449547662534e-05,0.00000000000000e+00
1.06040000000000e-08,7.50000000000000e-01,7.50000000000000e-01,2.86924969882772e-05,0.00000000000000e+00
1.11160000000000e-08,7.50000000000000e-01,7.50000000000000e-01,2.79910315148131e-05,0.00000000000000e+00
1.21400000000000e-08,7.50000000000000e-01,7.50000000000000e-01,2.74787884577757e-05,0.00000000000000e+00
1.41880000000000e-08,7.50000000000000e-01,7.50000000000000e-01,2.62180340943113e-05,0.00000000000000e+00
1.51000000000000e-08,7.50000000000000e-01,7.50000000000000e-01,2.61489470095109e-05,0.00000000000000e+00
1.51100000000000e-08,6.74999999999989e-01,7.50000000000000e-01,1.96080801488668e-04,7.50000000000106e-02
1.51300000000000e-08,5.24999999999993e-01,7.50000000000000e-01,3.30710579936361e-04,2.25000000000007e-01
1.51700000000000e-08,2.25000000000000e-01,7.50000000000000e-01,3.39834250300590e-04,5.25000000000000e-01
1.52000000000000e-08,0.00000000000000e+00,7.50000000000000e-01,4.22765018772767e-04,7.50000000000000e-01
1.52080000000000e-08,0.00000000000000e+00,7.50000000000000e-01,4.01964653203704e-04,7.50000000000000e-01
1.52240000000000e-08,0.00000000000000e+00,7.50000000000000e-01,3.61472106504945e-04,7.50000000000000e-01
1.52560000000000e-08,0.00000000000000e+00,7.50000000000000e-01,2.18466076652671e-04,7.50000000000000e-01
1.53200000000000e-08,0.00000000000000e+00,7.50000000000000e-01,-2.55297825713624e-04,7.50000000000000e-01
1.54480000000000e-08,0.00000000000000e+00,7.50000000000000e-01,-3.30106166671645e-04,7.50000000000000e-01
1.56956953925087e-08,0.00000000000000e+00,7.50000000000000e-01,4.22517975192105e-05,7.50000000000000e-01
1.60246848696872e-08,0.00000000000000e+00,7.50000000000000e-01,-1.42881662433644e-04,7.50000000000000e-01
1.65717921845038e-08,0.00000000000000e+00,7.50000000000000e-01,2.86269453176922e-04,7.50000000000000e-01
1.76660068141371e-08,0.00000000000000e+00,7.50000000000000e-01,-2.09140361841926e-04,7.50000000000000e-01
1.86739223049030e-08,0.00000000000000e+00,7.50000000000000e-01,2.13498881744417e-04,7.50000000000000e-01
2.06897532864346e-08,0.00000000000000e+00,7.50000000000000e-01,-1.50089311436627e-04,7.50000000000000e-01
2.44897532864346e-08,0.00000000000000e+00,7.50000000000000e-01,1.86548869562006e-04,7.50000000000000e-01
2.50000000000000e-08,0.00000000000000e+00,7.50000000000000e-01,-8.52980458255249e-05,7.50000000000000e-01
2.50100000000000e-08,7.49999999999858e-02,7.50000000000000e-01,3.85820285649929e-05,7.50000000000000e-01
2.50300000000000e-08,2.25000000000007e-01,7.50000000000000e-01,2.40875158394591e-04,7.50000000000000e-01
2.50700000000000e-08,5.25000000000000e-01,7.50000000000000e-01,5.19954921480888e-04,7.50000000000000e-01
2.51000000000000e-08,7.50000000000000e-01,7.50000000000000e-01,3.63927530725283e-04,7.50000000000000e-01
2.51080000000000e-08,7.50000000000000e-01,7.50000000000000e-01,1.06112146796219e-04,7.50000000000000e-01
2.51240000000000e-08,7.50000000000000e-01,7.50000000000000e-01,-5.18904905630155e-04,7.50000000000000e-01
2.51560000000000e-08,7.50000000000000e-01,7.50000000000000e-01,-2.07404473612108e-03,7.50000000000000e-01
2.52200000000000e-08,7.50000000000000e-01,7.50000000000000e-01,-4.60991003379162e-03,7.50000000000000e-01
2.53480000000000e-08,7.50000000000000e-01,7.50000000000000e-01,1.51418361683072e-02,7.50000000000000e-01
2.56040000000000e-08,7.50000000000000e-01,7.50000000000000e-01,5.22973862161966e-01,7.50000000000000e-01
2.61160000000000e-08,7.50000000000000e-01,7.50000000000000e-01,7.75490197903095e-01,7.50000000000000e-01
2.66210696796001e-08,7.50000000000000e-01,7.50000000000000e-01,7.28906962187084e-01,7.50000000000000e-01
2.76312090388002e-08,7.50000000000000e-01,7.50000000000000e-01,7.69650317582503e-01,7.50000000000000e-01
2.90566174196487e-08,7.50000000000000e-01,7.50000000000000e-01,7.30310380417808e-01,7.50000000000000e-01
3.12276449610907e-08,7.50000000000000e-01,7.50000000000000e-01,7.68697676688114e-01,7.50000000000000e-01
3.50276449610907e-08,7.50000000000000e-01,7.50000000000000e-01,7.30934930910327e-01,7.50000000000000e-01
3.51000000000000e-08,7.49999999999963e-01,7.50000000000000e-01,7.59652058055659e-01,7.50000000000000e-01
3.51100000000000e-08,6.74999999999977e-01,7.50000000000000e-01,7.54874186736567e-01,7.50000000000000e-01
3.51300000000000e-08,5.24999999999956e-01,7.50000000000000e-01,7.50029929032898e-01,7.50000000000000e-01
3.51700000000000e-08,2.24999999999963e-01,7.50000000000000e-01,7.51074646731683e-01,7.50000000000000e-01
3.52000000000000e-08,0.00000000000000e+00,7.50000000000000e-01,7.53193328787201e-01,7.50000000000000e-01
3.52080000000000e-08,0.00000000000000e+00,7.50000000000000e-01,7.53387923487109e-01,7.50000000000000e-01
3.52240000000000e-08,0.00000000000000e+00,7.50000000000000e-01,7.52487294934931e-01,7.50000000000000e-01
3.52560000000000e-08,0.00000000000000e+00,7.50000000000000e-01,7.43846859802366e-01,7.50000000000000e-01
3.53200000000000e-08,0.00000000000000e+00,7.50000000000000e-01,7.26362658970187e-01,7.50000000000000e-01
3.54480000000000e-08,0.00000000000000e+00,7.50000000000000e-01,7.38805225030181e-01,7.50000000000000e-01
3.57040000000000e-08,0.00000000000000e+00,7.50000000000000e-01,7.52992406968799e-01,7.50000000000000e-01
3.60318267881189e-08,0.00000000000000e+00,7.50000000000000e-01,7.46533662711047e-01,7.50000000000000e-01
3.66874803643566e-08,0.00000000000000e+00,7.50000000000000e-01,7.52209282538306e-01,7.50000000000000e-01
3.79987875168320e-08,0.00000000000000e+00,7.50000000000000e-01,7.47506109491708e-01,7.50000000000000e-01
4.06214018217828e-08,0.00000000000000e+00,7.50000000000000e-01,7.52151148034101e-01,7.50000000000000e-01
4.44214018217828e-08,0.00000000000000e+00,7.50000000000000e-01,7.47739576536470e-01,7.50000000000000e-01
4.50000000000000e-08,0.00000000000000e+00,7.50000000000000e-01,7.51813269710528e-01,7.50000000000000e-01
4.50100000000000e-08,7.49999999999858e-02,7.50000000000000e-01,7.51102999049144e-01,6.75000000000014e-01
4.50300000000000e-08,2.25000000000007e-01,7.50000000000000e-01,7.50207765719545e-01,5.24999999999993e-01
4.50700000000000e-08,5.25000000000000e-01,7.50000000000000e-01,7.53362004843070e-01,2.25000000000000e-01
4.51000000000000e-08,7.50000000000000e-01,7.50000000000000e-01,7.61651178633912e-01,0.00000000000000e+00
4.51080000000000e-08,7.50000000000000e-01,7.50000000000000e-01,7.64406414771609e-01,0.00000000000000e+00
4.51240000000000e-08,7.50000000000000e-01,7.50000000000000e-01,7.69781993849102e-01,0.00000000000000e+00
4.51560000000000e-08,7.50000000000000e-01,7.50000000000000e-01,7.80945786389327e-01,0.00000000000000e+00
4.52200000000000e-08,7.50000000000000e-01,7.50000000000000e-01,7.27529409085846e-01,0.00000000000000e+00
4.53480000000000e-08,7.50000000000000e-01,7.50000000000000e-01,3.81386159069367e-01,0.00000000000000e+00
4.55793287221781e-08,7.50000000000000e-01,7.50000000000000e-01,2.49932510227648e-02,0.00000000000000e+00
4.59184854299834e-08,7.50000000000000e-01,7.50000000000000e-01,-3.88020699781490e-03,0.00000000000000e+00
4.64612402750375e-08,7.50000000000000e-01,7.50000000000000e-01,6.83141793548147e-05,0.00000000000000e+00
4.73237048903730e-08,7.50000000000000e-01,7.50000000000000e-01,1.34793891730738e-03,0.00000000000000e+00
4.89481637421078e-08,7.50000000000000e-01,7.50000000000000e-01,-1.69795437010543e-03,0.00000000000000e+00
5.01000000000000e-08,7.50000000000000e-01,7.49999999999957e-01,2.27553684983138e-03,0.00000000000000e+00
5.03699326547252e-08,7.50000000000000e-01,7.50000000000000e-01,-1.92425332788102e-04,0.00000000000000e+00
5.09097979641756e-08,7.50000000000000e-01,7.50000000000000e-01,5.89789647304322e-05,0.00000000000000e+00
5.19895285830765e-08,7.50000000000000e-01,7.50000000000000e-01,3.44018222258550e-05,0.00000000000000e+00
5.41489898208782e-08,7.50000000000000e-01,7.50000000000000e-01,-4.41579055021190e-06,0.00000000000000e+00
5.51000000000000e-08,7.50000000000000e-01,7.50000000000000e-01,7.44309820118055e-05,0.00000000000000e+00
5.51100000000000e-08,6.75000000000027e-01,7.50000000000000e-01,1.91111615476705e-04,7.49999999999734e-02
5.51300000000000e-08,5.25000000000005e-01,7.50000000000000e-01,2.87030103416422e-04,2.24999999999995e-01
5.51700000000000e-08,2.25000000000013e-01,7.50000000000000e-01,3.03384135738938e-04,5.24999999999987e-01
5.52000000000000e-08,0.00000000000000e+00,7.50000000000000e-01,3.85128766239501e-04,7.50000000000000e-01
5.52080000000000e-08,0.00000000000000e+00,7.50000000000000e-01,3.60465277567099e-04,7.50000000000000e-01
5.52240000000000e-08,0.00000000000000e+00,7.50000000000000e-01,2.92752263043650e-04,7.50000000000000e-01
5.52560000000000e-08,0.00000000000000e+00,7.50000000000000e-01,-1.97832000981307e-04,7.50000000000000e-01
5.53200000000000e-08,0.00000000000000e+00,7.50000000000000e-01,-1.44998634583785e-03,7.50000000000000e-01
5.54480000000000e-08,0.00000000000000e+00,7.50000000000000e-01,-1.23082782274750e-03,7.50000000000000e-01
5.56925688766056e-08,0.00000000000000e+00,7.50000000000000e-01,3.42921328670448e-04,7.50000000000000e-01
5.60223069841044e-08,0.00000000000000e+00,7.50000000000000e-01,-3.28994758454628e-04,7.50000000000000e-01
5.65802041268180e-08,0.00000000000000e+00,7.50000000000000e-01,3.05013126137729e-04,7.50000000000000e-01
5.76959984122451e-08,0.00000000000000e+00,7.50000000000000e-01,-1.81139239618043e-04,7.50000000000000e-01
5.87054748924932e-08,0.00000000000000e+00,7.50000000000000e-01,1.63284624401501e-04,7.50000000000000e-01
6.07244278529895e-08,0.00000000000000e+00,7.50000000000000e-01,-9.33060646673067e-05,7.50000000000000e-01
6.45244278529895e-08,0.00000000000000e+00,7.50000000000000e-01,1.27278410028886e-04,7.50000000000000e-01
6.50000000000000e-08,0.00000000000000e+00,7.50000000000000e-01,-1.69425983730966e-05,7.50000000000000e-01
6.50100000000000e-08,7.49999999999858e-02,7.50000000000000e-01,9.83930344860412e-05,7.50000000000000e-01
6.50300000000000e-08,2.24999999999957e-01,7.50000000000000e-01,2.79570753519254e-04,7.50000000000000e-01
6.50700000000000e-08,5.24999999999900e-01,7.50000000000000e-01,5.30947044009515e-04,7.50000000000000e-01
6.51000000000000e-08,7.49999999999957e-01,7.50000000000000e-01,3.70290372149050e-04,7.50000000000000e-01
6.51080000000000e-08,7.50000000000000e-01,7.50000000000000e-01,1.10901758748908e-04,7.50000000000000e-01
6.51240000000000e-08,7.50000000000000e-01,7.50000000000000e-01,-5.17027654005506e-04,7.50000000000000e-01
6.51560000000000e-08,7.50000000000000e-01,7.50000000000000e-01,-2.07554747887700e-03,7.50000000000000e-01
6.52200000000000e-08,7.50000000000000e-01,7.50000000000000e-01,-4.61370454835023e-03,7.50000000000000e-01
6.53480000000000e-08,7.50000000000000e-01,7.50000000000000e-01,1.50100383942784e-02,7.50000000000000e-01
6.56040000000000e-08,7.50000000000000e-01,7.50000000000000e-01,5.22448672723167e-01,7.50000000000000e-01
6.61159999999999e-08,7.50000000000000e-01,7.50000000000000e-01,7.75469587913287e-01,7.50000000000000e-01
6.66211940092997e-08,7.50000000000000e-01,7.50000000000000e-01,7.28932816567427e-01,7.50000000000000e-01
6.76315820278992e-08,7.50000000000000e-01,7.50000000000000e-01,7.69628521583905e-01,7.50000000000000e-01
6.90565351063395e-08,7.50000000000000e-01,7.50000000000000e-01,7.30334072786471e-01,7.50000000000000e-01
7.12267869169865e-08,7.50000000000000e-01,7.50000000000000e-01,7.68675803249358e-01,7.50000000000000e-01
7.50267869169865e-08,7.50000000000000e-01,7.50000000000000e-01,7.30957781352814e-01,7.50000000000000e-01
7.51000000000000e-08,7.50000000000000e-01,7.50000000000000e-01,7.59721567000382e-01,7.50000000000000e-01
7.51100000000000e-08,6.75000000000076e-01,7.50000000000000e-01,7.54909681246822e-01,7.50000000000000e-01
7.51300000000000e-08,5.25000000000105e-01,7.50000000000000e-01,7.50030919135833e-01,7.50000000000000e-01
7.51700000000000e-08,2.25000000000162e-01,7.50000000000000e-01,7.51074553798953e-01,7.50000000000000e-01
7.52000000000000e-08,1.05027098129540e-13,7.50000000000000e-01,7.53193468711277e-01,7.50000000000000e-01
7.52080000000000e-08,0.00000000000000e+00,7.50000000000000e-01,7.53388157485224e-01,7.50000000000000e-01
7.52240000000000e-08,0.00000000000000e+00,7.50000000000000e-01,7.52488004787137e-01,7.50000000000000e-01
7.52560000000000e-08,0.00000000000000e+00,7.50000000000000e-01,7.43848587886198e-01,7.50000000000000e-01
7.53200000000000e-08,0.00000000000000e+00,7.50000000000000e-01,7.26363864779760e-01,7.50000000000000e-01
7.54480000000000e-08,0.00000000000000e+00,7.50000000000000e-01,7.38804853496170e-01,7.50000000000000e-01
7.57040000000000e-08,0.00000000000000e+00,7.50000000000000e-01,7.52992707715697e-01,7.50000000000000e-01
7.60318270119874e-08,0.00000000000000e+00,7.50000000000000e-01,7.46533391396306e-01,7.50000000000000e-01
7.66874810359624e-08,0.00000000000000e+00,7.50000000000000e-01,7.52209519143486e-01,7.50000000000000e-01
7.79987890839124e-08,0.00000000000000e+00,7.50000000000000e-01,7.47505881014649e-01,7.50000000000000e-01
8.06214051798123e-08,0.00000000000000e+00,7.50000000000000e-01,7.52151369397864e-01,7.50000000000000e-01
8.44214051798123e-08,0.00000000000000e+00,7.50000000000000e-01,7.47739357528613e-01,7.50000000000000e-01
8.50000000000000e-08,0.00000000000000e+00,7.50000000000000e-01,7.51813460150713e-01,7.50000000000000e-01
8.50100000000000e-08,7.49999999999858e-02,7.50000000000000e-01,7.51103096195241e-01,6.75000000000014e-01
8.50300000000000e-08,2.24999999999957e-01,7.50000000000000e-01,7.50207818534341e-01,5.25000000000043e-01
8.50700000000000e-08,5.24999999999900e-01,7.50000000000000e-01,7.53361955287188e-01,2.25000000000100e-01
8.51000000000000e-08,7.49999999999957e-01,7.50000000000000e-01,7.61651210617059e-01,4.29656310529936e-14
8.51080000000000e-08,7.50000000000000e-01,7.50000000000000e-01,7.64406434145138e-01,0.00000000000000e+00
8.51240000000000e-08,7.50000000000000e-01,7.50000000000000e-01,7.69781982282804e-01,0.00000000000000e+00
8.51560000000000e-08,7.50000000000000e-01,7.50000000000000e-01,7.80945738229874e-01,0.00000000000000e+00
8.52200000000000e-08,7.50000000000000e-01,7.50000000000000e-01,7.27529845213816e-01,0.00000000000000e+00
8.53480000000000e-08,7.50000000000000e-01,7.50000000000000e-01,3.81387472363399e-01,0.00000000000000e+00
8.55792863725071e-08,7.50000000000000e-01,7.50000000000000e-01,2.50209906759738e-02,0.00000000000000e+00
8.59184605626197e-08,7.50000000000000e-01,7.50000000000000e-01,-3.88863098013835e-03,0.00000000000000e+00
8.64609946048217e-08,7.50000000000000e-01,7.50000000000000e-01,7.15620636225177e-05,0.00000000000000e+00
8.73235339525236e-08,7.50000000000000e-01,7.50000000000000e-01,1.34552626926234e-03,0.00000000000000e+00
8.89480044903620e-08,7.50000000000000e-01,7.50000000000000e-01,-1.69596636877278e-03,0.00000000000000e+00
9.01000000000000e-08,7.50000000000000e-01,7.49999999999957e-01,2.27388313978623e-03,0.00000000000000e+00
9.03698228671912e-08,7.50000000000000e-01,7.50000000000000e-01,-1.92799577220203e-04,0.00000000000000e+00
9.09094686015737e-08,7.50000000000000e-01,7.50000000000000e-01,5.91115087060085e-05,0.00000000000000e+00
9.19887600703387e-08,7.50000000000000e-01,7.50000000000000e-01,3.43324992915367e-05,0.00000000000000e+00
9.41473430078686e-08,7.50000000000000e-01,7.50000000000000e-01,-4.36705984054996e-06,0.00000000000000e+00
9.51000000000000e-08,7.50000000000000e-01,7.50000000000000e-01,7.43669400430427e-05,0.00000000000000e+00
9.51100000000000e-08,6.75000000000076e-01,7.50000000000000e-01,1.91018729675613e-04,7.49999999999237e-02
9.51300000000000e-08,5.25000000000105e-01,7.50000000000000e-01,2.86944786081711e-04,2.24999999999895e-01
9.51700000000000e-08,2.25000000000162e-01,7.50000000000000e-01,3.03330657550047e-04,5.24999999999838e-01
9.52000000000000e-08,1.05027098129540e-13,7.50000000000000e-01,3.85090741657129e-04,7.49999999999895e-01
9.52080000000000e-08,0.00000000000000e+00,7.50000000000000e-01,3.60430278062276e-04,7.50000000000000e-01
9.52240000000000e-08,0.00000000000000e+00,7.50000000000000e-01,2.92722645900245e-04,7.50000000000000e-01
9.52560000000000e-08,0.00000000000000e+00,7.50000000000000e-01,-1.97852757156794e-04,7.50000000000000e-01
9.53200000000000e-08,0.00000000000000e+00,7.50000000000000e-01,-1.44999138280342e-03,7.50000000000000e-01
9.54480000000000e-08,0.00000000000000e+00,7.50000000000000e-01,-1.23082447279450e-03,7.50000000000000e-01
9.56925689063698e-08,0.00000000000000e+00,7.50000000000000e-01,3.42923992563682e-04,7.50000000000000e-01
9.60223069449297e-08,0.00000000000000e+00,7.50000000000000e-01,-3.28976690629656e-04,7.50000000000000e-01
9.65802054259895e-08,0.00000000000000e+00,7.50000000000000e-01,3.04992052108381e-04,7.50000000000000e-01
9.76960023881090e-08,0.00000000000000e+00,7.50000000000000e-01,-1.81127654918701e-04,7.50000000000000e-01
9.87054791734736e-08,0.00000000000000e+00,7.50000000000000e-01,1.63279719478245e-04,7.50000000000000e-01
1.00724432744203e-07,0.00000000000000e+00,7.50000000000000e-01,-9.33034478133223e-05,7.50000000000000e-01
1.04524432744203e-07,0.00000000000000e+00,7.50000000000000e-01,1.27276815816515e-04,7.50000000000000e-01
1.05000000000000e-07,0.00000000000000e+00,7.50000000000000e-01,-1.69455378359086e-05,7.50000000000000e-01
1.05010000000000e-07,7.49999999999858e-02,7.50000000000000e-01,9.83917931132311e-05,7.50000000000000e-01
1.05030000000000e-07,2.24999999999957e-01,7.50000000000000e-01,2.79571635454987e-04,7.50000000000000e-01
1.05070000000000e-07,5.24999999999900e-01,7.50000000000000e-01,5.30947444430302e-04,7.50000000000000e-01
1.05100000000000e-07,7.49999999999957e-01,7.50000000000000e-01,3.70281685670180e-04,7.50000000000000e-01
1.05108000000000e-07,7.50000000000000e-01,7.50000000000000e-01,1.10888428256198e-04,7.50000000000000e-01
1.05124000000000e-07,7.50000000000000e-01,7.50000000000000e-01,-5.17048480449186e-04,7.50000000000000e-01
1.05156000000000e-07,7.50000000000000e-01,7.50000000000000e-01,-2.07557461400035e-03,7.50000000000000e-01
1.05220000000000e-07,7.50000000000000e-01,7.50000000000000e-01,-4.61371848816329e-03,7.50000000000000e-01
1.05348000000000e-07,7.50000000000000e-01,7.50000000000000e-01,1.50103598314045e-02,7.50000000000000e-01
1.05604000000000e-07,7.50000000000000e-01,7.50000000000000e-01,5.22449986287437e-01,7.50000000000000e-01
1.06116000000000e-07,7.50000000000000e-01,7.50000000000000e-01,7.75469639819999e-01,7.50000000000000e-01
1.06621193705784e-07,7.50000000000000e-01,7.50000000000000e-01,7.28932751601142e-01,7.50000000000000e-01
1.07631581117352e-07,7.50000000000000e-01,7.50000000000000e-01,7.69628576452044e-01,7.50000000000000e-01
1.09056535336084e-07,7.50000000000000e-01,7.50000000000000e-01,7.30334013212030e-01,7.50000000000000e-01
1.11226789108987e-07,7.50000000000000e-01,7.50000000000000e-01,7.68675858256513e-01,7.50000000000000e-01
1.15026789108987e-07,7.50000000000000e-01,7.50000000000000e-01,7.30957723879938e-01,7.50000000000000e-01
1.15100000000000e-07,7.50000000000000e-01,7.50000000000000e-01,7.59721391117760e-01,7.50000000000000e-01
