Time,v(clk),v(data),v(out)
1.00000000000000e-08,7.50000000000000e-01,0.00000000000000e+00,1.60564204834601e-05
1.00100000000000e-08,7.50000000000000e-01,7.49999999999982e-02,1.57715585895613e-05
1.00300000000000e-08,7.50000000000000e-01,2.24999999999995e-01,1.31150941442421e-05
1.00700000000000e-08,7.50000000000000e-01,5.24999999999987e-01,5.79774111365144e-06
1.01000000000000e-08,7.50000000000000e-01,7.49999999999994e-01,1.67252827610459e-06
1.01080000000000e-08,7.50000000000000e-01,7.50000000000000e-01,1.08582027960602e-06
1.01240000000000e-08,7.50000000000000e-01,7.50000000000000e-01,1.59894122919724e-06
1.01560000000000e-08,7.50000000000000e-01,7.50000000000000e-01,4.84175828670275e-06
1.02200000000000e-08,7.50000000000000e-01,7.50000000000000e-01,7.80403915647682e-06
1.03480000000000e-08,7.50000000000000e-01,7.50000000000000e-01,3.01400863280538e-06
1.06040000000000e-08,7.50000000000000e-01,7.50000000000000e-01,9.39706762442122e-07
1.10645974215110e-08,7.50000000000000e-01,7.50000000000000e-01,2.74964934339483e-06
1.19857922645331e-08,7.50000000000000e-01,7.50000000000000e-01,1.31773088919446e-06
1.38281819505773e-08,7.50000000000000e-01,7.50000000000000e-01,2.23102789882398e-06
1.51000000000000e-08,7.50000000000000e-01,7.50000000000000e-01,1.20990642839096e-06
1.51100000000000e-08,6.74999999999989e-01,7.50000000000000e-01,-7.20509006241071e-05
1.51300000000000e-08,5.24999999999993e-01,7.50000000000000e-01,-1.89450853735090e-04
1.51700000000000e-08,2.25000000000000e-01,7.50000000000000e-01,-1.84895487935891e-04
1.52000000000000e-08,0.00000000000000e+00,7.50000000000000e-01,1.08878996771880e-04
1.52080000000000e-08,0.00000000000000e+00,7.50000000000000e-01,2.65155789060029e-04
1.52240000000000e-08,0.00000000000000e+00,7.50000000000000e-01,4.61880715105764e-04
1.52560000000000e-08,0.00000000000000e+00,7.50000000000000e-01,4.77631533565143e-04
1.53200000000000e-08,0.00000000000000e+00,7.50000000000000e-01,1.46322584907925e-04
1.54480000000000e-08,0.00000000000000e+00,7.50000000000000e-01,-2.88579112508090e-04
1.57040000000000e-08,0.00000000000000e+00,7.50000000000000e-01,-1.29529827723480e-04
1.61828993258123e-08,0.00000000000000e+00,7.50000000000000e-01,4.14520207341288e-05
1.67225919014465e-08,0.00000000000000e+00,7.50000000000000e-01,1.53501201974672e-04
1.78019770527148e-08,0.00000000000000e+00,7.50000000000000e-01,-1.69707277032217e-04
1.89457967095417e-08,0.00000000000000e+00,7.50000000000000e-01,1.72862892118177e-04
2.12334360231956e-08,0.00000000000000e+00,7.50000000000000e-01,-1.69470696705803e-04
2.49204665174045e-08,0.00000000000000e+00,7.50000000000000e-01,1.67432619693464e-04
2.50000000000000e-08,0.00000000000000e+00,7.50000000000000e-01,1.64381593595331e-06
2.50100000000000e-08,7.49999999999858e-02,7.50000000000000e-01,1.24635514079180e-04
2.50300000000000e-08,2.25000000000007e-01,7.50000000000000e-01,3.18027398400797e-04
2.50700000000000e-08,5.25000000000000e-01,7.50000000000000e-01,4.98305590196070e-04
2.51000000000000e-08,7.50000000000000e-01,7.50000000000000e-01,-2.00966947013749e-04
2.51080000000000e-08,7.50000000000000e-01,7.50000000000000e-01,-7.33773845692454e-04
2.51240000000000e-08,7.50000000000000e-01,7.50000000000000e-01,-1.89437738355805e-03
2.51560000000000e-08,7.50000000000000e-01,7.50000000000000e-01,-4.11519540887204e-03
2.52200000000000e-08,7.50000000000000e-01,7.50000000000000e-01,-6.41896952657715e-03
2.53480000000000e-08,7.50000000000000e-01,7.50000000000000e-01,7.12900609884725e-02
2.56040000000000e-08,7.50000000000000e-01,7.50000000000000e-01,6.05939324112105e-01
2.61160000000000e-08,7.50000000000000e-01,7.50000000000000e-01,7.81702779788886e-01
2.66463984384180e-08,7.50000000000000e-01,7.50000000000000e-01,7.20662851292267e-01
2.77071953152540e-08,7.50000000000000e-01,7.50000000000000e-01,7.75829980176280e-01
2.91946950941526e-08,7.50000000000000e-01,7.50000000000000e-01,7.24025863201791e-01
3.21696946519499e-08,7.50000000000000e-01,7.50000000000000e-01,7.74005676784734e-01
3.51000000000000e-08,7.49999999999963e-01,7.50000000000000e-01,7.25330875269420e-01
3.51100000000000e-08,6.74999999999977e-01,7.50000000000000e-01,7.33753897950595e-01
3.51300000000000e-08,5.24999999999956e-01,7.50000000000000e-01,7.44800223353320e-01
3.51700000000000e-08,2.24999999999963e-01,7.50000000000000e-01,7.50796717389993e-01
3.52000000000000e-08,0.00000000000000e+00,7.50000000000000e-01,7.52561591821389e-01
3.52080000000000e-08,0.00000000000000e+00,7.50000000000000e-01,7.53014454179150e-01
3.52240000000000e-08,0.00000000000000e+00,7.50000000000000e-01,7.53408445162563e-01
3.52560000000000e-08,0.00000000000000e+00,7.50000000000000e-01,7.50740304352797e-01
3.53200000000000e-08,0.00000000000000e+00,7.50000000000000e-01,7.33811911129554e-01
3.54480000000000e-08,0.00000000000000e+00,7.50000000000000e-01,7.19021202258075e-01
3.57040000000000e-08,0.00000000000000e+00,7.50000000000000e-01,7.47694588751226e-01
3.62160000000000e-08,0.00000000000000e+00,7.50000000000000e-01,7.50355722945051e-01
3.67976124110494e-08,0.00000000000000e+00,7.50000000000000e-01,7.49221152691413e-01
3.79608372331482e-08,0.00000000000000e+00,7.50000000000000e-01,7.50180537936734e-01
4.02872868773459e-08,0.00000000000000e+00,7.50000000000000e-01,7.49576153606038e-01
4.40872868773459e-08,0.00000000000000e+00,7.50000000000000e-01,7.50219820495990e-01
4.50000000000000e-08,0.00000000000000e+00,7.50000000000000e-01,7.49721814903412e-01
4.50100000000000e-08,7.49999999999858e-02,7.50000000000000e-01,7.49838564725579e-01
4.50300000000000e-08,2.25000000000007e-01,7.50000000000000e-01,7.50010704393211e-01
4.50700000000000e-08,5.25000000000000e-01,7.50000000000000e-01,7.50155057388911e-01
4.51000000000000e-08,7.50000000000000e-01,7.50000000000000e-01,7.49731327516015e-01
4.51080000000000e-08,7.50000000000000e-01,6.90000000000031e-01,7.49417581323315e-01
4.51240000000000e-08,7.50000000000000e-01,5.69999999999994e-01,7.48774079821660e-01
4.51560000000000e-08,7.50000000000000e-01,3.30000000000020e-01,7.47726627783209e-01
4.52000000000000e-08,7.50000000000000e-01,4.29656310529936e-14,7.46957940391214e-01
4.52064000000000e-08,7.50000000000000e-01,0.00000000000000e+00,7.46895264761226e-01
4.52192000000000e-08,7.50000000000000e-01,0.00000000000000e+00,7.46748762940299e-01
4.52448000000000e-08,7.50000000000000e-01,0.00000000000000e+00,7.46508631601631e-01
4.52960000000000e-08,7.50000000000000e-01,0.00000000000000e+00,7.46498831301478e-01
4.53984000000000e-08,7.50000000000000e-01,0.00000000000000e+00,7.47755435580882e-01
4.56032000000000e-08,7.50000000000000e-01,0.00000000000000e+00,7.49510019414056e-01
4.58589401197551e-08,7.50000000000000e-01,0.00000000000000e+00,7.49866591151698e-01
4.63704203592652e-08,7.50000000000000e-01,0.00000000000000e+00,7.50067412859969e-01
4.69256786845313e-08,7.50000000000000e-01,0.00000000000000e+00,7.49956407733510e-01
4.80361953350634e-08,7.50000000000000e-01,0.00000000000000e+00,7.50036437681625e-01
5.02572286361277e-08,7.50000000000000e-01,0.00000000000000e+00,7.49966440042454e-01
5.40572286361277e-08,7.50000000000000e-01,0.00000000000000e+00,7.50032010207108e-01
5.51000000000000e-08,7.50000000000000e-01,0.00000000000000e+00,7.49972806902789e-01
5.51100000000000e-08,6.75000000000027e-01,0.00000000000000e+00,7.49907018763752e-01
5.51300000000000e-08,5.25000000000005e-01,0.00000000000000e+00,7.49823818145293e-01
5.51700000000000e-08,2.25000000000013e-01,0.00000000000000e+00,7.50622831784354e-01
5.52000000000000e-08,0.00000000000000e+00,0.00000000000000e+00,7.52610426339895e-01
5.52080000000000e-08,0.00000000000000e+00,0.00000000000000e+00,7.53140181415484e-01
5.52240000000000e-08,0.00000000000000e+00,0.00000000000000e+00,7.53899844077077e-01
5.52560000000000e-08,0.00000000000000e+00,0.00000000000000e+00,7.54592273495467e-01
5.53200000000000e-08,0.00000000000000e+00,0.00000000000000e+00,7.55376848444663e-01
5.54480000000000e-08,0.00000000000000e+00,0.00000000000000e+00,7.52233829377804e-01
5.57040000000000e-08,0.00000000000000e+00,0.00000000000000e+00,7.49123341286400e-01
5.60585743291847e-08,0.00000000000000e+00,0.00000000000000e+00,7.50331174139999e-01
5.66738568060728e-08,0.00000000000000e+00,0.00000000000000e+00,7.49605029544086e-01
5.73707010484065e-08,0.00000000000000e+00,0.00000000000000e+00,7.50137463591445e-01
5.87643895330740e-08,0.00000000000000e+00,0.00000000000000e+00,7.49740449682461e-01
6.15517665024089e-08,0.00000000000000e+00,0.00000000000000e+00,7.50111575423139e-01
6.50000000000000e-08,0.00000000000000e+00,0.00000000000000e+00,7.49792336281693e-01
6.50100000000000e-08,7.49999999999858e-02,0.00000000000000e+00,7.49879324593517e-01
6.50300000000000e-08,2.24999999999957e-01,0.00000000000000e+00,7.49993080322932e-01
6.50700000000000e-08,5.24999999999900e-01,0.00000000000000e+00,7.50017282394264e-01
6.51000000000000e-08,7.49999999999957e-01,0.00000000000000e+00,7.49852315215168e-01
6.51080000000000e-08,7.50000000000000e-01,0.00000000000000e+00,7.49780199992943e-01
6.51240000000000e-08,7.50000000000000e-01,0.00000000000000e+00,7.49687250829594e-01
6.51560000000000e-08,7.50000000000000e-01,0.00000000000000e+00,7.49623843396546e-01
6.52200000000000e-08,7.50000000000000e-01,0.00000000000000e+00,7.49757869106290e-01
6.53480000000000e-08,7.50000000000000e-01,0.00000000000000e+00,7.53312834428196e-01
6.56040000000000e-08,7.50000000000000e-01,0.00000000000000e+00,5.23404938119974e-01
6.61159999999999e-08,7.50000000000000e-01,0.00000000000000e+00,-1.76959346591449e-02
6.66435631787600e-08,7.50000000000000e-01,0.00000000000000e+00,1.13551835665736e-02
6.76986895362800e-08,7.50000000000000e-01,0.00000000000000e+00,-6.81673523376927e-03
6.87750656826612e-08,7.50000000000000e-01,0.00000000000000e+00,5.63486339118346e-03
7.09278179754235e-08,7.50000000000000e-01,0.00000000000000e+00,-3.73805443332621e-03
7.47278179754235e-08,7.50000000000000e-01,0.00000000000000e+00,4.09309572085299e-03
7.51000000000000e-08,7.50000000000000e-01,0.00000000000000e+00,1.64309119763752e-04
7.51100000000000e-08,6.75000000000076e-01,0.00000000000000e+00,-1.31477593207202e-03
7.51300000000000e-08,5.25000000000105e-01,0.00000000000000e+00,-2.43795325979755e-03
7.51700000000000e-08,2.25000000000162e-01,0.00000000000000e+00,-1.35824923420096e-03
7.52000000000000e-08,1.05027098129540e-13,0.00000000000000e+00,-6.65246835700392e-04
7.52080000000000e-08,0.00000000000000e+00,0.00000000000000e+00,-4.00296228812214e-04
7.52240000000000e-08,0.00000000000000e+00,0.00000000000000e+00,-3.46049143479799e-05
7.52560000000000e-08,0.00000000000000e+00,0.00000000000000e+00,1.17799683102993e-04
7.53200000000000e-08,0.00000000000000e+00,0.00000000000000e+00,-7.52546819666376e-04
7.54480000000000e-08,0.00000000000000e+00,0.00000000000000e+00,-1.18844218134277e-03
7.57040000000000e-08,0.00000000000000e+00,0.00000000000000e+00,2.75603450978289e-04
7.61733074762934e-08,0.00000000000000e+00,0.00000000000000e+00,-1.11797836939547e-04
7.67756447393872e-08,0.00000000000000e+00,0.00000000000000e+00,4.80454976313112e-05
7.79803192655747e-08,0.00000000000000e+00,0.00000000000000e+00,-2.72305347305711e-05
8.03896683179498e-08,0.00000000000000e+00,0.00000000000000e+00,2.06243423484676e-05
8.41896683179498e-08,0.00000000000000e+00,0.00000000000000e+00,-1.54158228513105e-05
8.50000000000000e-08,0.00000000000000e+00,0.00000000000000e+00,1.78641049795522e-06
8.50100000000000e-08,7.49999999999858e-02,0.00000000000000e+00,1.09372542091930e-04
8.50300000000000e-08,2.24999999999957e-01,0.00000000000000e+00,2.60758048798576e-04
8.50700000000000e-08,5.24999999999900e-01,0.00000000000000e+00,2.73774587471097e-04
8.51000000000000e-08,7.49999999999957e-01,0.00000000000000e+00,9.49157667723410e-06
8.51080000000000e-08,7.50000000000000e-01,0.00000000000000e+00,-1.03265848802742e-04
8.51240000000000e-08,7.50000000000000e-01,0.00000000000000e+00,-2.63351008350149e-04
8.51560000000000e-08,7.50000000000000e-01,0.00000000000000e+00,-3.41450076244892e-04
8.52200000000000e-08,7.50000000000000e-01,0.00000000000000e+00,-2.34916173319638e-04
8.53480000000000e-08,7.50000000000000e-01,0.00000000000000e+00,-1.28876666225727e-05
8.56040000000000e-08,7.50000000000000e-01,0.00000000000000e+00,1.00259420666785e-04
8.61159999999999e-08,7.50000000000000e-01,0.00000000000000e+00,-3.55439664290001e-05
8.71255242810516e-08,7.50000000000000e-01,0.00000000000000e+00,2.82186727844219e-05
8.82360867706463e-08,7.50000000000000e-01,0.00000000000000e+00,-1.53906959580704e-05
9.00000000000000e-08,7.50000000000000e-01,0.00000000000000e+00,1.65040045706404e-05
9.00100000000000e-08,7.50000000000000e-01,7.49999999999858e-02,1.60074891495110e-05
9.00300000000000e-08,7.50000000000000e-01,2.24999999999957e-01,1.31069054174135e-05
9.00700000000000e-08,7.50000000000000e-01,5.24999999999900e-01,5.83963235893659e-06
9.01000000000000e-08,7.50000000000000e-01,7.49999999999957e-01,1.88472542540785e-06
9.01080000000000e-08,7.50000000000000e-01,7.50000000000000e-01,1.33379819784729e-06
9.01240000000000e-08,7.50000000000000e-01,7.50000000000000e-01,1.80836391118488e-06
9.01560000000000e-08,7.50000000000000e-01,7.50000000000000e-01,4.79787787997094e-06
9.02200000000000e-08,7.50000000000000e-01,7.50000000000000e-01,7.56901676250005e-06
9.03480000000000e-08,7.50000000000000e-01,7.50000000000000e-01,2.92049886922718e-06
9.06040000000000e-08,7.50000000000000e-01,7.50000000000000e-01,1.06030361640350e-06
9.10949836719423e-08,7.50000000000000e-01,7.50000000000000e-01,2.70276874557787e-06
9.20769510158271e-08,7.50000000000000e-01,7.50000000000000e-01,1.32747816311476e-06
9.40408857035966e-08,7.50000000000000e-01,7.50000000000000e-01,2.20686790557492e-06
9.51000000000000e-08,7.50000000000000e-01,7.50000000000000e-01,1.23060015616485e-06
9.51100000000000e-08,6.75000000000076e-01,7.50000000000000e-01,-7.18869422133492e-05
9.51300000000000e-08,5.25000000000105e-01,7.50000000000000e-01,-1.89239429348502e-04
9.51700000000000e-08,2.25000000000162e-01,7.50000000000000e-01,-1.84763006300201e-04
9.52000000000000e-08,1.05027098129540e-13,7.50000000000000e-01,1.08946307352364e-04
9.52080000000000e-08,0.00000000000000e+00,7.50000000000000e-01,2.65213840335926e-04
9.52240000000000e-08,0.00000000000000e+00,7.50000000000000e-01,4.61924934779132e-04
9.52560000000000e-08,0.00000000000000e+00,7.50000000000000e-01,4.77681265815898e-04
9.53200000000000e-08,0.00000000000000e+00,7.50000000000000e-01,1.46435243665130e-04
9.54480000000000e-08,0.00000000000000e+00,7.50000000000000e-01,-2.88520597164610e-04
9.57040000000000e-08,0.00000000000000e+00,7.50000000000000e-01,-1.29498370368627e-04
9.61829053801449e-08,0.00000000000000e+00,7.50000000000000e-01,4.14504056339329e-05
9.67226008348053e-08,0.00000000000000e+00,7.50000000000000e-01,1.53483187503264e-04
9.78019917441261e-08,0.00000000000000e+00,7.50000000000000e-01,-1.69682973356052e-04
9.89458218791311e-08,0.00000000000000e+00,7.50000000000000e-01,1.72835507699286e-04
1.01233482149141e-07,0.00000000000000e+00,7.50000000000000e-01,-1.69442397405732e-04
1.04920585103629e-07,0.00000000000000e+00,7.50000000000000e-01,1.67404189707092e-04
1.05000000000000e-07,0.00000000000000e+00,7.50000000000000e-01,1.80882910899571e-06
1.05010000000000e-07,7.49999999999858e-02,7.50000000000000e-01,1.24776583757272e-04
1.05030000000000e-07,2.24999999999957e-01,7.50000000000000e-01,3.18127862861284e-04
1.05070000000000e-07,5.24999999999900e-01,7.50000000000000e-01,4.98362314854471e-04
1.05100000000000e-07,7.49999999999957e-01,7.50000000000000e-01,-2.00924477072345e-04
1.05108000000000e-07,7.50000000000000e-01,7.50000000000000e-01,-7.33734820551640e-04
1.05124000000000e-07,7.50000000000000e-01,7.50000000000000e-01,-1.89434474047791e-03
1.05156000000000e-07,7.50000000000000e-01,7.50000000000000e-01,-4.11517507525786e-03
1.05220000000000e-07,7.50000000000000e-01,7.50000000000000e-01,-6.41898865843754e-03
1.05348000000000e-07,7.50000000000000e-01,7.50000000000000e-01,7.12887769678974e-02
1.05604000000000e-07,7.50000000000000e-01,7.50000000000000e-01,6.05937924674450e-01
1.06116000000000e-07,7.50000000000000e-01,7.50000000000000e-01,7.81702947353191e-01
1.06646397847913e-07,7.50000000000000e-01,7.50000000000000e-01,7.20662711060029e-01
1.07707193543739e-07,7.50000000000000e-01,7.50000000000000e-01,7.75830106303392e-01
1.09194695491897e-07,7.50000000000000e-01,7.50000000000000e-01,7.24025735021485e-01
1.12169699388213e-07,7.50000000000000e-01,7.50000000000000e-01,7.74005796772619e-01
1.15100000000000e-07,7.50000000000000e-01,7.50000000000000e-01,7.25330752758346e-01
1.15110000000000e-07,6.75000000000076e-01,7.50000000000000e-01,7.33753819333547e-01
1.15130000000000e-07,5.25000000000105e-01,7.50000000000000e-01,7.44800200558131e-01
1.15170000000000e-07,2.25000000000162e-01,7.50000000000000e-01,7.50796718592065e-01
1.15200000000000e-07,1.05027098129540e-13,7.50000000000000e-01,7.52561592026119e-01
1.15208000000000e-07,0.00000000000000e+00,7.50000000000000e-01,7.53014454156711e-01
1.15224000000000e-07,0.00000000000000e+00,7.50000000000000e-01,7.53408443764818e-01
1.15256000000000e-07,0.00000000000000e+00,7.50000000000000e-01,7.50740294737771e-01
1.15320000000000e-07,0.00000000000000e+00,7.50000000000000e-01,7.33811891847182e-01
1.15448000000000e-07,0.00000000000000e+00,7.50000000000000e-01,7.19021198535216e-01
1.15704000000000e-07,0.00000000000000e+00,7.50000000000000e-01,7.47694593523692e-01
1.16216000000000e-07,0.00000000000000e+00,7.50000000000000e-01,7.50355718311304e-01
1.16797612538260e-07,0.00000000000000e+00,7.50000000000000e-01,7.49221157032570e-01
1.17960837614779e-07,0.00000000000000e+00,7.50000000000000e-01,7.50180533212408e-01
1.20287287767818e-07,0.00000000000000e+00,7.50000000000000e-01,7.49576158452543e-01
1.24087287767818e-07,0.00000000000000e+00,7.50000000000000e-01,7.50219815518155e-01
1.25000000000000e-07,0.00000000000000e+00,7.50000000000000e-01,7.49721819976488e-01
1.25010000000000e-07,7.49999999998865e-02,7.50000000000000e-01,7.49838593227213e-01
1.25030000000000e-07,2.24999999999858e-01,7.50000000000000e-01,7.50010733322511e-01
1.25070000000000e-07,5.24999999999801e-01,7.50000000000000e-01,7.50155033585404e-01
1.25100000000000e-07,7.49999999999858e-01,7.50000000000000e-01,7.49731313292079e-01
1.25108000000000e-07,7.50000000000000e-01,6.89999999999932e-01,7.49417575387446e-01
1.25124000000000e-07,7.50000000000000e-01,5.69999999999994e-01,7.48774065929154e-01
1.25156000000000e-07,7.50000000000000e-01,3.29999999999921e-01,7.47726626324407e-01
1.25200000000000e-07,7.50000000000000e-01,0.00000000000000e+00,7.46957980629141e-01
1.25206400000000e-07,7.50000000000000e-01,0.00000000000000e+00,7.46895300228234e-01
1.25219200000000e-07,7.50000000000000e-01,0.00000000000000e+00,7.46748797759642e-01
1.25244800000000e-07,7.50000000000000e-01,0.00000000000000e+00,7.46508672286229e-01
1.25296000000000e-07,7.50000000000000e-01,0.00000000000000e+00,7.46498929328096e-01
1.25398400000000e-07,7.50000000000000e-01,0.00000000000000e+00,7.47755499196093e-01
1.25603200000000e-07,7.50000000000000e-01,0.00000000000000e+00,7.49509932918075e-01
1.25858949676306e-07,7.50000000000000e-01,0.00000000000000e+00,7.49866598499205e-01
1.26370449028918e-07,7.50000000000000e-01,0.00000000000000e+00,7.50067408919729e-01
1.26925748204045e-07,7.50000000000000e-01,0.00000000000000e+00,7.49956410755354e-01
1.28036346554297e-07,7.50000000000000e-01,0.00000000000000e+00,7.50036434846295e-01
1.30257543254803e-07,7.50000000000000e-01,0.00000000000000e+00,7.49966442838949e-01
1.34057543254803e-07,7.50000000000000e-01,0.00000000000000e+00,7.50032007376649e-01
1.35100000000000e-07,7.49999999999864e-01,0.00000000000000e+00,7.49972811172825e-01
1.35110000000000e-07,6.74999999999778e-01,0.00000000000000e+00,7.49907021862518e-01
1.35130000000000e-07,5.24999999999807e-01,0.00000000000000e+00,7.49823819033548e-01
1.35170000000000e-07,2.24999999999864e-01,0.00000000000000e+00,7.50622831358840e-01
1.35200000000000e-07,0.00000000000000e+00,0.00000000000000e+00,7.52610426106373e-01
1.35208000000000e-07,0.00000000000000e+00,0.00000000000000e+00,7.53140181233648e-01
