Time,v(clk),v(data),v(out),v(reset)
1.00000000000000e-08,7.50000000000000e-01,0.00000000000000e+00,-4.80142306162542e-03,0.00000000000000e+00
1.00100000000000e-08,7.50000000000000e-01,7.49999999999982e-02,-4.18758275558940e-03,0.00000000000000e+00
1.00300000000000e-08,7.50000000000000e-01,2.24999999999995e-01,-3.02988291745297e-03,0.00000000000000e+00
1.00700000000000e-08,7.50000000000000e-01,5.24999999999987e-01,-1.56362204264442e-03,0.00000000000000e+00
1.01000000000000e-08,7.50000000000000e-01,7.49999999999994e-01,-9.97669273823137e-04,0.00000000000000e+00
1.01080000000000e-08,7.50000000000000e-01,7.50000000000000e-01,-8.91301165008060e-04,0.00000000000000e+00
1.01240000000000e-08,7.50000000000000e-01,7.50000000000000e-01,-6.98800380414283e-04,0.00000000000000e+00
1.01560000000000e-08,7.50000000000000e-01,7.50000000000000e-01,-4.18512858051723e-04,0.00000000000000e+00
1.02200000000000e-08,7.50000000000000e-01,7.50000000000000e-01,-1.45168574558603e-04,0.00000000000000e+00
1.03480000000000e-08,7.50000000000000e-01,7.50000000000000e-01,-1.87828491213932e-06,0.00000000000000e+00
1.06040000000000e-08,7.50000000000000e-01,7.50000000000000e-01,2.28382623077353e-06,0.00000000000000e+00
1.11160000000000e-08,7.50000000000000e-01,7.50000000000000e-01,6.50539791078979e-06,0.00000000000000e+00
1.21400000000000e-08,7.50000000000000e-01,7.50000000000000e-01,-2.13518816615660e-06,0.00000000000000e+00
1.41880000000000e-08,7.50000000000000e-01,7.50000000000000e-01,4.85941930887957e-06,0.00000000000000e+00
1.51000000000000e-08,7.50000000000000e-01,7.50000000000000e-01,-1.07331063405047e-06,0.00000000000000e+00
1.51100000000000e-08,6.74999999999989e-01,7.50000000000000e-01,2.06442693850950e-04,7.50000000000106e-02
1.51300000000000e-08,5.24999999999993e-01,7.50000000000000e-01,4.29297860692401e-04,2.25000000000007e-01
1.51700000000000e-08,2.25000000000000e-01,7.50000000000000e-01,3.91701325533386e-04,5.25000000000000e-01
1.52000000000000e-08,0.00000000000000e+00,7.50000000000000e-01,2.81488330980413e-04,7.50000000000000e-01
1.52080000000000e-08,0.00000000000000e+00,7.50000000000000e-01,2.31576887922191e-04,7.50000000000000e-01
1.52240000000000e-08,0.00000000000000e+00,7.50000000000000e-01,1.54732584057932e-04,7.50000000000000e-01
1.52560000000000e-08,0.00000000000000e+00,7.50000000000000e-01,3.26505730841170e-05,7.50000000000000e-01
1.53200000000000e-08,0.00000000000000e+00,7.50000000000000e-01,-6.52950309150101e-04,7.50000000000000e-01
1.54480000000000e-08,0.00000000000000e+00,7.50000000000000e-01,-1.42051681115593e-03,7.50000000000000e-01
1.57040000000000e-08,0.00000000000000e+00,7.50000000000000e-01,-5.75845724831367e-06,7.50000000000000e-01
1.60861461307714e-08,0.00000000000000e+00,7.50000000000000e-01,-1.43298840295597e-04,7.50000000000000e-01
1.67204759519799e-08,0.00000000000000e+00,7.50000000000000e-01,1.59245126152506e-04,7.50000000000000e-01
1.79042592174329e-08,0.00000000000000e+00,7.50000000000000e-01,-2.34465401214067e-05,7.50000000000000e-01
1.90483035332804e-08,0.00000000000000e+00,7.50000000000000e-01,-6.32242863526531e-05,7.50000000000000e-01
2.13363921649755e-08,0.00000000000000e+00,7.50000000000000e-01,9.74021211280251e-05,7.50000000000000e-01
2.50000000000000e-08,0.00000000000000e+00,7.50000000000000e-01,-1.10500779612155e-04,7.50000000000000e-01
2.50100000000000e-08,7.49999999999858e-02,7.50000000000000e-01,7.21251093883657e-05,7.50000000000000e-01
2.50300000000000e-08,2.25000000000007e-01,7.50000000000000e-01,3.58597039428858e-04,7.50000000000000e-01
2.50700000000000e-08,5.25000000000000e-01,7.50000000000000e-01,6.29285486494546e-04,7.50000000000000e-01
2.51000000000000e-08,7.50000000000000e-01,7.50000000000000e-01,4.26763953573356e-04,7.50000000000000e-01
2.51080000000000e-08,7.50000000000000e-01,7.50000000000000e-01,1.53563538565243e-04,7.50000000000000e-01
2.51240000000000e-08,7.50000000000000e-01,7.50000000000000e-01,-5.82572198814482e-04,7.50000000000000e-01
2.51560000000000e-08,7.50000000000000e-01,7.50000000000000e-01,-2.54229324411796e-03,7.50000000000000e-01
2.52200000000000e-08,7.50000000000000e-01,7.50000000000000e-01,-5.64879843736256e-03,7.50000000000000e-01
2.53480000000000e-08,7.50000000000000e-01,7.50000000000000e-01,1.86697704954353e-02,7.50000000000000e-01
2.56040000000000e-08,7.50000000000000e-01,7.50000000000000e-01,4.74588741785807e-01,7.50000000000000e-01
2.61160000000000e-08,7.50000000000000e-01,7.50000000000000e-01,7.82346133208790e-01,7.50000000000000e-01
2.66793355516951e-08,7.50000000000000e-01,7.50000000000000e-01,7.23318104260973e-01,7.50000000000000e-01
2.78060066550854e-08,7.50000000000000e-01,7.50000000000000e-01,7.74717440732000e-01,7.50000000000000e-01
2.91926686163635e-08,7.50000000000000e-01,7.50000000000000e-01,7.26086574655035e-01,7.50000000000000e-01
3.15861645106684e-08,7.50000000000000e-01,7.50000000000000e-01,7.72520454398222e-01,7.50000000000000e-01
3.51000000000000e-08,7.49999999999963e-01,7.50000000000000e-01,7.27338491935785e-01,7.50000000000000e-01
3.51100000000000e-08,6.74999999999977e-01,7.50000000000000e-01,7.34616465287565e-01,7.50000000000000e-01
3.51300000000000e-08,5.24999999999956e-01,7.50000000000000e-01,7.44489106325454e-01,7.50000000000000e-01
3.51700000000000e-08,2.24999999999963e-01,7.50000000000000e-01,7.50593618333338e-01,7.50000000000000e-01
3.52000000000000e-08,0.00000000000000e+00,7.50000000000000e-01,7.52522789987640e-01,7.50000000000000e-01
3.52080000000000e-08,0.00000000000000e+00,7.50000000000000e-01,7.53000540653147e-01,7.50000000000000e-01
3.52240000000000e-08,0.00000000000000e+00,7.50000000000000e-01,7.53511712355146e-01,7.50000000000000e-01
3.52560000000000e-08,0.00000000000000e+00,7.50000000000000e-01,7.51847125113915e-01,7.50000000000000e-01
3.53200000000000e-08,0.00000000000000e+00,7.50000000000000e-01,7.37872265721177e-01,7.50000000000000e-01
3.54480000000000e-08,0.00000000000000e+00,7.50000000000000e-01,7.18363823306185e-01,7.50000000000000e-01
3.57040000000000e-08,0.00000000000000e+00,7.50000000000000e-01,7.42870172413917e-01,7.50000000000000e-01
3.62160000000000e-08,0.00000000000000e+00,7.50000000000000e-01,7.52933764175647e-01,7.50000000000000e-01
3.68068154099368e-08,0.00000000000000e+00,7.50000000000000e-01,7.47020785803637e-01,7.50000000000000e-01
3.79884462298104e-08,0.00000000000000e+00,7.50000000000000e-01,7.51932831484527e-01,7.50000000000000e-01
4.03517078695576e-08,0.00000000000000e+00,7.50000000000000e-01,7.47843273440687e-01,7.50000000000000e-01
4.41517078695576e-08,0.00000000000000e+00,7.50000000000000e-01,7.51816726752679e-01,7.50000000000000e-01
4.50000000000000e-08,0.00000000000000e+00,7.50000000000000e-01,7.48349312651863e-01,7.50000000000000e-01
4.50100000000000e-08,7.49999999999858e-02,7.50000000000000e-01,7.48547431471881e-01,6.75000000000014e-01
4.50300000000000e-08,2.25000000000007e-01,7.50000000000000e-01,7.48859725336280e-01,5.24999999999993e-01
4.50700000000000e-08,5.25000000000000e-01,7.50000000000000e-01,7.51412467502211e-01,2.25000000000000e-01
4.51000000000000e-08,7.50000000000000e-01,7.50000000000000e-01,7.56990322373539e-01,0.00000000000000e+00
4.51080000000000e-08,7.50000000000000e-01,7.50000000000000e-01,7.58806103481638e-01,0.00000000000000e+00
4.51240000000000e-08,7.50000000000000e-01,7.50000000000000e-01,7.61909433898338e-01,0.00000000000000e+00
4.51560000000000e-08,7.50000000000000e-01,7.50000000000000e-01,7.66841173610472e-01,0.00000000000000e+00
4.52200000000000e-08,7.50000000000000e-01,7.50000000000000e-01,7.75471471582856e-01,0.00000000000000e+00
4.53480000000000e-08,7.50000000000000e-01,7.50000000000000e-01,5.61130404709329e-01,0.00000000000000e+00
4.56040000000000e-08,7.50000000000000e-01,7.50000000000000e-01,4.15229965875420e-02,0.00000000000000e+00
4.59672813081192e-08,7.50000000000000e-01,7.50000000000000e-01,-1.75604173337416e-02,0.00000000000000e+00
4.65812679604896e-08,7.50000000000000e-01,7.50000000000000e-01,1.13656218232781e-02,0.00000000000000e+00
4.73542999085110e-08,7.50000000000000e-01,7.50000000000000e-01,-7.92261044530060e-03,0.00000000000000e+00
4.89003638045538e-08,7.50000000000000e-01,7.50000000000000e-01,6.70484930144183e-03,0.00000000000000e+00
5.01000000000000e-08,7.50000000000000e-01,7.49999999999957e-01,-5.35121416185672e-03,0.00000000000000e+00
5.03766862439789e-08,7.50000000000000e-01,7.50000000000000e-01,-1.02529168629414e-03,0.00000000000000e+00
5.09300587319368e-08,7.50000000000000e-01,7.50000000000000e-01,6.32310643193721e-04,0.00000000000000e+00
5.20368037078526e-08,7.50000000000000e-01,7.50000000000000e-01,-4.93438285207313e-04,0.00000000000000e+00
5.42502936596841e-08,7.50000000000000e-01,7.50000000000000e-01,4.41073098437249e-04,0.00000000000000e+00
5.51000000000000e-08,7.50000000000000e-01,7.50000000000000e-01,-3.19697915735974e-04,0.00000000000000e+00
5.51100000000000e-08,6.75000000000027e-01,7.50000000000000e-01,-6.60491007995756e-05,7.49999999999734e-02
5.51300000000000e-08,5.25000000000005e-01,7.50000000000000e-01,2.31033882388973e-04,2.24999999999995e-01
5.51700000000000e-08,2.25000000000013e-01,7.50000000000000e-01,2.87093506046165e-04,5.24999999999987e-01
5.52000000000000e-08,0.00000000000000e+00,7.50000000000000e-01,2.13924178543698e-04,7.50000000000000e-01
5.52080000000000e-08,0.00000000000000e+00,7.50000000000000e-01,1.71249991150826e-04,7.50000000000000e-01
5.52240000000000e-08,0.00000000000000e+00,7.50000000000000e-01,1.08765441320463e-04,7.50000000000000e-01
5.52560000000000e-08,0.00000000000000e+00,7.50000000000000e-01,2.37918974170664e-05,7.50000000000000e-01
5.53200000000000e-08,0.00000000000000e+00,7.50000000000000e-01,-5.79510725725804e-04,7.50000000000000e-01
5.54480000000000e-08,0.00000000000000e+00,7.50000000000000e-01,-1.17934425480642e-03,7.50000000000000e-01
5.57040000000000e-08,0.00000000000000e+00,7.50000000000000e-01,1.12231560578418e-04,7.50000000000000e-01
5.60442137526380e-08,0.00000000000000e+00,7.50000000000000e-01,-7.20002529459585e-05,7.50000000000000e-01
5.67012025663789e-08,0.00000000000000e+00,7.50000000000000e-01,1.27548007353671e-06,7.50000000000000e-01
5.77328458311749e-08,0.00000000000000e+00,7.50000000000000e-01,7.13260191805096e-05,7.50000000000000e-01
5.88774532610784e-08,0.00000000000000e+00,7.50000000000000e-01,-1.03435354372352e-04,7.50000000000000e-01
6.11666681208855e-08,0.00000000000000e+00,7.50000000000000e-01,1.17200400883872e-04,7.50000000000000e-01
6.49666681208855e-08,0.00000000000000e+00,7.50000000000000e-01,-1.18857601322097e-04,7.50000000000000e-01
6.50000000000000e-08,0.00000000000000e+00,7.50000000000000e-01,-1.82768135560119e-05,7.50000000000000e-01
6.50100000000000e-08,7.49999999999858e-02,7.50000000000000e-01,1.30352932594016e-04,7.50000000000000e-01
6.50300000000000e-08,2.24999999999957e-01,7.50000000000000e-01,3.65461023522196e-04,7.50000000000000e-01
6.50700000000000e-08,5.24999999999900e-01,7.50000000000000e-01,5.82128111136143e-04,7.50000000000000e-01
6.51000000000000e-08,7.49999999999957e-01,7.50000000000000e-01,8.20126671711510e-05,7.50000000000000e-01
6.51080000000000e-08,7.50000000000000e-01,7.50000000000000e-01,-3.44987361103014e-04,7.50000000000000e-01
6.51240000000000e-08,7.50000000000000e-01,7.50000000000000e-01,-1.30767259037516e-03,7.50000000000000e-01
6.51560000000000e-08,7.50000000000000e-01,7.50000000000000e-01,-3.32616280186313e-03,7.50000000000000e-01
6.52200000000000e-08,7.50000000000000e-01,7.50000000000000e-01,-5.96732561641088e-03,7.50000000000000e-01
6.53480000000000e-08,7.50000000000000e-01,7.50000000000000e-01,2.73356145938416e-02,7.50000000000000e-01
6.56040000000000e-08,7.50000000000000e-01,7.50000000000000e-01,5.00359489721531e-01,7.50000000000000e-01
6.61159999999999e-08,7.50000000000000e-01,7.50000000000000e-01,7.83512247001819e-01,7.50000000000000e-01
6.66709349334732e-08,7.50000000000000e-01,7.50000000000000e-01,7.21882634190752e-01,7.50000000000000e-01
6.77808048004198e-08,7.50000000000000e-01,7.50000000000000e-01,7.75752092029790e-01,7.50000000000000e-01
6.91859463950693e-08,7.50000000000000e-01,7.50000000000000e-01,7.24911841575474e-01,7.50000000000000e-01
7.16553495378180e-08,7.50000000000000e-01,7.50000000000000e-01,7.73505817652954e-01,7.50000000000000e-01
7.51000000000000e-08,7.50000000000000e-01,7.50000000000000e-01,7.26240400041542e-01,7.50000000000000e-01
7.51100000000000e-08,6.75000000000076e-01,7.50000000000000e-01,7.33849871288949e-01,7.50000000000000e-01
7.51300000000000e-08,5.25000000000105e-01,7.50000000000000e-01,7.44181439436978e-01,7.50000000000000e-01
7.51700000000000e-08,2.25000000000162e-01,7.50000000000000e-01,7.50581252430708e-01,7.50000000000000e-01
7.52000000000000e-08,1.05027098129540e-13,7.50000000000000e-01,7.52508912566856e-01,7.50000000000000e-01
7.52080000000000e-08,0.00000000000000e+00,7.50000000000000e-01,7.52983123209412e-01,7.50000000000000e-01
7.52240000000000e-08,0.00000000000000e+00,7.50000000000000e-01,7.53486821444629e-01,7.50000000000000e-01
7.52560000000000e-08,0.00000000000000e+00,7.50000000000000e-01,7.51802904957709e-01,7.50000000000000e-01
7.53200000000000e-08,0.00000000000000e+00,7.50000000000000e-01,7.37812681354193e-01,7.50000000000000e-01
7.54480000000000e-08,0.00000000000000e+00,7.50000000000000e-01,7.18334412129443e-01,7.50000000000000e-01
7.57040000000000e-08,0.00000000000000e+00,7.50000000000000e-01,7.42883757144977e-01,7.50000000000000e-01
7.62159999999999e-08,0.00000000000000e+00,7.50000000000000e-01,7.52917184342034e-01,7.50000000000000e-01
7.68068624687955e-08,0.00000000000000e+00,7.50000000000000e-01,7.47033137401160e-01,7.50000000000000e-01
7.79885874063866e-08,0.00000000000000e+00,7.50000000000000e-01,7.51922334403114e-01,7.50000000000000e-01
8.03520372815689e-08,0.00000000000000e+00,7.50000000000000e-01,7.47853233441659e-01,7.50000000000000e-01
8.41520372815689e-08,0.00000000000000e+00,7.50000000000000e-01,7.51807350905330e-01,7.50000000000000e-01
8.50000000000000e-08,0.00000000000000e+00,7.50000000000000e-01,7.48357332044200e-01,7.50000000000000e-01
8.50100000000000e-08,7.49999999999858e-02,7.50000000000000e-01,7.48555255549768e-01,6.75000000000014e-01
8.50300000000000e-08,2.24999999999957e-01,7.50000000000000e-01,7.48863933893342e-01,5.25000000000043e-01
8.50700000000000e-08,5.24999999999900e-01,7.50000000000000e-01,7.51413577925660e-01,2.25000000000100e-01
8.51000000000000e-08,7.49999999999957e-01,7.50000000000000e-01,7.56990406438754e-01,4.29656310529936e-14
8.51080000000000e-08,7.50000000000000e-01,7.50000000000000e-01,7.58806039791812e-01,0.00000000000000e+00
8.51240000000000e-08,7.50000000000000e-01,7.50000000000000e-01,7.61909224534575e-01,0.00000000000000e+00
8.51560000000000e-08,7.50000000000000e-01,7.50000000000000e-01,7.66841201032006e-01,0.00000000000000e+00
8.52200000000000e-08,7.50000000000000e-01,7.50000000000000e-01,7.75472355993441e-01,0.00000000000000e+00
8.53480000000000e-08,7.50000000000000e-01,7.50000000000000e-01,5.61125780804814e-01,0.00000000000000e+00
8.56040000000000e-08,7.50000000000000e-01,7.50000000000000e-01,4.15218920443354e-02,0.00000000000000e+00
8.59698355014476e-08,7.50000000000000e-01,7.50000000000000e-01,-1.76692035676359e-02,0.00000000000000e+00
8.65827426518905e-08,7.50000000000000e-01,7.50000000000000e-01,1.15433552348199e-02,0.00000000000000e+00
8.73583081244846e-08,7.50000000000000e-01,7.50000000000000e-01,-8.05313340578686e-03,0.00000000000000e+00
8.89094390696726e-08,7.50000000000000e-01,7.50000000000000e-01,6.82091282465891e-03,0.00000000000000e+00
9.01000000000000e-08,7.50000000000000e-01,7.49999999999957e-01,-5.43340713488166e-03,0.00000000000000e+00
9.03795275987991e-08,7.50000000000000e-01,7.50000000000000e-01,-1.03192984635865e-03,0.00000000000000e+00
9.09385827963972e-08,7.50000000000000e-01,7.50000000000000e-01,6.40403308980868e-04,0.00000000000000e+00
9.20566931915934e-08,7.50000000000000e-01,7.50000000000000e-01,-5.01004686990566e-04,0.00000000000000e+00
9.42929139819859e-08,7.50000000000000e-01,7.50000000000000e-01,4.48335216303745e-04,0.00000000000000e+00
9.51000000000000e-08,7.50000000000000e-01,7.50000000000000e-01,-3.19561740757177e-04,0.00000000000000e+00
9.51100000000000e-08,6.75000000000076e-01,7.50000000000000e-01,-6.58842128358622e-05,7.49999999999237e-02
9.51300000000000e-08,5.25000000000105e-01,7.50000000000000e-01,2.31189683010793e-04,2.24999999999895e-01
9.51700000000000e-08,2.25000000000162e-01,7.50000000000000e-01,2.87166339928618e-04,5.24999999999838e-01
9.52000000000000e-08,1.05027098129540e-13,7.50000000000000e-01,2.13980101317242e-04,7.49999999999895e-01
9.52080000000000e-08,0.00000000000000e+00,7.50000000000000e-01,1.71302799285233e-04,7.50000000000000e-01
9.52240000000000e-08,0.00000000000000e+00,7.50000000000000e-01,1.08808952866635e-04,7.50000000000000e-01
9.52560000000000e-08,0.00000000000000e+00,7.50000000000000e-01,2.37888296848385e-05,7.50000000000000e-01
9.53200000000000e-08,0.00000000000000e+00,7.50000000000000e-01,-5.79686836036271e-04,7.50000000000000e-01
9.54480000000000e-08,0.00000000000000e+00,7.50000000000000e-01,-1.17989437185303e-03,7.50000000000000e-01
9.57040000000000e-08,0.00000000000000e+00,7.50000000000000e-01,1.12205387825508e-04,7.50000000000000e-01
9.60446621948682e-08,0.00000000000000e+00,7.50000000000000e-01,-7.21331526299038e-05,7.50000000000000e-01
9.67013810942303e-08,0.00000000000000e+00,7.50000000000000e-01,1.45660374440380e-06,7.50000000000000e-01
9.77346437758094e-08,0.00000000000000e+00,7.50000000000000e-01,7.10831318476400e-05,7.50000000000000e-01
9.88791987211762e-08,0.00000000000000e+00,7.50000000000000e-01,-1.03260417029211e-04,7.50000000000000e-01
1.01168308611910e-07,0.00000000000000e+00,7.50000000000000e-01,1.17056628072490e-04,7.50000000000000e-01
1.04968308611910e-07,0.00000000000000e+00,7.50000000000000e-01,-1.18730933340276e-04,7.50000000000000e-01
1.05000000000000e-07,0.00000000000000e+00,7.50000000000000e-01,-2.18833411681912e-05,7.50000000000000e-01
1.05010000000000e-07,7.49999999999858e-02,7.50000000000000e-01,1.27430340786272e-04,7.50000000000000e-01
1.05030000000000e-07,2.24999999999957e-01,7.50000000000000e-01,3.63778141639674e-04,7.50000000000000e-01
1.05070000000000e-07,5.24999999999900e-01,7.50000000000000e-01,5.81692550916127e-04,7.50000000000000e-01
1.05100000000000e-07,7.49999999999957e-01,7.50000000000000e-01,8.18606525067600e-05,7.50000000000000e-01
1.05108000000000e-07,7.50000000000000e-01,7.50000000000000e-01,-3.45086224377886e-04,7.50000000000000e-01
1.05124000000000e-07,7.50000000000000e-01,7.50000000000000e-01,-1.30769391518025e-03,7.50000000000000e-01
1.05156000000000e-07,7.50000000000000e-01,7.50000000000000e-01,-3.32611906403533e-03,7.50000000000000e-01
1.05220000000000e-07,7.50000000000000e-01,7.50000000000000e-01,-5.96716141263288e-03,7.50000000000000e-01
1.05348000000000e-07,7.50000000000000e-01,7.50000000000000e-01,2.73432239025468e-02,7.50000000000000e-01
1.05604000000000e-07,7.50000000000000e-01,7.50000000000000e-01,5.00379272585850e-01,7.50000000000000e-01
1.06116000000000e-07,7.50000000000000e-01,7.50000000000000e-01,7.83512881159748e-01,7.50000000000000e-01
1.06670928588124e-07,7.50000000000000e-01,7.50000000000000e-01,7.21881842269087e-01,7.50000000000000e-01
1.07780785764371e-07,7.50000000000000e-01,7.50000000000000e-01,7.75752606763221e-01,7.50000000000000e-01
1.09185941570870e-07,7.50000000000000e-01,7.50000000000000e-01,7.24911217477773e-01,7.50000000000000e-01
1.11655404379231e-07,7.50000000000000e-01,7.50000000000000e-01,7.73506322722054e-01,7.50000000000000e-01
1.15100000000000e-07,7.50000000000000e-01,7.50000000000000e-01,7.26239824097924e-01,7.50000000000000e-01
1.15110000000000e-07,6.75000000000076e-01,7.50000000000000e-01,7.33849404347458e-01,7.50000000000000e-01
1.15130000000000e-07,5.25000000000105e-01,7.50000000000000e-01,7.44181232112995e-01,7.50000000000000e-01
1.15170000000000e-07,2.25000000000162e-01,7.50000000000000e-01,7.50581282028981e-01,7.50000000000000e-01
1.15200000000000e-07,1.05027098129540e-13,7.50000000000000e-01,7.52508936312301e-01,7.50000000000000e-01
