Time,v(clk),v(data),v(out)
1.00000000000000e-08,7.50000000000000e-01,0.00000000000000e+00,2.23866011188996e-05
1.00100000000000e-08,7.50000000000000e-01,7.49999999999982e-02,1.87778473746195e-05
1.00300000000000e-08,7.50000000000000e-01,2.24999999999995e-01,1.33434566698121e-05
1.00700000000000e-08,7.50000000000000e-01,5.24999999999987e-01,7.23901353984896e-06
1.01000000000000e-08,7.50000000000000e-01,7.49999999999994e-01,5.75132989013433e-06
1.01080000000000e-08,7.50000000000000e-01,7.50000000000000e-01,5.92252873551219e-06
1.01240000000000e-08,7.50000000000000e-01,7.50000000000000e-01,6.66394914630719e-06
1.01560000000000e-08,7.50000000000000e-01,7.50000000000000e-01,8.25796093324380e-06
1.02200000000000e-08,7.50000000000000e-01,7.50000000000000e-01,9.68127014249962e-06
1.03480000000000e-08,7.50000000000000e-01,7.50000000000000e-01,7.06339916328909e-06
1.06040000000000e-08,7.50000000000000e-01,7.50000000000000e-01,7.17711930279218e-06
1.11160000000000e-08,7.50000000000000e-01,7.50000000000000e-01,7.81958920851970e-06
1.21400000000000e-08,7.50000000000000e-01,7.50000000000000e-01,6.80205933520275e-06
1.41880000000000e-08,7.50000000000000e-01,7.50000000000000e-01,6.97047700162030e-06
1.51000000000000e-08,7.50000000000000e-01,7.50000000000000e-01,6.28225467926100e-06
1.51100000000000e-08,6.74999999999989e-01,7.50000000000000e-01,-2.43989319939700e-05
1.51300000000000e-08,5.24999999999993e-01,7.50000000000000e-01,-7.27228480205330e-05
1.51700000000000e-08,2.25000000000000e-01,7.50000000000000e-01,-4.53067041960645e-05
1.52000000000000e-08,0.00000000000000e+00,7.50000000000000e-01,7.77954548809440e-05
1.52080000000000e-08,0.00000000000000e+00,7.50000000000000e-01,1.37152431520217e-04
1.52240000000000e-08,0.00000000000000e+00,7.50000000000000e-01,1.99769711578583e-04
1.52560000000000e-08,0.00000000000000e+00,7.50000000000000e-01,1.20565247221101e-04
1.53200000000000e-08,0.00000000000000e+00,7.50000000000000e-01,-1.92847655740812e-04
1.54480000000000e-08,0.00000000000000e+00,7.50000000000000e-01,-1.41361533632669e-04
1.57040000000000e-08,0.00000000000000e+00,7.50000000000000e-01,-2.32822795335689e-04
1.61133007058436e-08,0.00000000000000e+00,7.50000000000000e-01,2.37375188464063e-04
1.66441143783616e-08,0.00000000000000e+00,7.50000000000000e-01,1.50988012220330e-05
1.75324423256115e-08,0.00000000000000e+00,7.50000000000000e-01,-8.08107446579765e-05
1.87255354815720e-08,0.00000000000000e+00,7.50000000000000e-01,1.28305320585312e-04
2.08677471412214e-08,0.00000000000000e+00,7.50000000000000e-01,-1.33045902447324e-04
2.42583638912011e-08,0.00000000000000e+00,7.50000000000000e-01,1.50753979550827e-04
2.50000000000000e-08,0.00000000000000e+00,7.50000000000000e-01,-1.63048652625802e-04
2.50100000000000e-08,7.49999999999858e-02,7.50000000000000e-01,-4.82399748434059e-05
2.50300000000000e-08,2.25000000000007e-01,7.50000000000000e-01,1.04326117988308e-04
2.50700000000000e-08,5.25000000000000e-01,7.50000000000000e-01,-3.15709108383855e-05
2.51000000000000e-08,7.50000000000000e-01,7.50000000000000e-01,-1.63516645024187e-03
2.51080000000000e-08,7.50000000000000e-01,7.50000000000000e-01,-2.40490947978126e-03
2.51240000000000e-08,7.50000000000000e-01,7.50000000000000e-01,-3.80256876714798e-03
2.51560000000000e-08,7.50000000000000e-01,7.50000000000000e-01,-4.61201648306994e-03
2.52200000000000e-08,7.50000000000000e-01,7.50000000000000e-01,3.32438548720373e-02
2.53480000000000e-08,7.50000000000000e-01,7.50000000000000e-01,3.73965041918807e-01
2.56040000000000e-08,7.50000000000000e-01,7.50000000000000e-01,7.64391101271905e-01
2.59668501809831e-08,7.50000000000000e-01,7.50000000000000e-01,7.38391080526020e-01
2.65659756383512e-08,7.50000000000000e-01,7.50000000000000e-01,7.60796644671882e-01
2.73748293552833e-08,7.50000000000000e-01,7.50000000000000e-01,7.40020532839026e-01
2.85228966250906e-08,7.50000000000000e-01,7.50000000000000e-01,7.59408731205298e-01
3.01000000000000e-08,7.50000000000000e-01,7.50000000000000e-01,7.40951231168004e-01
3.01100000000000e-08,7.50000000000000e-01,6.75000000000039e-01,7.44124287737497e-01
3.01300000000000e-08,7.50000000000000e-01,5.25000000000018e-01,7.48241488848114e-01
3.01700000000000e-08,7.50000000000000e-01,2.25000000000025e-01,7.50083732084961e-01
3.02000000000000e-08,7.50000000000000e-01,1.80966353013901e-14,7.50038906738912e-01
3.02080000000000e-08,7.50000000000000e-01,0.00000000000000e+00,7.50026683243314e-01
3.02240000000000e-08,7.50000000000000e-01,0.00000000000000e+00,7.50008967926803e-01
3.02560000000000e-08,7.50000000000000e-01,0.00000000000000e+00,7.49978458166376e-01
3.03200000000000e-08,7.50000000000000e-01,0.00000000000000e+00,7.49922055923510e-01
3.04480000000000e-08,7.50000000000000e-01,0.00000000000000e+00,7.49939605387284e-01
3.07040000000000e-08,7.50000000000000e-01,0.00000000000000e+00,7.49929273817525e-01
3.11281097990388e-08,7.50000000000000e-01,0.00000000000000e+00,7.49930021507850e-01
3.16257808243565e-08,7.50000000000000e-01,0.00000000000000e+00,7.49941190671313e-01
3.26211228749918e-08,7.50000000000000e-01,0.00000000000000e+00,7.49939587802946e-01
3.46118069762626e-08,7.50000000000000e-01,0.00000000000000e+00,7.49955255893111e-01
3.51000000000000e-08,7.49999999999963e-01,0.00000000000000e+00,7.49950308905473e-01
3.51100000000000e-08,6.74999999999977e-01,0.00000000000000e+00,7.49916399055222e-01
3.51300000000000e-08,5.24999999999956e-01,0.00000000000000e+00,7.49881596603217e-01
3.51700000000000e-08,2.24999999999963e-01,0.00000000000000e+00,7.50402435233098e-01
3.52000000000000e-08,0.00000000000000e+00,0.00000000000000e+00,7.51412976124280e-01
3.52080000000000e-08,0.00000000000000e+00,0.00000000000000e+00,7.51599499165443e-01
3.52240000000000e-08,0.00000000000000e+00,0.00000000000000e+00,7.51649737796156e-01
3.52560000000000e-08,0.00000000000000e+00,0.00000000000000e+00,7.49404567779456e-01
3.53200000000000e-08,0.00000000000000e+00,0.00000000000000e+00,7.33532301497266e-01
3.54480000000000e-08,0.00000000000000e+00,0.00000000000000e+00,7.13036625798091e-01
3.57040000000000e-08,0.00000000000000e+00,0.00000000000000e+00,7.42255803306572e-01
3.59850373795752e-08,0.00000000000000e+00,0.00000000000000e+00,7.52590105736189e-01
3.65471121387255e-08,0.00000000000000e+00,0.00000000000000e+00,7.46961595225174e-01
3.71034053524815e-08,0.00000000000000e+00,0.00000000000000e+00,7.51290610887132e-01
3.82159917799934e-08,0.00000000000000e+00,0.00000000000000e+00,7.48123893283320e-01
3.91000000000000e-08,0.00000000000000e+00,0.00000000000000e+00,7.50881408191355e-01
3.93003217744561e-08,0.00000000000000e+00,0.00000000000000e+00,7.49884543834886e-01
3.97009653233684e-08,0.00000000000000e+00,0.00000000000000e+00,7.49535524075701e-01
4.05022524211928e-08,0.00000000000000e+00,0.00000000000000e+00,7.49802231973003e-01
4.21048266168417e-08,0.00000000000000e+00,0.00000000000000e+00,7.49604230357234e-01
4.50000000000000e-08,0.00000000000000e+00,0.00000000000000e+00,7.49810496313135e-01
4.50100000000000e-08,7.49999999999858e-02,0.00000000000000e+00,7.49819061035479e-01
4.50300000000000e-08,2.25000000000007e-01,0.00000000000000e+00,7.49816390489217e-01
4.50700000000000e-08,5.25000000000000e-01,0.00000000000000e+00,7.49727304410194e-01
4.51000000000000e-08,7.50000000000000e-01,0.00000000000000e+00,7.49587218425040e-01
4.51080000000000e-08,7.50000000000000e-01,0.00000000000000e+00,7.49549667771085e-01
4.51240000000000e-08,7.50000000000000e-01,0.00000000000000e+00,7.49508841148078e-01
4.51560000000000e-08,7.50000000000000e-01,0.00000000000000e+00,7.49574655565463e-01
4.52200000000000e-08,7.50000000000000e-01,0.00000000000000e+00,7.51253427813905e-01
4.53480000000000e-08,7.50000000000000e-01,0.00000000000000e+00,7.58713604438918e-01
4.56040000000000e-08,7.50000000000000e-01,0.00000000000000e+00,2.04455088866679e-01
4.59524043734496e-08,7.50000000000000e-01,0.00000000000000e+00,-8.55278823469263e-02
4.63670788420617e-08,7.50000000000000e-01,0.00000000000000e+00,6.96334555558293e-02
4.71352316584271e-08,7.50000000000000e-01,0.00000000000000e+00,-5.07660720989466e-02
4.79126075274954e-08,7.50000000000000e-01,0.00000000000000e+00,4.64666878080098e-02
4.94673592656320e-08,7.50000000000000e-01,0.00000000000000e+00,-3.89460947085667e-02
5.00000000000000e-08,7.50000000000000e-01,0.00000000000000e+00,3.20210522406815e-02
5.00100000000000e-08,7.50000000000000e-01,7.49999999999858e-02,2.47583072921295e-02
5.00300000000000e-08,7.50000000000000e-01,2.24999999999957e-01,1.37111417261819e-02
5.00700000000000e-08,7.50000000000000e-01,5.25000000000000e-01,3.80738511542046e-03
5.01000000000000e-08,7.50000000000000e-01,7.50000000000000e-01,1.46529909518912e-03
5.01080000000000e-08,7.50000000000000e-01,7.50000000000000e-01,1.20185044656598e-03
5.01240000000000e-08,7.50000000000000e-01,7.50000000000000e-01,7.41983548637380e-04
5.01560000000000e-08,7.50000000000000e-01,7.50000000000000e-01,2.73751025589124e-04
5.02200000000000e-08,7.50000000000000e-01,7.50000000000000e-01,2.53009580353306e-05
5.03480000000000e-08,7.50000000000000e-01,7.50000000000000e-01,-3.68183343484388e-06
5.06040000000000e-08,7.50000000000000e-01,7.50000000000000e-01,5.47727682183481e-06
5.11160000000001e-08,7.50000000000000e-01,7.50000000000000e-01,-8.06073759684889e-07
5.21400000000002e-08,7.50000000000000e-01,7.50000000000000e-01,5.62425175874327e-06
5.41880000000003e-08,7.50000000000000e-01,7.50000000000000e-01,-1.16267504957513e-08
5.51000000000000e-08,7.50000000000000e-01,7.50000000000000e-01,5.27347982562159e-06
5.51100000000000e-08,6.75000000000027e-01,7.50000000000000e-01,-2.52788175098273e-05
5.51300000000000e-08,5.25000000000005e-01,7.50000000000000e-01,-7.43520334958517e-05
5.51700000000000e-08,2.25000000000013e-01,7.50000000000000e-01,-5.00591942439142e-05
5.52000000000000e-08,0.00000000000000e+00,7.50000000000000e-01,6.72842791688832e-05
5.52080000000000e-08,0.00000000000000e+00,7.50000000000000e-01,1.22306195209337e-04
5.52240000000000e-08,0.00000000000000e+00,7.50000000000000e-01,1.74090352846525e-04
5.52560000000000e-08,0.00000000000000e+00,7.50000000000000e-01,1.53018838250918e-05
5.53200000000000e-08,0.00000000000000e+00,7.50000000000000e-01,-9.00634657346612e-04
5.54480000000000e-08,0.00000000000000e+00,7.50000000000000e-01,-7.54259991401315e-04
5.57040000000000e-08,0.00000000000000e+00,7.50000000000000e-01,9.04824408535353e-05
5.61131103053376e-08,0.00000000000000e+00,7.50000000000000e-01,2.54605715828702e-05
5.66438956825332e-08,0.00000000000000e+00,7.50000000000000e-01,1.65284531677952e-04
5.75325233902700e-08,0.00000000000000e+00,7.50000000000000e-01,-2.06646634979458e-04
5.87245017201812e-08,0.00000000000000e+00,7.50000000000000e-01,2.36352018506134e-04
6.08665859357509e-08,0.00000000000000e+00,7.50000000000000e-01,-2.33826686289646e-04
6.42544802470628e-08,0.00000000000000e+00,7.50000000000000e-01,2.45503616083823e-04
6.50000000000000e-08,0.00000000000000e+00,7.50000000000000e-01,-2.39037424126739e-04
6.50100000000000e-08,7.49999999999858e-02,7.50000000000000e-01,-1.03068731262368e-04
6.50300000000000e-08,2.24999999999957e-01,7.50000000000000e-01,6.90404295198496e-05
6.50700000000000e-08,5.24999999999900e-01,7.50000000000000e-01,-5.02494819294638e-05
6.51000000000000e-08,7.49999999999957e-01,7.50000000000000e-01,-1.64163558020034e-03
6.51080000000000e-08,7.50000000000000e-01,7.50000000000000e-01,-2.41093977306621e-03
6.51240000000000e-08,7.50000000000000e-01,7.50000000000000e-01,-3.80700339471004e-03
6.51560000000000e-08,7.50000000000000e-01,7.50000000000000e-01,-4.61309657838337e-03
6.52200000000000e-08,7.50000000000000e-01,7.50000000000000e-01,3.32532817686711e-02
6.53480000000000e-08,7.50000000000000e-01,7.50000000000000e-01,3.73992618812316e-01
6.56040000000000e-08,7.50000000000000e-01,7.50000000000000e-01,7.64394918270537e-01
6.59668471351258e-08,7.50000000000000e-01,7.50000000000000e-01,7.38388398416679e-01
6.65659807191053e-08,7.50000000000000e-01,7.50000000000000e-01,7.60798954427372e-01
6.73748383072386e-08,7.50000000000000e-01,7.50000000000000e-01,7.40018422566407e-01
6.85229567157377e-08,7.50000000000000e-01,7.50000000000000e-01,7.59410677966304e-01
7.01000000000000e-08,7.50000000000000e-01,7.50000000000000e-01,7.40949364565372e-01
7.01100000000000e-08,7.50000000000000e-01,6.75000000000014e-01,7.44123017006256e-01
7.01300000000000e-08,7.50000000000000e-01,5.25000000000043e-01,7.48241038827313e-01
7.01700000000000e-08,7.50000000000000e-01,2.25000000000100e-01,7.50083723292432e-01
7.02000000000000e-08,7.50000000000000e-01,4.29656310529936e-14,7.50038898693269e-01
7.02080000000000e-08,7.50000000000000e-01,0.00000000000000e+00,7.50026676327880e-01
7.02240000000000e-08,7.50000000000000e-01,0.00000000000000e+00,7.50008962411124e-01
7.02560000000000e-08,7.50000000000000e-01,0.00000000000000e+00,7.49978454617922e-01
7.03200000000000e-08,7.50000000000000e-01,0.00000000000000e+00,7.49922055646949e-01
7.04480000000000e-08,7.50000000000000e-01,0.00000000000000e+00,7.49939603678444e-01
7.07040000000000e-08,7.50000000000000e-01,0.00000000000000e+00,7.49929272861178e-01
7.11281155321953e-08,7.50000000000000e-01,0.00000000000000e+00,7.49930020204809e-01
7.16257872411635e-08,7.50000000000000e-01,0.00000000000000e+00,7.49941189888032e-01
7.26211306590997e-08,7.50000000000000e-01,0.00000000000000e+00,7.49939587032057e-01
7.46118174949723e-08,7.50000000000000e-01,0.00000000000000e+00,7.49955255523556e-01
7.51000000000000e-08,7.50000000000000e-01,0.00000000000000e+00,7.49950308501919e-01
7.51100000000000e-08,6.75000000000076e-01,0.00000000000000e+00,7.49916398747556e-01
7.51300000000000e-08,5.25000000000105e-01,0.00000000000000e+00,7.49881596348187e-01
7.51700000000000e-08,2.25000000000162e-01,0.00000000000000e+00,7.50402434708173e-01
7.52000000000000e-08,1.05027098129540e-13,0.00000000000000e+00,7.51412974659888e-01
7.52080000000000e-08,0.00000000000000e+00,0.00000000000000e+00,7.51599496986035e-01
7.52240000000000e-08,0.00000000000000e+00,0.00000000000000e+00,7.51649732990830e-01
7.52560000000000e-08,0.00000000000000e+00,0.00000000000000e+00,7.49404548720209e-01
7.53200000000000e-08,0.00000000000000e+00,0.00000000000000e+00,7.33532254027771e-01
7.54480000000000e-08,0.00000000000000e+00,0.00000000000000e+00,7.13036610670266e-01
7.57040000000000e-08,0.00000000000000e+00,0.00000000000000e+00,7.42255819784762e-01
7.59850373788040e-08,0.00000000000000e+00,0.00000000000000e+00,7.52590094567801e-01
7.65471121364121e-08,0.00000000000000e+00,0.00000000000000e+00,7.46961603062698e-01
7.71034053511033e-08,0.00000000000000e+00,0.00000000000000e+00,7.51290604497278e-01
7.81000000000000e-08,0.00000000000000e+00,0.00000000000000e+00,7.48143179127480e-01
7.82112586429383e-08,0.00000000000000e+00,0.00000000000000e+00,7.49205551178324e-01
7.84337759288148e-08,0.00000000000000e+00,0.00000000000000e+00,7.49819302697655e-01
7.88788105005678e-08,0.00000000000000e+00,0.00000000000000e+00,7.49527537906587e-01
7.97688796440737e-08,0.00000000000000e+00,0.00000000000000e+00,7.49778521641523e-01
8.15490179310857e-08,0.00000000000000e+00,0.00000000000000e+00,7.49609364472707e-01
8.50000000000000e-08,0.00000000000000e+00,0.00000000000000e+00,7.49803494679572e-01
8.50100000000000e-08,7.49999999999858e-02,0.00000000000000e+00,7.49813556973383e-01
8.50300000000000e-08,2.24999999999957e-01,0.00000000000000e+00,7.49813248238964e-01
8.50700000000000e-08,5.24999999999900e-01,0.00000000000000e+00,7.49726525043596e-01
8.51000000000000e-08,7.49999999999957e-01,0.00000000000000e+00,7.49587075055672e-01
8.51080000000000e-08,7.50000000000000e-01,0.00000000000000e+00,7.49549591507504e-01
8.51240000000000e-08,7.50000000000000e-01,0.00000000000000e+00,7.49508911271911e-01
8.51560000000000e-08,7.50000000000000e-01,0.00000000000000e+00,7.49574845993812e-01
8.52200000000000e-08,7.50000000000000e-01,0.00000000000000e+00,7.51253694668169e-01
8.53480000000000e-08,7.50000000000000e-01,0.00000000000000e+00,7.58715548036620e-01
8.56040000000000e-08,7.50000000000000e-01,0.00000000000000e+00,2.04458398705179e-01
8.59524043456137e-08,7.50000000000000e-01,0.00000000000000e+00,-8.55284349614168e-02
8.63670747935112e-08,7.50000000000000e-01,0.00000000000000e+00,6.96336990398068e-02
8.71352298885572e-08,7.50000000000000e-01,0.00000000000000e+00,-5.07662209003630e-02
8.79125966685001e-08,7.50000000000000e-01,0.00000000000000e+00,4.64667326818884e-02
8.94673302283859e-08,7.50000000000000e-01,0.00000000000000e+00,-3.89460684086968e-02
9.00000000000000e-08,7.50000000000000e-01,0.00000000000000e+00,3.20214948163976e-02
9.00100000000000e-08,7.50000000000000e-01,7.49999999999858e-02,2.47586929078552e-02
9.00300000000000e-08,7.50000000000000e-01,2.24999999999957e-01,1.37113860816747e-02
9.00700000000000e-08,7.50000000000000e-01,5.24999999999900e-01,3.80744718059707e-03
9.01000000000000e-08,7.50000000000000e-01,7.49999999999957e-01,1.46532920007089e-03
9.01080000000000e-08,7.50000000000000e-01,7.50000000000000e-01,1.20187364968909e-03
9.01240000000000e-08,7.50000000000000e-01,7.50000000000000e-01,7.41996824247637e-04
9.01560000000000e-08,7.50000000000000e-01,7.50000000000000e-01,2.73755870602216e-04
9.02200000000000e-08,7.50000000000000e-01,7.50000000000000e-01,2.53004366705459e-05
9.03480000000000e-08,7.50000000000000e-01,7.50000000000000e-01,-3.68248872783736e-06
9.06040000000000e-08,7.50000000000000e-01,7.50000000000000e-01,5.47774325588418e-06
9.11159999999999e-08,7.50000000000000e-01,7.50000000000000e-01,-8.05763506975081e-07
9.21399999999999e-08,7.50000000000000e-01,7.50000000000000e-01,5.62399522569066e-06
9.41879999999998e-08,7.50000000000000e-01,7.50000000000000e-01,-1.13573902548250e-08
9.51000000000000e-08,7.50000000000000e-01,7.50000000000000e-01,5.27325849021369e-06
9.51100000000000e-08,6.75000000000076e-01,7.50000000000000e-01,-2.52789508727591e-05
9.51300000000000e-08,5.25000000000105e-01,7.50000000000000e-01,-7.43520532235017e-05
9.51700000000000e-08,2.25000000000162e-01,7.50000000000000e-01,-5.00591786663472e-05
9.52000000000000e-08,1.05027098129540e-13,7.50000000000000e-01,6.72843138681684e-05
9.52080000000000e-08,0.00000000000000e+00,7.50000000000000e-01,1.22306249465305e-04
9.52240000000000e-08,0.00000000000000e+00,7.50000000000000e-01,1.74090468983389e-04
9.52560000000000e-08,0.00000000000000e+00,7.50000000000000e-01,1.53023638811423e-05
9.53200000000000e-08,0.00000000000000e+00,7.50000000000000e-01,-9.00633051816202e-04
9.54480000000000e-08,0.00000000000000e+00,7.50000000000000e-01,-7.54257578024133e-04
9.57040000000000e-08,0.00000000000000e+00,7.50000000000000e-01,9.04817684509642e-05
9.61131103033436e-08,0.00000000000000e+00,7.50000000000000e-01,2.54606853872050e-05
9.66438956803904e-08,0.00000000000000e+00,7.50000000000000e-01,1.65284674480250e-04
9.75325233855621e-08,0.00000000000000e+00,7.50000000000000e-01,-2.06646883019020e-04
9.87245017092110e-08,0.00000000000000e+00,7.50000000000000e-01,2.36352324003310e-04
1.00866585918333e-07,0.00000000000000e+00,7.50000000000000e-01,-2.33827020893846e-04
1.04254480210811e-07,0.00000000000000e+00,7.50000000000000e-01,2.45503964123326e-04
1.05000000000000e-07,0.00000000000000e+00,7.50000000000000e-01,-2.39037828369080e-04
1.05010000000000e-07,7.49999999999858e-02,7.50000000000000e-01,-1.03068862730503e-04
1.05030000000000e-07,2.24999999999957e-01,7.50000000000000e-01,6.90405574128583e-05
1.05070000000000e-07,5.24999999999900e-01,7.50000000000000e-01,-5.02493717911001e-05
1.05100000000000e-07,7.49999999999957e-01,7.50000000000000e-01,-1.64163551795873e-03
1.05108000000000e-07,7.50000000000000e-01,7.50000000000000e-01,-2.41093972468644e-03
1.05124000000000e-07,7.50000000000000e-01,7.50000000000000e-01,-3.80700336471940e-03
1.05156000000000e-07,7.50000000000000e-01,7.50000000000000e-01,-4.61309656088763e-03
1.05220000000000e-07,7.50000000000000e-01,7.50000000000000e-01,3.32532818174718e-02
1.05348000000000e-07,7.50000000000000e-01,7.50000000000000e-01,3.73992618946711e-01
1.05604000000000e-07,7.50000000000000e-01,7.50000000000000e-01,7.64394918292557e-01
1.05966847135082e-07,7.50000000000000e-01,7.50000000000000e-01,7.38388398411116e-01
