Time,v(clk),v(data),v(out)
1.00000000000000e-08,7.50000000000000e-01,0.00000000000000e+00,5.38206190305078e-07
1.00100000000000e-08,7.50000000000000e-01,7.49999999999982e-02,-1.10794041040252e-06
1.00300000000000e-08,7.50000000000000e-01,2.24999999999995e-01,-3.23481169432066e-06
1.00700000000000e-08,7.50000000000000e-01,5.24999999999987e-01,-4.29513538873980e-06
1.01000000000000e-08,7.50000000000000e-01,7.49999999999994e-01,-2.48099245189412e-06
1.01080000000000e-08,7.50000000000000e-01,7.50000000000000e-01,-1.59072449101849e-06
1.01240000000000e-08,7.50000000000000e-01,7.50000000000000e-01,-3.92373993712836e-08
1.01560000000000e-08,7.50000000000000e-01,7.50000000000000e-01,2.68361641532489e-06
1.02200000000000e-08,7.50000000000000e-01,7.50000000000000e-01,2.85507991655207e-06
1.03480000000000e-08,7.50000000000000e-01,7.50000000000000e-01,6.93466873612214e-08
1.06040000000000e-08,7.50000000000000e-01,7.50000000000000e-01,1.48262468021351e-06
1.11160000000000e-08,7.50000000000000e-01,7.50000000000000e-01,1.03734532372075e-06
1.21400000000000e-08,7.50000000000000e-01,7.50000000000000e-01,1.01766814109439e-06
1.41880000000000e-08,7.50000000000000e-01,7.50000000000000e-01,8.24021674735429e-07
1.51000000000000e-08,7.50000000000000e-01,7.50000000000000e-01,6.95233423342063e-07
1.51100000000000e-08,6.74999999999989e-01,7.50000000000000e-01,-2.87848578689603e-05
1.51300000000000e-08,5.24999999999993e-01,7.50000000000000e-01,-7.11646951155435e-05
1.51700000000000e-08,2.25000000000000e-01,7.50000000000000e-01,-7.31666389434844e-05
1.52000000000000e-08,0.00000000000000e+00,7.50000000000000e-01,1.98797814503354e-05
1.52080000000000e-08,0.00000000000000e+00,7.50000000000000e-01,7.85924479054304e-05
1.52240000000000e-08,0.00000000000000e+00,7.50000000000000e-01,1.47285308007034e-04
1.52560000000000e-08,0.00000000000000e+00,7.50000000000000e-01,1.34912130068481e-04
1.53200000000000e-08,0.00000000000000e+00,7.50000000000000e-01,-7.02407802156274e-06
1.54480000000000e-08,0.00000000000000e+00,7.50000000000000e-01,-8.36465083030608e-05
1.57040000000000e-08,0.00000000000000e+00,7.50000000000000e-01,-1.13594364471277e-04
1.61861901299734e-08,0.00000000000000e+00,7.50000000000000e-01,2.82687013964519e-05
1.68094720487842e-08,0.00000000000000e+00,7.50000000000000e-01,8.53300627421875e-05
1.78239051021367e-08,0.00000000000000e+00,7.50000000000000e-01,-8.81096426111772e-05
1.91351054524995e-08,0.00000000000000e+00,7.50000000000000e-01,8.35733830771750e-05
2.17575061532250e-08,0.00000000000000e+00,7.50000000000000e-01,-8.04709171449847e-05
2.50000000000000e-08,0.00000000000000e+00,7.50000000000000e-01,7.83084789991470e-05
2.50100000000000e-08,7.49999999999858e-02,7.50000000000000e-01,1.13428790981258e-04
2.50300000000000e-08,2.25000000000007e-01,7.50000000000000e-01,1.52926487239691e-04
2.50700000000000e-08,5.25000000000000e-01,7.50000000000000e-01,-2.60117763118579e-04
2.51000000000000e-08,7.50000000000000e-01,7.50000000000000e-01,-2.70395246212034e-03
2.51080000000000e-08,7.50000000000000e-01,7.50000000000000e-01,-3.66124421197421e-03
2.51240000000000e-08,7.50000000000000e-01,7.50000000000000e-01,-5.21340458056176e-03
2.51560000000000e-08,7.50000000000000e-01,7.50000000000000e-01,-3.74923871699638e-03
2.52200000000000e-08,7.50000000000000e-01,7.50000000000000e-01,6.61559926296554e-02
2.53480000000000e-08,7.50000000000000e-01,7.50000000000000e-01,3.92250182528566e-01
2.56040000000000e-08,7.50000000000000e-01,7.50000000000000e-01,7.50281529493424e-01
2.60282272683014e-08,7.50000000000000e-01,7.50000000000000e-01,7.47974712210639e-01
2.66059044151682e-08,7.50000000000000e-01,7.50000000000000e-01,7.52208857314390e-01
2.75948659411245e-08,7.50000000000000e-01,7.50000000000000e-01,7.47573889795213e-01
2.90290826526118e-08,7.50000000000000e-01,7.50000000000000e-01,7.52329866444255e-01
3.17068537295646e-08,7.50000000000000e-01,7.50000000000000e-01,7.47620017834114e-01
3.51000000000000e-08,7.49999999999963e-01,7.50000000000000e-01,7.52348216672623e-01
3.51100000000000e-08,6.74999999999977e-01,7.50000000000000e-01,7.51459160889605e-01
3.51300000000000e-08,5.24999999999956e-01,7.50000000000000e-01,7.50207431930209e-01
3.51700000000000e-08,2.24999999999963e-01,7.50000000000000e-01,7.49855344619787e-01
3.52000000000000e-08,0.00000000000000e+00,7.50000000000000e-01,7.50749945681323e-01
3.52080000000000e-08,0.00000000000000e+00,7.50000000000000e-01,7.51024285720095e-01
3.52240000000000e-08,0.00000000000000e+00,7.50000000000000e-01,7.51408713478709e-01
3.52560000000000e-08,0.00000000000000e+00,7.50000000000000e-01,7.51271415101274e-01
3.53200000000000e-08,0.00000000000000e+00,7.50000000000000e-01,7.44926193798660e-01
3.54480000000000e-08,0.00000000000000e+00,7.50000000000000e-01,7.18427774938883e-01
3.57040000000000e-08,0.00000000000000e+00,7.50000000000000e-01,7.16128425894974e-01
3.62160000000000e-08,0.00000000000000e+00,7.50000000000000e-01,7.53866954847952e-01
3.71996020860827e-08,0.00000000000000e+00,7.50000000000000e-01,7.45470724639611e-01
3.82752475019214e-08,0.00000000000000e+00,7.50000000000000e-01,7.52930393174729e-01
4.04265383335988e-08,0.00000000000000e+00,7.50000000000000e-01,7.46717058587827e-01
4.42265383335988e-08,0.00000000000000e+00,7.50000000000000e-01,7.52608865174993e-01
4.50000000000000e-08,0.00000000000000e+00,7.50000000000000e-01,7.47677723559856e-01
4.50100000000000e-08,7.49999999999858e-02,7.50000000000000e-01,7.48014661846883e-01
4.50300000000000e-08,2.25000000000007e-01,7.50000000000000e-01,7.48582602475832e-01
4.50700000000000e-08,5.25000000000000e-01,7.50000000000000e-01,7.48940888807632e-01
4.51000000000000e-08,7.50000000000000e-01,7.50000000000000e-01,7.47411286850399e-01
4.51080000000000e-08,7.50000000000000e-01,6.90000000000031e-01,7.46638539939961e-01
4.51240000000000e-08,7.50000000000000e-01,5.69999999999994e-01,7.45098027588339e-01
4.51560000000000e-08,7.50000000000000e-01,3.30000000000020e-01,7.42674020738017e-01
4.52000000000000e-08,7.50000000000000e-01,4.29656310529936e-14,7.42657425099002e-01
4.52064000000000e-08,7.50000000000000e-01,0.00000000000000e+00,7.43022104586360e-01
4.52192000000000e-08,7.50000000000000e-01,0.00000000000000e+00,7.43782538985622e-01
4.52448000000000e-08,7.50000000000000e-01,0.00000000000000e+00,7.45350199455641e-01
4.52960000000000e-08,7.50000000000000e-01,0.00000000000000e+00,7.47818912655761e-01
4.53984000000000e-08,7.50000000000000e-01,0.00000000000000e+00,7.49867676481648e-01
4.56032000000000e-08,7.50000000000000e-01,0.00000000000000e+00,7.50060420586894e-01
4.59050805577825e-08,7.50000000000000e-01,0.00000000000000e+00,7.49970240312702e-01
4.65088416733474e-08,7.50000000000000e-01,0.00000000000000e+00,7.50019530025381e-01
4.70848146973699e-08,7.50000000000000e-01,0.00000000000000e+00,7.49987304126353e-01
4.82367607454150e-08,7.50000000000000e-01,0.00000000000000e+00,7.50010071781844e-01
5.05406528415052e-08,7.50000000000000e-01,0.00000000000000e+00,7.49991027529402e-01
5.43406528415052e-08,7.50000000000000e-01,0.00000000000000e+00,7.50008338071007e-01
5.51000000000000e-08,7.50000000000000e-01,0.00000000000000e+00,7.49994206966975e-01
5.51100000000000e-08,6.75000000000027e-01,0.00000000000000e+00,7.49955261272455e-01
5.51300000000000e-08,5.25000000000005e-01,0.00000000000000e+00,7.49893369760470e-01
5.51700000000000e-08,2.25000000000013e-01,0.00000000000000e+00,7.50212917735572e-01
5.52000000000000e-08,0.00000000000000e+00,0.00000000000000e+00,7.51094394064339e-01
5.52080000000000e-08,0.00000000000000e+00,0.00000000000000e+00,7.51372920806111e-01
5.52240000000000e-08,0.00000000000000e+00,0.00000000000000e+00,7.51819641152132e-01
5.52560000000000e-08,0.00000000000000e+00,0.00000000000000e+00,7.52371287072107e-01
5.53200000000000e-08,0.00000000000000e+00,0.00000000000000e+00,7.52765415097476e-01
5.54480000000000e-08,0.00000000000000e+00,0.00000000000000e+00,7.53646138297580e-01
5.57040000000000e-08,0.00000000000000e+00,0.00000000000000e+00,7.50920776068362e-01
5.60067961933736e-08,0.00000000000000e+00,0.00000000000000e+00,7.48503229182247e-01
5.66123885801208e-08,0.00000000000000e+00,0.00000000000000e+00,7.49602092231727e-01
5.71936214495896e-08,0.00000000000000e+00,0.00000000000000e+00,7.49427094776355e-01
5.83560871885273e-08,0.00000000000000e+00,0.00000000000000e+00,7.49643678033763e-01
6.06810186664026e-08,0.00000000000000e+00,0.00000000000000e+00,7.49740084368932e-01
6.44810186664026e-08,0.00000000000000e+00,0.00000000000000e+00,7.49762172785364e-01
6.50000000000000e-08,0.00000000000000e+00,0.00000000000000e+00,7.49836014456632e-01
6.50100000000000e-08,7.49999999999858e-02,0.00000000000000e+00,7.49846370516168e-01
6.50300000000000e-08,2.24999999999957e-01,0.00000000000000e+00,7.49857041056124e-01
6.50700000000000e-08,5.24999999999900e-01,0.00000000000000e+00,7.49763504243178e-01
6.51000000000000e-08,7.49999999999957e-01,0.00000000000000e+00,7.49530393463373e-01
6.51080000000000e-08,7.50000000000000e-01,0.00000000000000e+00,7.49467773336006e-01
6.51240000000000e-08,7.50000000000000e-01,0.00000000000000e+00,7.49390785657361e-01
6.51560000000000e-08,7.50000000000000e-01,0.00000000000000e+00,7.49668666371791e-01
6.52200000000000e-08,7.50000000000000e-01,0.00000000000000e+00,7.52892413199253e-01
6.53480000000000e-08,7.50000000000000e-01,0.00000000000000e+00,7.61144280335692e-01
6.56040000000000e-08,7.50000000000000e-01,0.00000000000000e+00,1.43405749172630e-01
6.60011134055328e-08,7.50000000000000e-01,0.00000000000000e+00,-7.48801073257826e-02
6.63868410609929e-08,7.50000000000000e-01,0.00000000000000e+00,6.88192592602433e-02
6.71582963719131e-08,7.50000000000000e-01,0.00000000000000e+00,-5.28034761933358e-02
6.80487981399120e-08,7.50000000000000e-01,0.00000000000000e+00,5.31203202204386e-02
6.95918920196195e-08,7.50000000000000e-01,0.00000000000000e+00,-4.51103793373585e-02
7.19540040929914e-08,7.50000000000000e-01,0.00000000000000e+00,4.76035820313957e-02
7.51000000000000e-08,7.50000000000000e-01,0.00000000000000e+00,-4.22392090532555e-02
7.51100000000000e-08,6.75000000000076e-01,0.00000000000000e+00,-2.85360906529982e-02
7.51300000000000e-08,5.25000000000105e-01,0.00000000000000e+00,-1.03355446943562e-02
7.51700000000000e-08,2.25000000000162e-01,0.00000000000000e+00,-5.41537423241485e-04
7.52000000000000e-08,1.05027098129540e-13,0.00000000000000e+00,-6.47229630179914e-05
7.52080000000000e-08,0.00000000000000e+00,0.00000000000000e+00,-1.68823601887913e-05
7.52240000000000e-08,0.00000000000000e+00,0.00000000000000e+00,7.97490702719242e-05
7.52560000000000e-08,0.00000000000000e+00,0.00000000000000e+00,9.92936298654483e-05
7.53200000000000e-08,0.00000000000000e+00,0.00000000000000e+00,-1.65060969668247e-04
7.54480000000000e-08,0.00000000000000e+00,0.00000000000000e+00,-7.24090684455544e-04
7.57040000000000e-08,0.00000000000000e+00,0.00000000000000e+00,2.82345937715393e-04
7.60594332366111e-08,0.00000000000000e+00,0.00000000000000e+00,-1.49783440331910e-04
7.67702997098335e-08,0.00000000000000e+00,0.00000000000000e+00,9.81898780921990e-05
7.77837409411563e-08,0.00000000000000e+00,0.00000000000000e+00,-6.60868617841349e-05
7.98106234038019e-08,0.00000000000000e+00,0.00000000000000e+00,5.20532217768356e-05
8.36106234038019e-08,0.00000000000000e+00,0.00000000000000e+00,-4.44784118624750e-05
8.50000000000000e-08,0.00000000000000e+00,0.00000000000000e+00,2.60999222045340e-05
8.50100000000000e-08,7.49999999999858e-02,0.00000000000000e+00,1.47950047440244e-04
8.50300000000000e-08,2.24999999999957e-01,0.00000000000000e+00,2.15643139294588e-04
8.50700000000000e-08,5.24999999999900e-01,0.00000000000000e+00,5.22414807522034e-06
8.51000000000000e-08,7.49999999999957e-01,0.00000000000000e+00,-1.85874563157697e-04
8.51080000000000e-08,7.50000000000000e-01,0.00000000000000e+00,-2.04509285927405e-04
8.51240000000000e-08,7.50000000000000e-01,0.00000000000000e+00,-2.15080226556204e-04
8.51560000000000e-08,7.50000000000000e-01,0.00000000000000e+00,-1.78405305618863e-04
8.52200000000000e-08,7.50000000000000e-01,0.00000000000000e+00,-4.31247284425687e-05
8.53480000000000e-08,7.50000000000000e-01,0.00000000000000e+00,1.17025388214032e-04
8.56040000000000e-08,7.50000000000000e-01,0.00000000000000e+00,-1.97344332299740e-05
8.60022396149308e-08,7.50000000000000e-01,0.00000000000000e+00,1.17267137326104e-05
8.66350141469696e-08,7.50000000000000e-01,0.00000000000000e+00,-1.05731787975946e-06
8.79005632110471e-08,7.50000000000000e-01,0.00000000000000e+00,3.87943281243350e-06
9.00000000000000e-08,7.50000000000000e-01,0.00000000000000e+00,1.74161882457121e-07
9.00100000000000e-08,7.50000000000000e-01,7.49999999999858e-02,-1.31686471474546e-06
9.00300000000000e-08,7.50000000000000e-01,2.24999999999957e-01,-3.27600298441477e-06
9.00700000000000e-08,7.50000000000000e-01,5.24999999999900e-01,-4.25331670344392e-06
9.01000000000000e-08,7.50000000000000e-01,7.49999999999957e-01,-2.35113004902129e-06
9.01080000000000e-08,7.50000000000000e-01,7.50000000000000e-01,-1.50924355594301e-06
9.01240000000000e-08,7.50000000000000e-01,7.50000000000000e-01,-1.70225766121801e-09
9.01560000000000e-08,7.50000000000000e-01,7.50000000000000e-01,3.10475926340939e-06
9.02200000000000e-08,7.50000000000000e-01,7.50000000000000e-01,2.73405975978816e-06
9.03480000000000e-08,7.50000000000000e-01,7.50000000000000e-01,1.58284415172072e-07
9.06040000000000e-08,7.50000000000000e-01,7.50000000000000e-01,1.44597100706304e-06
9.11159999999999e-08,7.50000000000000e-01,7.50000000000000e-01,1.06260869195060e-06
9.21399999999999e-08,7.50000000000000e-01,7.50000000000000e-01,9.98093698505653e-07
9.41879999999998e-08,7.50000000000000e-01,7.50000000000000e-01,8.42183103513501e-07
9.51000000000000e-08,7.50000000000000e-01,7.50000000000000e-01,6.81482319543018e-07
9.51100000000000e-08,6.75000000000076e-01,7.50000000000000e-01,-2.88136920746536e-05
9.51300000000000e-08,5.25000000000105e-01,7.50000000000000e-01,-7.11711271301971e-05
9.51700000000000e-08,2.25000000000162e-01,7.50000000000000e-01,-7.31684352822705e-05
9.52000000000000e-08,1.05027098129540e-13,7.50000000000000e-01,1.98792385283295e-05
9.52080000000000e-08,0.00000000000000e+00,7.50000000000000e-01,7.85916751203097e-05
9.52240000000000e-08,0.00000000000000e+00,7.50000000000000e-01,1.47284742659251e-04
9.52560000000000e-08,0.00000000000000e+00,7.50000000000000e-01,1.34912792167138e-04
9.53200000000000e-08,0.00000000000000e+00,7.50000000000000e-01,-7.01512565757373e-06
9.54480000000000e-08,0.00000000000000e+00,7.50000000000000e-01,-8.36338282959193e-05
9.57040000000000e-08,0.00000000000000e+00,7.50000000000000e-01,-1.13600639218376e-04
9.61861917331149e-08,0.00000000000000e+00,7.50000000000000e-01,2.82732312910476e-05
9.68094739372989e-08,0.00000000000000e+00,7.50000000000000e-01,8.53262669454841e-05
9.78239093907458e-08,0.00000000000000e+00,7.50000000000000e-01,-8.81062690627622e-05
9.91351121474523e-08,0.00000000000000e+00,7.50000000000000e-01,8.35703044648895e-05
1.01757517660865e-07,0.00000000000000e+00,7.50000000000000e-01,-8.04679852461691e-05
1.05000000000000e-07,0.00000000000000e+00,7.50000000000000e-01,7.83056576230619e-05
1.05010000000000e-07,7.49999999999858e-02,7.50000000000000e-01,1.13426158893062e-04
1.05030000000000e-07,2.24999999999957e-01,7.50000000000000e-01,1.52924713753493e-04
1.05070000000000e-07,5.24999999999900e-01,7.50000000000000e-01,-2.60118000397779e-04
1.05100000000000e-07,7.49999999999957e-01,7.50000000000000e-01,-2.70395250917597e-03
1.05108000000000e-07,7.50000000000000e-01,7.50000000000000e-01,-3.66124423838667e-03
1.05124000000000e-07,7.50000000000000e-01,7.50000000000000e-01,-5.21340457170801e-03
1.05156000000000e-07,7.50000000000000e-01,7.50000000000000e-01,-3.74923792562896e-03
1.05220000000000e-07,7.50000000000000e-01,7.50000000000000e-01,6.61559980919182e-02
1.05348000000000e-07,7.50000000000000e-01,7.50000000000000e-01,3.92250191786681e-01
1.05604000000000e-07,7.50000000000000e-01,7.50000000000000e-01,7.50281530787045e-01
1.06028227270676e-07,7.50000000000000e-01,7.50000000000000e-01,7.47974711494874e-01
1.06605904417023e-07,7.50000000000000e-01,7.50000000000000e-01,7.52208857899005e-01
1.07594865949977e-07,7.50000000000000e-01,7.50000000000000e-01,7.47573889334075e-01
1.09029082699364e-07,7.50000000000000e-01,7.50000000000000e-01,7.52329866876454e-01
1.11706853837115e-07,7.50000000000000e-01,7.50000000000000e-01,7.47620017441500e-01
1.15100000000000e-07,7.50000000000000e-01,7.50000000000000e-01,7.52348217053854e-01
1.15110000000000e-07,6.75000000000076e-01,7.50000000000000e-01,7.51459161194981e-01
1.15130000000000e-07,5.25000000000105e-01,7.50000000000000e-01,7.50207432113310e-01
1.15170000000000e-07,2.25000000000162e-01,7.50000000000000e-01,7.49855344677511e-01
1.15200000000000e-07,1.05027098129540e-13,7.50000000000000e-01,7.50749945711867e-01
1.15208000000000e-07,0.00000000000000e+00,7.50000000000000e-01,7.51024285746885e-01
1.15224000000000e-07,0.00000000000000e+00,7.50000000000000e-01,7.51408713499985e-01
1.15256000000000e-07,0.00000000000000e+00,7.50000000000000e-01,7.51271415121569e-01
1.15320000000000e-07,0.00000000000000e+00,7.50000000000000e-01,7.44926193855357e-01
1.15448000000000e-07,0.00000000000000e+00,7.50000000000000e-01,7.18427775021129e-01
1.15704000000000e-07,0.00000000000000e+00,7.50000000000000e-01,7.16128425826408e-01
1.16216000000000e-07,0.00000000000000e+00,7.50000000000000e-01,7.53866954821515e-01
1.17199602090773e-07,0.00000000000000e+00,7.50000000000000e-01,7.45470724692496e-01
1.18275247503022e-07,0.00000000000000e+00,7.50000000000000e-01,7.52930393141984e-01
1.20426538327519e-07,0.00000000000000e+00,7.50000000000000e-01,7.46717058626528e-01
1.24226538327519e-07,0.00000000000000e+00,7.50000000000000e-01,7.52608865139613e-01
1.25000000000000e-07,0.00000000000000e+00,7.50000000000000e-01,7.47677723581128e-01
1.25010000000000e-07,7.49999999998865e-02,7.50000000000000e-01,7.48014661865434e-01
1.25030000000000e-07,2.24999999999858e-01,7.50000000000000e-01,7.48582602489480e-01
1.25070000000000e-07,5.24999999999801e-01,7.50000000000000e-01,7.48940888813367e-01
1.25100000000000e-07,7.49999999999858e-01,7.50000000000000e-01,7.47411286851493e-01
1.25108000000000e-07,7.50000000000000e-01,6.89999999999932e-01,7.46638539940379e-01
1.25124000000000e-07,7.50000000000000e-01,5.69999999999994e-01,7.45098027587782e-01
1.25156000000000e-07,7.50000000000000e-01,3.29999999999921e-01,7.42674020735911e-01
1.25200000000000e-07,7.50000000000000e-01,0.00000000000000e+00,7.42657425100446e-01
1.25206400000000e-07,7.50000000000000e-01,0.00000000000000e+00,7.43022104587875e-01
1.25219200000000e-07,7.50000000000000e-01,0.00000000000000e+00,7.43782538987292e-01
1.25244800000000e-07,7.50000000000000e-01,0.00000000000000e+00,7.45350199457277e-01
1.25296000000000e-07,7.50000000000000e-01,0.00000000000000e+00,7.47818912658807e-01
1.25398400000000e-07,7.50000000000000e-01,0.00000000000000e+00,7.49867676481709e-01
1.25603200000000e-07,7.50000000000000e-01,0.00000000000000e+00,7.50060420586637e-01
1.25905080558847e-07,7.50000000000000e-01,0.00000000000000e+00,7.49970240312369e-01
1.26508841676540e-07,7.50000000000000e-01,0.00000000000000e+00,7.50019530025571e-01
1.27084814706894e-07,7.50000000000000e-01,0.00000000000000e+00,7.49987304125860e-01
1.28236760767602e-07,7.50000000000000e-01,0.00000000000000e+00,7.50010071782183e-01
1.30540652889018e-07,7.50000000000000e-01,0.00000000000000e+00,7.49991027529151e-01
1.34340652889018e-07,7.50000000000000e-01,0.00000000000000e+00,7.50008338071287e-01
1.35100000000000e-07,7.49999999999864e-01,0.00000000000000e+00,7.49994206966862e-01
1.35110000000000e-07,6.74999999999778e-01,0.00000000000000e+00,7.49955261272328e-01
1.35130000000000e-07,5.24999999999807e-01,0.00000000000000e+00,7.49893369760420e-01
1.35170000000000e-07,2.24999999999864e-01,0.00000000000000e+00,7.50212917735469e-01
1.35200000000000e-07,0.00000000000000e+00,0.00000000000000e+00,7.51094394064281e-01
1.35208000000000e-07,0.00000000000000e+00,0.00000000000000e+00,7.51372920806059e-01
1.35224000000000e-07,0.00000000000000e+00,0.00000000000000e+00,7.51819641151950e-01
