Time,v(clk),v(data),v(out),v(reset)
1.00000000000000e-08,7.50000000000000e-01,0.00000000000000e+00,1.29633863980559e-05,0.00000000000000e+00
1.00100000000000e-08,7.50000000000000e-01,7.49999999999982e-02,1.15477895070853e-05,0.00000000000000e+00
1.00300000000000e-08,7.50000000000000e-01,2.24999999999995e-01,8.62097138265572e-06,0.00000000000000e+00
1.00700000000000e-08,7.50000000000000e-01,5.24999999999987e-01,4.97758533862108e-06,0.00000000000000e+00
1.01000000000000e-08,7.50000000000000e-01,7.49999999999994e-01,3.38669752770332e-06,0.00000000000000e+00
1.01080000000000e-08,7.50000000000000e-01,7.50000000000000e-01,3.68769695403837e-06,0.00000000000000e+00
1.01240000000000e-08,7.50000000000000e-01,7.50000000000000e-01,4.24950158472298e-06,0.00000000000000e+00
1.01560000000000e-08,7.50000000000000e-01,7.50000000000000e-01,5.53283148265610e-06,0.00000000000000e+00
1.02200000000000e-08,7.50000000000000e-01,7.50000000000000e-01,5.72729469580299e-06,0.00000000000000e+00
1.03480000000000e-08,7.50000000000000e-01,7.50000000000000e-01,4.09106334531631e-06,0.00000000000000e+00
1.06040000000000e-08,7.50000000000000e-01,7.50000000000000e-01,2.74484748440801e-06,0.00000000000000e+00
1.11160000000000e-08,7.50000000000000e-01,7.50000000000000e-01,3.82035015141988e-06,0.00000000000000e+00
1.21400000000000e-08,7.50000000000000e-01,7.50000000000000e-01,2.38956057447941e-06,0.00000000000000e+00
1.41880000000000e-08,7.50000000000000e-01,7.50000000000000e-01,3.09055530811966e-06,0.00000000000000e+00
1.51000000000000e-08,7.50000000000000e-01,7.50000000000000e-01,1.96143514657500e-06,0.00000000000000e+00
1.51100000000000e-08,6.74999999999989e-01,7.50000000000000e-01,7.57903834699980e-05,7.50000000000106e-02
1.51300000000000e-08,5.24999999999993e-01,7.50000000000000e-01,1.40158292995865e-04,2.25000000000007e-01
1.51700000000000e-08,2.25000000000000e-01,7.50000000000000e-01,1.10414866660358e-04,5.25000000000000e-01
1.52000000000000e-08,0.00000000000000e+00,7.50000000000000e-01,9.50244228748107e-05,7.50000000000000e-01
1.52080000000000e-08,0.00000000000000e+00,7.50000000000000e-01,9.86748738361631e-05,7.50000000000000e-01
1.52240000000000e-08,0.00000000000000e+00,7.50000000000000e-01,1.02609077985330e-04,7.50000000000000e-01
1.52560000000000e-08,0.00000000000000e+00,7.50000000000000e-01,9.33778892604903e-05,7.50000000000000e-01
1.53200000000000e-08,0.00000000000000e+00,7.50000000000000e-01,1.34429108869030e-05,7.50000000000000e-01
1.54480000000000e-08,0.00000000000000e+00,7.50000000000000e-01,-1.27798359430279e-04,7.50000000000000e-01
1.56944996727966e-08,0.00000000000000e+00,7.50000000000000e-01,-1.72295689376994e-04,7.50000000000000e-01
1.61201004483453e-08,0.00000000000000e+00,7.50000000000000e-01,1.24162152111796e-04,7.50000000000000e-01
1.66234782839392e-08,0.00000000000000e+00,7.50000000000000e-01,6.07712691710260e-05,7.50000000000000e-01
1.76302339551271e-08,0.00000000000000e+00,7.50000000000000e-01,-9.37624175234627e-05,7.50000000000000e-01
1.87762598366408e-08,0.00000000000000e+00,7.50000000000000e-01,1.12852143729406e-04,7.50000000000000e-01
2.10683115996684e-08,0.00000000000000e+00,7.50000000000000e-01,-1.16183926250023e-04,7.50000000000000e-01
2.46279841865651e-08,0.00000000000000e+00,7.50000000000000e-01,1.19770657623286e-04,7.50000000000000e-01
2.50000000000000e-08,0.00000000000000e+00,7.50000000000000e-01,-1.15292791038519e-04,7.50000000000000e-01
2.50100000000000e-08,7.49999999999858e-02,7.50000000000000e-01,-3.58964067300876e-05,7.50000000000000e-01
2.50300000000000e-08,2.25000000000007e-01,7.50000000000000e-01,8.83754663143776e-05,7.50000000000000e-01
2.50700000000000e-08,5.25000000000000e-01,7.50000000000000e-01,1.73448296776658e-04,7.50000000000000e-01
2.51000000000000e-08,7.50000000000000e-01,7.50000000000000e-01,-4.39664665558281e-04,7.50000000000000e-01
2.51080000000000e-08,7.50000000000000e-01,7.50000000000000e-01,-8.72273640129956e-04,7.50000000000000e-01
2.51240000000000e-08,7.50000000000000e-01,7.50000000000000e-01,-1.83881349035305e-03,7.50000000000000e-01
2.51560000000000e-08,7.50000000000000e-01,7.50000000000000e-01,-3.73232248339690e-03,7.50000000000000e-01
2.52200000000000e-08,7.50000000000000e-01,7.50000000000000e-01,-3.72407690106217e-03,7.50000000000000e-01
2.53480000000000e-08,7.50000000000000e-01,7.50000000000000e-01,1.51204671740000e-01,7.50000000000000e-01
2.56040000000000e-08,7.50000000000000e-01,7.50000000000000e-01,6.89815590401394e-01,7.50000000000000e-01
2.61160000000000e-08,7.50000000000000e-01,7.50000000000000e-01,7.69276950744631e-01,7.50000000000000e-01
2.67122407067094e-08,7.50000000000000e-01,7.50000000000000e-01,7.31053427397868e-01,7.50000000000000e-01
2.77095928922619e-08,7.50000000000000e-01,7.50000000000000e-01,7.66435992980240e-01,7.50000000000000e-01
2.90604359679955e-08,7.50000000000000e-01,7.50000000000000e-01,7.33340154202377e-01,7.50000000000000e-01
3.17621221194628e-08,7.50000000000000e-01,7.50000000000000e-01,7.65357233887060e-01,7.50000000000000e-01
3.51000000000000e-08,7.49999999999963e-01,7.50000000000000e-01,7.34100319256319e-01,7.50000000000000e-01
3.51100000000000e-08,6.74999999999977e-01,7.50000000000000e-01,7.40206631358472e-01,7.50000000000000e-01
3.51300000000000e-08,5.24999999999956e-01,7.50000000000000e-01,7.47690761270148e-01,7.50000000000000e-01
3.51700000000000e-08,2.24999999999963e-01,7.50000000000000e-01,7.50723422972705e-01,7.50000000000000e-01
3.52000000000000e-08,0.00000000000000e+00,7.50000000000000e-01,7.51628772997974e-01,7.50000000000000e-01
3.52080000000000e-08,0.00000000000000e+00,7.50000000000000e-01,7.51817570836858e-01,7.50000000000000e-01
3.52240000000000e-08,0.00000000000000e+00,7.50000000000000e-01,7.51757672131034e-01,7.50000000000000e-01
3.52560000000000e-08,0.00000000000000e+00,7.50000000000000e-01,7.48026063052182e-01,7.50000000000000e-01
3.53200000000000e-08,0.00000000000000e+00,7.50000000000000e-01,7.28267841950629e-01,7.50000000000000e-01
3.54480000000000e-08,0.00000000000000e+00,7.50000000000000e-01,7.19270626341571e-01,7.50000000000000e-01
3.57040000000000e-08,0.00000000000000e+00,7.50000000000000e-01,7.50856807743535e-01,7.50000000000000e-01
3.61932227645484e-08,0.00000000000000e+00,7.50000000000000e-01,7.48260959972788e-01,7.50000000000000e-01
3.67824096808228e-08,0.00000000000000e+00,7.50000000000000e-01,7.50884933027408e-01,7.50000000000000e-01
3.79607835133717e-08,0.00000000000000e+00,7.50000000000000e-01,7.48734000393892e-01,7.50000000000000e-01
4.03175311784694e-08,0.00000000000000e+00,7.50000000000000e-01,7.50953149119962e-01,7.50000000000000e-01
4.41175311784694e-08,0.00000000000000e+00,7.50000000000000e-01,7.48901251311928e-01,7.50000000000000e-01
4.50000000000000e-08,0.00000000000000e+00,7.50000000000000e-01,7.50862331186380e-01,7.50000000000000e-01
4.50100000000000e-08,7.49999999999858e-02,7.50000000000000e-01,7.50558158875658e-01,6.75000000000014e-01
4.50300000000000e-08,2.25000000000007e-01,7.50000000000000e-01,7.50124216970540e-01,5.24999999999993e-01
4.50700000000000e-08,5.25000000000000e-01,7.50000000000000e-01,7.51494917675993e-01,2.25000000000000e-01
4.51000000000000e-08,7.50000000000000e-01,7.50000000000000e-01,7.55236903462917e-01,0.00000000000000e+00
4.51080000000000e-08,7.50000000000000e-01,7.50000000000000e-01,7.56369535726186e-01,0.00000000000000e+00
4.51240000000000e-08,7.50000000000000e-01,7.50000000000000e-01,7.58328268772317e-01,0.00000000000000e+00
4.51560000000000e-08,7.50000000000000e-01,7.50000000000000e-01,7.61729997144313e-01,0.00000000000000e+00
4.52200000000000e-08,7.50000000000000e-01,7.50000000000000e-01,7.57511999492058e-01,0.00000000000000e+00
4.53480000000000e-08,7.50000000000000e-01,7.50000000000000e-01,4.28400042610944e-01,0.00000000000000e+00
4.56040000000000e-08,7.50000000000000e-01,7.50000000000000e-01,-3.46141654923433e-02,0.00000000000000e+00
4.59438715849954e-08,7.50000000000000e-01,7.50000000000000e-01,2.09294137023552e-02,0.00000000000000e+00
4.65727544781731e-08,7.50000000000000e-01,7.50000000000000e-01,-1.53337718909496e-02,0.00000000000000e+00
4.72340215129279e-08,7.50000000000000e-01,7.50000000000000e-01,1.21866717997038e-02,0.00000000000000e+00
4.85565555824373e-08,7.50000000000000e-01,7.50000000000000e-01,-1.06712519390447e-02,0.00000000000000e+00
5.01000000000000e-08,7.50000000000000e-01,7.49999999999957e-01,9.76931794705570e-03,0.00000000000000e+00
5.03645068139019e-08,7.50000000000000e-01,7.50000000000000e-01,1.17339412216966e-03,0.00000000000000e+00
5.08935204417057e-08,7.50000000000000e-01,7.50000000000000e-01,-8.09195351246780e-04,0.00000000000000e+00
5.19515476973133e-08,7.50000000000000e-01,7.50000000000000e-01,6.78759352038819e-04,0.00000000000000e+00
5.40676022085285e-08,7.50000000000000e-01,7.50000000000000e-01,-6.19190151120532e-04,0.00000000000000e+00
5.51000000000000e-08,7.50000000000000e-01,7.50000000000000e-01,5.18674741658207e-04,0.00000000000000e+00
5.51100000000000e-08,6.75000000000027e-01,7.50000000000000e-01,4.79150161197484e-04,7.49999999999734e-02
5.51300000000000e-08,5.25000000000005e-01,7.50000000000000e-01,3.92421492279901e-04,2.24999999999995e-01
5.51700000000000e-08,2.25000000000013e-01,7.50000000000000e-01,2.27819897354792e-04,5.24999999999987e-01
5.52000000000000e-08,0.00000000000000e+00,7.50000000000000e-01,1.49845495526227e-04,7.50000000000000e-01
5.52080000000000e-08,0.00000000000000e+00,7.50000000000000e-01,1.41925128973056e-04,7.50000000000000e-01
5.52240000000000e-08,0.00000000000000e+00,7.50000000000000e-01,1.24217813239604e-04,7.50000000000000e-01
5.52560000000000e-08,0.00000000000000e+00,7.50000000000000e-01,-1.82978089326366e-05,7.50000000000000e-01
5.53200000000000e-08,0.00000000000000e+00,7.50000000000000e-01,-9.11676110031921e-04,7.50000000000000e-01
5.54480000000000e-08,0.00000000000000e+00,7.50000000000000e-01,-9.41149452883743e-04,7.50000000000000e-01
5.56815444462146e-08,0.00000000000000e+00,7.50000000000000e-01,3.54445598108372e-04,7.50000000000000e-01
5.60639410239895e-08,0.00000000000000e+00,7.50000000000000e-01,-3.28449571310516e-04,7.50000000000000e-01
5.65645370091107e-08,0.00000000000000e+00,7.50000000000000e-01,2.68258144795837e-04,7.50000000000000e-01
5.75657289793531e-08,0.00000000000000e+00,7.50000000000000e-01,-1.95998150927251e-04,7.50000000000000e-01
5.86458152307444e-08,0.00000000000000e+00,7.50000000000000e-01,1.47313790509519e-04,7.50000000000000e-01
6.08059877335269e-08,0.00000000000000e+00,7.50000000000000e-01,-1.23592160518101e-04,7.50000000000000e-01
6.44551060805623e-08,0.00000000000000e+00,7.50000000000000e-01,1.14106336129438e-04,7.50000000000000e-01
6.50000000000000e-08,0.00000000000000e+00,7.50000000000000e-01,-5.20240655110830e-05,7.50000000000000e-01
6.50100000000000e-08,7.49999999999858e-02,7.50000000000000e-01,1.04201778751353e-05,7.50000000000000e-01
6.50300000000000e-08,2.24999999999957e-01,7.50000000000000e-01,9.46673215062727e-05,7.50000000000000e-01
6.50700000000000e-08,5.24999999999900e-01,7.50000000000000e-01,1.54883889883453e-04,7.50000000000000e-01
6.51000000000000e-08,7.49999999999957e-01,7.50000000000000e-01,-4.20227560977836e-04,7.50000000000000e-01
6.51080000000000e-08,7.50000000000000e-01,7.50000000000000e-01,-8.42646755943657e-04,7.50000000000000e-01
6.51240000000000e-08,7.50000000000000e-01,7.50000000000000e-01,-1.79675733526187e-03,7.50000000000000e-01
6.51560000000000e-08,7.50000000000000e-01,7.50000000000000e-01,-3.69411221309884e-03,7.50000000000000e-01
6.52200000000000e-08,7.50000000000000e-01,7.50000000000000e-01,-3.89374349300186e-03,7.50000000000000e-01
6.53480000000000e-08,7.50000000000000e-01,7.50000000000000e-01,1.48413085085597e-01,7.50000000000000e-01
6.56040000000000e-08,7.50000000000000e-01,7.50000000000000e-01,6.88156764230202e-01,7.50000000000000e-01
6.61159999999999e-08,7.50000000000000e-01,7.50000000000000e-01,7.69690180880959e-01,7.50000000000000e-01
6.67091706880986e-08,7.50000000000000e-01,7.50000000000000e-01,7.30650650438969e-01,7.50000000000000e-01
6.77087344376738e-08,7.50000000000000e-01,7.50000000000000e-01,7.66786992837039e-01,7.50000000000000e-01
6.90585769100772e-08,7.50000000000000e-01,7.50000000000000e-01,7.32979218011982e-01,7.50000000000000e-01
7.17582618548840e-08,7.50000000000000e-01,7.50000000000000e-01,7.65685009159657e-01,7.50000000000000e-01
7.51000000000000e-08,7.50000000000000e-01,7.50000000000000e-01,7.33754944169486e-01,7.50000000000000e-01
7.51100000000000e-08,6.75000000000076e-01,7.50000000000000e-01,7.39995418949511e-01,7.50000000000000e-01
7.51300000000000e-08,5.25000000000105e-01,7.50000000000000e-01,7.47644249012728e-01,7.50000000000000e-01
7.51700000000000e-08,2.25000000000162e-01,7.50000000000000e-01,7.50729814995992e-01,7.50000000000000e-01
7.52000000000000e-08,1.05027098129540e-13,7.50000000000000e-01,7.51628248287203e-01,7.50000000000000e-01
7.52080000000000e-08,0.00000000000000e+00,7.50000000000000e-01,7.51816211741378e-01,7.50000000000000e-01
7.52240000000000e-08,0.00000000000000e+00,7.50000000000000e-01,7.51752607871386e-01,7.50000000000000e-01
7.52560000000000e-08,0.00000000000000e+00,7.50000000000000e-01,7.48002128519394e-01,7.50000000000000e-01
7.53200000000000e-08,0.00000000000000e+00,7.50000000000000e-01,7.28223712838485e-01,7.50000000000000e-01
7.54480000000000e-08,0.00000000000000e+00,7.50000000000000e-01,7.19268445503738e-01,7.50000000000000e-01
7.57040000000000e-08,0.00000000000000e+00,7.50000000000000e-01,7.50864617221274e-01,7.50000000000000e-01
7.61931871072816e-08,0.00000000000000e+00,7.50000000000000e-01,7.48253994495325e-01,7.50000000000000e-01
7.67823900568819e-08,0.00000000000000e+00,7.50000000000000e-01,7.50890230066322e-01,7.50000000000000e-01
7.79607959560826e-08,0.00000000000000e+00,7.50000000000000e-01,7.48729024802710e-01,7.50000000000000e-01
8.03176077544838e-08,0.00000000000000e+00,7.50000000000000e-01,7.50957806996169e-01,7.50000000000000e-01
8.41176077544838e-08,0.00000000000000e+00,7.50000000000000e-01,7.48896706001027e-01,7.50000000000000e-01
8.50000000000000e-08,0.00000000000000e+00,7.50000000000000e-01,7.50866275685535e-01,7.50000000000000e-01
8.50100000000000e-08,7.49999999999858e-02,7.50000000000000e-01,7.50561066859396e-01,6.75000000000014e-01
8.50300000000000e-08,2.24999999999957e-01,7.50000000000000e-01,7.50125615204862e-01,5.25000000000043e-01
8.50700000000000e-08,5.24999999999900e-01,7.50000000000000e-01,7.51495168321614e-01,2.25000000000100e-01
8.51000000000000e-08,7.49999999999957e-01,7.50000000000000e-01,7.55237036727011e-01,4.29656310529936e-14
8.51080000000000e-08,7.50000000000000e-01,7.50000000000000e-01,7.56369661082038e-01,0.00000000000000e+00
8.51240000000000e-08,7.50000000000000e-01,7.50000000000000e-01,7.58328368904749e-01,0.00000000000000e+00
8.51560000000000e-08,7.50000000000000e-01,7.50000000000000e-01,7.61730012167089e-01,0.00000000000000e+00
8.52200000000000e-08,7.50000000000000e-01,7.50000000000000e-01,7.57511751471325e-01,0.00000000000000e+00
8.53480000000000e-08,7.50000000000000e-01,7.50000000000000e-01,4.28402385520535e-01,0.00000000000000e+00
8.56040000000000e-08,7.50000000000000e-01,7.50000000000000e-01,-3.46125561608126e-02,0.00000000000000e+00
8.59438737352810e-08,7.50000000000000e-01,7.50000000000000e-01,2.09284445079073e-02,0.00000000000000e+00
8.65727307281411e-08,7.50000000000000e-01,7.50000000000000e-01,-1.53328999950533e-02,0.00000000000000e+00
8.72340087616092e-08,7.50000000000000e-01,7.50000000000000e-01,1.21860241930657e-02,0.00000000000000e+00
8.85565648285455e-08,7.50000000000000e-01,7.50000000000000e-01,-1.06707148586201e-02,0.00000000000000e+00
9.01000000000000e-08,7.50000000000000e-01,7.49999999999957e-01,9.76881644931039e-03,0.00000000000000e+00
9.03645112133872e-08,7.50000000000000e-01,7.50000000000000e-01,1.17331676142439e-03,0.00000000000000e+00
9.08935336401617e-08,7.50000000000000e-01,7.50000000000000e-01,-8.09147126799569e-04,0.00000000000000e+00
9.19515784937107e-08,7.50000000000000e-01,7.50000000000000e-01,6.78721014380301e-04,0.00000000000000e+00
9.40676682008088e-08,7.50000000000000e-01,7.50000000000000e-01,-6.19155979248219e-04,0.00000000000000e+00
9.51000000000000e-08,7.50000000000000e-01,7.50000000000000e-01,5.18640220708075e-04,0.00000000000000e+00
9.51100000000000e-08,6.75000000000076e-01,7.50000000000000e-01,4.79123530126538e-04,7.49999999999237e-02
9.51300000000000e-08,5.25000000000105e-01,7.50000000000000e-01,3.92404718396216e-04,2.24999999999895e-01
9.51700000000000e-08,2.25000000000162e-01,7.50000000000000e-01,2.27811932101925e-04,5.24999999999838e-01
9.52000000000000e-08,1.05027098129540e-13,7.50000000000000e-01,1.49841021073724e-04,7.49999999999895e-01
9.52080000000000e-08,0.00000000000000e+00,7.50000000000000e-01,1.41921286004099e-04,7.50000000000000e-01
9.52240000000000e-08,0.00000000000000e+00,7.50000000000000e-01,1.24216220027472e-04,7.50000000000000e-01
9.52560000000000e-08,0.00000000000000e+00,7.50000000000000e-01,-1.82853751030665e-05,7.50000000000000e-01
9.53200000000000e-08,0.00000000000000e+00,7.50000000000000e-01,-9.11582227963031e-04,7.50000000000000e-01
9.54480000000000e-08,0.00000000000000e+00,7.50000000000000e-01,-9.41022480266389e-04,7.50000000000000e-01
9.56815273389162e-08,0.00000000000000e+00,7.50000000000000e-01,3.54405401873887e-04,7.50000000000000e-01
9.60638642389819e-08,0.00000000000000e+00,7.50000000000000e-01,-3.28420205951677e-04,7.50000000000000e-01
9.65644615591910e-08,0.00000000000000e+00,7.50000000000000e-01,2.68229322780175e-04,7.50000000000000e-01
9.75656561996092e-08,0.00000000000000e+00,7.50000000000000e-01,-1.95976435547148e-04,7.50000000000000e-01
9.86456491335457e-08,0.00000000000000e+00,7.50000000000000e-01,1.47284876261139e-04,7.50000000000000e-01
1.00805635001419e-07,0.00000000000000e+00,7.50000000000000e-01,-1.23565261443882e-04,7.50000000000000e-01
1.04454904305064e-07,0.00000000000000e+00,7.50000000000000e-01,1.14081975004402e-04,7.50000000000000e-01
1.05000000000000e-07,0.00000000000000e+00,7.50000000000000e-01,-5.20288131994175e-05,7.50000000000000e-01
1.05010000000000e-07,7.49999999999858e-02,7.50000000000000e-01,1.04181403317236e-05,7.50000000000000e-01
1.05030000000000e-07,2.24999999999957e-01,7.50000000000000e-01,9.46685204281442e-05,7.50000000000000e-01
1.05070000000000e-07,5.24999999999900e-01,7.50000000000000e-01,1.54882305839210e-04,7.50000000000000e-01
1.05100000000000e-07,7.49999999999957e-01,7.50000000000000e-01,-4.20259081708847e-04,7.50000000000000e-01
1.05108000000000e-07,7.50000000000000e-01,7.50000000000000e-01,-8.42688983022963e-04,7.50000000000000e-01
1.05124000000000e-07,7.50000000000000e-01,7.50000000000000e-01,-1.79681168736312e-03,7.50000000000000e-01
1.05156000000000e-07,7.50000000000000e-01,7.50000000000000e-01,-3.69415945082644e-03,7.50000000000000e-01
1.05220000000000e-07,7.50000000000000e-01,7.50000000000000e-01,-3.89364633961485e-03,7.50000000000000e-01
1.05348000000000e-07,7.50000000000000e-01,7.50000000000000e-01,1.48414886253934e-01,7.50000000000000e-01
1.05604000000000e-07,7.50000000000000e-01,7.50000000000000e-01,6.88157843452354e-01,7.50000000000000e-01
1.06116000000000e-07,7.50000000000000e-01,7.50000000000000e-01,7.69689911452541e-01,7.50000000000000e-01
1.06709172689611e-07,7.50000000000000e-01,7.50000000000000e-01,7.30650912239930e-01,7.50000000000000e-01
1.07708734971936e-07,7.50000000000000e-01,7.50000000000000e-01,7.66786764183216e-01,7.50000000000000e-01
1.09058577885907e-07,7.50000000000000e-01,7.50000000000000e-01,7.32979453106678e-01,7.50000000000000e-01
1.11758263713850e-07,7.50000000000000e-01,7.50000000000000e-01,7.65684795495990e-01,7.50000000000000e-01
1.15100000000000e-07,7.50000000000000e-01,7.50000000000000e-01,7.33755169175757e-01,7.50000000000000e-01
1.15110000000000e-07,6.75000000000076e-01,7.50000000000000e-01,7.39995556547564e-01,7.50000000000000e-01
1.15130000000000e-07,5.25000000000105e-01,7.50000000000000e-01,7.47644279275425e-01,7.50000000000000e-01
1.15170000000000e-07,2.25000000000162e-01,7.50000000000000e-01,7.50729810784412e-01,7.50000000000000e-01
