Time,v(clk),v(data),v(out)
1.00000000000000e-08,7.50000000000000e-01,0.00000000000000e+00,-6.40118047674776e-06
1.00100000000000e-08,7.50000000000000e-01,7.49999999999982e-02,-4.17502188831964e-06
1.00300000000000e-08,7.50000000000000e-01,2.24999999999995e-01,-9.84508084757307e-07
1.00700000000000e-08,7.50000000000000e-01,5.24999999999987e-01,1.97000401963576e-06
1.01000000000000e-08,7.50000000000000e-01,7.49999999999994e-01,2.18903614072202e-06
1.01080000000000e-08,7.50000000000000e-01,7.50000000000000e-01,2.40162872056082e-06
1.01240000000000e-08,7.50000000000000e-01,7.50000000000000e-01,2.61628460519053e-06
1.01560000000000e-08,7.50000000000000e-01,7.50000000000000e-01,4.22443345433204e-06
1.02200000000000e-08,7.50000000000000e-01,7.50000000000000e-01,8.05924804118258e-06
1.03480000000000e-08,7.50000000000000e-01,7.50000000000000e-01,9.55659934571626e-06
1.06040000000000e-08,7.50000000000000e-01,7.50000000000000e-01,1.01550250366234e-05
1.10888712199861e-08,7.50000000000000e-01,7.50000000000000e-01,8.30865029221965e-06
1.20414763757933e-08,7.50000000000000e-01,7.50000000000000e-01,9.53256816802871e-06
1.39466866874077e-08,7.50000000000000e-01,7.50000000000000e-01,7.37858747883961e-06
1.51000000000000e-08,7.50000000000000e-01,7.50000000000000e-01,8.30460946403631e-06
1.51100000000000e-08,6.74999999999989e-01,7.50000000000000e-01,-2.63818320955789e-05
1.51300000000000e-08,5.24999999999993e-01,7.50000000000000e-01,-9.35687171377611e-05
1.51700000000000e-08,2.25000000000000e-01,7.50000000000000e-01,-1.63594453329141e-04
1.52000000000000e-08,0.00000000000000e+00,7.50000000000000e-01,-9.57759082832813e-05
1.52080000000000e-08,0.00000000000000e+00,7.50000000000000e-01,-2.48504745481368e-05
1.52240000000000e-08,0.00000000000000e+00,7.50000000000000e-01,9.18611997317575e-05
1.52560000000000e-08,0.00000000000000e+00,7.50000000000000e-01,2.11260998259674e-04
1.53200000000000e-08,0.00000000000000e+00,7.50000000000000e-01,2.13642077329247e-04
1.54480000000000e-08,0.00000000000000e+00,7.50000000000000e-01,-2.74447262034391e-05
1.57040000000000e-08,0.00000000000000e+00,7.50000000000000e-01,-1.57589454815844e-04
1.62160000000000e-08,0.00000000000000e+00,7.50000000000000e-01,-2.26490946413841e-04
1.70741687633395e-08,0.00000000000000e+00,7.50000000000000e-01,1.98278659851738e-04
1.81109521283375e-08,0.00000000000000e+00,7.50000000000000e-01,5.02209698504830e-05
2.01845188583333e-08,0.00000000000000e+00,7.50000000000000e-01,-1.04886278115052e-04
2.23665270187194e-08,0.00000000000000e+00,7.50000000000000e-01,1.55298632760746e-04
2.50000000000000e-08,0.00000000000000e+00,7.50000000000000e-01,-1.55977447226713e-04
2.50100000000000e-08,7.49999999999858e-02,7.50000000000000e-01,-7.00554963315725e-05
2.50300000000000e-08,2.25000000000007e-01,7.50000000000000e-01,7.15676939116658e-05
2.50700000000000e-08,5.25000000000000e-01,7.50000000000000e-01,2.02917226769787e-04
2.51000000000000e-08,7.50000000000000e-01,7.50000000000000e-01,-2.49916491244714e-05
2.51080000000000e-08,7.50000000000000e-01,7.50000000000000e-01,-2.31096721339356e-04
2.51240000000000e-08,7.50000000000000e-01,7.50000000000000e-01,-7.52841586990037e-04
2.51560000000000e-08,7.50000000000000e-01,7.50000000000000e-01,-2.09439596306669e-03
2.52200000000000e-08,7.50000000000000e-01,7.50000000000000e-01,-4.34761119394868e-03
2.53480000000000e-08,7.50000000000000e-01,7.50000000000000e-01,4.99158009967928e-03
2.56040000000000e-08,7.50000000000000e-01,7.50000000000000e-01,2.41858239960242e-01
2.61160000000000e-08,7.50000000000000e-01,7.50000000000000e-01,7.28887752503400e-01
2.69884004571930e-08,7.50000000000000e-01,7.50000000000000e-01,7.57759270011751e-01
2.81184236898986e-08,7.50000000000000e-01,7.50000000000000e-01,7.42903061013656e-01
2.99168314621502e-08,7.50000000000000e-01,7.50000000000000e-01,7.55561454882000e-01
3.20881182038153e-08,7.50000000000000e-01,7.50000000000000e-01,7.44517165976827e-01
3.51000000000000e-08,7.49999999999963e-01,7.50000000000000e-01,7.54711190146658e-01
3.51100000000000e-08,6.74999999999977e-01,7.50000000000000e-01,7.53859559023835e-01
3.51300000000000e-08,5.24999999999956e-01,7.50000000000000e-01,7.52443415368344e-01
3.51700000000000e-08,2.24999999999963e-01,7.50000000000000e-01,7.51237951932497e-01
3.52000000000000e-08,0.00000000000000e+00,7.50000000000000e-01,7.51556550330245e-01
3.52080000000000e-08,0.00000000000000e+00,7.50000000000000e-01,7.51741998558643e-01
3.52240000000000e-08,0.00000000000000e+00,7.50000000000000e-01,7.52018798014000e-01
3.52560000000000e-08,0.00000000000000e+00,7.50000000000000e-01,7.52154339950959e-01
3.53200000000000e-08,0.00000000000000e+00,7.50000000000000e-01,7.50587010937557e-01
3.54480000000000e-08,0.00000000000000e+00,7.50000000000000e-01,7.35684608393163e-01
3.57040000000000e-08,0.00000000000000e+00,7.50000000000000e-01,7.10853121317632e-01
3.62160000000000e-08,0.00000000000000e+00,7.50000000000000e-01,7.38179402559650e-01
3.72400000000000e-08,0.00000000000000e+00,7.50000000000000e-01,7.55192964690714e-01
3.83926614370951e-08,0.00000000000000e+00,7.50000000000000e-01,7.44970205505837e-01
4.06979843112853e-08,0.00000000000000e+00,7.50000000000000e-01,7.53282433065095e-01
4.44979843112853e-08,0.00000000000000e+00,7.50000000000000e-01,7.46324797459962e-01
4.50000000000000e-08,0.00000000000000e+00,7.50000000000000e-01,7.51303278035054e-01
4.50100000000000e-08,7.49999999999858e-02,7.50000000000000e-01,7.51166535632806e-01
4.50300000000000e-08,2.25000000000007e-01,7.50000000000000e-01,7.50917912487269e-01
4.50700000000000e-08,5.25000000000000e-01,7.50000000000000e-01,7.50541356521791e-01
4.51000000000000e-08,7.50000000000000e-01,7.50000000000000e-01,7.50205255005134e-01
4.51080000000000e-08,7.50000000000000e-01,6.90000000000031e-01,7.50040171501124e-01
4.51240000000000e-08,7.50000000000000e-01,5.69999999999994e-01,7.49664340962326e-01
4.51560000000000e-08,7.50000000000000e-01,3.30000000000020e-01,7.48795292082311e-01
4.52000000000000e-08,7.50000000000000e-01,4.29656310529936e-14,7.47744811265453e-01
4.52064000000000e-08,7.50000000000000e-01,0.00000000000000e+00,7.47623278897116e-01
4.52192000000000e-08,7.50000000000000e-01,0.00000000000000e+00,7.47384929842919e-01
4.52448000000000e-08,7.50000000000000e-01,0.00000000000000e+00,7.46964043315307e-01
4.52960000000000e-08,7.50000000000000e-01,0.00000000000000e+00,7.46330172473512e-01
4.53984000000000e-08,7.50000000000000e-01,0.00000000000000e+00,7.46316617274822e-01
4.56032000000000e-08,7.50000000000000e-01,0.00000000000000e+00,7.48255456759025e-01
4.60128000000000e-08,7.50000000000000e-01,0.00000000000000e+00,7.50036045869916e-01
4.64768520728911e-08,7.50000000000000e-01,0.00000000000000e+00,7.49920398260544e-01
4.74049562186732e-08,7.50000000000000e-01,0.00000000000000e+00,7.50061989961698e-01
4.84145113166821e-08,7.50000000000000e-01,0.00000000000000e+00,7.49950458703135e-01
5.04336215126999e-08,7.50000000000000e-01,0.00000000000000e+00,7.50044156418780e-01
5.42336215126999e-08,7.50000000000000e-01,0.00000000000000e+00,7.49958434010419e-01
5.51000000000000e-08,7.50000000000000e-01,0.00000000000000e+00,7.50031548392500e-01
5.51100000000000e-08,6.75000000000027e-01,0.00000000000000e+00,7.49990240507526e-01
5.51300000000000e-08,5.25000000000005e-01,0.00000000000000e+00,7.49922236293107e-01
5.51700000000000e-08,2.25000000000013e-01,0.00000000000000e+00,7.50200802227108e-01
5.52000000000000e-08,0.00000000000000e+00,0.00000000000000e+00,7.51046632148717e-01
5.52080000000000e-08,0.00000000000000e+00,0.00000000000000e+00,7.51318849619464e-01
5.52240000000000e-08,0.00000000000000e+00,0.00000000000000e+00,7.51763664816465e-01
5.52560000000000e-08,0.00000000000000e+00,0.00000000000000e+00,7.52282769518373e-01
5.53200000000000e-08,0.00000000000000e+00,0.00000000000000e+00,7.52745030440231e-01
5.54480000000000e-08,0.00000000000000e+00,0.00000000000000e+00,7.53295800152704e-01
5.57040000000000e-08,0.00000000000000e+00,0.00000000000000e+00,7.52368201291634e-01
5.62160000000000e-08,0.00000000000000e+00,0.00000000000000e+00,7.48627414451112e-01
5.67958373374202e-08,0.00000000000000e+00,0.00000000000000e+00,7.49337563468991e-01
5.79555120122607e-08,0.00000000000000e+00,0.00000000000000e+00,7.49550999536298e-01
5.90553946138425e-08,0.00000000000000e+00,0.00000000000000e+00,7.49422930747545e-01
6.12551598170060e-08,0.00000000000000e+00,0.00000000000000e+00,7.49797806567390e-01
6.50000000000000e-08,0.00000000000000e+00,0.00000000000000e+00,7.49562508592348e-01
6.50100000000000e-08,7.49999999999858e-02,0.00000000000000e+00,7.49627780731049e-01
6.50300000000000e-08,2.24999999999957e-01,0.00000000000000e+00,7.49729162975714e-01
6.50700000000000e-08,5.24999999999900e-01,0.00000000000000e+00,7.49801475492878e-01
6.51000000000000e-08,7.49999999999957e-01,0.00000000000000e+00,7.49738355034592e-01
6.51080000000000e-08,7.50000000000000e-01,0.00000000000000e+00,7.49700567563225e-01
6.51240000000000e-08,7.50000000000000e-01,0.00000000000000e+00,7.49638429561852e-01
6.51560000000000e-08,7.50000000000000e-01,0.00000000000000e+00,7.49572059838249e-01
6.52200000000000e-08,7.50000000000000e-01,0.00000000000000e+00,7.49522662774219e-01
6.53480000000000e-08,7.50000000000000e-01,0.00000000000000e+00,7.50096412106733e-01
6.56040000000000e-08,7.50000000000000e-01,0.00000000000000e+00,7.56157433254618e-01
6.61159999999999e-08,7.50000000000000e-01,0.00000000000000e+00,2.77912782710411e-01
6.69728503923785e-08,7.50000000000000e-01,0.00000000000000e+00,-9.09734005247457e-02
6.77668940037797e-08,7.50000000000000e-01,0.00000000000000e+00,7.20849473940290e-02
6.93549812265821e-08,7.50000000000000e-01,0.00000000000000e+00,-4.87210775541463e-02
7.09106605549463e-08,7.50000000000000e-01,0.00000000000000e+00,4.42226092050006e-02
7.39290871743159e-08,7.50000000000000e-01,0.00000000000000e+00,-3.51916542203985e-02
7.51000000000000e-08,7.50000000000000e-01,0.00000000000000e+00,2.86009921072929e-02
7.51100000000000e-08,6.75000000000076e-01,0.00000000000000e+00,2.60424156684705e-02
7.51300000000000e-08,5.25000000000105e-01,0.00000000000000e+00,2.10624810001336e-02
7.51700000000000e-08,2.25000000000162e-01,0.00000000000000e+00,1.30614946794277e-02
7.52000000000000e-08,1.05027098129540e-13,0.00000000000000e+00,9.14749943968525e-03
7.52080000000000e-08,0.00000000000000e+00,0.00000000000000e+00,8.41422952885955e-03
7.52240000000000e-08,0.00000000000000e+00,0.00000000000000e+00,7.04416141427484e-03
7.52560000000000e-08,0.00000000000000e+00,0.00000000000000e+00,4.92018213619657e-03
7.53200000000000e-08,0.00000000000000e+00,0.00000000000000e+00,2.26015015641600e-03
7.54480000000000e-08,0.00000000000000e+00,0.00000000000000e+00,-2.88454923152708e-04
7.57040000000000e-08,0.00000000000000e+00,0.00000000000000e+00,-9.34736627953778e-04
7.62159999999999e-08,0.00000000000000e+00,0.00000000000000e+00,3.17003349602675e-04
7.72257390035830e-08,0.00000000000000e+00,0.00000000000000e+00,-1.67555133462259e-04
7.83677067990497e-08,0.00000000000000e+00,0.00000000000000e+00,1.00478175947301e-04
8.06516423899830e-08,0.00000000000000e+00,0.00000000000000e+00,-6.29844245177130e-05
8.44516423899830e-08,0.00000000000000e+00,0.00000000000000e+00,5.93829631410732e-05
8.50000000000000e-08,0.00000000000000e+00,0.00000000000000e+00,9.40689727752138e-06
8.50100000000000e-08,7.49999999999858e-02,0.00000000000000e+00,5.93658379593881e-05
8.50300000000000e-08,2.24999999999957e-01,0.00000000000000e+00,1.34370623700003e-04
8.50700000000000e-08,5.24999999999900e-01,0.00000000000000e+00,1.63810382596691e-04
8.51000000000000e-08,7.49999999999957e-01,0.00000000000000e+00,4.38037801745450e-05
8.51080000000000e-08,7.50000000000000e-01,0.00000000000000e+00,-1.67654898382066e-05
8.51240000000000e-08,7.50000000000000e-01,0.00000000000000e+00,-1.12841729984076e-04
8.51560000000000e-08,7.50000000000000e-01,0.00000000000000e+00,-1.96866637178557e-04
8.52200000000000e-08,7.50000000000000e-01,0.00000000000000e+00,-2.02677062653055e-04
8.53480000000000e-08,7.50000000000000e-01,0.00000000000000e+00,-1.07793476468779e-04
8.56040000000000e-08,7.50000000000000e-01,0.00000000000000e+00,3.84203283742453e-05
8.61159999999999e-08,7.50000000000000e-01,0.00000000000000e+00,5.71678673044074e-05
8.71399999999999e-08,7.50000000000000e-01,0.00000000000000e+00,-1.60831578458510e-05
8.84892343260860e-08,7.50000000000000e-01,0.00000000000000e+00,3.23658742984794e-05
9.00000000000000e-08,7.50000000000000e-01,0.00000000000000e+00,-6.16070614509277e-06
9.00100000000000e-08,7.50000000000000e-01,7.49999999999858e-02,-3.95877520899257e-06
9.00300000000000e-08,7.50000000000000e-01,2.24999999999957e-01,-7.99376386056982e-07
9.00700000000000e-08,7.50000000000000e-01,5.24999999999900e-01,2.13476280768593e-06
9.01000000000000e-08,7.50000000000000e-01,7.49999999999957e-01,2.38831788901273e-06
9.01080000000000e-08,7.50000000000000e-01,7.50000000000000e-01,2.60430582722099e-06
9.01240000000000e-08,7.50000000000000e-01,7.50000000000000e-01,3.44995851817020e-06
9.01560000000000e-08,7.50000000000000e-01,7.50000000000000e-01,4.52747014145771e-06
9.02200000000000e-08,7.50000000000000e-01,7.50000000000000e-01,8.16455237930003e-06
9.03480000000000e-08,7.50000000000000e-01,7.50000000000000e-01,9.59317462477516e-06
9.06040000000000e-08,7.50000000000000e-01,7.50000000000000e-01,1.00976763781485e-05
9.11047322823730e-08,7.50000000000000e-01,7.50000000000000e-01,8.40998436607392e-06
9.20998515757924e-08,7.50000000000000e-01,7.50000000000000e-01,9.42230355345519e-06
9.40900901626312e-08,7.50000000000000e-01,7.50000000000000e-01,7.40620209713780e-06
9.51000000000000e-08,7.50000000000000e-01,7.50000000000000e-01,8.23123849728619e-06
9.51100000000000e-08,6.75000000000076e-01,7.50000000000000e-01,-2.63576028069756e-05
9.51300000000000e-08,5.25000000000105e-01,7.50000000000000e-01,-9.35600302440914e-05
9.51700000000000e-08,2.25000000000162e-01,7.50000000000000e-01,-1.63609826779806e-04
9.52000000000000e-08,1.05027098129540e-13,7.50000000000000e-01,-9.57895470635184e-05
9.52080000000000e-08,0.00000000000000e+00,7.50000000000000e-01,-2.48642025614879e-05
9.52240000000000e-08,0.00000000000000e+00,7.50000000000000e-01,9.18476530726783e-05
9.52560000000000e-08,0.00000000000000e+00,7.50000000000000e-01,2.11247674987841e-04
9.53200000000000e-08,0.00000000000000e+00,7.50000000000000e-01,2.13623729676204e-04
9.54480000000000e-08,0.00000000000000e+00,7.50000000000000e-01,-2.74750069145964e-05
9.57040000000000e-08,0.00000000000000e+00,7.50000000000000e-01,-1.57588870724836e-04
9.62159999999999e-08,0.00000000000000e+00,7.50000000000000e-01,-2.26498594186747e-04
9.70741670371956e-08,0.00000000000000e+00,7.50000000000000e-01,1.98290678801100e-04
9.81109539117367e-08,0.00000000000000e+00,7.50000000000000e-01,5.02207195342656e-05
1.00184527660819e-07,0.00000000000000e+00,7.50000000000000e-01,-1.04894470727232e-04
1.02366556787356e-07,0.00000000000000e+00,7.50000000000000e-01,1.55309947730831e-04
1.05000000000000e-07,0.00000000000000e+00,7.50000000000000e-01,-1.55990869651971e-04
1.05010000000000e-07,7.49999999999858e-02,7.50000000000000e-01,-7.00655210823589e-05
1.05030000000000e-07,2.24999999999957e-01,7.50000000000000e-01,7.15628019859055e-05
1.05070000000000e-07,5.24999999999900e-01,7.50000000000000e-01,2.02916175041326e-04
1.05100000000000e-07,7.49999999999957e-01,7.50000000000000e-01,-2.49876082431405e-05
1.05108000000000e-07,7.50000000000000e-01,7.50000000000000e-01,-2.31090352534956e-04
1.05124000000000e-07,7.50000000000000e-01,7.50000000000000e-01,-7.52831258258528e-04
1.05156000000000e-07,7.50000000000000e-01,7.50000000000000e-01,-2.09438264814129e-03
1.05220000000000e-07,7.50000000000000e-01,7.50000000000000e-01,-4.34760213306544e-03
1.05348000000000e-07,7.50000000000000e-01,7.50000000000000e-01,4.99155098413944e-03
1.05604000000000e-07,7.50000000000000e-01,7.50000000000000e-01,2.41857967415241e-01
1.06116000000000e-07,7.50000000000000e-01,7.50000000000000e-01,7.28887632887853e-01
1.06988401066868e-07,7.50000000000000e-01,7.50000000000000e-01,7.57759325316698e-01
1.08118424028625e-07,7.50000000000000e-01,7.50000000000000e-01,7.42903007609147e-01
1.09916832585245e-07,7.50000000000000e-01,7.50000000000000e-01,7.55561499174787e-01
1.12088119358936e-07,7.50000000000000e-01,7.50000000000000e-01,7.44517122193045e-01
1.15100000000000e-07,7.50000000000000e-01,7.50000000000000e-01,7.54711228800431e-01
1.15110000000000e-07,6.75000000000076e-01,7.50000000000000e-01,7.53859590076649e-01
1.15130000000000e-07,5.25000000000105e-01,7.50000000000000e-01,7.52443434355174e-01
1.15170000000000e-07,2.25000000000162e-01,7.50000000000000e-01,7.51237958643106e-01
1.15200000000000e-07,1.05027098129540e-13,7.50000000000000e-01,7.51556553532643e-01
1.15208000000000e-07,0.00000000000000e+00,7.50000000000000e-01,7.51742001290417e-01
1.15224000000000e-07,0.00000000000000e+00,7.50000000000000e-01,7.52018799955743e-01
1.15256000000000e-07,0.00000000000000e+00,7.50000000000000e-01,7.52154340992107e-01
1.15320000000000e-07,0.00000000000000e+00,7.50000000000000e-01,7.50587011594618e-01
1.15448000000000e-07,0.00000000000000e+00,7.50000000000000e-01,7.35684609759167e-01
1.15704000000000e-07,0.00000000000000e+00,7.50000000000000e-01,7.10853122031319e-01
1.16216000000000e-07,0.00000000000000e+00,7.50000000000000e-01,7.38179401977530e-01
1.17240000000000e-07,0.00000000000000e+00,7.50000000000000e-01,7.55192965166617e-01
1.18392661435492e-07,0.00000000000000e+00,7.50000000000000e-01,7.44970205142626e-01
1.20697984306475e-07,0.00000000000000e+00,7.50000000000000e-01,7.53282433374534e-01
1.24497984306475e-07,0.00000000000000e+00,7.50000000000000e-01,7.46324797171795e-01
1.25000000000000e-07,0.00000000000000e+00,7.50000000000000e-01,7.51303278189183e-01
1.25010000000000e-07,7.49999999998865e-02,7.50000000000000e-01,7.51166535757540e-01
1.25030000000000e-07,2.24999999999858e-01,7.50000000000000e-01,7.50917912575765e-01
1.25070000000000e-07,5.24999999999801e-01,7.50000000000000e-01,7.50541356590089e-01
1.25100000000000e-07,7.49999999999858e-01,7.50000000000000e-01,7.50205255062713e-01
1.25108000000000e-07,7.50000000000000e-01,6.89999999999932e-01,7.50040171553270e-01
1.25124000000000e-07,7.50000000000000e-01,5.69999999999994e-01,7.49664341012138e-01
1.25156000000000e-07,7.50000000000000e-01,3.29999999999921e-01,7.48795292121437e-01
1.25200000000000e-07,7.50000000000000e-01,0.00000000000000e+00,7.47744811265883e-01
1.25206400000000e-07,7.50000000000000e-01,0.00000000000000e+00,7.47623278892569e-01
1.25219200000000e-07,7.50000000000000e-01,0.00000000000000e+00,7.47384929827526e-01
1.25244800000000e-07,7.50000000000000e-01,0.00000000000000e+00,7.46964043277474e-01
1.25296000000000e-07,7.50000000000000e-01,0.00000000000000e+00,7.46330172364354e-01
1.25398400000000e-07,7.50000000000000e-01,0.00000000000000e+00,7.46316617057431e-01
1.25603200000000e-07,7.50000000000000e-01,0.00000000000000e+00,7.48255456816853e-01
1.26012800000000e-07,7.50000000000000e-01,0.00000000000000e+00,7.50036045956904e-01
1.26476852069188e-07,7.50000000000000e-01,0.00000000000000e+00,7.49920398255707e-01
1.27404956207564e-07,7.50000000000000e-01,0.00000000000000e+00,7.50061989964071e-01
1.28414511130488e-07,7.50000000000000e-01,0.00000000000000e+00,7.49950458700644e-01
1.30433620976337e-07,7.50000000000000e-01,0.00000000000000e+00,7.50044156423402e-01
1.34233620976337e-07,7.50000000000000e-01,0.00000000000000e+00,7.49958434005592e-01
1.35100000000000e-07,7.49999999999864e-01,0.00000000000000e+00,7.50031548406586e-01
1.35110000000000e-07,6.74999999999778e-01,0.00000000000000e+00,7.49990240511183e-01
1.35130000000000e-07,5.24999999999807e-01,0.00000000000000e+00,7.49922236287097e-01
1.35170000000000e-07,2.24999999999864e-01,0.00000000000000e+00,7.50200802219848e-01
1.35200000000000e-07,0.00000000000000e+00,0.00000000000000e+00,7.51046632146366e-01
1.35208000000000e-07,0.00000000000000e+00,0.00000000000000e+00,7.51318849617390e-01
1.35224000000000e-07,0.00000000000000e+00,0.00000000000000e+00,7.51763664815046e-01
1.35256000000000e-07,0.00000000000000e+00,0.00000000000000e+00,7.52282769517897e-01
