Time,v(clk),v(data),v(out)
1.00000000000000e-08,7.50000000000000e-01,0.00000000000000e+00,1.92839648383771e-05
1.00100000000000e-08,7.50000000000000e-01,7.49999999999982e-02,1.44918816071260e-05
1.00300000000000e-08,7.50000000000000e-01,2.24999999999995e-01,7.52065792872236e-06
1.00700000000000e-08,7.50000000000000e-01,5.24999999999987e-01,6.18150063819850e-07
1.01000000000000e-08,7.50000000000000e-01,7.49999999999994e-01,-1.45351359421772e-06
1.01080000000000e-08,7.50000000000000e-01,7.50000000000000e-01,-7.59269049639688e-07
1.01240000000000e-08,7.50000000000000e-01,7.50000000000000e-01,1.00083697850833e-06
1.01560000000000e-08,7.50000000000000e-01,7.50000000000000e-01,2.92485222704378e-06
1.02200000000000e-08,7.50000000000000e-01,7.50000000000000e-01,2.98424731770205e-06
1.03480000000000e-08,7.50000000000000e-01,7.50000000000000e-01,7.81233146318269e-07
1.06040000000000e-08,7.50000000000000e-01,7.50000000000000e-01,1.78169855471165e-06
1.11160000000000e-08,7.50000000000000e-01,7.50000000000000e-01,1.69207962030186e-06
1.21400000000000e-08,7.50000000000000e-01,7.50000000000000e-01,1.35220786344221e-06
1.41880000000000e-08,7.50000000000000e-01,7.50000000000000e-01,1.42670319486400e-06
1.51000000000000e-08,7.50000000000000e-01,7.50000000000000e-01,1.02986406945449e-06
1.51100000000000e-08,6.74999999999989e-01,7.50000000000000e-01,-2.90221222423240e-05
1.51300000000000e-08,5.24999999999993e-01,7.50000000000000e-01,-7.63022848857403e-05
1.51700000000000e-08,2.25000000000000e-01,7.50000000000000e-01,-6.62449755225447e-05
1.52000000000000e-08,0.00000000000000e+00,7.50000000000000e-01,5.69108672870342e-05
1.52080000000000e-08,0.00000000000000e+00,7.50000000000000e-01,1.20461802302976e-04
1.52240000000000e-08,0.00000000000000e+00,7.50000000000000e-01,1.93881205450316e-04
1.52560000000000e-08,0.00000000000000e+00,7.50000000000000e-01,1.63445899510846e-04
1.53200000000000e-08,0.00000000000000e+00,7.50000000000000e-01,-3.76530311313739e-05
1.54480000000000e-08,0.00000000000000e+00,7.50000000000000e-01,-1.01874427751569e-04
1.57040000000000e-08,0.00000000000000e+00,7.50000000000000e-01,-2.22319672970478e-04
1.61237108470528e-08,0.00000000000000e+00,7.50000000000000e-01,1.92609672215873e-04
1.66605959430976e-08,0.00000000000000e+00,7.50000000000000e-01,1.14077277790321e-05
1.76316159600803e-08,0.00000000000000e+00,7.50000000000000e-01,-6.89356726897915e-05
1.87668642428925e-08,0.00000000000000e+00,7.50000000000000e-01,9.92568963475013e-05
2.10373608085170e-08,0.00000000000000e+00,7.50000000000000e-01,-1.09542813190353e-04
2.44696497671077e-08,0.00000000000000e+00,7.50000000000000e-01,1.15291331860336e-04
2.50000000000000e-08,0.00000000000000e+00,7.50000000000000e-01,-1.32119626162767e-04
2.50100000000000e-08,7.49999999999858e-02,7.50000000000000e-01,-3.49438282242626e-05
2.50300000000000e-08,2.25000000000007e-01,7.50000000000000e-01,9.91036382343297e-05
2.50700000000000e-08,5.25000000000000e-01,7.50000000000000e-01,3.64369016950979e-05
2.51000000000000e-08,7.50000000000000e-01,7.50000000000000e-01,-1.49491408259886e-03
2.51080000000000e-08,7.50000000000000e-01,7.50000000000000e-01,-2.26905874144325e-03
2.51240000000000e-08,7.50000000000000e-01,7.50000000000000e-01,-3.71519742975193e-03
2.51560000000000e-08,7.50000000000000e-01,7.50000000000000e-01,-5.37237625782777e-03
2.52200000000000e-08,7.50000000000000e-01,7.50000000000000e-01,2.33490145177963e-02
2.53480000000000e-08,7.50000000000000e-01,7.50000000000000e-01,3.28124089434486e-01
2.56040000000000e-08,7.50000000000000e-01,7.50000000000000e-01,7.53629507998227e-01
2.59985909805570e-08,7.50000000000000e-01,7.50000000000000e-01,7.45638745797674e-01
2.65786659979457e-08,7.50000000000000e-01,7.50000000000000e-01,7.54612967834288e-01
2.74518817030130e-08,7.50000000000000e-01,7.50000000000000e-01,7.45671048105884e-01
2.85697501404920e-08,7.50000000000000e-01,7.50000000000000e-01,7.54259147532990e-01
3.08054870154500e-08,7.50000000000000e-01,7.50000000000000e-01,7.45893163932204e-01
3.46054870154500e-08,7.50000000000000e-01,7.50000000000000e-01,7.54132175434994e-01
3.51000000000000e-08,7.49999999999963e-01,7.50000000000000e-01,7.46351238257688e-01
3.51100000000000e-08,6.74999999999977e-01,7.50000000000000e-01,7.47625596151817e-01
3.51300000000000e-08,5.24999999999956e-01,7.50000000000000e-01,7.49258831131435e-01
3.51700000000000e-08,2.24999999999963e-01,7.50000000000000e-01,7.50442563076508e-01
3.52000000000000e-08,0.00000000000000e+00,7.50000000000000e-01,7.51456914091665e-01
3.52080000000000e-08,0.00000000000000e+00,7.50000000000000e-01,7.51679081985866e-01
3.52240000000000e-08,0.00000000000000e+00,7.50000000000000e-01,7.51849816146154e-01
3.52560000000000e-08,0.00000000000000e+00,7.50000000000000e-01,7.50053663814538e-01
3.53200000000000e-08,0.00000000000000e+00,7.50000000000000e-01,7.35471077887549e-01
3.54480000000000e-08,0.00000000000000e+00,7.50000000000000e-01,7.11910511320928e-01
3.57040000000000e-08,0.00000000000000e+00,7.50000000000000e-01,7.38381359236414e-01
3.62160000000000e-08,0.00000000000000e+00,7.50000000000000e-01,7.55251526470789e-01
3.68364792060844e-08,0.00000000000000e+00,7.50000000000000e-01,7.45204840689192e-01
3.80774376182533e-08,0.00000000000000e+00,7.50000000000000e-01,7.53468701210795e-01
4.05593544425909e-08,0.00000000000000e+00,7.50000000000000e-01,7.46373273072365e-01
4.43593544425909e-08,0.00000000000000e+00,7.50000000000000e-01,7.53174758551342e-01
4.50000000000000e-08,0.00000000000000e+00,7.50000000000000e-01,7.47383594906756e-01
4.50100000000000e-08,7.49999999999858e-02,7.50000000000000e-01,7.47894974144020e-01
4.50300000000000e-08,2.25000000000007e-01,7.50000000000000e-01,7.48716401178525e-01
4.50700000000000e-08,5.25000000000000e-01,7.50000000000000e-01,7.49478692992159e-01
4.51000000000000e-08,7.50000000000000e-01,7.50000000000000e-01,7.48842332618166e-01
4.51080000000000e-08,7.50000000000000e-01,6.90000000000031e-01,7.48417650239583e-01
4.51240000000000e-08,7.50000000000000e-01,5.69999999999994e-01,7.47590578904740e-01
4.51560000000000e-08,7.50000000000000e-01,3.30000000000020e-01,7.46253449902314e-01
4.52000000000000e-08,7.50000000000000e-01,4.29656310529936e-14,7.45396402605806e-01
4.52064000000000e-08,7.50000000000000e-01,0.00000000000000e+00,7.45442448094128e-01
4.52192000000000e-08,7.50000000000000e-01,0.00000000000000e+00,7.45615863624475e-01
4.52448000000000e-08,7.50000000000000e-01,0.00000000000000e+00,7.46290366427627e-01
4.52960000000000e-08,7.50000000000000e-01,0.00000000000000e+00,7.47813825952934e-01
4.53984000000000e-08,7.50000000000000e-01,0.00000000000000e+00,7.49473369659386e-01
4.56032000000000e-08,7.50000000000000e-01,0.00000000000000e+00,7.50062761276053e-01
4.58325435828453e-08,7.50000000000000e-01,0.00000000000000e+00,7.49990449563343e-01
4.62912307485360e-08,7.50000000000000e-01,0.00000000000000e+00,7.50000951873505e-01
4.68122524309521e-08,7.50000000000000e-01,0.00000000000000e+00,7.50004731112037e-01
4.78542957957842e-08,7.50000000000000e-01,0.00000000000000e+00,7.49993443133945e-01
4.98722069906429e-08,7.50000000000000e-01,0.00000000000000e+00,7.50007179768014e-01
5.32100066755789e-08,7.50000000000000e-01,0.00000000000000e+00,7.49992444942027e-01
5.51000000000000e-08,7.50000000000000e-01,0.00000000000000e+00,7.50008110727075e-01
5.51100000000000e-08,6.75000000000027e-01,0.00000000000000e+00,7.49969047474408e-01
5.51300000000000e-08,5.25000000000005e-01,0.00000000000000e+00,7.49916285818536e-01
5.51700000000000e-08,2.25000000000013e-01,0.00000000000000e+00,7.50365939301247e-01
5.52000000000000e-08,0.00000000000000e+00,0.00000000000000e+00,7.51459237484019e-01
5.52080000000000e-08,0.00000000000000e+00,0.00000000000000e+00,7.51748082353725e-01
5.52240000000000e-08,0.00000000000000e+00,0.00000000000000e+00,7.52175054887663e-01
5.52560000000000e-08,0.00000000000000e+00,0.00000000000000e+00,7.52572226155317e-01
5.53200000000000e-08,0.00000000000000e+00,0.00000000000000e+00,7.53084629328557e-01
5.54480000000000e-08,0.00000000000000e+00,0.00000000000000e+00,7.52630707558713e-01
5.57040000000000e-08,0.00000000000000e+00,0.00000000000000e+00,7.49248747244393e-01
5.59860119005163e-08,0.00000000000000e+00,0.00000000000000e+00,7.49794013373593e-01
5.65500357015488e-08,0.00000000000000e+00,0.00000000000000e+00,7.49844604918595e-01
5.71055980214163e-08,0.00000000000000e+00,0.00000000000000e+00,7.49702861450126e-01
5.82167226611512e-08,0.00000000000000e+00,0.00000000000000e+00,7.49961780797447e-01
6.04061450097750e-08,0.00000000000000e+00,0.00000000000000e+00,7.49747451303874e-01
6.38468225705460e-08,0.00000000000000e+00,0.00000000000000e+00,7.50031838099726e-01
6.50000000000000e-08,0.00000000000000e+00,0.00000000000000e+00,7.49771154532562e-01
6.50100000000000e-08,7.49999999999858e-02,0.00000000000000e+00,7.49849880059831e-01
6.50300000000000e-08,2.24999999999957e-01,0.00000000000000e+00,7.49951834448512e-01
6.50700000000000e-08,5.24999999999900e-01,0.00000000000000e+00,7.49942005249517e-01
6.51000000000000e-08,7.49999999999957e-01,0.00000000000000e+00,7.49782981584309e-01
6.51080000000000e-08,7.50000000000000e-01,0.00000000000000e+00,7.49737197608408e-01
6.51240000000000e-08,7.50000000000000e-01,0.00000000000000e+00,7.49681545973683e-01
6.51560000000000e-08,7.50000000000000e-01,0.00000000000000e+00,7.49705873101809e-01
6.52200000000000e-08,7.50000000000000e-01,0.00000000000000e+00,7.51125276934505e-01
6.53480000000000e-08,7.50000000000000e-01,0.00000000000000e+00,7.59750339598081e-01
6.56040000000000e-08,7.50000000000000e-01,0.00000000000000e+00,2.17345173136799e-01
6.59851744053921e-08,7.50000000000000e-01,0.00000000000000e+00,-8.68530235692299e-02
6.63837910031695e-08,7.50000000000000e-01,0.00000000000000e+00,7.33393924071945e-02
6.71810241987242e-08,7.50000000000000e-01,0.00000000000000e+00,-5.25424045964272e-02
6.79720880844853e-08,7.50000000000000e-01,0.00000000000000e+00,4.97271847617234e-02
6.95297729567016e-08,7.50000000000000e-01,0.00000000000000e+00,-4.08491741908991e-02
7.17319065905478e-08,7.50000000000000e-01,0.00000000000000e+00,4.23125583170796e-02
7.51000000000000e-08,7.50000000000000e-01,0.00000000000000e+00,-3.69949844034984e-02
7.51100000000000e-08,6.75000000000076e-01,0.00000000000000e+00,-2.83340121905668e-02
7.51300000000000e-08,5.25000000000105e-01,0.00000000000000e+00,-1.49544909805841e-02
7.51700000000000e-08,2.25000000000162e-01,0.00000000000000e+00,-3.45683323746315e-03
7.52000000000000e-08,1.05027098129540e-13,0.00000000000000e+00,-1.25108121236187e-03
7.52080000000000e-08,0.00000000000000e+00,0.00000000000000e+00,-9.20656515556520e-04
7.52240000000000e-08,0.00000000000000e+00,0.00000000000000e+00,-4.20006563880096e-04
7.52560000000000e-08,0.00000000000000e+00,0.00000000000000e+00,-1.01497551283608e-04
7.53200000000000e-08,0.00000000000000e+00,0.00000000000000e+00,-6.08848176720880e-04
7.54480000000000e-08,0.00000000000000e+00,0.00000000000000e+00,-9.04740497325064e-04
7.57040000000000e-08,0.00000000000000e+00,0.00000000000000e+00,3.60874253909045e-04
7.61430757845319e-08,0.00000000000000e+00,0.00000000000000e+00,-2.02642319132940e-04
7.67579555366168e-08,0.00000000000000e+00,0.00000000000000e+00,1.27443764245422e-04
7.79877150407867e-08,0.00000000000000e+00,0.00000000000000e+00,-9.68929518933874e-05
8.04472340491265e-08,0.00000000000000e+00,0.00000000000000e+00,8.44921361978772e-05
8.42472340491265e-08,0.00000000000000e+00,0.00000000000000e+00,-7.57964982795419e-05
8.50000000000000e-08,0.00000000000000e+00,0.00000000000000e+00,4.21454115983023e-05
8.50100000000000e-08,7.49999999999858e-02,0.00000000000000e+00,1.12870032487493e-04
8.50300000000000e-08,2.24999999999957e-01,0.00000000000000e+00,1.78156911240179e-04
8.50700000000000e-08,5.24999999999900e-01,0.00000000000000e+00,1.00505570233743e-04
8.51000000000000e-08,7.49999999999957e-01,0.00000000000000e+00,-1.21986832350082e-04
8.51080000000000e-08,7.50000000000000e-01,0.00000000000000e+00,-1.56949078752459e-04
8.51240000000000e-08,7.50000000000000e-01,0.00000000000000e+00,-1.88609162718970e-04
8.51560000000000e-08,7.50000000000000e-01,0.00000000000000e+00,-1.56656783974692e-04
8.52200000000000e-08,7.50000000000000e-01,0.00000000000000e+00,-7.30292639147950e-05
8.53480000000000e-08,7.50000000000000e-01,0.00000000000000e+00,6.49467777767074e-05
8.56040000000000e-08,7.50000000000000e-01,0.00000000000000e+00,2.37968638079344e-05
8.61159999999999e-08,7.50000000000000e-01,0.00000000000000e+00,-1.86817507420852e-05
8.67115081996388e-08,7.50000000000000e-01,0.00000000000000e+00,2.25929408295576e-05
8.79025245989167e-08,7.50000000000000e-01,0.00000000000000e+00,-1.60936735157670e-05
9.00000000000000e-08,7.50000000000000e-01,0.00000000000000e+00,1.93708632014108e-05
9.00100000000000e-08,7.50000000000000e-01,7.49999999999858e-02,1.45538254248331e-05
9.00300000000000e-08,7.50000000000000e-01,2.24999999999957e-01,7.56355006823611e-06
9.00700000000000e-08,7.50000000000000e-01,5.24999999999900e-01,6.90574103109909e-07
9.01000000000000e-08,7.50000000000000e-01,7.49999999999957e-01,-1.30366501809032e-06
9.01080000000000e-08,7.50000000000000e-01,7.50000000000000e-01,-6.52760963004706e-07
9.01240000000000e-08,7.50000000000000e-01,7.50000000000000e-01,9.66562405925464e-07
9.01560000000000e-08,7.50000000000000e-01,7.50000000000000e-01,2.81522050056895e-06
9.02200000000000e-08,7.50000000000000e-01,7.50000000000000e-01,3.11671583101344e-06
9.03480000000000e-08,7.50000000000000e-01,7.50000000000000e-01,6.90732983237713e-07
9.06040000000000e-08,7.50000000000000e-01,7.50000000000000e-01,1.93791146570893e-06
9.11159999999999e-08,7.50000000000000e-01,7.50000000000000e-01,1.08013919680738e-06
9.21399999999999e-08,7.50000000000000e-01,7.50000000000000e-01,1.91272311694281e-06
9.41879999999998e-08,7.50000000000000e-01,7.50000000000000e-01,8.92242144595557e-07
9.51000000000000e-08,7.50000000000000e-01,7.50000000000000e-01,1.51220104228087e-06
9.51100000000000e-08,6.75000000000076e-01,7.50000000000000e-01,-2.87543637138982e-05
9.51300000000000e-08,5.25000000000105e-01,7.50000000000000e-01,-7.61783945442754e-05
9.51700000000000e-08,2.25000000000162e-01,7.50000000000000e-01,-6.62243116747660e-05
9.52000000000000e-08,1.05027098129540e-13,7.50000000000000e-01,5.69291587938919e-05
9.52080000000000e-08,0.00000000000000e+00,7.50000000000000e-01,1.20478841937693e-04
9.52240000000000e-08,0.00000000000000e+00,7.50000000000000e-01,1.93895439900595e-04
9.52560000000000e-08,0.00000000000000e+00,7.50000000000000e-01,1.63457565227967e-04
9.53200000000000e-08,0.00000000000000e+00,7.50000000000000e-01,-3.76248633393514e-05
9.54480000000000e-08,0.00000000000000e+00,7.50000000000000e-01,-1.01863457996211e-04
9.57040000000000e-08,0.00000000000000e+00,7.50000000000000e-01,-2.22327176396571e-04
9.61237108880972e-08,0.00000000000000e+00,7.50000000000000e-01,1.92615520466319e-04
9.66605959261560e-08,0.00000000000000e+00,7.50000000000000e-01,1.14026238069356e-05
9.76316167756325e-08,0.00000000000000e+00,7.50000000000000e-01,-6.89307620457902e-05
9.87668645408169e-08,0.00000000000000e+00,7.50000000000000e-01,9.92522948913494e-05
1.01037360071186e-07,0.00000000000000e+00,7.50000000000000e-01,-1.09538310754627e-04
1.04469650235191e-07,0.00000000000000e+00,7.50000000000000e-01,1.15286929588160e-04
1.05000000000000e-07,0.00000000000000e+00,7.50000000000000e-01,-1.32115720713415e-04
1.05010000000000e-07,7.49999999999858e-02,7.50000000000000e-01,-3.49415504553516e-05
1.05030000000000e-07,2.24999999999957e-01,7.50000000000000e-01,9.91043173252867e-05
1.05070000000000e-07,5.24999999999900e-01,7.50000000000000e-01,3.64368972693985e-05
1.05100000000000e-07,7.49999999999957e-01,7.50000000000000e-01,-1.49491446912982e-03
1.05108000000000e-07,7.50000000000000e-01,7.50000000000000e-01,-2.26905910888090e-03
1.05124000000000e-07,7.50000000000000e-01,7.50000000000000e-01,-3.71519774795245e-03
1.05156000000000e-07,7.50000000000000e-01,7.50000000000000e-01,-5.37237632013831e-03
1.05220000000000e-07,7.50000000000000e-01,7.50000000000000e-01,2.33490178834890e-02
1.05348000000000e-07,7.50000000000000e-01,7.50000000000000e-01,3.28124100846014e-01
1.05604000000000e-07,7.50000000000000e-01,7.50000000000000e-01,7.53629510337606e-01
1.05998590976386e-07,7.50000000000000e-01,7.50000000000000e-01,7.45638744404453e-01
1.06578665998001e-07,7.50000000000000e-01,7.50000000000000e-01,7.54612969116952e-01
1.07451881699415e-07,7.50000000000000e-01,7.50000000000000e-01,7.45671046993558e-01
1.08569750149221e-07,7.50000000000000e-01,7.50000000000000e-01,7.54259148585789e-01
1.10805487048834e-07,7.50000000000000e-01,7.50000000000000e-01,7.45893162940113e-01
1.14605487048834e-07,7.50000000000000e-01,7.50000000000000e-01,7.54132176425307e-01
1.15100000000000e-07,7.50000000000000e-01,7.50000000000000e-01,7.46351237469661e-01
1.15110000000000e-07,6.75000000000076e-01,7.50000000000000e-01,7.47625595609926e-01
1.15130000000000e-07,5.25000000000105e-01,7.50000000000000e-01,7.49258830925087e-01
1.15170000000000e-07,2.25000000000162e-01,7.50000000000000e-01,7.50442563057934e-01
1.15200000000000e-07,1.05027098129540e-13,7.50000000000000e-01,7.51456914082123e-01
1.15208000000000e-07,0.00000000000000e+00,7.50000000000000e-01,7.51679081976279e-01
1.15224000000000e-07,0.00000000000000e+00,7.50000000000000e-01,7.51849816138663e-01
1.15256000000000e-07,0.00000000000000e+00,7.50000000000000e-01,7.50053663762974e-01
1.15320000000000e-07,0.00000000000000e+00,7.50000000000000e-01,7.35471077833336e-01
1.15448000000000e-07,0.00000000000000e+00,7.50000000000000e-01,7.11910511360105e-01
1.15704000000000e-07,0.00000000000000e+00,7.50000000000000e-01,7.38381359157840e-01
1.16216000000000e-07,0.00000000000000e+00,7.50000000000000e-01,7.55251526524060e-01
1.16836479206792e-07,0.00000000000000e+00,7.50000000000000e-01,7.45204840644573e-01
1.18077437620377e-07,0.00000000000000e+00,7.50000000000000e-01,7.53468701249938e-01
1.20559354447547e-07,0.00000000000000e+00,7.50000000000000e-01,7.46373273034939e-01
1.24359354447547e-07,0.00000000000000e+00,7.50000000000000e-01,7.53174758587082e-01
1.25000000000000e-07,0.00000000000000e+00,7.50000000000000e-01,7.47383594883907e-01
1.25010000000000e-07,7.49999999998865e-02,7.50000000000000e-01,7.47894974126200e-01
1.25030000000000e-07,2.24999999999858e-01,7.50000000000000e-01,7.48716401168611e-01
1.25070000000000e-07,5.24999999999801e-01,7.50000000000000e-01,7.49478692988445e-01
1.25100000000000e-07,7.49999999999858e-01,7.50000000000000e-01,7.48842332616082e-01
1.25108000000000e-07,7.50000000000000e-01,6.89999999999932e-01,7.48417650237888e-01
1.25124000000000e-07,7.50000000000000e-01,5.69999999999994e-01,7.47590578903601e-01
1.25156000000000e-07,7.50000000000000e-01,3.29999999999921e-01,7.46253449903414e-01
1.25200000000000e-07,7.50000000000000e-01,0.00000000000000e+00,7.45396402607864e-01
1.25206400000000e-07,7.50000000000000e-01,0.00000000000000e+00,7.45442448096580e-01
1.25219200000000e-07,7.50000000000000e-01,0.00000000000000e+00,7.45615863628929e-01
1.25244800000000e-07,7.50000000000000e-01,0.00000000000000e+00,7.46290366430535e-01
1.25296000000000e-07,7.50000000000000e-01,0.00000000000000e+00,7.47813825953575e-01
1.25398400000000e-07,7.50000000000000e-01,0.00000000000000e+00,7.49473369659248e-01
1.25603200000000e-07,7.50000000000000e-01,0.00000000000000e+00,7.50062761276112e-01
1.25832543583039e-07,7.50000000000000e-01,0.00000000000000e+00,7.49990449563254e-01
1.26291230749116e-07,7.50000000000000e-01,0.00000000000000e+00,7.50000951873753e-01
1.26812252432274e-07,7.50000000000000e-01,0.00000000000000e+00,7.50004731112041e-01
1.27854295798591e-07,7.50000000000000e-01,0.00000000000000e+00,7.49993443133887e-01
1.29872206996629e-07,7.50000000000000e-01,0.00000000000000e+00,7.50007179767752e-01
1.33210006687369e-07,7.50000000000000e-01,0.00000000000000e+00,7.49992444941866e-01
1.35100000000000e-07,7.49999999999864e-01,0.00000000000000e+00,7.50008110727288e-01
1.35110000000000e-07,6.74999999999778e-01,0.00000000000000e+00,7.49969047473619e-01
1.35130000000000e-07,5.24999999999807e-01,0.00000000000000e+00,7.49916285817015e-01
