Time,v(clk),v(data),v(out)
1.00000000000000e-08,7.50000000000000e-01,0.00000000000000e+00,1.74333645301167e-05
1.00100000000000e-08,7.50000000000000e-01,7.49999999999982e-02,1.56139638388189e-05
1.00300000000000e-08,7.50000000000000e-01,2.24999999999995e-01,1.15768768661900e-05
1.00700000000000e-08,7.50000000000000e-01,5.24999999999987e-01,4.80351118468253e-06
1.01000000000000e-08,7.50000000000000e-01,7.49999999999994e-01,2.20690198859952e-06
1.01080000000000e-08,7.50000000000000e-01,7.50000000000000e-01,2.23391339364970e-06
1.01240000000000e-08,7.50000000000000e-01,7.50000000000000e-01,2.89083256539008e-06
1.01560000000000e-08,7.50000000000000e-01,7.50000000000000e-01,4.71777643624299e-06
1.02200000000000e-08,7.50000000000000e-01,7.50000000000000e-01,6.16583183840266e-06
1.03480000000000e-08,7.50000000000000e-01,7.50000000000000e-01,2.58442953430388e-06
1.06040000000000e-08,7.50000000000000e-01,7.50000000000000e-01,2.71714629186681e-06
1.11160000000000e-08,7.50000000000000e-01,7.50000000000000e-01,3.43238886917323e-06
1.21400000000000e-08,7.50000000000000e-01,7.50000000000000e-01,2.32639237543984e-06
1.41880000000000e-08,7.50000000000000e-01,7.50000000000000e-01,2.86686741597154e-06
1.51000000000000e-08,7.50000000000000e-01,7.50000000000000e-01,1.92510771395695e-06
1.51100000000000e-08,6.74999999999989e-01,7.50000000000000e-01,-2.95463347923589e-05
1.51300000000000e-08,5.24999999999993e-01,7.50000000000000e-01,-8.09383936124924e-05
1.51700000000000e-08,2.25000000000000e-01,7.50000000000000e-01,-8.11273183486325e-05
1.52000000000000e-08,0.00000000000000e+00,7.50000000000000e-01,3.99417449717249e-05
1.52080000000000e-08,0.00000000000000e+00,7.50000000000000e-01,1.07357686685891e-04
1.52240000000000e-08,0.00000000000000e+00,7.50000000000000e-01,1.92962223632250e-04
1.52560000000000e-08,0.00000000000000e+00,7.50000000000000e-01,1.89118197102121e-04
1.53200000000000e-08,0.00000000000000e+00,7.50000000000000e-01,-2.22512112675009e-05
1.54480000000000e-08,0.00000000000000e+00,7.50000000000000e-01,-1.43656405031417e-04
1.57040000000000e-08,0.00000000000000e+00,7.50000000000000e-01,-1.85223785593750e-04
1.61758359696927e-08,0.00000000000000e+00,7.50000000000000e-01,1.18191993525772e-04
1.67312178113763e-08,0.00000000000000e+00,7.50000000000000e-01,7.27926092046593e-05
1.78419814947435e-08,0.00000000000000e+00,7.50000000000000e-01,-9.95580642704210e-05
1.90190322758080e-08,0.00000000000000e+00,7.50000000000000e-01,1.13286297440219e-04
2.13731338379368e-08,0.00000000000000e+00,7.50000000000000e-01,-1.13607617503160e-04
2.50000000000000e-08,0.00000000000000e+00,7.50000000000000e-01,1.16397546482258e-04
2.50100000000000e-08,7.49999999999858e-02,7.50000000000000e-01,1.43864916880905e-04
2.50300000000000e-08,2.25000000000007e-01,7.50000000000000e-01,1.82372371125915e-04
2.50700000000000e-08,5.25000000000000e-01,7.50000000000000e-01,1.20247107286198e-04
2.51000000000000e-08,7.50000000000000e-01,7.50000000000000e-01,-1.07616086540839e-03
2.51080000000000e-08,7.50000000000000e-01,7.50000000000000e-01,-1.74360725465834e-03
2.51240000000000e-08,7.50000000000000e-01,7.50000000000000e-01,-3.05886945770895e-03
2.51560000000000e-08,7.50000000000000e-01,7.50000000000000e-01,-4.98091144290697e-03
2.52200000000000e-08,7.50000000000000e-01,7.50000000000000e-01,6.12683769392803e-03
2.53480000000000e-08,7.50000000000000e-01,7.50000000000000e-01,2.26947364372864e-01
2.56040000000000e-08,7.50000000000000e-01,7.50000000000000e-01,7.15970548673761e-01
2.60828643550488e-08,7.50000000000000e-01,7.50000000000000e-01,7.63059966461987e-01
2.66430553459322e-08,7.50000000000000e-01,7.50000000000000e-01,7.38132690389019e-01
2.76176753191294e-08,7.50000000000000e-01,7.50000000000000e-01,7.59430056639718e-01
2.87363907487591e-08,7.50000000000000e-01,7.50000000000000e-01,7.40775969954742e-01
3.09738216080185e-08,7.50000000000000e-01,7.50000000000000e-01,7.58149080269489e-01
3.47738216080185e-08,7.50000000000000e-01,7.50000000000000e-01,7.41545318847623e-01
3.51000000000000e-08,7.49999999999963e-01,7.50000000000000e-01,7.55695756825267e-01
3.51100000000000e-08,6.74999999999977e-01,7.50000000000000e-01,7.54031385014941e-01
3.51300000000000e-08,5.24999999999956e-01,7.50000000000000e-01,7.51624512966812e-01
3.51700000000000e-08,2.24999999999963e-01,7.50000000000000e-01,7.50514585392378e-01
3.52000000000000e-08,0.00000000000000e+00,7.50000000000000e-01,7.51419336059693e-01
3.52080000000000e-08,0.00000000000000e+00,7.50000000000000e-01,7.51652127748396e-01
3.52240000000000e-08,0.00000000000000e+00,7.50000000000000e-01,7.51906514358946e-01
3.52560000000000e-08,0.00000000000000e+00,7.50000000000000e-01,7.51036323834958e-01
3.53200000000000e-08,0.00000000000000e+00,7.50000000000000e-01,7.40428793165023e-01
3.54480000000000e-08,0.00000000000000e+00,7.50000000000000e-01,7.13847370821498e-01
3.57040000000000e-08,0.00000000000000e+00,7.50000000000000e-01,7.31904828301591e-01
3.62160000000000e-08,0.00000000000000e+00,7.50000000000000e-01,7.57367519856644e-01
3.68708803836308e-08,0.00000000000000e+00,7.50000000000000e-01,7.43316975079783e-01
3.81806411508924e-08,0.00000000000000e+00,7.50000000000000e-01,7.54890052480052e-01
4.08001626854155e-08,0.00000000000000e+00,7.50000000000000e-01,7.44913003493960e-01
4.46001626854155e-08,0.00000000000000e+00,7.50000000000000e-01,7.54440575980748e-01
4.50000000000000e-08,0.00000000000000e+00,7.50000000000000e-01,7.46969755631668e-01
4.50100000000000e-08,7.49999999999858e-02,7.50000000000000e-01,7.47510058642207e-01
4.50300000000000e-08,2.25000000000007e-01,7.50000000000000e-01,7.48392921935544e-01
4.50700000000000e-08,5.25000000000000e-01,7.50000000000000e-01,7.49299506376430e-01
4.51000000000000e-08,7.50000000000000e-01,7.50000000000000e-01,7.48930930295623e-01
4.51080000000000e-08,7.50000000000000e-01,6.90000000000031e-01,7.48593418257774e-01
4.51240000000000e-08,7.50000000000000e-01,5.69999999999994e-01,7.47906051986443e-01
4.51560000000000e-08,7.50000000000000e-01,3.30000000000020e-01,7.46724027030367e-01
4.52000000000000e-08,7.50000000000000e-01,4.29656310529936e-14,7.45725229184951e-01
4.52064000000000e-08,7.50000000000000e-01,0.00000000000000e+00,7.45677815281787e-01
4.52192000000000e-08,7.50000000000000e-01,0.00000000000000e+00,7.45641431599443e-01
4.52448000000000e-08,7.50000000000000e-01,0.00000000000000e+00,7.45921967334409e-01
4.52960000000000e-08,7.50000000000000e-01,0.00000000000000e+00,7.47133638001707e-01
4.53984000000000e-08,7.50000000000000e-01,0.00000000000000e+00,7.49031407403500e-01
4.56032000000000e-08,7.50000000000000e-01,0.00000000000000e+00,7.50019431751266e-01
4.58548241779887e-08,7.50000000000000e-01,0.00000000000000e+00,7.49995512778959e-01
4.63580725339661e-08,7.50000000000000e-01,0.00000000000000e+00,7.49998461372994e-01
4.68912170616493e-08,7.50000000000000e-01,0.00000000000000e+00,7.50004221362931e-01
4.79575061170155e-08,7.50000000000000e-01,0.00000000000000e+00,7.49994900450264e-01
5.00900842277481e-08,7.50000000000000e-01,0.00000000000000e+00,7.50005387549180e-01
5.38900842277481e-08,7.50000000000000e-01,0.00000000000000e+00,7.49994450656039e-01
5.51000000000000e-08,7.50000000000000e-01,0.00000000000000e+00,7.50005876574081e-01
5.51100000000000e-08,6.75000000000027e-01,0.00000000000000e+00,7.49965511677188e-01
5.51300000000000e-08,5.25000000000005e-01,0.00000000000000e+00,7.49909957121555e-01
5.51700000000000e-08,2.25000000000013e-01,0.00000000000000e+00,7.50351061289588e-01
5.52000000000000e-08,0.00000000000000e+00,0.00000000000000e+00,7.51423205063901e-01
5.52080000000000e-08,0.00000000000000e+00,0.00000000000000e+00,7.51710465637678e-01
5.52240000000000e-08,0.00000000000000e+00,0.00000000000000e+00,7.52142870974834e-01
5.52560000000000e-08,0.00000000000000e+00,0.00000000000000e+00,7.52555637994453e-01
5.53200000000000e-08,0.00000000000000e+00,0.00000000000000e+00,7.53033321184915e-01
5.54480000000000e-08,0.00000000000000e+00,0.00000000000000e+00,7.52902364730917e-01
5.57040000000000e-08,0.00000000000000e+00,0.00000000000000e+00,7.49278583418338e-01
5.60096735920381e-08,0.00000000000000e+00,0.00000000000000e+00,7.49388157611577e-01
5.66210207761144e-08,0.00000000000000e+00,0.00000000000000e+00,7.49780275648467e-01
5.72041265717282e-08,0.00000000000000e+00,0.00000000000000e+00,7.49504985634494e-01
5.83703381629559e-08,0.00000000000000e+00,0.00000000000000e+00,7.49920460311519e-01
6.07027613454111e-08,0.00000000000000e+00,0.00000000000000e+00,7.49638235681599e-01
6.45027613454111e-08,0.00000000000000e+00,0.00000000000000e+00,7.50023894661753e-01
6.50000000000000e-08,0.00000000000000e+00,0.00000000000000e+00,7.49702909042805e-01
6.50100000000000e-08,7.49999999999858e-02,0.00000000000000e+00,7.49770299191454e-01
6.50300000000000e-08,2.24999999999957e-01,0.00000000000000e+00,7.49862665425617e-01
6.50700000000000e-08,5.24999999999900e-01,0.00000000000000e+00,7.49873694798575e-01
6.51000000000000e-08,7.49999999999957e-01,0.00000000000000e+00,7.49741324393522e-01
6.51080000000000e-08,7.50000000000000e-01,0.00000000000000e+00,7.49704823110854e-01
6.51240000000000e-08,7.50000000000000e-01,0.00000000000000e+00,7.49641576131878e-01
6.51560000000000e-08,7.50000000000000e-01,0.00000000000000e+00,7.49619353842041e-01
6.52200000000000e-08,7.50000000000000e-01,0.00000000000000e+00,7.50392427060381e-01
6.53480000000000e-08,7.50000000000000e-01,0.00000000000000e+00,7.56698096529534e-01
6.56040000000000e-08,7.50000000000000e-01,0.00000000000000e+00,2.89917872667912e-01
6.60055995141342e-08,7.50000000000000e-01,0.00000000000000e+00,-8.03416819601219e-02
6.64190350733865e-08,7.50000000000000e-01,0.00000000000000e+00,6.40350569145509e-02
6.72459061918912e-08,7.50000000000000e-01,0.00000000000000e+00,-4.46091905172263e-02
6.80378299430881e-08,7.50000000000000e-01,0.00000000000000e+00,4.04773044640178e-02
6.96216774454817e-08,7.50000000000000e-01,0.00000000000000e+00,-3.28308434042687e-02
7.19944644076773e-08,7.50000000000000e-01,0.00000000000000e+00,3.35489786491339e-02
7.51000000000000e-08,7.50000000000000e-01,0.00000000000000e+00,-2.90928011673089e-02
7.51100000000000e-08,6.75000000000076e-01,0.00000000000000e+00,-2.36581170343981e-02
7.51300000000000e-08,5.25000000000105e-01,0.00000000000000e+00,-1.43511587634365e-02
7.51700000000000e-08,2.25000000000162e-01,0.00000000000000e+00,-4.52051960132044e-03
7.52000000000000e-08,1.05027098129540e-13,0.00000000000000e+00,-2.01220911486584e-03
7.52080000000000e-08,0.00000000000000e+00,0.00000000000000e+00,-1.57690471548944e-03
7.52240000000000e-08,0.00000000000000e+00,0.00000000000000e+00,-8.91163620088273e-04
7.52560000000000e-08,0.00000000000000e+00,0.00000000000000e+00,-2.91073708538703e-04
7.53200000000000e-08,0.00000000000000e+00,0.00000000000000e+00,-4.09787346246426e-04
7.54480000000000e-08,0.00000000000000e+00,0.00000000000000e+00,-8.19719213480126e-04
7.57040000000000e-08,0.00000000000000e+00,0.00000000000000e+00,2.07988728107450e-04
7.61913505051533e-08,0.00000000000000e+00,0.00000000000000e+00,-8.04940871646552e-05
7.68309191952200e-08,0.00000000000000e+00,0.00000000000000e+00,2.35753681910684e-05
7.81100565753534e-08,0.00000000000000e+00,0.00000000000000e+00,2.70359452121845e-07
8.06683313356202e-08,0.00000000000000e+00,0.00000000000000e+00,-6.98621778665140e-06
8.44683313356202e-08,0.00000000000000e+00,0.00000000000000e+00,1.48790211625786e-05
8.50000000000000e-08,0.00000000000000e+00,0.00000000000000e+00,-4.21276553890576e-05
8.50100000000000e-08,7.49999999999858e-02,0.00000000000000e+00,4.47064119409452e-05
8.50300000000000e-08,2.24999999999957e-01,0.00000000000000e+00,1.43014817097574e-04
8.50700000000000e-08,5.24999999999900e-01,0.00000000000000e+00,1.19871164165383e-04
8.51000000000000e-08,7.49999999999957e-01,0.00000000000000e+00,-9.08071974718427e-05
8.51080000000000e-08,7.50000000000000e-01,0.00000000000000e+00,-1.35840761650186e-04
8.51240000000000e-08,7.50000000000000e-01,0.00000000000000e+00,-1.85398646991262e-04
8.51560000000000e-08,7.50000000000000e-01,0.00000000000000e+00,-1.73500674268606e-04
8.52200000000000e-08,7.50000000000000e-01,0.00000000000000e+00,-1.38044505266735e-04
8.53480000000000e-08,7.50000000000000e-01,0.00000000000000e+00,5.02003962815009e-05
8.56040000000000e-08,7.50000000000000e-01,0.00000000000000e+00,4.59928272190484e-05
8.61159999999999e-08,7.50000000000000e-01,0.00000000000000e+00,-2.11634402592685e-05
8.67855132841088e-08,7.50000000000000e-01,0.00000000000000e+00,2.46322054477839e-05
8.81040442917534e-08,7.50000000000000e-01,0.00000000000000e+00,-1.23221943023892e-05
9.00000000000000e-08,7.50000000000000e-01,0.00000000000000e+00,1.78349967081494e-05
9.00100000000000e-08,7.50000000000000e-01,7.49999999999858e-02,1.58008103140067e-05
9.00300000000000e-08,7.50000000000000e-01,2.24999999999957e-01,1.16621003285744e-05
9.00700000000000e-08,7.50000000000000e-01,5.24999999999900e-01,4.96910388325320e-06
9.01000000000000e-08,7.50000000000000e-01,7.49999999999957e-01,2.38451438153153e-06
9.01080000000000e-08,7.50000000000000e-01,7.50000000000000e-01,2.40133846363816e-06
9.01240000000000e-08,7.50000000000000e-01,7.50000000000000e-01,3.06118490292495e-06
9.01560000000000e-08,7.50000000000000e-01,7.50000000000000e-01,4.49783406351184e-06
9.02200000000000e-08,7.50000000000000e-01,7.50000000000000e-01,6.01858434652602e-06
9.03480000000000e-08,7.50000000000000e-01,7.50000000000000e-01,2.60786082221728e-06
9.06040000000000e-08,7.50000000000000e-01,7.50000000000000e-01,2.75849759714779e-06
9.11159999999999e-08,7.50000000000000e-01,7.50000000000000e-01,3.39103164751463e-06
9.21399999999999e-08,7.50000000000000e-01,7.50000000000000e-01,2.36646639025385e-06
9.41879999999998e-08,7.50000000000000e-01,7.50000000000000e-01,2.82782980289323e-06
9.51000000000000e-08,7.50000000000000e-01,7.50000000000000e-01,1.96204930383347e-06
9.51100000000000e-08,6.75000000000076e-01,7.50000000000000e-01,-2.94380522089938e-05
9.51300000000000e-08,5.25000000000105e-01,7.50000000000000e-01,-8.09257570764735e-05
9.51700000000000e-08,2.25000000000162e-01,7.50000000000000e-01,-8.11477238186822e-05
9.52000000000000e-08,1.05027098129540e-13,7.50000000000000e-01,3.99431277640777e-05
9.52080000000000e-08,0.00000000000000e+00,7.50000000000000e-01,1.07359505089097e-04
9.52240000000000e-08,0.00000000000000e+00,7.50000000000000e-01,1.92964445676125e-04
9.52560000000000e-08,0.00000000000000e+00,7.50000000000000e-01,1.89113523865733e-04
9.53200000000000e-08,0.00000000000000e+00,7.50000000000000e-01,-2.22652038770269e-05
9.54480000000000e-08,0.00000000000000e+00,7.50000000000000e-01,-1.43644101079858e-04
9.57040000000000e-08,0.00000000000000e+00,7.50000000000000e-01,-1.85243276425565e-04
9.61758253067433e-08,0.00000000000000e+00,7.50000000000000e-01,1.18216040485807e-04
9.67311997974194e-08,0.00000000000000e+00,7.50000000000000e-01,7.27882400226058e-05
9.78419487787714e-08,0.00000000000000e+00,7.50000000000000e-01,-9.95640316516868e-05
9.90189755793492e-08,0.00000000000000e+00,7.50000000000000e-01,1.13298947061347e-04
1.01373029180505e-07,0.00000000000000e+00,7.50000000000000e-01,-1.13622519157250e-04
1.05000000000000e-07,0.00000000000000e+00,7.50000000000000e-01,1.16413435468222e-04
1.05010000000000e-07,7.49999999999858e-02,7.50000000000000e-01,1.43873257067544e-04
1.05030000000000e-07,2.24999999999957e-01,7.50000000000000e-01,1.82371375021910e-04
1.05070000000000e-07,5.24999999999900e-01,7.50000000000000e-01,1.20245528044974e-04
1.05100000000000e-07,7.49999999999957e-01,7.50000000000000e-01,-1.07615779425052e-03
1.05108000000000e-07,7.50000000000000e-01,7.50000000000000e-01,-1.74360358157768e-03
1.05124000000000e-07,7.50000000000000e-01,7.50000000000000e-01,-3.05886554394300e-03
1.05156000000000e-07,7.50000000000000e-01,7.50000000000000e-01,-4.98091145765121e-03
1.05220000000000e-07,7.50000000000000e-01,7.50000000000000e-01,6.12673337707349e-03
1.05348000000000e-07,7.50000000000000e-01,7.50000000000000e-01,2.26946880177461e-01
1.05604000000000e-07,7.50000000000000e-01,7.50000000000000e-01,7.15970363611779e-01
1.06082864799917e-07,7.50000000000000e-01,7.50000000000000e-01,7.63060040787098e-01
1.06643055606428e-07,7.50000000000000e-01,7.50000000000000e-01,7.38132618475943e-01
1.07617676196592e-07,7.50000000000000e-01,7.50000000000000e-01,7.59430114765742e-01
1.08736391680094e-07,7.50000000000000e-01,7.50000000000000e-01,7.40775911415972e-01
1.10973822647098e-07,7.50000000000000e-01,7.50000000000000e-01,7.58149131732807e-01
1.14773822647098e-07,7.50000000000000e-01,7.50000000000000e-01,7.41545264606737e-01
1.15100000000000e-07,7.50000000000000e-01,7.50000000000000e-01,7.55695788272855e-01
1.15110000000000e-07,6.75000000000076e-01,7.50000000000000e-01,7.54031406673630e-01
1.15130000000000e-07,5.25000000000105e-01,7.50000000000000e-01,7.51624521190947e-01
1.15170000000000e-07,2.25000000000162e-01,7.50000000000000e-01,7.50514585809699e-01
1.15200000000000e-07,1.05027098129540e-13,7.50000000000000e-01,7.51419336015635e-01
1.15208000000000e-07,0.00000000000000e+00,7.50000000000000e-01,7.51652127680128e-01
1.15224000000000e-07,0.00000000000000e+00,7.50000000000000e-01,7.51906514260290e-01
1.15256000000000e-07,0.00000000000000e+00,7.50000000000000e-01,7.51036323926417e-01
1.15320000000000e-07,0.00000000000000e+00,7.50000000000000e-01,7.40428794004081e-01
1.15448000000000e-07,0.00000000000000e+00,7.50000000000000e-01,7.13847371522592e-01
1.15704000000000e-07,0.00000000000000e+00,7.50000000000000e-01,7.31904828278292e-01
1.16216000000000e-07,0.00000000000000e+00,7.50000000000000e-01,7.57367520089163e-01
1.16870880377812e-07,0.00000000000000e+00,7.50000000000000e-01,7.43316974859510e-01
1.18180641133436e-07,0.00000000000000e+00,7.50000000000000e-01,7.54890052629023e-01
1.20800162644685e-07,0.00000000000000e+00,7.50000000000000e-01,7.44913003339722e-01
1.24600162644685e-07,0.00000000000000e+00,7.50000000000000e-01,7.54440576107842e-01
1.25000000000000e-07,0.00000000000000e+00,7.50000000000000e-01,7.46969755404134e-01
1.25010000000000e-07,7.49999999998865e-02,7.50000000000000e-01,7.47510058461372e-01
1.25030000000000e-07,2.24999999999858e-01,7.50000000000000e-01,7.48392921837057e-01
1.25070000000000e-07,5.24999999999801e-01,7.50000000000000e-01,7.49299506359864e-01
1.25100000000000e-07,7.49999999999858e-01,7.50000000000000e-01,7.48930930307393e-01
1.25108000000000e-07,7.50000000000000e-01,6.89999999999932e-01,7.48593418278679e-01
1.25124000000000e-07,7.50000000000000e-01,5.69999999999994e-01,7.47906052018625e-01
1.25156000000000e-07,7.50000000000000e-01,3.29999999999921e-01,7.46724027036317e-01
1.25200000000000e-07,7.50000000000000e-01,0.00000000000000e+00,7.45725229144317e-01
1.25206400000000e-07,7.50000000000000e-01,0.00000000000000e+00,7.45677815251638e-01
1.25219200000000e-07,7.50000000000000e-01,0.00000000000000e+00,7.45641431578798e-01
1.25244800000000e-07,7.50000000000000e-01,0.00000000000000e+00,7.45921967309471e-01
1.25296000000000e-07,7.50000000000000e-01,0.00000000000000e+00,7.47133637965675e-01
1.25398400000000e-07,7.50000000000000e-01,0.00000000000000e+00,7.49031407395943e-01
1.25603200000000e-07,7.50000000000000e-01,0.00000000000000e+00,7.50019431755105e-01
1.25854824197905e-07,7.50000000000000e-01,0.00000000000000e+00,7.49995512784046e-01
1.26358072593715e-07,7.50000000000000e-01,0.00000000000000e+00,7.49998461366285e-01
1.26891217061035e-07,7.50000000000000e-01,0.00000000000000e+00,7.50004221369276e-01
1.27957505995677e-07,7.50000000000000e-01,0.00000000000000e+00,7.49994900444421e-01
1.30090083864959e-07,7.50000000000000e-01,0.00000000000000e+00,7.50005387554447e-01
1.33890083864959e-07,7.50000000000000e-01,0.00000000000000e+00,7.49994450650825e-01
1.35100000000000e-07,7.49999999999864e-01,0.00000000000000e+00,7.50005876578851e-01
1.35110000000000e-07,6.74999999999778e-01,0.00000000000000e+00,7.49965511689148e-01
1.35130000000000e-07,5.24999999999807e-01,0.00000000000000e+00,7.49909957138052e-01
1.35170000000000e-07,2.24999999999864e-01,0.00000000000000e+00,7.50351061298682e-01
1.35200000000000e-07,0.00000000000000e+00,0.00000000000000e+00,7.51423205073857e-01
