Time,v(clk),v(data),v(out)
1.00000000000000e-08,7.50000000000000e-01,0.00000000000000e+00,1.74236165656858e-05
1.00100000000000e-08,7.50000000000000e-01,7.49999999999982e-02,1.56114436985350e-05
1.00300000000000e-08,7.50000000000000e-01,2.24999999999995e-01,1.15764935271420e-05
1.00700000000000e-08,7.50000000000000e-01,5.24999999999987e-01,4.80088064092749e-06
1.01000000000000e-08,7.50000000000000e-01,7.49999999999994e-01,2.20512755547825e-06
1.01080000000000e-08,7.50000000000000e-01,7.50000000000000e-01,2.23193085178985e-06
1.01240000000000e-08,7.50000000000000e-01,7.50000000000000e-01,2.88931069136050e-06
1.01560000000000e-08,7.50000000000000e-01,7.50000000000000e-01,4.71775950123404e-06
1.02200000000000e-08,7.50000000000000e-01,7.50000000000000e-01,6.16728574723974e-06
1.03480000000000e-08,7.50000000000000e-01,7.50000000000000e-01,2.58407430322669e-06
1.06040000000000e-08,7.50000000000000e-01,7.50000000000000e-01,2.71673912894017e-06
1.11160000000000e-08,7.50000000000000e-01,7.50000000000000e-01,3.43269893177643e-06
1.21400000000000e-08,7.50000000000000e-01,7.50000000000000e-01,2.32602132402325e-06
1.41880000000000e-08,7.50000000000000e-01,7.50000000000000e-01,2.86717090116403e-06
1.51000000000000e-08,7.50000000000000e-01,7.50000000000000e-01,1.92478396343664e-06
1.51100000000000e-08,6.74999999999989e-01,7.50000000000000e-01,-2.95480912244211e-05
1.51300000000000e-08,5.24999999999993e-01,7.50000000000000e-01,-8.09387075739187e-05
1.51700000000000e-08,2.25000000000000e-01,7.50000000000000e-01,-8.11269514184795e-05
1.52000000000000e-08,0.00000000000000e+00,7.50000000000000e-01,3.99418580827593e-05
1.52080000000000e-08,0.00000000000000e+00,7.50000000000000e-01,1.07357779869539e-04
1.52240000000000e-08,0.00000000000000e+00,7.50000000000000e-01,1.92962274962689e-04
1.52560000000000e-08,0.00000000000000e+00,7.50000000000000e-01,1.89118174885615e-04
1.53200000000000e-08,0.00000000000000e+00,7.50000000000000e-01,-2.22520665389934e-05
1.54480000000000e-08,0.00000000000000e+00,7.50000000000000e-01,-1.43657379590621e-04
1.57040000000000e-08,0.00000000000000e+00,7.50000000000000e-01,-1.85223155700952e-04
1.61758360939164e-08,0.00000000000000e+00,7.50000000000000e-01,1.18191446253823e-04
1.67312180177544e-08,0.00000000000000e+00,7.50000000000000e-01,7.27928520956305e-05
1.78419818654305e-08,0.00000000000000e+00,7.50000000000000e-01,-9.95581623636334e-05
1.90190329202505e-08,0.00000000000000e+00,7.50000000000000e-01,1.13286295842052e-04
2.13731350298904e-08,0.00000000000000e+00,7.50000000000000e-01,-1.13607580460612e-04
2.50000000000000e-08,0.00000000000000e+00,7.50000000000000e-01,1.16397491657830e-04
2.50100000000000e-08,7.49999999999858e-02,7.50000000000000e-01,1.43864919301184e-04
2.50300000000000e-08,2.25000000000007e-01,7.50000000000000e-01,1.82372445147037e-04
2.50700000000000e-08,5.25000000000000e-01,7.50000000000000e-01,1.20247156980394e-04
2.51000000000000e-08,7.50000000000000e-01,7.50000000000000e-01,-1.07616088698374e-03
2.51080000000000e-08,7.50000000000000e-01,7.50000000000000e-01,-1.74360728447440e-03
2.51240000000000e-08,7.50000000000000e-01,7.50000000000000e-01,-3.05886949345965e-03
2.51560000000000e-08,7.50000000000000e-01,7.50000000000000e-01,-4.98091143914534e-03
2.52200000000000e-08,7.50000000000000e-01,7.50000000000000e-01,6.12683890904739e-03
2.53480000000000e-08,7.50000000000000e-01,7.50000000000000e-01,2.26947370467220e-01
2.56040000000000e-08,7.50000000000000e-01,7.50000000000000e-01,7.15970551018016e-01
2.60828643489242e-08,7.50000000000000e-01,7.50000000000000e-01,7.63059965508647e-01
2.66430553422515e-08,7.50000000000000e-01,7.50000000000000e-01,7.38132691310474e-01
2.76176753070310e-08,7.50000000000000e-01,7.50000000000000e-01,7.59430055901501e-01
2.87363907358187e-08,7.50000000000000e-01,7.50000000000000e-01,7.40775970705513e-01
3.01000000000000e-08,7.50000000000000e-01,7.50000000000000e-01,7.57896694463002e-01
3.01100000000000e-08,7.50000000000000e-01,6.75000000000039e-01,7.55665822901372e-01
3.01300000000000e-08,7.50000000000000e-01,5.25000000000018e-01,7.52442065126066e-01
3.01700000000000e-08,7.50000000000000e-01,2.25000000000025e-01,7.50307957908425e-01
3.02000000000000e-08,7.50000000000000e-01,1.80966353013901e-14,7.50148196335856e-01
3.02080000000000e-08,7.50000000000000e-01,0.00000000000000e+00,7.50128005319328e-01
3.02240000000000e-08,7.50000000000000e-01,0.00000000000000e+00,7.50084018835421e-01
3.02560000000000e-08,7.50000000000000e-01,0.00000000000000e+00,7.50031258985349e-01
3.03200000000000e-08,7.50000000000000e-01,0.00000000000000e+00,7.49979401665063e-01
3.04480000000000e-08,7.50000000000000e-01,0.00000000000000e+00,7.49965803651050e-01
3.07040000000000e-08,7.50000000000000e-01,0.00000000000000e+00,7.49965982717256e-01
3.10260048753362e-08,7.50000000000000e-01,0.00000000000000e+00,7.49957598209954e-01
3.16700146260087e-08,7.50000000000000e-01,0.00000000000000e+00,7.49965292973998e-01
3.25149224941511e-08,7.50000000000000e-01,0.00000000000000e+00,7.49966262994371e-01
3.42047382304359e-08,7.50000000000000e-01,0.00000000000000e+00,7.49967821406546e-01
3.51000000000000e-08,7.49999999999963e-01,0.00000000000000e+00,7.49973095473992e-01
3.51100000000000e-08,6.74999999999977e-01,0.00000000000000e+00,7.49933570966177e-01
3.51300000000000e-08,5.24999999999956e-01,0.00000000000000e+00,7.49880683053068e-01
3.51700000000000e-08,2.24999999999963e-01,0.00000000000000e+00,7.50326999792635e-01
3.52000000000000e-08,0.00000000000000e+00,0.00000000000000e+00,7.51342541027451e-01
3.52080000000000e-08,0.00000000000000e+00,0.00000000000000e+00,7.51589608185521e-01
3.52240000000000e-08,0.00000000000000e+00,0.00000000000000e+00,7.51860155576791e-01
3.52560000000000e-08,0.00000000000000e+00,0.00000000000000e+00,7.51041629231716e-01
3.53200000000000e-08,0.00000000000000e+00,0.00000000000000e+00,7.40716721223895e-01
3.54480000000000e-08,0.00000000000000e+00,0.00000000000000e+00,7.13443534122103e-01
3.57040000000000e-08,0.00000000000000e+00,0.00000000000000e+00,7.31595517648937e-01
3.60099852195909e-08,0.00000000000000e+00,0.00000000000000e+00,7.55305843510144e-01
3.66219556587727e-08,0.00000000000000e+00,0.00000000000000e+00,7.44305313029182e-01
3.72055437109906e-08,0.00000000000000e+00,0.00000000000000e+00,7.52975616951946e-01
3.83727198154264e-08,0.00000000000000e+00,0.00000000000000e+00,7.46690973276279e-01
3.91000000000000e-08,0.00000000000000e+00,0.00000000000000e+00,7.51991014597842e-01
3.93334352208872e-08,0.00000000000000e+00,0.00000000000000e+00,7.50108437483263e-01
3.98003056626615e-08,0.00000000000000e+00,0.00000000000000e+00,7.49501119889001e-01
4.07340465462101e-08,0.00000000000000e+00,0.00000000000000e+00,7.49986059256801e-01
4.26015283133074e-08,0.00000000000000e+00,0.00000000000000e+00,7.49635751313872e-01
4.50000000000000e-08,0.00000000000000e+00,0.00000000000000e+00,7.50011729504478e-01
4.50100000000000e-08,7.49999999999858e-02,0.00000000000000e+00,7.50011539718192e-01
4.50300000000000e-08,2.25000000000007e-01,0.00000000000000e+00,7.49997393450911e-01
4.50700000000000e-08,5.25000000000000e-01,0.00000000000000e+00,7.49906745928609e-01
4.51000000000000e-08,7.50000000000000e-01,0.00000000000000e+00,7.49748887931037e-01
4.51080000000000e-08,7.50000000000000e-01,0.00000000000000e+00,7.49709151569858e-01
4.51240000000000e-08,7.50000000000000e-01,0.00000000000000e+00,7.49639954403875e-01
4.51560000000000e-08,7.50000000000000e-01,0.00000000000000e+00,7.49611835131380e-01
4.52200000000000e-08,7.50000000000000e-01,0.00000000000000e+00,7.50386927290864e-01
4.53480000000000e-08,7.50000000000000e-01,0.00000000000000e+00,7.56702341407361e-01
4.56040000000000e-08,7.50000000000000e-01,0.00000000000000e+00,2.89504242651044e-01
4.60058837776379e-08,7.50000000000000e-01,0.00000000000000e+00,-8.04435866474568e-02
4.64194424506202e-08,7.50000000000000e-01,0.00000000000000e+00,6.41355505053948e-02
4.72465597965848e-08,7.50000000000000e-01,0.00000000000000e+00,-4.46804828993031e-02
4.80389832429422e-08,7.50000000000000e-01,0.00000000000000e+00,4.05522738100971e-02
4.96238301356571e-08,7.50000000000000e-01,0.00000000000000e+00,-3.28936776912733e-02
5.00000000000000e-08,7.50000000000000e-01,0.00000000000000e+00,2.27126432922598e-02
5.00100000000000e-08,7.50000000000000e-01,7.49999999999858e-02,1.87589183851694e-02
5.00300000000000e-08,7.50000000000000e-01,2.24999999999957e-01,1.17137433453531e-02
5.00700000000000e-08,7.50000000000000e-01,5.25000000000000e-01,3.82873926028221e-03
5.01000000000000e-08,7.50000000000000e-01,7.50000000000000e-01,1.78111275348179e-03
5.01080000000000e-08,7.50000000000000e-01,7.50000000000000e-01,1.46696970517275e-03
5.01240000000000e-08,7.50000000000000e-01,7.50000000000000e-01,9.51063060502737e-04
5.01560000000000e-08,7.50000000000000e-01,7.50000000000000e-01,4.05314015335570e-04
5.02200000000000e-08,7.50000000000000e-01,7.50000000000000e-01,4.00941517661631e-05
5.03480000000000e-08,7.50000000000000e-01,7.50000000000000e-01,-8.21193513865850e-06
5.06040000000000e-08,7.50000000000000e-01,7.50000000000000e-01,4.22175061957214e-06
5.11160000000001e-08,7.50000000000000e-01,7.50000000000000e-01,-3.22434026090151e-06
5.21400000000002e-08,7.50000000000000e-01,7.50000000000000e-01,3.45980965044254e-06
5.41880000000003e-08,7.50000000000000e-01,7.50000000000000e-01,-2.35210306101410e-06
5.51000000000000e-08,7.50000000000000e-01,7.50000000000000e-01,2.67318824135427e-06
5.51100000000000e-08,6.75000000000027e-01,7.50000000000000e-01,-3.07492326504233e-05
5.51300000000000e-08,5.25000000000005e-01,7.50000000000000e-01,-8.61598091361077e-05
5.51700000000000e-08,2.25000000000013e-01,7.50000000000000e-01,-8.56691225917458e-05
5.52000000000000e-08,0.00000000000000e+00,7.50000000000000e-01,3.40400216579037e-05
5.52080000000000e-08,0.00000000000000e+00,7.50000000000000e-01,1.00380925835641e-04
5.52240000000000e-08,0.00000000000000e+00,7.50000000000000e-01,1.81827947389905e-04
5.52560000000000e-08,0.00000000000000e+00,7.50000000000000e-01,1.51156214183441e-04
5.53200000000000e-08,0.00000000000000e+00,7.50000000000000e-01,-3.60846469586444e-04
5.54480000000000e-08,0.00000000000000e+00,7.50000000000000e-01,-8.32081622760224e-04
5.57040000000000e-08,0.00000000000000e+00,7.50000000000000e-01,1.28703669798006e-05
5.61765186117831e-08,0.00000000000000e+00,7.50000000000000e-01,4.36416853321674e-05
5.67319911084195e-08,0.00000000000000e+00,7.50000000000000e-01,8.08472036089147e-05
5.78429361016925e-08,0.00000000000000e+00,7.50000000000000e-01,-8.18941352555922e-05
5.90209882715196e-08,0.00000000000000e+00,7.50000000000000e-01,7.92929691661500e-05
6.13770926111737e-08,0.00000000000000e+00,7.50000000000000e-01,-7.31818455193107e-05
6.50000000000000e-08,0.00000000000000e+00,7.50000000000000e-01,7.21241323783859e-05
6.50100000000000e-08,7.49999999999858e-02,7.50000000000000e-01,1.41425248206997e-04
6.50300000000000e-08,2.24999999999957e-01,7.50000000000000e-01,2.22545062913151e-04
6.50700000000000e-08,5.24999999999900e-01,7.50000000000000e-01,1.53481651557638e-04
6.51000000000000e-08,7.49999999999957e-01,7.50000000000000e-01,-1.05643345878979e-03
6.51080000000000e-08,7.50000000000000e-01,7.50000000000000e-01,-1.72722106068917e-03
6.51240000000000e-08,7.50000000000000e-01,7.50000000000000e-01,-3.04762515878031e-03
6.51560000000000e-08,7.50000000000000e-01,7.50000000000000e-01,-4.97522211494195e-03
6.52200000000000e-08,7.50000000000000e-01,7.50000000000000e-01,6.12924529851450e-03
6.53480000000000e-08,7.50000000000000e-01,7.50000000000000e-01,2.26952711652885e-01
6.56040000000000e-08,7.50000000000000e-01,7.50000000000000e-01,7.15972570784862e-01
6.60828460947318e-08,7.50000000000000e-01,7.50000000000000e-01,7.63059042073228e-01
6.66430401586379e-08,7.50000000000000e-01,7.50000000000000e-01,7.38133585956050e-01
6.76176289296977e-08,7.50000000000000e-01,7.50000000000000e-01,7.59429338886802e-01
6.87363425149492e-08,7.50000000000000e-01,7.50000000000000e-01,7.40776700424061e-01
7.01000000000000e-08,7.50000000000000e-01,7.50000000000000e-01,7.57896109847043e-01
7.01100000000000e-08,7.50000000000000e-01,6.75000000000014e-01,7.55665403342552e-01
7.01300000000000e-08,7.50000000000000e-01,5.25000000000043e-01,7.52441886228306e-01
7.01700000000000e-08,7.50000000000000e-01,2.25000000000100e-01,7.50307937279735e-01
7.02000000000000e-08,7.50000000000000e-01,4.29656310529936e-14,7.50148184417816e-01
7.02080000000000e-08,7.50000000000000e-01,0.00000000000000e+00,7.50127994200370e-01
7.02240000000000e-08,7.50000000000000e-01,0.00000000000000e+00,7.50084010100840e-01
7.02560000000000e-08,7.50000000000000e-01,0.00000000000000e+00,7.50031254692543e-01
7.03200000000000e-08,7.50000000000000e-01,0.00000000000000e+00,7.49979400705678e-01
7.04480000000000e-08,7.50000000000000e-01,0.00000000000000e+00,7.49965802642629e-01
7.07040000000000e-08,7.50000000000000e-01,0.00000000000000e+00,7.49965980557507e-01
7.10260077249709e-08,7.50000000000000e-01,0.00000000000000e+00,7.49957597742120e-01
7.16700231749129e-08,7.50000000000000e-01,0.00000000000000e+00,7.49965291363380e-01
7.25149432233457e-08,7.50000000000000e-01,0.00000000000000e+00,7.49966262629908e-01
7.42047833202113e-08,7.50000000000000e-01,0.00000000000000e+00,7.49967820276933e-01
7.51000000000000e-08,7.50000000000000e-01,0.00000000000000e+00,7.49973095265848e-01
7.51100000000000e-08,6.75000000000076e-01,0.00000000000000e+00,7.49933570877105e-01
7.51300000000000e-08,5.25000000000105e-01,0.00000000000000e+00,7.49880683184686e-01
7.51700000000000e-08,2.25000000000162e-01,0.00000000000000e+00,7.50326999893991e-01
7.52000000000000e-08,1.05027098129540e-13,0.00000000000000e+00,7.51342540151969e-01
7.52080000000000e-08,0.00000000000000e+00,0.00000000000000e+00,7.51589607075332e-01
7.52240000000000e-08,0.00000000000000e+00,0.00000000000000e+00,7.51860151925861e-01
7.52560000000000e-08,0.00000000000000e+00,0.00000000000000e+00,7.51041605595786e-01
7.53200000000000e-08,0.00000000000000e+00,0.00000000000000e+00,7.40716627254895e-01
7.54480000000000e-08,0.00000000000000e+00,0.00000000000000e+00,7.13443462304475e-01
7.57040000000000e-08,0.00000000000000e+00,0.00000000000000e+00,7.31595553731320e-01
7.60099852153777e-08,0.00000000000000e+00,0.00000000000000e+00,7.55305818117676e-01
7.66219556461332e-08,0.00000000000000e+00,0.00000000000000e+00,7.44305331814798e-01
7.72055436932321e-08,0.00000000000000e+00,0.00000000000000e+00,7.52975602965559e-01
7.81000000000000e-08,0.00000000000000e+00,0.00000000000000e+00,7.46803745899350e-01
7.82167176094198e-08,0.00000000000000e+00,0.00000000000000e+00,7.48826887505589e-01
7.84501528282593e-08,0.00000000000000e+00,0.00000000000000e+00,7.50016184280374e-01
7.89170232659384e-08,0.00000000000000e+00,0.00000000000000e+00,7.49475693211745e-01
7.98507641412966e-08,0.00000000000000e+00,0.00000000000000e+00,7.49940544473333e-01
8.17182458920130e-08,0.00000000000000e+00,0.00000000000000e+00,7.49636251563296e-01
8.50000000000000e-08,0.00000000000000e+00,0.00000000000000e+00,7.50002822037184e-01
8.50100000000000e-08,7.49999999999858e-02,0.00000000000000e+00,7.50004276194276e-01
8.50300000000000e-08,2.24999999999957e-01,0.00000000000000e+00,7.49993110433763e-01
8.50700000000000e-08,5.24999999999900e-01,0.00000000000000e+00,7.49905287015371e-01
8.51000000000000e-08,7.49999999999957e-01,0.00000000000000e+00,7.49748287685017e-01
8.51080000000000e-08,7.50000000000000e-01,0.00000000000000e+00,7.49708940197851e-01
8.51240000000000e-08,7.50000000000000e-01,0.00000000000000e+00,7.49639350092094e-01
8.51560000000000e-08,7.50000000000000e-01,0.00000000000000e+00,7.49611143125187e-01
8.52200000000000e-08,7.50000000000000e-01,0.00000000000000e+00,7.50386357692487e-01
8.53480000000000e-08,7.50000000000000e-01,0.00000000000000e+00,7.56702716290667e-01
8.56040000000000e-08,7.50000000000000e-01,0.00000000000000e+00,2.89525511281450e-01
8.60058743032874e-08,7.50000000000000e-01,0.00000000000000e+00,-8.04399057734320e-02
8.64194201103694e-08,7.50000000000000e-01,0.00000000000000e+00,6.41312453575419e-02
8.72465117245334e-08,7.50000000000000e-01,0.00000000000000e+00,-4.46772243876356e-02
8.80389060949901e-08,7.50000000000000e-01,0.00000000000000e+00,4.05487375356457e-02
8.96236948359034e-08,7.50000000000000e-01,0.00000000000000e+00,-3.28906809780221e-02
9.00000000000000e-08,7.50000000000000e-01,0.00000000000000e+00,2.27140947701228e-02
9.00100000000000e-08,7.50000000000000e-01,7.49999999999858e-02,1.87604849005713e-02
9.00300000000000e-08,7.50000000000000e-01,2.24999999999957e-01,1.17149783444693e-02
9.00700000000000e-08,7.50000000000000e-01,5.24999999999900e-01,3.82907709211077e-03
9.01000000000000e-08,7.50000000000000e-01,7.49999999999957e-01,1.78131660133512e-03
9.01080000000000e-08,7.50000000000000e-01,7.50000000000000e-01,1.46712815364224e-03
9.01240000000000e-08,7.50000000000000e-01,7.50000000000000e-01,9.51159829037318e-04
9.01560000000000e-08,7.50000000000000e-01,7.50000000000000e-01,4.05356742861483e-04
9.02200000000000e-08,7.50000000000000e-01,7.50000000000000e-01,4.00938230209098e-05
9.03480000000000e-08,7.50000000000000e-01,7.50000000000000e-01,-8.21103791060276e-06
9.06040000000000e-08,7.50000000000000e-01,7.50000000000000e-01,4.22095774867473e-06
9.11159999999999e-08,7.50000000000000e-01,7.50000000000000e-01,-3.22353850845062e-06
9.21399999999999e-08,7.50000000000000e-01,7.50000000000000e-01,3.45904290563730e-06
9.41879999999998e-08,7.50000000000000e-01,7.50000000000000e-01,-2.35121579926999e-06
9.51000000000000e-08,7.50000000000000e-01,7.50000000000000e-01,2.67235837161277e-06
9.51100000000000e-08,6.75000000000076e-01,7.50000000000000e-01,-3.07494163863525e-05
9.51300000000000e-08,5.25000000000105e-01,7.50000000000000e-01,-8.61595302469667e-05
9.51700000000000e-08,2.25000000000162e-01,7.50000000000000e-01,-8.56689816391837e-05
9.52000000000000e-08,1.05027098129540e-13,7.50000000000000e-01,3.40401112941605e-05
9.52080000000000e-08,0.00000000000000e+00,7.50000000000000e-01,1.00380988885714e-04
9.52240000000000e-08,0.00000000000000e+00,7.50000000000000e-01,1.81827981726015e-04
9.52560000000000e-08,0.00000000000000e+00,7.50000000000000e-01,1.51156252989747e-04
9.53200000000000e-08,0.00000000000000e+00,7.50000000000000e-01,-3.60846332279084e-04
9.54480000000000e-08,0.00000000000000e+00,7.50000000000000e-01,-8.32081170674431e-04
9.57040000000000e-08,0.00000000000000e+00,7.50000000000000e-01,1.28702811555831e-05
9.61765186122657e-08,0.00000000000000e+00,7.50000000000000e-01,4.36416852323705e-05
9.67319911091903e-08,0.00000000000000e+00,7.50000000000000e-01,8.08472428832554e-05
9.78429361030394e-08,0.00000000000000e+00,7.50000000000000e-01,-8.18941866013675e-05
9.90209882756124e-08,0.00000000000000e+00,7.50000000000000e-01,7.92930289891503e-05
1.01377092620758e-07,0.00000000000000e+00,7.50000000000000e-01,-7.31819090038059e-05
1.05000000000000e-07,0.00000000000000e+00,7.50000000000000e-01,7.21241977608905e-05
1.05010000000000e-07,7.49999999999858e-02,7.50000000000000e-01,1.41425267364000e-04
1.05030000000000e-07,2.24999999999957e-01,7.50000000000000e-01,2.22545038077782e-04
1.05070000000000e-07,5.24999999999900e-01,7.50000000000000e-01,1.53481628402136e-04
1.05100000000000e-07,7.49999999999957e-01,7.50000000000000e-01,-1.05643347421468e-03
1.05108000000000e-07,7.50000000000000e-01,7.50000000000000e-01,-1.72722107340302e-03
1.05124000000000e-07,7.50000000000000e-01,7.50000000000000e-01,-3.04762516747868e-03
1.05156000000000e-07,7.50000000000000e-01,7.50000000000000e-01,-4.97522211924205e-03
1.05220000000000e-07,7.50000000000000e-01,7.50000000000000e-01,6.12924531165170e-03
1.05348000000000e-07,7.50000000000000e-01,7.50000000000000e-01,2.26952712445727e-01
1.05604000000000e-07,7.50000000000000e-01,7.50000000000000e-01,7.15972571152855e-01
1.06082846093206e-07,7.50000000000000e-01,7.50000000000000e-01,7.63059041915616e-01
1.06643040157583e-07,7.50000000000000e-01,7.50000000000000e-01,7.38133586108134e-01
1.07617628926590e-07,7.50000000000000e-01,7.50000000000000e-01,7.59429338763636e-01
1.08736342511470e-07,7.50000000000000e-01,7.50000000000000e-01,7.40776700540700e-01
