Time,v(clk),v(data),v(out)
1.00000000000000e-08,5.50000000000000e-01,0.00000000000000e+00,3.22553422426731e-05
1.00100000000000e-08,5.50000000000000e-01,5.49999999999987e-02,3.01410747384698e-05
1.00300000000000e-08,5.50000000000000e-01,1.64999999999996e-01,2.51443314557356e-05
1.00700000000000e-08,5.50000000000000e-01,3.84999999999991e-01,1.34197607735420e-05
1.01000000000000e-08,5.50000000000000e-01,5.49999999999996e-01,4.82892001998914e-06
1.01080000000000e-08,5.50000000000000e-01,5.50000000000000e-01,3.78233385878168e-06
1.01240000000000e-08,5.50000000000000e-01,5.50000000000000e-01,3.24437776826059e-06
1.01560000000000e-08,5.50000000000000e-01,5.50000000000000e-01,4.52716425382305e-06
1.02200000000000e-08,5.50000000000000e-01,5.50000000000000e-01,6.18857756822661e-06
1.03480000000000e-08,5.50000000000000e-01,5.50000000000000e-01,7.85833540691006e-07
1.06040000000000e-08,5.50000000000000e-01,5.50000000000000e-01,8.04100961754664e-07
1.11160000000000e-08,5.50000000000000e-01,5.50000000000000e-01,7.16029559286874e-07
1.21400000000000e-08,5.50000000000000e-01,5.50000000000000e-01,1.48703446793078e-06
1.41880000000000e-08,5.50000000000000e-01,5.50000000000000e-01,5.81397139299243e-07
1.51000000000000e-08,5.50000000000000e-01,5.50000000000000e-01,1.20799517944843e-06
1.51100000000000e-08,4.94999999999992e-01,5.50000000000000e-01,-5.41055279814837e-05
1.51300000000000e-08,3.84999999999995e-01,5.50000000000000e-01,-1.37434168536558e-04
1.51700000000000e-08,1.65000000000000e-01,5.50000000000000e-01,-1.86976512153388e-04
1.52000000000000e-08,0.00000000000000e+00,5.50000000000000e-01,-5.95821373163899e-05
1.52080000000000e-08,0.00000000000000e+00,5.50000000000000e-01,5.70960578557614e-05
1.52240000000000e-08,0.00000000000000e+00,5.50000000000000e-01,2.17392697157801e-04
1.52560000000000e-08,0.00000000000000e+00,5.50000000000000e-01,2.78418496148368e-04
1.53200000000000e-08,0.00000000000000e+00,5.50000000000000e-01,1.43219935277605e-04
1.54480000000000e-08,0.00000000000000e+00,5.50000000000000e-01,-7.70140906673558e-05
1.57040000000000e-08,0.00000000000000e+00,5.50000000000000e-01,-4.49502997028148e-05
1.62160000000000e-08,0.00000000000000e+00,5.50000000000000e-01,-1.09080765211700e-04
1.69577208167262e-08,0.00000000000000e+00,5.50000000000000e-01,1.07374707033898e-04
1.81497460151219e-08,0.00000000000000e+00,5.50000000000000e-01,-2.27623964392538e-05
1.98540367310813e-08,0.00000000000000e+00,5.50000000000000e-01,-1.43455290109785e-05
2.29737329754106e-08,0.00000000000000e+00,5.50000000000000e-01,2.98117003321057e-05
2.50000000000000e-08,0.00000000000000e+00,5.50000000000000e-01,-4.82128298407655e-05
2.50100000000000e-08,5.49999999999896e-02,5.50000000000000e-01,6.91089104670611e-05
2.50300000000000e-08,1.65000000000005e-01,5.50000000000000e-01,2.39133206084520e-04
2.50700000000000e-08,3.85000000000000e-01,5.50000000000000e-01,3.10288955523819e-04
2.51000000000000e-08,5.50000000000000e-01,5.50000000000000e-01,-1.98772478344288e-04
2.51080000000000e-08,5.50000000000000e-01,5.50000000000000e-01,-6.40024737383463e-04
2.51240000000000e-08,5.50000000000000e-01,5.50000000000000e-01,-1.67539658417383e-03
2.51560000000000e-08,5.50000000000000e-01,5.50000000000000e-01,-3.63343217078185e-03
2.52200000000000e-08,5.50000000000000e-01,5.50000000000000e-01,-5.93688889291510e-03
2.53480000000000e-08,5.50000000000000e-01,5.50000000000000e-01,4.47744077286211e-02
2.56040000000000e-08,5.50000000000000e-01,5.50000000000000e-01,3.79635908590302e-01
2.61160000000000e-08,5.50000000000000e-01,5.50000000000000e-01,5.75067124311985e-01
2.68085096427369e-08,5.50000000000000e-01,5.50000000000000e-01,5.28087859466166e-01
2.81553939888875e-08,5.50000000000000e-01,5.50000000000000e-01,5.69104821731348e-01
2.99386101390208e-08,5.50000000000000e-01,5.50000000000000e-01,5.31313957610416e-01
3.35050424392874e-08,5.50000000000000e-01,5.50000000000000e-01,5.67229024766187e-01
3.51000000000000e-08,5.49999999999973e-01,5.50000000000000e-01,5.33324171439689e-01
3.51100000000000e-08,4.94999999999983e-01,5.50000000000000e-01,5.37160850759181e-01
3.51300000000000e-08,3.84999999999968e-01,5.50000000000000e-01,5.43059412044987e-01
3.51700000000000e-08,1.64999999999973e-01,5.50000000000000e-01,5.48419558393204e-01
3.52000000000000e-08,0.00000000000000e+00,5.50000000000000e-01,5.50356784528629e-01
3.52080000000000e-08,0.00000000000000e+00,5.50000000000000e-01,5.50833032741031e-01
3.52240000000000e-08,0.00000000000000e+00,5.50000000000000e-01,5.51568228594617e-01
3.52560000000000e-08,0.00000000000000e+00,5.50000000000000e-01,5.52250912560961e-01
3.53200000000000e-08,0.00000000000000e+00,5.50000000000000e-01,5.51771721514755e-01
3.54480000000000e-08,0.00000000000000e+00,5.50000000000000e-01,5.41093952275131e-01
3.57040000000000e-08,0.00000000000000e+00,5.50000000000000e-01,5.28182630854065e-01
3.62160000000000e-08,0.00000000000000e+00,5.50000000000000e-01,5.47641925734842e-01
3.72400000000000e-08,0.00000000000000e+00,5.50000000000000e-01,5.50882119771196e-01
3.85248339510407e-08,0.00000000000000e+00,5.50000000000000e-01,5.48879200656070e-01
4.10945018531221e-08,0.00000000000000e+00,5.50000000000000e-01,5.50578786641321e-01
4.48945018531221e-08,0.00000000000000e+00,5.50000000000000e-01,5.49203641864282e-01
4.50000000000000e-08,0.00000000000000e+00,5.50000000000000e-01,5.49686861019702e-01
4.50100000000000e-08,5.49999999999896e-02,5.50000000000000e-01,5.49783353069588e-01
4.50300000000000e-08,1.65000000000005e-01,5.50000000000000e-01,5.49940652350539e-01
4.50700000000000e-08,3.85000000000000e-01,5.50000000000000e-01,5.50099054484866e-01
4.51000000000000e-08,5.50000000000000e-01,5.50000000000000e-01,5.49630888890166e-01
4.51080000000000e-08,5.50000000000000e-01,5.06000000000023e-01,5.49260838272722e-01
4.51240000000000e-08,5.50000000000000e-01,4.17999999999996e-01,5.48443828125709e-01
4.51560000000000e-08,5.50000000000000e-01,2.42000000000015e-01,5.46925492637004e-01
4.52000000000000e-08,5.50000000000000e-01,3.15303338993544e-14,5.45570967774397e-01
4.52064000000000e-08,5.50000000000000e-01,0.00000000000000e+00,5.45442610071002e-01
4.52192000000000e-08,5.50000000000000e-01,0.00000000000000e+00,5.45183954620135e-01
4.52448000000000e-08,5.50000000000000e-01,0.00000000000000e+00,5.44755769819416e-01
4.52960000000000e-08,5.50000000000000e-01,0.00000000000000e+00,5.44661887257052e-01
4.53984000000000e-08,5.50000000000000e-01,0.00000000000000e+00,5.46929467357303e-01
4.56032000000000e-08,5.50000000000000e-01,0.00000000000000e+00,5.50054550755344e-01
4.60128000000000e-08,5.50000000000000e-01,0.00000000000000e+00,5.49951640589751e-01
4.64646774085893e-08,5.50000000000000e-01,0.00000000000000e+00,5.50037482446094e-01
4.73684322257680e-08,5.50000000000000e-01,0.00000000000000e+00,5.49964677210329e-01
4.87247221346189e-08,5.50000000000000e-01,0.00000000000000e+00,5.50033690378053e-01
5.11687342222207e-08,5.50000000000000e-01,0.00000000000000e+00,5.49966396171662e-01
5.49687342222207e-08,5.50000000000000e-01,0.00000000000000e+00,5.50033097471029e-01
5.51000000000000e-08,5.50000000000000e-01,0.00000000000000e+00,5.49978667978469e-01
5.51100000000000e-08,4.95000000000020e-01,0.00000000000000e+00,5.49927914627492e-01
5.51300000000000e-08,3.85000000000004e-01,0.00000000000000e+00,5.49831938792713e-01
5.51700000000000e-08,1.65000000000009e-01,0.00000000000000e+00,5.49978881508087e-01
5.52000000000000e-08,0.00000000000000e+00,0.00000000000000e+00,5.50933452013800e-01
5.52080000000000e-08,0.00000000000000e+00,0.00000000000000e+00,5.51297818021914e-01
5.52240000000000e-08,0.00000000000000e+00,0.00000000000000e+00,5.51872762782692e-01
5.52560000000000e-08,0.00000000000000e+00,0.00000000000000e+00,5.52498314219471e-01
5.53200000000000e-08,0.00000000000000e+00,0.00000000000000e+00,5.53104316746774e-01
5.54480000000000e-08,0.00000000000000e+00,0.00000000000000e+00,5.53575000200378e-01
5.57040000000000e-08,0.00000000000000e+00,0.00000000000000e+00,5.51592884038817e-01
5.62160000000000e-08,0.00000000000000e+00,0.00000000000000e+00,5.49074990035622e-01
5.67583302847288e-08,0.00000000000000e+00,0.00000000000000e+00,5.49953733050574e-01
5.78429908541864e-08,0.00000000000000e+00,0.00000000000000e+00,5.49714494696655e-01
5.91693825775679e-08,0.00000000000000e+00,0.00000000000000e+00,5.49838994701415e-01
6.16639818475628e-08,0.00000000000000e+00,0.00000000000000e+00,5.49874556793694e-01
6.50000000000000e-08,0.00000000000000e+00,0.00000000000000e+00,5.49853873953662e-01
6.50100000000000e-08,5.49999999999896e-02,0.00000000000000e+00,5.49936789420709e-01
6.50300000000000e-08,1.64999999999969e-01,0.00000000000000e+00,5.50060742987310e-01
6.50700000000000e-08,3.84999999999927e-01,0.00000000000000e+00,5.50094980684264e-01
6.51000000000000e-08,5.49999999999969e-01,0.00000000000000e+00,5.49910022805767e-01
6.51080000000000e-08,5.50000000000000e-01,0.00000000000000e+00,5.49828651412910e-01
6.51240000000000e-08,5.50000000000000e-01,0.00000000000000e+00,5.49676516221425e-01
6.51560000000000e-08,5.50000000000000e-01,0.00000000000000e+00,5.49502914258311e-01
6.52200000000000e-08,5.50000000000000e-01,0.00000000000000e+00,5.49543343534601e-01
6.53480000000000e-08,5.50000000000000e-01,0.00000000000000e+00,5.52710651353725e-01
6.56040000000000e-08,5.50000000000000e-01,0.00000000000000e+00,5.47315636879911e-01
6.61159999999999e-08,5.50000000000000e-01,0.00000000000000e+00,5.90870715135122e-02
6.67862337337992e-08,5.50000000000000e-01,0.00000000000000e+00,-3.97623109841106e-02
6.78013731243441e-08,5.50000000000000e-01,0.00000000000000e+00,3.88264069610677e-02
6.94380261529666e-08,5.50000000000000e-01,0.00000000000000e+00,-3.18960479366288e-02
7.22225258605877e-08,5.50000000000000e-01,0.00000000000000e+00,3.33532198837792e-02
7.51000000000000e-08,5.50000000000000e-01,0.00000000000000e+00,-2.89343025060128e-02
7.51100000000000e-08,4.95000000000056e-01,0.00000000000000e+00,-2.20067600752809e-02
7.51300000000000e-08,3.85000000000077e-01,0.00000000000000e+00,-1.19846360527017e-02
7.51700000000000e-08,1.65000000000118e-01,0.00000000000000e+00,-3.59896634160062e-03
7.52000000000000e-08,7.69384556065233e-14,0.00000000000000e+00,-1.38412479432339e-03
7.52080000000000e-08,0.00000000000000e+00,0.00000000000000e+00,-1.05333112278772e-03
7.52240000000000e-08,0.00000000000000e+00,0.00000000000000e+00,-4.99351507734225e-04
7.52560000000000e-08,0.00000000000000e+00,0.00000000000000e+00,-5.14148659427893e-06
7.53200000000000e-08,0.00000000000000e+00,0.00000000000000e+00,7.08843926710209e-05
7.54480000000000e-08,0.00000000000000e+00,0.00000000000000e+00,-6.02286484482517e-04
7.57040000000000e-08,0.00000000000000e+00,0.00000000000000e+00,-3.60698086629235e-04
7.62159999999999e-08,0.00000000000000e+00,0.00000000000000e+00,2.41258427770687e-04
7.72399999999999e-08,0.00000000000000e+00,0.00000000000000e+00,-1.96367291294134e-04
7.83246222690315e-08,0.00000000000000e+00,0.00000000000000e+00,1.67386909648796e-04
8.04938668070948e-08,0.00000000000000e+00,0.00000000000000e+00,-1.54265947304310e-04
8.42938668070948e-08,0.00000000000000e+00,0.00000000000000e+00,1.48017030368600e-04
8.50000000000000e-08,0.00000000000000e+00,0.00000000000000e+00,-1.16885322017280e-04
8.50100000000000e-08,5.49999999999896e-02,0.00000000000000e+00,-7.29055103856902e-07
8.50300000000000e-08,1.64999999999969e-01,0.00000000000000e+00,1.53200577098486e-04
8.50700000000000e-08,3.84999999999927e-01,0.00000000000000e+00,1.60916246052772e-04
8.51000000000000e-08,5.49999999999969e-01,0.00000000000000e+00,-4.83628655048654e-05
8.51080000000000e-08,5.50000000000000e-01,0.00000000000000e+00,-1.34172013864085e-04
8.51240000000000e-08,5.50000000000000e-01,0.00000000000000e+00,-2.49993754210538e-04
8.51560000000000e-08,5.50000000000000e-01,0.00000000000000e+00,-2.92936210788193e-04
8.52200000000000e-08,5.50000000000000e-01,0.00000000000000e+00,-2.03410763720081e-04
8.53480000000000e-08,5.50000000000000e-01,0.00000000000000e+00,1.41253039963041e-05
8.56040000000000e-08,5.50000000000000e-01,0.00000000000000e+00,1.09741029247941e-04
8.61159999999999e-08,5.50000000000000e-01,0.00000000000000e+00,-6.06498739089767e-05
8.69965114035470e-08,5.50000000000000e-01,0.00000000000000e+00,4.80890783418450e-05
8.83350687675156e-08,5.50000000000000e-01,0.00000000000000e+00,-3.56862376211645e-05
9.00000000000000e-08,5.50000000000000e-01,0.00000000000000e+00,3.28371535568087e-05
9.00100000000000e-08,5.50000000000000e-01,5.49999999999896e-02,3.03656143767345e-05
9.00300000000000e-08,5.50000000000000e-01,1.64999999999969e-01,2.49670891547191e-05
9.00700000000000e-08,5.50000000000000e-01,3.84999999999927e-01,1.31104323999806e-05
9.01000000000000e-08,5.50000000000000e-01,5.49999999999969e-01,4.80495996572905e-06
9.01080000000000e-08,5.50000000000000e-01,5.50000000000000e-01,3.79051442199463e-06
9.01240000000000e-08,5.50000000000000e-01,5.50000000000000e-01,3.23464786288613e-06
9.01560000000000e-08,5.50000000000000e-01,5.50000000000000e-01,4.37200198030729e-06
9.02200000000000e-08,5.50000000000000e-01,5.50000000000000e-01,5.93040588717578e-06
9.03480000000000e-08,5.50000000000000e-01,5.50000000000000e-01,8.46833066475705e-07
9.06040000000000e-08,5.50000000000000e-01,5.50000000000000e-01,8.24164763114574e-07
9.11159999999999e-08,5.50000000000000e-01,5.50000000000000e-01,7.53663451692060e-07
9.21399999999999e-08,5.50000000000000e-01,5.50000000000000e-01,1.45753911131577e-06
9.41879999999998e-08,5.50000000000000e-01,5.50000000000000e-01,6.08242856129119e-07
9.51000000000000e-08,5.50000000000000e-01,5.50000000000000e-01,1.18271306607512e-06
9.51100000000000e-08,4.95000000000056e-01,5.50000000000000e-01,-5.41598922094294e-05
9.51300000000000e-08,3.85000000000077e-01,5.50000000000000e-01,-1.37460094338730e-04
9.51700000000000e-08,1.65000000000118e-01,5.50000000000000e-01,-1.86988660688829e-04
9.52000000000000e-08,7.69384556065233e-14,5.50000000000000e-01,-5.95890078566655e-05
9.52080000000000e-08,0.00000000000000e+00,5.50000000000000e-01,5.70893032462716e-05
9.52240000000000e-08,0.00000000000000e+00,5.50000000000000e-01,2.17386721177860e-04
9.52560000000000e-08,0.00000000000000e+00,5.50000000000000e-01,2.78414809066367e-04
9.53200000000000e-08,0.00000000000000e+00,5.50000000000000e-01,1.43220143730336e-04
9.54480000000000e-08,0.00000000000000e+00,5.50000000000000e-01,-7.70044712691681e-05
9.57040000000000e-08,0.00000000000000e+00,5.50000000000000e-01,-4.49521852317579e-05
9.62159999999999e-08,0.00000000000000e+00,5.50000000000000e-01,-1.09079312691746e-04
9.69577188433827e-08,0.00000000000000e+00,5.50000000000000e-01,1.07373451228618e-04
9.81497407982568e-08,0.00000000000000e+00,5.50000000000000e-01,-2.27614750399185e-05
9.98540280215501e-08,0.00000000000000e+00,5.50000000000000e-01,-1.43461917555109e-05
1.02973722549672e-07,0.00000000000000e+00,5.50000000000000e-01,2.98121698887378e-05
1.05000000000000e-07,0.00000000000000e+00,5.50000000000000e-01,-4.82129679609351e-05
1.05010000000000e-07,5.49999999999896e-02,5.50000000000000e-01,6.91081049159492e-05
1.05030000000000e-07,1.64999999999969e-01,5.50000000000000e-01,2.39131899822512e-04
1.05070000000000e-07,3.84999999999927e-01,5.50000000000000e-01,3.10287893603885e-04
1.05100000000000e-07,5.49999999999969e-01,5.50000000000000e-01,-1.98779869887158e-04
1.05108000000000e-07,5.50000000000000e-01,5.50000000000000e-01,-6.40034646058441e-04
1.05124000000000e-07,5.50000000000000e-01,5.50000000000000e-01,-1.67540866619984e-03
1.05156000000000e-07,5.50000000000000e-01,5.50000000000000e-01,-3.63344094130551e-03
1.05220000000000e-07,5.50000000000000e-01,5.50000000000000e-01,-5.93689108186504e-03
1.05348000000000e-07,5.50000000000000e-01,5.50000000000000e-01,4.47745524190573e-02
1.05604000000000e-07,5.50000000000000e-01,5.50000000000000e-01,3.79636170348500e-01
1.06116000000000e-07,5.50000000000000e-01,5.50000000000000e-01,5.75067117422793e-01
1.06808509611905e-07,5.50000000000000e-01,5.50000000000000e-01,5.28087858573322e-01
1.08155394057770e-07,5.50000000000000e-01,5.50000000000000e-01,5.69104816367693e-01
1.09938610701449e-07,5.50000000000000e-01,5.50000000000000e-01,5.31313958614713e-01
1.13505043988807e-07,5.50000000000000e-01,5.50000000000000e-01,5.67229020166355e-01
1.15100000000000e-07,5.50000000000000e-01,5.50000000000000e-01,5.33324174603604e-01
1.15110000000000e-07,4.95000000000056e-01,5.50000000000000e-01,5.37160852528581e-01
1.15130000000000e-07,3.85000000000077e-01,5.50000000000000e-01,5.43059411707938e-01
1.15170000000000e-07,1.65000000000118e-01,5.50000000000000e-01,5.48419557220829e-01
1.15200000000000e-07,7.69384556065233e-14,5.50000000000000e-01,5.50356783110159e-01
1.15208000000000e-07,0.00000000000000e+00,5.50000000000000e-01,5.50833031608036e-01
1.15224000000000e-07,0.00000000000000e+00,5.50000000000000e-01,5.51568228032014e-01
1.15256000000000e-07,0.00000000000000e+00,5.50000000000000e-01,5.52250912791158e-01
1.15320000000000e-07,0.00000000000000e+00,5.50000000000000e-01,5.51771722802978e-01
1.15448000000000e-07,0.00000000000000e+00,5.50000000000000e-01,5.41093954889592e-01
1.15704000000000e-07,0.00000000000000e+00,5.50000000000000e-01,5.28182631903399e-01
1.16216000000000e-07,0.00000000000000e+00,5.50000000000000e-01,5.47641924027586e-01
1.17240000000000e-07,0.00000000000000e+00,5.50000000000000e-01,5.50882121269869e-01
1.18524833949679e-07,0.00000000000000e+00,5.50000000000000e-01,5.48879199452758e-01
1.21094501849038e-07,0.00000000000000e+00,5.50000000000000e-01,5.50578787754246e-01
1.24894501849038e-07,0.00000000000000e+00,5.50000000000000e-01,5.49203640822418e-01
1.25000000000000e-07,0.00000000000000e+00,5.50000000000000e-01,5.49686860959376e-01
1.25010000000000e-07,5.49999999999168e-02,5.50000000000000e-01,5.49783353006978e-01
1.25030000000000e-07,1.64999999999896e-01,5.50000000000000e-01,5.49940652295230e-01
1.25070000000000e-07,3.84999999999854e-01,5.50000000000000e-01,5.50099054449557e-01
1.25100000000000e-07,5.49999999999896e-01,5.50000000000000e-01,5.49630888866581e-01
1.25108000000000e-07,5.50000000000000e-01,5.05999999999950e-01,5.49260838249413e-01
1.25124000000000e-07,5.50000000000000e-01,4.17999999999996e-01,5.48443828104350e-01
1.25156000000000e-07,5.50000000000000e-01,2.41999999999942e-01,5.46925492624056e-01
1.25200000000000e-07,5.50000000000000e-01,0.00000000000000e+00,5.45570967770288e-01
1.25206400000000e-07,5.50000000000000e-01,0.00000000000000e+00,5.45442610065961e-01
1.25219200000000e-07,5.50000000000000e-01,0.00000000000000e+00,5.45183954613251e-01
1.25244800000000e-07,5.50000000000000e-01,0.00000000000000e+00,5.44755769815595e-01
1.25296000000000e-07,5.50000000000000e-01,0.00000000000000e+00,5.44661887262293e-01
1.25398400000000e-07,5.50000000000000e-01,0.00000000000000e+00,5.46929467359042e-01
1.25603200000000e-07,5.50000000000000e-01,0.00000000000000e+00,5.50054550757588e-01
1.26012800000000e-07,5.50000000000000e-01,0.00000000000000e+00,5.49951640587579e-01
1.26464677425172e-07,5.50000000000000e-01,0.00000000000000e+00,5.50037482449597e-01
1.27368432275515e-07,5.50000000000000e-01,0.00000000000000e+00,5.49964677206943e-01
1.28724722268252e-07,5.50000000000000e-01,0.00000000000000e+00,5.50033690380963e-01
1.31168734532823e-07,5.50000000000000e-01,0.00000000000000e+00,5.49966396168825e-01
1.34968734532823e-07,5.50000000000000e-01,0.00000000000000e+00,5.50033097473917e-01
1.35100000000000e-07,5.49999999999900e-01,0.00000000000000e+00,5.49978668000099e-01
1.35110000000000e-07,4.94999999999838e-01,0.00000000000000e+00,5.49927914636919e-01
1.35130000000000e-07,3.84999999999858e-01,0.00000000000000e+00,5.49831938793583e-01
1.35170000000000e-07,1.64999999999900e-01,0.00000000000000e+00,5.49978881504374e-01
1.35200000000000e-07,0.00000000000000e+00,0.00000000000000e+00,5.50933452004201e-01
1.35208000000000e-07,0.00000000000000e+00,0.00000000000000e+00,5.51297818017105e-01
1.35224000000000e-07,0.00000000000000e+00,0.00000000000000e+00,5.51872762778695e-01
1.35256000000000e-07,0.00000000000000e+00,0.00000000000000e+00,5.52498314215342e-01
1.35320000000000e-07,0.00000000000000e+00,0.00000000000000e+00,5.53104316753783e-01
