Time,v(clk),v(data),v(out)
1.43693440000000e-09,0.00000000000000e+00,0.00000000000000e+00,-3.04737815486691e-05
2.77911168000000e-09,0.00000000000000e+00,0.00000000000000e+00,3.26438233312389e-05
5.00000000000000e-09,0.00000000000000e+00,0.00000000000000e+00,-1.76183923902371e-05
5.01000000000000e-09,5.99999999999986e-02,0.00000000000000e+00,7.02429567691246e-04
5.03000000000000e-09,1.80000000000001e-01,0.00000000000000e+00,1.95649565016115e-03
5.07000000000000e-09,4.20000000000000e-01,0.00000000000000e+00,3.40896771303632e-03
5.10000000000000e-09,6.00000000000000e-01,0.00000000000000e+00,2.54601767712016e-03
5.10800000000000e-09,6.00000000000000e-01,0.00000000000000e+00,1.75503909654567e-03
5.12400000000000e-09,6.00000000000000e-01,0.00000000000000e+00,2.70463842037216e-04
5.15600000000000e-09,6.00000000000000e-01,0.00000000000000e+00,-1.55614770998649e-03
5.22000000000000e-09,6.00000000000000e-01,0.00000000000000e+00,-2.33515292490437e-03
5.34800000000000e-09,6.00000000000000e-01,0.00000000000000e+00,-1.31364361448252e-03
5.60400000000000e-09,6.00000000000000e-01,0.00000000000000e+00,-3.71672342512556e-04
6.09970567917577e-09,6.00000000000000e-01,0.00000000000000e+00,1.62224965451707e-04
7.09111703752730e-09,6.00000000000000e-01,0.00000000000000e+00,3.49309684392164e-04
8.53686666116525e-09,6.00000000000000e-01,0.00000000000000e+00,-2.54549977413150e-04
1.00000000000000e-08,6.00000000000000e-01,0.00000000000000e+00,2.05006140843386e-04
1.00100000000000e-08,6.00000000000000e-01,5.99999999999986e-02,2.22352809602380e-04
1.00300000000000e-08,6.00000000000000e-01,1.79999999999996e-01,2.41077626061070e-04
1.00700000000000e-08,6.00000000000000e-01,4.19999999999990e-01,2.18663511844491e-04
1.01000000000000e-08,6.00000000000000e-01,5.99999999999995e-01,1.00387543768940e-04
1.01080000000000e-08,6.00000000000000e-01,6.00000000000000e-01,5.41581474384489e-05
1.01240000000000e-08,6.00000000000000e-01,6.00000000000000e-01,-9.92118675177678e-06
1.01560000000000e-08,6.00000000000000e-01,6.00000000000000e-01,-6.57627500210978e-05
1.02200000000000e-08,6.00000000000000e-01,6.00000000000000e-01,-5.14957731208021e-05
1.03480000000000e-08,6.00000000000000e-01,6.00000000000000e-01,4.69671637857716e-05
1.06040000000000e-08,6.00000000000000e-01,6.00000000000000e-01,6.31713386794533e-05
1.10409026649918e-08,6.00000000000000e-01,6.00000000000000e-01,-6.86179150367200e-06
1.18997071256998e-08,6.00000000000000e-01,6.00000000000000e-01,1.51093955105576e-05
1.36173160471158e-08,6.00000000000000e-01,6.00000000000000e-01,8.41597228609658e-06
1.51000000000000e-08,6.00000000000000e-01,6.00000000000000e-01,1.09640607428366e-05
1.51100000000000e-08,5.39999999999992e-01,6.00000000000000e-01,-3.70807847604931e-04
1.51300000000000e-08,4.19999999999994e-01,6.00000000000000e-01,-1.22406753500409e-03
1.51700000000000e-08,1.80000000000000e-01,6.00000000000000e-01,-2.87431327549040e-03
1.52000000000000e-08,0.00000000000000e+00,6.00000000000000e-01,-2.94178152661648e-03
1.52080000000000e-08,0.00000000000000e+00,6.00000000000000e-01,-2.24219571528146e-03
1.52240000000000e-08,0.00000000000000e+00,6.00000000000000e-01,-9.43591257202031e-04
1.52560000000000e-08,0.00000000000000e+00,6.00000000000000e-01,8.63810669350665e-04
1.53200000000000e-08,0.00000000000000e+00,6.00000000000000e-01,2.31586012600946e-03
1.54480000000000e-08,0.00000000000000e+00,6.00000000000000e-01,2.18051119413418e-03
1.57040000000000e-08,0.00000000000000e+00,6.00000000000000e-01,2.19498023491679e-04
1.62160000000000e-08,0.00000000000000e+00,6.00000000000000e-01,-1.07654695252746e-03
1.63440000000000e-08,0.00000000000000e+00,6.00000000000000e-01,-5.08518035874740e-04
1.66000000000000e-08,0.00000000000000e+00,6.00000000000000e-01,2.52638228710696e-04
1.71120000000000e-08,0.00000000000000e+00,6.00000000000000e-01,-6.89173335496902e-04
1.81360000000000e-08,0.00000000000000e+00,6.00000000000000e-01,1.32368707833761e-04
1.93216352278555e-08,0.00000000000000e+00,6.00000000000000e-01,5.42990049367916e-04
2.12290018529782e-08,0.00000000000000e+00,6.00000000000000e-01,-6.08616785453311e-04
2.39128920507426e-08,0.00000000000000e+00,6.00000000000000e-01,6.04791912461083e-04
2.50000000000000e-08,0.00000000000000e+00,6.00000000000000e-01,-4.80032535976435e-04
2.50100000000000e-08,5.99999999999886e-02,6.00000000000000e-01,3.62979374850692e-04
2.50300000000000e-08,1.80000000000006e-01,6.00000000000000e-01,1.88264497551961e-03
2.50700000000000e-08,4.20000000000000e-01,6.00000000000000e-01,4.05029576568146e-03
2.51000000000000e-08,6.00000000000000e-01,6.00000000000000e-01,4.03071998919831e-03
2.51080000000000e-08,6.00000000000000e-01,6.00000000000000e-01,3.51479733072513e-03
2.51240000000000e-08,6.00000000000000e-01,6.00000000000000e-01,2.49011155820199e-03
2.51560000000000e-08,6.00000000000000e-01,6.00000000000000e-01,4.00809942435951e-04
2.52200000000000e-08,6.00000000000000e-01,6.00000000000000e-01,-4.32881542779416e-03
2.53480000000000e-08,6.00000000000000e-01,6.00000000000000e-01,-1.22082711321629e-02
2.56040000000000e-08,6.00000000000000e-01,6.00000000000000e-01,-1.34180945912853e-02
2.60612697437232e-08,6.00000000000000e-01,6.00000000000000e-01,1.70882149236044e-01
2.69758092311695e-08,6.00000000000000e-01,6.00000000000000e-01,5.78248084018316e-01
2.82975782299178e-08,6.00000000000000e-01,6.00000000000000e-01,6.04396601970108e-01
2.98836375042391e-08,6.00000000000000e-01,6.00000000000000e-01,5.97855849036615e-01
3.01000000000000e-08,6.00000000000000e-01,6.00000000000000e-01,5.98226928153329e-01
3.01100000000000e-08,6.00000000000000e-01,5.40000000000031e-01,5.98343769301571e-01
3.01300000000000e-08,6.00000000000000e-01,4.20000000000014e-01,5.98529681383853e-01
3.01700000000000e-08,6.00000000000000e-01,1.80000000000020e-01,5.98806569129146e-01
3.02000000000000e-08,6.00000000000000e-01,1.44328993201270e-14,5.99094730069156e-01
3.02080000000000e-08,6.00000000000000e-01,0.00000000000000e+00,5.99175888050921e-01
3.02240000000000e-08,6.00000000000000e-01,0.00000000000000e+00,5.99309941151780e-01
3.02560000000000e-08,6.00000000000000e-01,0.00000000000000e+00,5.99487693028385e-01
3.03200000000000e-08,6.00000000000000e-01,0.00000000000000e+00,5.99667521383267e-01
3.04480000000000e-08,6.00000000000000e-01,0.00000000000000e+00,5.99689014408826e-01
3.07040000000000e-08,6.00000000000000e-01,0.00000000000000e+00,5.99762239717828e-01
3.12160000000000e-08,6.00000000000000e-01,0.00000000000000e+00,5.99936748292997e-01
3.20821934144596e-08,6.00000000000000e-01,0.00000000000000e+00,6.00138816373853e-01
3.33864735328277e-08,6.00000000000000e-01,0.00000000000000e+00,5.99869586477125e-01
3.51000000000000e-08,5.99999999999970e-01,0.00000000000000e+00,6.00108764749164e-01
3.51100000000000e-08,5.39999999999982e-01,0.00000000000000e+00,5.99753523515366e-01
3.51300000000000e-08,4.19999999999965e-01,0.00000000000000e+00,5.99045397946065e-01
3.51700000000000e-08,1.79999999999970e-01,0.00000000000000e+00,5.98300858682284e-01
3.52000000000000e-08,0.00000000000000e+00,0.00000000000000e+00,5.99259931970712e-01
3.52080000000000e-08,0.00000000000000e+00,0.00000000000000e+00,5.99989847041995e-01
3.52240000000000e-08,0.00000000000000e+00,0.00000000000000e+00,6.01432515512722e-01
3.52560000000000e-08,0.00000000000000e+00,0.00000000000000e+00,6.03470974417890e-01
3.53200000000000e-08,0.00000000000000e+00,0.00000000000000e+00,6.05464025167869e-01
3.54480000000000e-08,0.00000000000000e+00,0.00000000000000e+00,6.06541900725206e-01
3.57040000000000e-08,0.00000000000000e+00,0.00000000000000e+00,6.05747066359279e-01
3.62160000000000e-08,0.00000000000000e+00,0.00000000000000e+00,5.92597627211471e-01
3.72400000000000e-08,0.00000000000000e+00,0.00000000000000e+00,5.94475748151754e-01
3.82428109828848e-08,0.00000000000000e+00,0.00000000000000e+00,6.02511362868560e-01
3.91000000000000e-08,0.00000000000000e+00,0.00000000000000e+00,5.98351356495336e-01
3.93005621965770e-08,0.00000000000000e+00,0.00000000000000e+00,5.99270877248230e-01
3.97016865897309e-08,0.00000000000000e+00,0.00000000000000e+00,5.99928381642829e-01
4.05039353760387e-08,0.00000000000000e+00,0.00000000000000e+00,5.99782964167134e-01
4.21084329486544e-08,0.00000000000000e+00,0.00000000000000e+00,5.99920037862453e-01
4.50000000000000e-08,0.00000000000000e+00,0.00000000000000e+00,5.99863346628041e-01
4.50100000000000e-08,5.99999999999886e-02,0.00000000000000e+00,6.00225247546327e-01
4.50300000000000e-08,1.80000000000006e-01,0.00000000000000e+00,6.00903909024882e-01
4.50700000000000e-08,4.20000000000000e-01,0.00000000000000e+00,6.01765630120831e-01
4.51000000000000e-08,6.00000000000000e-01,0.00000000000000e+00,6.01393371819861e-01
4.51080000000000e-08,6.00000000000000e-01,0.00000000000000e+00,6.01036102987139e-01
4.51240000000000e-08,6.00000000000000e-01,0.00000000000000e+00,6.00313140029602e-01
4.51560000000000e-08,6.00000000000000e-01,0.00000000000000e+00,5.99213540896134e-01
4.52200000000000e-08,6.00000000000000e-01,0.00000000000000e+00,5.97951038034885e-01
4.53480000000000e-08,6.00000000000000e-01,0.00000000000000e+00,5.97278180484762e-01
4.56040000000000e-08,6.00000000000000e-01,0.00000000000000e+00,6.01049063983535e-01
4.61137334735373e-08,6.00000000000000e-01,0.00000000000000e+00,6.38697570110703e-01
4.70966444597498e-08,6.00000000000000e-01,0.00000000000000e+00,1.32899523678101e-01
4.82307544955021e-08,6.00000000000000e-01,0.00000000000000e+00,-5.73706937912075e-02
4.98968317477737e-08,6.00000000000000e-01,0.00000000000000e+00,5.00245830635411e-02
5.00000000000000e-08,6.00000000000000e-01,0.00000000000000e+00,2.06914524057557e-02
5.00100000000000e-08,6.00000000000000e-01,5.99999999999886e-02,1.91875713798196e-02
5.00300000000000e-08,6.00000000000000e-01,1.79999999999966e-01,1.63926647794107e-02
5.00700000000000e-08,6.00000000000000e-01,4.20000000000000e-01,1.18903876680252e-02
5.01000000000000e-08,6.00000000000000e-01,6.00000000000000e-01,9.31024188346330e-03
5.01080000000000e-08,6.00000000000000e-01,6.00000000000000e-01,8.72407054600394e-03
5.01240000000000e-08,6.00000000000000e-01,6.00000000000000e-01,7.62527678577338e-03
5.01560000000000e-08,6.00000000000000e-01,6.00000000000000e-01,5.80324526429388e-03
5.02200000000000e-08,6.00000000000000e-01,6.00000000000000e-01,3.48407718561104e-03
5.03480000000000e-08,6.00000000000000e-01,6.00000000000000e-01,1.25752203096917e-03
5.06040000000000e-08,6.00000000000000e-01,6.00000000000000e-01,1.10658909131332e-04
5.10674650642684e-08,6.00000000000000e-01,6.00000000000000e-01,-1.16408772373455e-05
5.19726493857144e-08,6.00000000000000e-01,6.00000000000000e-01,7.67871541838827e-06
5.37830180286064e-08,6.00000000000000e-01,6.00000000000000e-01,3.07095905455884e-06
5.51000000000000e-08,6.00000000000000e-01,6.00000000000000e-01,5.85729824465614e-06
5.51100000000000e-08,5.40000000000021e-01,6.00000000000000e-01,-3.67571185375268e-04
5.51300000000000e-08,4.20000000000004e-01,6.00000000000000e-01,-1.16404422735826e-03
5.51700000000000e-08,1.80000000000010e-01,6.00000000000000e-01,-2.84031161074234e-03
5.52000000000000e-08,0.00000000000000e+00,6.00000000000000e-01,-2.92846068859950e-03
5.52080000000000e-08,0.00000000000000e+00,6.00000000000000e-01,-2.23202007894163e-03
5.52240000000000e-08,0.00000000000000e+00,6.00000000000000e-01,-1.03611913830563e-03
5.52560000000000e-08,0.00000000000000e+00,6.00000000000000e-01,7.73957192796049e-04
5.53200000000000e-08,0.00000000000000e+00,6.00000000000000e-01,2.18207414975508e-03
5.54480000000000e-08,0.00000000000000e+00,6.00000000000000e-01,1.85023180119577e-03
5.57040000000000e-08,0.00000000000000e+00,6.00000000000000e-01,-2.07055522756240e-03
5.62160000000000e-08,0.00000000000000e+00,6.00000000000000e-01,-1.77734677274319e-03
5.70586226985099e-08,0.00000000000000e+00,6.00000000000000e-01,9.71734079165173e-04
5.82569220069034e-08,0.00000000000000e+00,6.00000000000000e-01,-1.04996698642568e-03
5.96423495193306e-08,0.00000000000000e+00,6.00000000000000e-01,1.19180706981902e-03
6.19478871393181e-08,0.00000000000000e+00,6.00000000000000e-01,-1.08723517997939e-03
6.43103705234734e-08,0.00000000000000e+00,6.00000000000000e-01,9.66607276501963e-04
6.50000000000000e-08,0.00000000000000e+00,6.00000000000000e-01,-4.98645656415261e-04
6.50100000000000e-08,5.99999999999886e-02,6.00000000000000e-01,3.45066157491594e-04
6.50300000000000e-08,1.79999999999966e-01,6.00000000000000e-01,1.84327493310113e-03
6.50700000000000e-08,4.19999999999920e-01,6.00000000000000e-01,4.04084992531574e-03
6.51000000000000e-08,5.99999999999966e-01,6.00000000000000e-01,4.08488035356021e-03
6.51080000000000e-08,6.00000000000000e-01,6.00000000000000e-01,3.56506280253356e-03
6.51240000000000e-08,6.00000000000000e-01,6.00000000000000e-01,2.48612882369455e-03
6.51560000000000e-08,6.00000000000000e-01,6.00000000000000e-01,1.10223957400013e-04
6.52200000000000e-08,6.00000000000000e-01,6.00000000000000e-01,-5.04283779393230e-03
6.53480000000000e-08,6.00000000000000e-01,6.00000000000000e-01,-1.27847008519438e-02
6.56040000000000e-08,6.00000000000000e-01,6.00000000000000e-01,-1.28675477354450e-02
6.61049988688008e-08,6.00000000000000e-01,6.00000000000000e-01,2.12979985455402e-01
6.71069966064024e-08,6.00000000000000e-01,6.00000000000000e-01,5.92802576081226e-01
6.83113218090310e-08,6.00000000000000e-01,6.00000000000000e-01,5.97721880309763e-01
7.00691599017276e-08,6.00000000000000e-01,6.00000000000000e-01,6.03683678166172e-01
7.01000000000000e-08,6.00000000000000e-01,6.00000000000000e-01,6.01444214269330e-01
7.01100000000000e-08,6.00000000000000e-01,5.40000000000011e-01,6.00926022256812e-01
7.01300000000000e-08,6.00000000000000e-01,4.20000000000034e-01,6.00076504203243e-01
7.01700000000000e-08,6.00000000000000e-01,1.80000000000080e-01,5.99263360815777e-01
7.02000000000000e-08,6.00000000000000e-01,3.44169137633799e-14,5.99134736021587e-01
7.02080000000000e-08,6.00000000000000e-01,0.00000000000000e+00,5.99149593973097e-01
7.02240000000000e-08,6.00000000000000e-01,0.00000000000000e+00,5.99184976783987e-01
7.02560000000000e-08,6.00000000000000e-01,0.00000000000000e+00,5.99188377057598e-01
7.03200000000000e-08,6.00000000000000e-01,0.00000000000000e+00,5.99236687740205e-01
7.04480000000000e-08,6.00000000000000e-01,0.00000000000000e+00,5.99350854530554e-01
7.07040000000000e-08,6.00000000000000e-01,0.00000000000000e+00,5.99641601477693e-01
7.12159999999999e-08,6.00000000000000e-01,0.00000000000000e+00,5.99951637907130e-01
7.20821819008746e-08,6.00000000000000e-01,0.00000000000000e+00,6.00125965575953e-01
7.33772539294734e-08,6.00000000000000e-01,0.00000000000000e+00,5.99878019529714e-01
7.51000000000000e-08,6.00000000000000e-01,0.00000000000000e+00,6.00097824709398e-01
7.51100000000000e-08,5.40000000000061e-01,0.00000000000000e+00,5.99745970303773e-01
7.51300000000000e-08,4.20000000000084e-01,0.00000000000000e+00,5.99044424945742e-01
7.51700000000000e-08,1.80000000000129e-01,0.00000000000000e+00,5.98298609597530e-01
7.52000000000000e-08,8.40438829641244e-14,0.00000000000000e+00,5.99257636621923e-01
7.52080000000000e-08,0.00000000000000e+00,0.00000000000000e+00,5.99987419430721e-01
7.52240000000000e-08,0.00000000000000e+00,0.00000000000000e+00,6.01429167885273e-01
7.52560000000000e-08,0.00000000000000e+00,0.00000000000000e+00,6.03466087727977e-01
7.53200000000000e-08,0.00000000000000e+00,0.00000000000000e+00,6.05450670688215e-01
7.54480000000000e-08,0.00000000000000e+00,0.00000000000000e+00,6.06438713680001e-01
7.57040000000000e-08,0.00000000000000e+00,0.00000000000000e+00,6.04616940963359e-01
7.62159999999999e-08,0.00000000000000e+00,0.00000000000000e+00,5.91284615751384e-01
7.72399999999999e-08,0.00000000000000e+00,0.00000000000000e+00,5.94911331420840e-01
7.81000000000000e-08,0.00000000000000e+00,0.00000000000000e+00,6.02024491794068e-01
7.82002268909504e-08,0.00000000000000e+00,0.00000000000000e+00,6.01009235468800e-01
7.84006806728510e-08,0.00000000000000e+00,0.00000000000000e+00,5.99960776644520e-01
7.88015882366524e-08,0.00000000000000e+00,0.00000000000000e+00,5.99836058588497e-01
7.96034033642551e-08,0.00000000000000e+00,0.00000000000000e+00,5.99818472369032e-01
8.12070336194605e-08,0.00000000000000e+00,0.00000000000000e+00,5.99881192041380e-01
8.44142941298714e-08,0.00000000000000e+00,0.00000000000000e+00,5.99889859211856e-01
8.50000000000000e-08,0.00000000000000e+00,0.00000000000000e+00,5.99919647663845e-01
8.50100000000000e-08,5.99999999999886e-02,0.00000000000000e+00,6.00292281524806e-01
8.50300000000000e-08,1.79999999999966e-01,0.00000000000000e+00,6.00922529009060e-01
8.50700000000000e-08,4.19999999999920e-01,0.00000000000000e+00,6.01728281307369e-01
8.51000000000000e-08,5.99999999999966e-01,0.00000000000000e+00,6.01404687852243e-01
8.51080000000000e-08,6.00000000000000e-01,0.00000000000000e+00,6.01034849171447e-01
8.51240000000000e-08,6.00000000000000e-01,0.00000000000000e+00,6.00332142796395e-01
8.51560000000000e-08,6.00000000000000e-01,0.00000000000000e+00,5.99267597974171e-01
8.52200000000000e-08,6.00000000000000e-01,0.00000000000000e+00,5.97995628678299e-01
8.53480000000000e-08,6.00000000000000e-01,0.00000000000000e+00,5.97281129030142e-01
8.56040000000000e-08,6.00000000000000e-01,0.00000000000000e+00,6.01029941676038e-01
8.61137758233991e-08,6.00000000000000e-01,0.00000000000000e+00,6.38727065926911e-01
8.70967826696274e-08,6.00000000000000e-01,0.00000000000000e+00,1.32920017627808e-01
8.82302944202529e-08,6.00000000000000e-01,0.00000000000000e+00,-5.73574532612557e-02
8.98960970042034e-08,6.00000000000000e-01,0.00000000000000e+00,5.00082991074181e-02
9.00000000000000e-08,6.00000000000000e-01,0.00000000000000e+00,2.05407701030346e-02
9.00100000000000e-08,6.00000000000000e-01,5.99999999999886e-02,1.90481750964150e-02
9.00300000000000e-08,6.00000000000000e-01,1.79999999999966e-01,1.62742592790835e-02
9.00700000000000e-08,6.00000000000000e-01,4.19999999999920e-01,1.18057143115115e-02
9.01000000000000e-08,6.00000000000000e-01,5.99999999999966e-01,9.24416077871365e-03
9.01080000000000e-08,6.00000000000000e-01,6.00000000000000e-01,8.66205385007612e-03
9.01240000000000e-08,6.00000000000000e-01,6.00000000000000e-01,7.57099292980126e-03
9.01560000000000e-08,6.00000000000000e-01,6.00000000000000e-01,5.76201782621522e-03
9.02200000000000e-08,6.00000000000000e-01,6.00000000000000e-01,3.45970813088985e-03
9.03480000000000e-08,6.00000000000000e-01,6.00000000000000e-01,1.24950766932905e-03
9.06040000000000e-08,6.00000000000000e-01,6.00000000000000e-01,1.10476451659597e-04
9.10674970917313e-08,6.00000000000000e-01,6.00000000000000e-01,-1.16613689712108e-05
9.19727361808874e-08,6.00000000000000e-01,6.00000000000000e-01,7.70745885158089e-06
9.37832143591997e-08,6.00000000000000e-01,6.00000000000000e-01,3.04763961353309e-06
9.51000000000000e-08,6.00000000000000e-01,6.00000000000000e-01,5.87256184218787e-06
9.51100000000000e-08,5.40000000000061e-01,6.00000000000000e-01,-3.67564032502252e-04
9.51300000000000e-08,4.20000000000084e-01,6.00000000000000e-01,-1.16405061903171e-03
9.51700000000000e-08,1.80000000000129e-01,6.00000000000000e-01,-2.84031913222955e-03
9.52000000000000e-08,8.40438829641244e-14,6.00000000000000e-01,-2.92846930671772e-03
9.52080000000000e-08,0.00000000000000e+00,6.00000000000000e-01,-2.23202742906076e-03
9.52240000000000e-08,0.00000000000000e+00,6.00000000000000e-01,-1.03612575929082e-03
9.52560000000000e-08,0.00000000000000e+00,6.00000000000000e-01,7.73950714452507e-04
9.53200000000000e-08,0.00000000000000e+00,6.00000000000000e-01,2.18206633819006e-03
9.54480000000000e-08,0.00000000000000e+00,6.00000000000000e-01,1.85019598456988e-03
9.57040000000000e-08,0.00000000000000e+00,6.00000000000000e-01,-2.07095106882176e-03
9.62159999999999e-08,0.00000000000000e+00,6.00000000000000e-01,-1.77904342432634e-03
9.70586694670491e-08,0.00000000000000e+00,6.00000000000000e-01,9.72446952293492e-04
9.82569531786750e-08,0.00000000000000e+00,6.00000000000000e-01,-1.05027940499232e-03
9.96424433773141e-08,0.00000000000000e+00,6.00000000000000e-01,1.19190793138424e-03
1.01948070251815e-07,0.00000000000000e+00,6.00000000000000e-01,-1.08726803156938e-03
