Time,v(clk),v(data),v(out),v(reset)
1.43693440000000e-09,0.00000000000000e+00,0.00000000000000e+00,-3.04737815486691e-05,6.00000000000000e-01
2.77911168000000e-09,0.00000000000000e+00,0.00000000000000e+00,3.26438233312389e-05,6.00000000000000e-01
5.00000000000000e-09,0.00000000000000e+00,0.00000000000000e+00,-1.76183923902371e-05,6.00000000000000e-01
5.01000000000000e-09,5.99999999999986e-02,0.00000000000000e+00,7.02429567691246e-04,6.00000000000000e-01
5.03000000000000e-09,1.80000000000001e-01,0.00000000000000e+00,1.95649565016115e-03,6.00000000000000e-01
5.07000000000000e-09,4.20000000000000e-01,0.00000000000000e+00,3.40896771303632e-03,6.00000000000000e-01
5.10000000000000e-09,6.00000000000000e-01,0.00000000000000e+00,2.54601767712016e-03,6.00000000000000e-01
5.10800000000000e-09,6.00000000000000e-01,0.00000000000000e+00,1.75503909654567e-03,6.00000000000000e-01
5.12400000000000e-09,6.00000000000000e-01,0.00000000000000e+00,2.70463842037216e-04,6.00000000000000e-01
5.15600000000000e-09,6.00000000000000e-01,0.00000000000000e+00,-1.55614770998649e-03,6.00000000000000e-01
5.22000000000000e-09,6.00000000000000e-01,0.00000000000000e+00,-2.33515292490437e-03,6.00000000000000e-01
5.34800000000000e-09,6.00000000000000e-01,0.00000000000000e+00,-1.31364361448252e-03,6.00000000000000e-01
5.60400000000000e-09,6.00000000000000e-01,0.00000000000000e+00,-3.71672342512556e-04,6.00000000000000e-01
6.09970567917577e-09,6.00000000000000e-01,0.00000000000000e+00,1.62224965451707e-04,6.00000000000000e-01
7.09111703752730e-09,6.00000000000000e-01,0.00000000000000e+00,3.49309684392164e-04,6.00000000000000e-01
8.53686666116525e-09,6.00000000000000e-01,0.00000000000000e+00,-2.54549977413150e-04,6.00000000000000e-01
1.00000000000000e-08,6.00000000000000e-01,0.00000000000000e+00,2.05006140843386e-04,6.00000000000000e-01
1.00100000000000e-08,6.00000000000000e-01,5.99999999999986e-02,2.22352809602380e-04,6.00000000000000e-01
1.00300000000000e-08,6.00000000000000e-01,1.79999999999996e-01,2.41077626061070e-04,6.00000000000000e-01
1.00700000000000e-08,6.00000000000000e-01,4.19999999999990e-01,2.18663511844491e-04,6.00000000000000e-01
1.01000000000000e-08,6.00000000000000e-01,5.99999999999995e-01,1.00387543768940e-04,6.00000000000000e-01
1.01080000000000e-08,6.00000000000000e-01,6.00000000000000e-01,5.41581474384489e-05,6.00000000000000e-01
1.01240000000000e-08,6.00000000000000e-01,6.00000000000000e-01,-9.92118675177678e-06,6.00000000000000e-01
1.01560000000000e-08,6.00000000000000e-01,6.00000000000000e-01,-6.57627500210978e-05,6.00000000000000e-01
1.02200000000000e-08,6.00000000000000e-01,6.00000000000000e-01,-5.14957731208021e-05,6.00000000000000e-01
1.03480000000000e-08,6.00000000000000e-01,6.00000000000000e-01,4.69671637857716e-05,6.00000000000000e-01
1.06040000000000e-08,6.00000000000000e-01,6.00000000000000e-01,6.31713386794533e-05,6.00000000000000e-01
1.10409026649918e-08,6.00000000000000e-01,6.00000000000000e-01,-6.86179150367200e-06,6.00000000000000e-01
1.18997071256998e-08,6.00000000000000e-01,6.00000000000000e-01,1.51093955105576e-05,6.00000000000000e-01
1.36173160471158e-08,6.00000000000000e-01,6.00000000000000e-01,8.41597228609658e-06,6.00000000000000e-01
1.51000000000000e-08,6.00000000000000e-01,6.00000000000000e-01,1.09640607428366e-05,6.00000000000000e-01
1.51100000000000e-08,5.39999999999992e-01,6.00000000000000e-01,-3.70807847604931e-04,6.00000000000000e-01
1.51300000000000e-08,4.19999999999994e-01,6.00000000000000e-01,-1.22406753500409e-03,6.00000000000000e-01
1.51700000000000e-08,1.80000000000000e-01,6.00000000000000e-01,-2.87431327549040e-03,6.00000000000000e-01
1.52000000000000e-08,0.00000000000000e+00,6.00000000000000e-01,-2.94178152661648e-03,6.00000000000000e-01
1.52080000000000e-08,0.00000000000000e+00,6.00000000000000e-01,-2.24219571528146e-03,6.00000000000000e-01
1.52240000000000e-08,0.00000000000000e+00,6.00000000000000e-01,-9.43591257202031e-04,6.00000000000000e-01
1.52560000000000e-08,0.00000000000000e+00,6.00000000000000e-01,8.63810669350665e-04,6.00000000000000e-01
1.53200000000000e-08,0.00000000000000e+00,6.00000000000000e-01,2.31586012600946e-03,6.00000000000000e-01
1.54480000000000e-08,0.00000000000000e+00,6.00000000000000e-01,2.18051119413418e-03,6.00000000000000e-01
1.57040000000000e-08,0.00000000000000e+00,6.00000000000000e-01,2.19498023491679e-04,6.00000000000000e-01
1.62160000000000e-08,0.00000000000000e+00,6.00000000000000e-01,-1.07654695252746e-03,6.00000000000000e-01
1.63440000000000e-08,0.00000000000000e+00,6.00000000000000e-01,-5.08518035874740e-04,6.00000000000000e-01
1.66000000000000e-08,0.00000000000000e+00,6.00000000000000e-01,2.52638228710696e-04,6.00000000000000e-01
1.71120000000000e-08,0.00000000000000e+00,6.00000000000000e-01,-6.89173335496902e-04,6.00000000000000e-01
1.81360000000000e-08,0.00000000000000e+00,6.00000000000000e-01,1.32368707833761e-04,6.00000000000000e-01
1.93216352278555e-08,0.00000000000000e+00,6.00000000000000e-01,5.42990049367916e-04,6.00000000000000e-01
2.12290018529782e-08,0.00000000000000e+00,6.00000000000000e-01,-6.08616785453311e-04,6.00000000000000e-01
2.39128920507426e-08,0.00000000000000e+00,6.00000000000000e-01,6.04791912461083e-04,6.00000000000000e-01
2.50000000000000e-08,0.00000000000000e+00,6.00000000000000e-01,-4.80032535976435e-04,6.00000000000000e-01
2.50100000000000e-08,5.99999999999886e-02,6.00000000000000e-01,3.62979374850692e-04,6.00000000000000e-01
2.50300000000000e-08,1.80000000000006e-01,6.00000000000000e-01,1.88264497551961e-03,6.00000000000000e-01
2.50700000000000e-08,4.20000000000000e-01,6.00000000000000e-01,4.05029576568146e-03,6.00000000000000e-01
2.51000000000000e-08,6.00000000000000e-01,6.00000000000000e-01,4.03071998919831e-03,6.00000000000000e-01
2.51080000000000e-08,6.00000000000000e-01,6.00000000000000e-01,3.51479733072513e-03,6.00000000000000e-01
2.51240000000000e-08,6.00000000000000e-01,6.00000000000000e-01,2.49011155820199e-03,6.00000000000000e-01
2.51560000000000e-08,6.00000000000000e-01,6.00000000000000e-01,4.00809942435951e-04,6.00000000000000e-01
2.52200000000000e-08,6.00000000000000e-01,6.00000000000000e-01,-4.32881542779416e-03,6.00000000000000e-01
2.53480000000000e-08,6.00000000000000e-01,6.00000000000000e-01,-1.22082711321629e-02,6.00000000000000e-01
2.56040000000000e-08,6.00000000000000e-01,6.00000000000000e-01,-1.34180945912853e-02,6.00000000000000e-01
2.60612697437232e-08,6.00000000000000e-01,6.00000000000000e-01,1.70882149236044e-01,6.00000000000000e-01
2.69758092311695e-08,6.00000000000000e-01,6.00000000000000e-01,5.78248084018316e-01,6.00000000000000e-01
2.82975782299178e-08,6.00000000000000e-01,6.00000000000000e-01,6.04396601970108e-01,6.00000000000000e-01
2.98836375042391e-08,6.00000000000000e-01,6.00000000000000e-01,5.97855849036615e-01,6.00000000000000e-01
3.01000000000000e-08,6.00000000000000e-01,6.00000000000000e-01,5.98226928153329e-01,6.00000000000000e-01
3.01100000000000e-08,6.00000000000000e-01,5.40000000000031e-01,5.98343769301571e-01,6.00000000000000e-01
3.01300000000000e-08,6.00000000000000e-01,4.20000000000014e-01,5.98529681383853e-01,6.00000000000000e-01
3.01700000000000e-08,6.00000000000000e-01,1.80000000000020e-01,5.98806569129146e-01,6.00000000000000e-01
3.02000000000000e-08,6.00000000000000e-01,1.44328993201270e-14,5.99094730069156e-01,6.00000000000000e-01
3.02080000000000e-08,6.00000000000000e-01,0.00000000000000e+00,5.99175888050921e-01,6.00000000000000e-01
3.02240000000000e-08,6.00000000000000e-01,0.00000000000000e+00,5.99309941151780e-01,6.00000000000000e-01
3.02560000000000e-08,6.00000000000000e-01,0.00000000000000e+00,5.99487693028385e-01,6.00000000000000e-01
3.03200000000000e-08,6.00000000000000e-01,0.00000000000000e+00,5.99667521383267e-01,6.00000000000000e-01
3.04480000000000e-08,6.00000000000000e-01,0.00000000000000e+00,5.99689014408826e-01,6.00000000000000e-01
3.07040000000000e-08,6.00000000000000e-01,0.00000000000000e+00,5.99762239717828e-01,6.00000000000000e-01
3.12160000000000e-08,6.00000000000000e-01,0.00000000000000e+00,5.99936748292997e-01,6.00000000000000e-01
3.20821934144596e-08,6.00000000000000e-01,0.00000000000000e+00,6.00138816373853e-01,6.00000000000000e-01
3.33864735328277e-08,6.00000000000000e-01,0.00000000000000e+00,5.99869586477125e-01,6.00000000000000e-01
3.41000000000000e-08,6.00000000000000e-01,0.00000000000000e+00,6.00083204508411e-01,6.00000000000000e-01
3.41100000000000e-08,6.00000000000000e-01,0.00000000000000e+00,5.99378540713318e-01,5.40000000000011e-01
3.41300000000000e-08,6.00000000000000e-01,0.00000000000000e+00,5.98018480964197e-01,4.19999999999994e-01
3.41700000000000e-08,6.00000000000000e-01,0.00000000000000e+00,5.97263921203069e-01,1.80000000000000e-01
3.42000000000000e-08,6.00000000000000e-01,0.00000000000000e+00,6.01287461876631e-01,0.00000000000000e+00
3.42080000000000e-08,6.00000000000000e-01,0.00000000000000e+00,6.03582799982806e-01,0.00000000000000e+00
3.42240000000000e-08,6.00000000000000e-01,0.00000000000000e+00,6.07757948331282e-01,0.00000000000000e+00
3.42560000000000e-08,6.00000000000000e-01,0.00000000000000e+00,6.13892285798846e-01,0.00000000000000e+00
3.43200000000000e-08,6.00000000000000e-01,0.00000000000000e+00,6.21050279510031e-01,0.00000000000000e+00
3.44480000000000e-08,6.00000000000000e-01,0.00000000000000e+00,6.28965931539189e-01,0.00000000000000e+00
3.47040000000000e-08,6.00000000000000e-01,0.00000000000000e+00,6.38662689673092e-01,0.00000000000000e+00
3.51000000000000e-08,5.99999999999970e-01,0.00000000000000e+00,3.98710907496947e-01,0.00000000000000e+00
3.51100000000000e-08,5.39999999999982e-01,0.00000000000000e+00,3.85962253524353e-01,0.00000000000000e+00
3.51300000000000e-08,4.19999999999965e-01,0.00000000000000e+00,3.60627842169359e-01,0.00000000000000e+00
3.51700000000000e-08,1.79999999999970e-01,0.00000000000000e+00,3.09473533287275e-01,0.00000000000000e+00
3.52000000000000e-08,0.00000000000000e+00,0.00000000000000e+00,2.70046319702702e-01,0.00000000000000e+00
3.52080000000000e-08,0.00000000000000e+00,0.00000000000000e+00,2.59491029046153e-01,0.00000000000000e+00
3.52240000000000e-08,0.00000000000000e+00,0.00000000000000e+00,2.38501892932107e-01,0.00000000000000e+00
3.52560000000000e-08,0.00000000000000e+00,0.00000000000000e+00,1.98747795521094e-01,0.00000000000000e+00
3.53200000000000e-08,0.00000000000000e+00,0.00000000000000e+00,1.34869874305641e-01,0.00000000000000e+00
3.54480000000000e-08,0.00000000000000e+00,0.00000000000000e+00,5.67632657505607e-02,0.00000000000000e+00
3.57040000000000e-08,0.00000000000000e+00,0.00000000000000e+00,3.71208956280853e-03,0.00000000000000e+00
3.62160000000000e-08,0.00000000000000e+00,0.00000000000000e+00,-1.06113008973444e-03,0.00000000000000e+00
3.71188009779881e-08,0.00000000000000e+00,0.00000000000000e+00,5.51051400420000e-04,0.00000000000000e+00
3.80000000000000e-08,0.00000000000000e+00,0.00000000000000e+00,-2.61096816367493e-04,0.00000000000000e+00
3.80100000000000e-08,0.00000000000000e+00,0.00000000000000e+00,1.23315864865298e-03,5.99999999999886e-02
3.80300000000000e-08,0.00000000000000e+00,0.00000000000000e+00,3.76838658450779e-03,1.80000000000006e-01
3.80700000000000e-08,0.00000000000000e+00,0.00000000000000e+00,6.48643653725388e-03,4.20000000000000e-01
3.81000000000000e-08,0.00000000000000e+00,0.00000000000000e+00,4.99128002463882e-03,6.00000000000000e-01
3.81080000000000e-08,0.00000000000000e+00,0.00000000000000e+00,3.75162505447950e-03,6.00000000000000e-01
3.81240000000000e-08,0.00000000000000e+00,0.00000000000000e+00,1.50008988775129e-03,6.00000000000000e-01
3.81560000000000e-08,0.00000000000000e+00,0.00000000000000e+00,-1.82467938399944e-03,6.00000000000000e-01
3.82200000000000e-08,0.00000000000000e+00,0.00000000000000e+00,-4.52673935832607e-03,6.00000000000000e-01
3.83480000000000e-08,0.00000000000000e+00,0.00000000000000e+00,-3.53132302814418e-03,6.00000000000000e-01
3.86040000000000e-08,0.00000000000000e+00,0.00000000000000e+00,-4.00874399659981e-04,6.00000000000000e-01
3.91100539171918e-08,0.00000000000000e+00,0.00000000000000e+00,9.16376583299863e-05,6.00000000000000e-01
3.99220611430528e-08,0.00000000000000e+00,0.00000000000000e+00,-3.80346378039964e-05,6.00000000000000e-01
4.15460755947749e-08,0.00000000000000e+00,0.00000000000000e+00,3.80259485644793e-05,6.00000000000000e-01
4.47941044982191e-08,0.00000000000000e+00,0.00000000000000e+00,-2.30325628340789e-05,6.00000000000000e-01
4.50000000000000e-08,0.00000000000000e+00,0.00000000000000e+00,5.83725957055414e-06,6.00000000000000e-01
4.50100000000000e-08,5.99999999999886e-02,0.00000000000000e+00,7.24333404573937e-04,6.00000000000000e-01
4.50300000000000e-08,1.80000000000006e-01,0.00000000000000e+00,1.97256445396574e-03,6.00000000000000e-01
4.50700000000000e-08,4.20000000000000e-01,0.00000000000000e+00,3.34902032189220e-03,6.00000000000000e-01
4.51000000000000e-08,6.00000000000000e-01,0.00000000000000e+00,2.29996940681992e-03,6.00000000000000e-01
4.51080000000000e-08,6.00000000000000e-01,0.00000000000000e+00,1.50610222355238e-03,6.00000000000000e-01
4.51240000000000e-08,6.00000000000000e-01,0.00000000000000e+00,1.03838049024169e-04,6.00000000000000e-01
4.51560000000000e-08,6.00000000000000e-01,0.00000000000000e+00,-1.50641595618146e-03,6.00000000000000e-01
4.52200000000000e-08,6.00000000000000e-01,0.00000000000000e+00,-2.16466194154112e-03,6.00000000000000e-01
4.53480000000000e-08,6.00000000000000e-01,0.00000000000000e+00,-1.27423804876568e-03,6.00000000000000e-01
4.56040000000000e-08,6.00000000000000e-01,0.00000000000000e+00,-4.19699297493560e-04,6.00000000000000e-01
4.61160000000000e-08,6.00000000000000e-01,0.00000000000000e+00,1.99091853551138e-04,6.00000000000000e-01
4.71400000000000e-08,6.00000000000000e-01,0.00000000000000e+00,3.17812065236161e-04,6.00000000000000e-01
4.85755765878193e-08,6.00000000000000e-01,0.00000000000000e+00,-2.46473837140139e-04,6.00000000000000e-01
5.00000000000000e-08,6.00000000000000e-01,0.00000000000000e+00,2.04175802038891e-04,6.00000000000000e-01
5.00100000000000e-08,6.00000000000000e-01,5.99999999999886e-02,2.20993554017807e-04,6.00000000000000e-01
5.00300000000000e-08,6.00000000000000e-01,1.79999999999966e-01,2.39637729666078e-04,6.00000000000000e-01
5.00700000000000e-08,6.00000000000000e-01,4.20000000000000e-01,2.15982552854058e-04,6.00000000000000e-01
5.01000000000000e-08,6.00000000000000e-01,6.00000000000000e-01,1.01598794690405e-04,6.00000000000000e-01
5.01080000000000e-08,6.00000000000000e-01,6.00000000000000e-01,5.68712232047602e-05,6.00000000000000e-01
5.01240000000000e-08,6.00000000000000e-01,6.00000000000000e-01,-4.21517707877017e-06,6.00000000000000e-01
5.01560000000000e-08,6.00000000000000e-01,6.00000000000000e-01,-5.46738747231879e-05,6.00000000000000e-01
5.02200000000000e-08,6.00000000000000e-01,6.00000000000000e-01,-5.01755159783984e-05,6.00000000000000e-01
5.03480000000000e-08,6.00000000000000e-01,6.00000000000000e-01,3.46846414643331e-05,6.00000000000000e-01
5.06040000000000e-08,6.00000000000000e-01,6.00000000000000e-01,5.85480216106632e-05,6.00000000000000e-01
5.10713457232300e-08,6.00000000000000e-01,6.00000000000000e-01,-6.57692465720616e-06,6.00000000000000e-01
5.19830836230632e-08,6.00000000000000e-01,6.00000000000000e-01,1.57411303903683e-05,6.00000000000000e-01
5.38065594227297e-08,6.00000000000000e-01,6.00000000000000e-01,7.58883148216025e-06,6.00000000000000e-01
5.51000000000000e-08,6.00000000000000e-01,6.00000000000000e-01,1.10129039883611e-05,6.00000000000000e-01
5.51100000000000e-08,5.40000000000021e-01,6.00000000000000e-01,-3.70722140887361e-04,6.00000000000000e-01
5.51300000000000e-08,4.20000000000004e-01,6.00000000000000e-01,-1.22391220701626e-03,6.00000000000000e-01
5.51700000000000e-08,1.80000000000010e-01,6.00000000000000e-01,-2.87414273222986e-03,6.00000000000000e-01
5.52000000000000e-08,0.00000000000000e+00,6.00000000000000e-01,-2.94179911722443e-03,6.00000000000000e-01
5.52080000000000e-08,0.00000000000000e+00,6.00000000000000e-01,-2.24226442354705e-03,6.00000000000000e-01
5.52240000000000e-08,0.00000000000000e+00,6.00000000000000e-01,-9.43815395111861e-04,6.00000000000000e-01
5.52560000000000e-08,0.00000000000000e+00,6.00000000000000e-01,8.63181056325851e-04,6.00000000000000e-01
5.53200000000000e-08,0.00000000000000e+00,6.00000000000000e-01,2.31421323809833e-03,6.00000000000000e-01
5.54480000000000e-08,0.00000000000000e+00,6.00000000000000e-01,2.17654318630960e-03,6.00000000000000e-01
5.57040000000000e-08,0.00000000000000e+00,6.00000000000000e-01,2.16811462337207e-04,6.00000000000000e-01
5.62160000000000e-08,0.00000000000000e+00,6.00000000000000e-01,-1.07648769526415e-03,6.00000000000000e-01
5.63440000000000e-08,0.00000000000000e+00,6.00000000000000e-01,-5.08326411173217e-04,6.00000000000000e-01
5.66000000000000e-08,0.00000000000000e+00,6.00000000000000e-01,2.52708101036184e-04,6.00000000000000e-01
5.71120000000000e-08,0.00000000000000e+00,6.00000000000000e-01,-6.89194123551465e-04,6.00000000000000e-01
5.81360000000000e-08,0.00000000000000e+00,6.00000000000000e-01,1.32362553434285e-04,6.00000000000000e-01
5.93216336466549e-08,0.00000000000000e+00,6.00000000000000e-01,5.43000495817118e-04,6.00000000000000e-01
6.12289821262037e-08,0.00000000000000e+00,6.00000000000000e-01,-6.08621916897110e-04,6.00000000000000e-01
6.39127744344627e-08,0.00000000000000e+00,6.00000000000000e-01,6.04791652401756e-04,6.00000000000000e-01
6.50000000000000e-08,0.00000000000000e+00,6.00000000000000e-01,-4.80035417946407e-04,6.00000000000000e-01
6.50100000000000e-08,5.99999999999886e-02,6.00000000000000e-01,3.62967900579519e-04,6.00000000000000e-01
6.50300000000000e-08,1.79999999999966e-01,6.00000000000000e-01,1.88262842152272e-03,6.00000000000000e-01
6.50700000000000e-08,4.19999999999920e-01,6.00000000000000e-01,4.05027821164519e-03,6.00000000000000e-01
6.51000000000000e-08,5.99999999999966e-01,6.00000000000000e-01,4.03070338450157e-03,6.00000000000000e-01
6.51080000000000e-08,6.00000000000000e-01,6.00000000000000e-01,3.51478104325756e-03,6.00000000000000e-01
6.51240000000000e-08,6.00000000000000e-01,6.00000000000000e-01,2.49009624256825e-03,6.00000000000000e-01
6.51560000000000e-08,6.00000000000000e-01,6.00000000000000e-01,4.00794296953944e-04,6.00000000000000e-01
6.52200000000000e-08,6.00000000000000e-01,6.00000000000000e-01,-4.32883161911433e-03,6.00000000000000e-01
6.53480000000000e-08,6.00000000000000e-01,6.00000000000000e-01,-1.22082807481029e-02,6.00000000000000e-01
6.56040000000000e-08,6.00000000000000e-01,6.00000000000000e-01,-1.34180775517262e-02,6.00000000000000e-01
6.60612700182342e-08,6.00000000000000e-01,6.00000000000000e-01,1.70882567810838e-01,6.00000000000000e-01
6.69758100547027e-08,6.00000000000000e-01,6.00000000000000e-01,5.78248235175701e-01,6.00000000000000e-01
6.82975772993053e-08,6.00000000000000e-01,6.00000000000000e-01,6.04396533010721e-01,6.00000000000000e-01
6.98836376949256e-08,6.00000000000000e-01,6.00000000000000e-01,5.97855909449565e-01,6.00000000000000e-01
7.01000000000000e-08,6.00000000000000e-01,6.00000000000000e-01,5.98226919698583e-01,6.00000000000000e-01
7.01100000000000e-08,6.00000000000000e-01,5.40000000000011e-01,5.98343761697741e-01,6.00000000000000e-01
7.01300000000000e-08,6.00000000000000e-01,4.20000000000034e-01,5.98529675716957e-01,6.00000000000000e-01
7.01700000000000e-08,6.00000000000000e-01,1.80000000000080e-01,5.98806566082984e-01,6.00000000000000e-01
7.02000000000000e-08,6.00000000000000e-01,3.44169137633799e-14,5.99094728150133e-01,6.00000000000000e-01
7.02080000000000e-08,6.00000000000000e-01,0.00000000000000e+00,5.99175886325554e-01,6.00000000000000e-01
7.02240000000000e-08,6.00000000000000e-01,0.00000000000000e+00,5.99309939802588e-01,6.00000000000000e-01
7.02560000000000e-08,6.00000000000000e-01,0.00000000000000e+00,5.99487692322066e-01,6.00000000000000e-01
7.03200000000000e-08,6.00000000000000e-01,0.00000000000000e+00,5.99667521307216e-01,6.00000000000000e-01
7.04480000000000e-08,6.00000000000000e-01,0.00000000000000e+00,5.99689014594445e-01,6.00000000000000e-01
