Time,v(clk),v(data),v(out),v(reset)
1.00000000000000e-08,3.30000000000000e-01,0.00000000000000e+00,6.11029313012826e-03,0.00000000000000e+00
1.00100000000000e-08,3.30000000000000e-01,3.29999999999992e-02,5.77305248260113e-03,0.00000000000000e+00
1.00300000000000e-08,3.30000000000000e-01,9.89999999999976e-02,5.17164579880642e-03,0.00000000000000e+00
1.00700000000000e-08,3.30000000000000e-01,2.30999999999994e-01,4.25005938837569e-03,0.00000000000000e+00
1.01000000000000e-08,3.30000000000000e-01,3.29999999999998e-01,3.70972595002910e-03,0.00000000000000e+00
1.01080000000000e-08,3.30000000000000e-01,3.30000000000000e-01,3.57816737113045e-03,0.00000000000000e+00
1.01240000000000e-08,3.30000000000000e-01,3.30000000000000e-01,3.31705850956227e-03,0.00000000000000e+00
1.01560000000000e-08,3.30000000000000e-01,3.30000000000000e-01,2.87813909196511e-03,0.00000000000000e+00
1.02200000000000e-08,3.30000000000000e-01,3.30000000000000e-01,2.10774312374853e-03,0.00000000000000e+00
1.03480000000000e-08,3.30000000000000e-01,3.30000000000000e-01,1.17764609723893e-03,0.00000000000000e+00
1.06040000000000e-08,3.30000000000000e-01,3.30000000000000e-01,3.27720294903636e-04,0.00000000000000e+00
1.11160000000000e-08,3.30000000000000e-01,3.30000000000000e-01,-1.53337172991777e-05,0.00000000000000e+00
1.21400000000000e-08,3.30000000000000e-01,3.30000000000000e-01,5.75621136460636e-06,0.00000000000000e+00
1.41880000000000e-08,3.30000000000000e-01,3.30000000000000e-01,-3.23727671080500e-06,0.00000000000000e+00
1.51000000000000e-08,3.30000000000000e-01,3.30000000000000e-01,2.88346777755667e-06,0.00000000000000e+00
1.51100000000000e-08,2.96999999999995e-01,3.30000000000000e-01,4.98942040623417e-05,3.30000000000047e-02
1.51300000000000e-08,2.30999999999997e-01,3.30000000000000e-01,1.21732150228974e-04,9.90000000000031e-02
1.51700000000000e-08,9.90000000000001e-02,3.30000000000000e-01,1.76677427966430e-04,2.31000000000000e-01
1.52000000000000e-08,0.00000000000000e+00,3.30000000000000e-01,1.75569129363638e-04,3.30000000000000e-01
1.52080000000000e-08,0.00000000000000e+00,3.30000000000000e-01,1.65149487169607e-04,3.30000000000000e-01
1.52240000000000e-08,0.00000000000000e+00,3.30000000000000e-01,1.45419107175970e-04,3.30000000000000e-01
1.52560000000000e-08,0.00000000000000e+00,3.30000000000000e-01,1.11790472153001e-04,3.30000000000000e-01
1.53200000000000e-08,0.00000000000000e+00,3.30000000000000e-01,5.70993002441851e-05,3.30000000000000e-01
1.54480000000000e-08,0.00000000000000e+00,3.30000000000000e-01,6.31973332697149e-06,3.30000000000000e-01
1.57040000000000e-08,0.00000000000000e+00,3.30000000000000e-01,-1.96821819988778e-05,3.30000000000000e-01
1.62160000000000e-08,0.00000000000000e+00,3.30000000000000e-01,-1.45243312203672e-05,3.30000000000000e-01
1.72400000000000e-08,0.00000000000000e+00,3.30000000000000e-01,-7.33919860389353e-05,3.30000000000000e-01
1.92880000000000e-08,0.00000000000000e+00,3.30000000000000e-01,-2.22596774131728e-04,3.30000000000000e-01
2.30880000000000e-08,0.00000000000000e+00,3.30000000000000e-01,1.21429981315227e-04,3.30000000000000e-01
2.50000000000000e-08,0.00000000000000e+00,3.30000000000000e-01,-9.55708335647078e-05,3.30000000000000e-01
2.50100000000000e-08,3.29999999999937e-02,3.30000000000000e-01,-7.58021188009238e-05,3.30000000000000e-01
2.50300000000000e-08,9.90000000000031e-02,3.30000000000000e-01,-4.20951681090048e-05,3.30000000000000e-01
2.50700000000000e-08,2.31000000000000e-01,3.30000000000000e-01,-4.97184143785634e-08,3.30000000000000e-01
2.51000000000000e-08,3.30000000000000e-01,3.30000000000000e-01,8.59168260666787e-06,3.30000000000000e-01
2.51080000000000e-08,3.30000000000000e-01,3.30000000000000e-01,-5.59463712878142e-06,3.30000000000000e-01
2.51240000000000e-08,3.30000000000000e-01,3.30000000000000e-01,-3.63069880585168e-05,3.30000000000000e-01
2.51560000000000e-08,3.30000000000000e-01,3.30000000000000e-01,-1.10010712665396e-04,3.30000000000000e-01
2.52200000000000e-08,3.30000000000000e-01,3.30000000000000e-01,-3.05138991420470e-04,3.30000000000000e-01
2.53480000000000e-08,3.30000000000000e-01,3.30000000000000e-01,-7.79728696499211e-04,3.30000000000000e-01
2.56040000000000e-08,3.30000000000000e-01,3.30000000000000e-01,-1.63736895765887e-03,3.30000000000000e-01
2.61160000000000e-08,3.30000000000000e-01,3.30000000000000e-01,-2.73269733481504e-03,3.30000000000000e-01
2.71400000000000e-08,3.30000000000000e-01,3.30000000000000e-01,2.19439860745099e-02,3.30000000000000e-01
2.91880000000000e-08,3.30000000000000e-01,3.30000000000000e-01,2.06631881690825e-01,3.30000000000000e-01
3.29880000000000e-08,3.30000000000000e-01,3.30000000000000e-01,3.42568082793462e-01,3.30000000000000e-01
3.51000000000000e-08,3.29999999999984e-01,3.30000000000000e-01,3.22596339414590e-01,3.30000000000000e-01
3.51100000000000e-08,2.96999999999990e-01,3.30000000000000e-01,3.22903955443199e-01,3.30000000000000e-01
3.51300000000000e-08,2.30999999999981e-01,3.30000000000000e-01,3.23482627277779e-01,3.30000000000000e-01
3.51700000000000e-08,9.89999999999837e-02,3.30000000000000e-01,3.24489810618169e-01,3.30000000000000e-01
3.52000000000000e-08,0.00000000000000e+00,3.30000000000000e-01,3.25185098641901e-01,3.30000000000000e-01
3.52080000000000e-08,0.00000000000000e+00,3.30000000000000e-01,3.25378336672772e-01,3.30000000000000e-01
3.52240000000000e-08,0.00000000000000e+00,3.30000000000000e-01,3.25745735888353e-01,3.30000000000000e-01
3.52560000000000e-08,0.00000000000000e+00,3.30000000000000e-01,3.26396221005158e-01,3.30000000000000e-01
3.53200000000000e-08,0.00000000000000e+00,3.30000000000000e-01,3.27425358504024e-01,3.30000000000000e-01
3.54480000000000e-08,0.00000000000000e+00,3.30000000000000e-01,3.28731817270141e-01,3.30000000000000e-01
3.57040000000000e-08,0.00000000000000e+00,3.30000000000000e-01,3.29851150456238e-01,3.30000000000000e-01
3.62160000000000e-08,0.00000000000000e+00,3.30000000000000e-01,3.29830302206588e-01,3.30000000000000e-01
3.72400000000000e-08,0.00000000000000e+00,3.30000000000000e-01,3.26131780899459e-01,3.30000000000000e-01
3.92880000000000e-08,0.00000000000000e+00,3.30000000000000e-01,3.17582603464223e-01,3.30000000000000e-01
4.30880000000000e-08,0.00000000000000e+00,3.30000000000000e-01,3.24039414844917e-01,3.30000000000000e-01
4.50000000000000e-08,0.00000000000000e+00,3.30000000000000e-01,3.29009360572759e-01,3.30000000000000e-01
4.50100000000000e-08,3.29999999999937e-02,3.30000000000000e-01,3.28980643691863e-01,2.97000000000006e-01
4.50300000000000e-08,9.90000000000031e-02,3.30000000000000e-01,3.28913708131385e-01,2.30999999999997e-01
4.50700000000000e-08,2.31000000000000e-01,3.30000000000000e-01,3.28771988191882e-01,9.90000000000001e-02
4.51000000000000e-08,3.30000000000000e-01,3.30000000000000e-01,3.28771307947930e-01,0.00000000000000e+00
4.51080000000000e-08,3.30000000000000e-01,3.30000000000000e-01,3.28823526931544e-01,0.00000000000000e+00
4.51240000000000e-08,3.30000000000000e-01,3.30000000000000e-01,3.28920183923428e-01,0.00000000000000e+00
4.51560000000000e-08,3.30000000000000e-01,3.30000000000000e-01,3.29101638756759e-01,0.00000000000000e+00
4.52200000000000e-08,3.30000000000000e-01,3.30000000000000e-01,3.29430077691262e-01,0.00000000000000e+00
4.53480000000000e-08,3.30000000000000e-01,3.30000000000000e-01,3.29893883735464e-01,0.00000000000000e+00
4.56040000000000e-08,3.30000000000000e-01,3.30000000000000e-01,3.30571585514629e-01,0.00000000000000e+00
4.61160000000000e-08,3.30000000000000e-01,3.30000000000000e-01,3.31687416557783e-01,0.00000000000000e+00
4.71400000000000e-08,3.30000000000000e-01,3.30000000000000e-01,3.33004471156525e-01,0.00000000000000e+00
4.91880000000000e-08,3.30000000000000e-01,3.30000000000000e-01,1.95985742831659e-01,0.00000000000000e+00
5.01000000000000e-08,3.30000000000000e-01,3.29999999999981e-01,5.36569158055740e-02,0.00000000000000e+00
5.04800000000000e-08,3.30000000000000e-01,3.30000000000000e-01,2.21589277751858e-02,0.00000000000000e+00
5.12400000000000e-08,3.30000000000000e-01,3.30000000000000e-01,-2.89437583898555e-03,0.00000000000000e+00
5.27600000000000e-08,3.30000000000000e-01,3.30000000000000e-01,1.65421045463106e-03,0.00000000000000e+00
5.51000000000000e-08,3.30000000000000e-01,3.30000000000000e-01,-1.13913342517683e-03,0.00000000000000e+00
5.51100000000000e-08,2.97000000000012e-01,3.30000000000000e-01,-1.02646344814787e-03,3.29999999999883e-02
5.51300000000000e-08,2.31000000000002e-01,3.30000000000000e-01,-8.31612466123222e-04,9.89999999999976e-02
5.51700000000000e-08,9.90000000000056e-02,3.30000000000000e-01,-5.83872253378030e-04,2.30999999999994e-01
5.52000000000000e-08,0.00000000000000e+00,3.30000000000000e-01,-4.82599102958309e-04,3.30000000000000e-01
5.52080000000000e-08,0.00000000000000e+00,3.30000000000000e-01,-4.68828683062018e-04,3.30000000000000e-01
5.52240000000000e-08,0.00000000000000e+00,3.30000000000000e-01,-4.41968648943483e-04,3.30000000000000e-01
5.52560000000000e-08,0.00000000000000e+00,3.30000000000000e-01,-3.90758559639201e-04,3.30000000000000e-01
5.53200000000000e-08,0.00000000000000e+00,3.30000000000000e-01,-3.06366184502117e-04,3.30000000000000e-01
5.54480000000000e-08,0.00000000000000e+00,3.30000000000000e-01,-1.85464244484143e-04,3.30000000000000e-01
5.57040000000000e-08,0.00000000000000e+00,3.30000000000000e-01,-6.49374578020091e-05,3.30000000000000e-01
5.62160000000000e-08,0.00000000000000e+00,3.30000000000000e-01,-8.26142532169179e-06,3.30000000000000e-01
5.72400000000000e-08,0.00000000000000e+00,3.30000000000000e-01,-6.39629388508190e-05,3.30000000000000e-01
5.92880000000000e-08,0.00000000000000e+00,3.30000000000000e-01,-1.66858056770161e-04,3.30000000000000e-01
6.30880000000000e-08,0.00000000000000e+00,3.30000000000000e-01,1.10965731543420e-04,3.30000000000000e-01
6.50000000000000e-08,0.00000000000000e+00,3.30000000000000e-01,-7.77841281912575e-05,3.30000000000000e-01
6.50100000000000e-08,3.29999999999937e-02,3.30000000000000e-01,-5.43544203968349e-05,3.30000000000000e-01
6.50300000000000e-08,9.89999999999812e-02,3.30000000000000e-01,-1.17258925584826e-05,3.30000000000000e-01
6.50700000000000e-08,2.30999999999956e-01,3.30000000000000e-01,4.89405713211578e-05,3.30000000000000e-01
6.51000000000000e-08,3.29999999999981e-01,3.30000000000000e-01,6.91228385406549e-05,3.30000000000000e-01
6.51080000000000e-08,3.30000000000000e-01,3.30000000000000e-01,5.80847758454225e-05,3.30000000000000e-01
6.51240000000000e-08,3.30000000000000e-01,3.30000000000000e-01,3.46622950388419e-05,3.30000000000000e-01
6.51560000000000e-08,3.30000000000000e-01,3.30000000000000e-01,-1.87073146880566e-05,3.30000000000000e-01
6.52200000000000e-08,3.30000000000000e-01,3.30000000000000e-01,-1.59024929087016e-04,3.30000000000000e-01
6.53480000000000e-08,3.30000000000000e-01,3.30000000000000e-01,-5.82978331241584e-04,3.30000000000000e-01
6.56040000000000e-08,3.30000000000000e-01,3.30000000000000e-01,-1.46225093076620e-03,3.30000000000000e-01
6.61159999999999e-08,3.30000000000000e-01,3.30000000000000e-01,-2.68411116615033e-03,3.30000000000000e-01
6.71399999999999e-08,3.30000000000000e-01,3.30000000000000e-01,1.70603902565695e-02,3.30000000000000e-01
6.91879999999998e-08,3.30000000000000e-01,3.30000000000000e-01,1.96574383316088e-01,3.30000000000000e-01
7.29879999999998e-08,3.30000000000000e-01,3.30000000000000e-01,3.42575440265387e-01,3.30000000000000e-01
7.51000000000000e-08,3.30000000000000e-01,3.30000000000000e-01,3.22872680280136e-01,3.30000000000000e-01
7.51100000000000e-08,2.97000000000034e-01,3.30000000000000e-01,3.23170910629098e-01,3.30000000000000e-01
7.51300000000000e-08,2.31000000000046e-01,3.30000000000000e-01,3.23737672621257e-01,3.30000000000000e-01
7.51700000000000e-08,9.90000000000711e-02,3.30000000000000e-01,3.24719298224577e-01,3.30000000000000e-01
7.52000000000000e-08,4.61852778244065e-14,3.30000000000000e-01,3.25395334453248e-01,3.30000000000000e-01
7.52080000000000e-08,0.00000000000000e+00,3.30000000000000e-01,3.25583765044502e-01,3.30000000000000e-01
7.52240000000000e-08,0.00000000000000e+00,3.30000000000000e-01,3.25941836884551e-01,3.30000000000000e-01
7.52560000000000e-08,0.00000000000000e+00,3.30000000000000e-01,3.26574648431173e-01,3.30000000000000e-01
7.53200000000000e-08,0.00000000000000e+00,3.30000000000000e-01,3.27572467752656e-01,3.30000000000000e-01
7.54480000000000e-08,0.00000000000000e+00,3.30000000000000e-01,3.28828098601975e-01,3.30000000000000e-01
7.57040000000000e-08,0.00000000000000e+00,3.30000000000000e-01,3.29890967775767e-01,3.30000000000000e-01
7.62159999999999e-08,0.00000000000000e+00,3.30000000000000e-01,3.29822698240610e-01,3.30000000000000e-01
7.72399999999999e-08,0.00000000000000e+00,3.30000000000000e-01,3.26076680345308e-01,3.30000000000000e-01
7.92879999999998e-08,0.00000000000000e+00,3.30000000000000e-01,3.17536883507110e-01,3.30000000000000e-01
8.30879999999998e-08,0.00000000000000e+00,3.30000000000000e-01,3.24055103506918e-01,3.30000000000000e-01
8.50000000000000e-08,0.00000000000000e+00,3.30000000000000e-01,3.29007028026171e-01,3.30000000000000e-01
8.50100000000000e-08,3.29999999999937e-02,3.30000000000000e-01,3.28978260793645e-01,2.97000000000006e-01
8.50300000000000e-08,9.89999999999812e-02,3.30000000000000e-01,3.28911483305840e-01,2.31000000000019e-01
8.50700000000000e-08,2.30999999999956e-01,3.30000000000000e-01,3.28769616996408e-01,9.90000000000438e-02
8.51000000000000e-08,3.29999999999981e-01,3.30000000000000e-01,3.28769228274138e-01,1.88737914186277e-14
8.51080000000000e-08,3.30000000000000e-01,3.30000000000000e-01,3.28821524130290e-01,0.00000000000000e+00
8.51240000000000e-08,3.30000000000000e-01,3.30000000000000e-01,3.28918332549621e-01,0.00000000000000e+00
8.51560000000000e-08,3.30000000000000e-01,3.30000000000000e-01,3.29100067529529e-01,0.00000000000000e+00
8.52200000000000e-08,3.30000000000000e-01,3.30000000000000e-01,3.29428932452964e-01,0.00000000000000e+00
8.53480000000000e-08,3.30000000000000e-01,3.30000000000000e-01,3.29893300568211e-01,0.00000000000000e+00
8.56040000000000e-08,3.30000000000000e-01,3.30000000000000e-01,3.30571550645050e-01,0.00000000000000e+00
8.61159999999999e-08,3.30000000000000e-01,3.30000000000000e-01,3.31687753917661e-01,0.00000000000000e+00
8.71399999999999e-08,3.30000000000000e-01,3.30000000000000e-01,3.33005218682630e-01,0.00000000000000e+00
8.91879999999998e-08,3.30000000000000e-01,3.30000000000000e-01,1.95998725777625e-01,0.00000000000000e+00
9.01000000000000e-08,3.30000000000000e-01,3.29999999999981e-01,5.36666032828796e-02,0.00000000000000e+00
9.04800000000000e-08,3.30000000000000e-01,3.30000000000000e-01,2.21634682118704e-02,0.00000000000000e+00
9.12400000000000e-08,3.30000000000000e-01,3.30000000000000e-01,-2.89451931547617e-03,0.00000000000000e+00
9.27600000000000e-08,3.30000000000000e-01,3.30000000000000e-01,1.65423480334672e-03,0.00000000000000e+00
9.51000000000000e-08,3.30000000000000e-01,3.30000000000000e-01,-1.13902269935318e-03,0.00000000000000e+00
9.51100000000000e-08,2.97000000000034e-01,3.30000000000000e-01,-1.02632719263462e-03,3.29999999999664e-02
9.51300000000000e-08,2.31000000000046e-01,3.30000000000000e-01,-8.31487593607450e-04,9.89999999999539e-02
9.51700000000000e-08,9.90000000000711e-02,3.30000000000000e-01,-5.83798688329727e-04,2.30999999999929e-01
9.52000000000000e-08,4.61852778244065e-14,3.30000000000000e-01,-4.82547973729226e-04,3.29999999999954e-01
9.52080000000000e-08,0.00000000000000e+00,3.30000000000000e-01,-4.68781406432684e-04,3.30000000000000e-01
9.52240000000000e-08,0.00000000000000e+00,3.30000000000000e-01,-4.41928799074232e-04,3.30000000000000e-01
9.52560000000000e-08,0.00000000000000e+00,3.30000000000000e-01,-3.90732614971061e-04,3.30000000000000e-01
9.53200000000000e-08,0.00000000000000e+00,3.30000000000000e-01,-3.06356264312045e-04,3.30000000000000e-01
9.54480000000000e-08,0.00000000000000e+00,3.30000000000000e-01,-1.85469696959442e-04,3.30000000000000e-01
9.57040000000000e-08,0.00000000000000e+00,3.30000000000000e-01,-6.49364799516546e-05,3.30000000000000e-01
9.62159999999999e-08,0.00000000000000e+00,3.30000000000000e-01,-8.24375329093810e-06,3.30000000000000e-01
9.72399999999999e-08,0.00000000000000e+00,3.30000000000000e-01,-6.39149316270394e-05,3.30000000000000e-01
9.92879999999998e-08,0.00000000000000e+00,3.30000000000000e-01,-1.66836135444435e-04,3.30000000000000e-01
1.03088000000000e-07,0.00000000000000e+00,3.30000000000000e-01,1.10944936096344e-04,3.30000000000000e-01
1.05000000000000e-07,0.00000000000000e+00,3.30000000000000e-01,-7.77704647599237e-05,3.30000000000000e-01
1.05010000000000e-07,3.29999999999937e-02,3.30000000000000e-01,-5.43410989424370e-05,3.30000000000000e-01
1.05030000000000e-07,9.89999999999812e-02,3.30000000000000e-01,-1.17131801717386e-05,3.30000000000000e-01
1.05070000000000e-07,2.30999999999956e-01,3.30000000000000e-01,4.89522956780945e-05,3.30000000000000e-01
1.05100000000000e-07,3.29999999999981e-01,3.30000000000000e-01,6.91334627713411e-05,3.30000000000000e-01
1.05108000000000e-07,3.30000000000000e-01,3.30000000000000e-01,5.80950309046445e-05,3.30000000000000e-01
1.05124000000000e-07,3.30000000000000e-01,3.30000000000000e-01,3.46717636936812e-05,3.30000000000000e-01
1.05156000000000e-07,3.30000000000000e-01,3.30000000000000e-01,-1.86997556855806e-05,3.30000000000000e-01
1.05220000000000e-07,3.30000000000000e-01,3.30000000000000e-01,-1.59021745708515e-04,3.30000000000000e-01
1.05348000000000e-07,3.30000000000000e-01,3.30000000000000e-01,-5.82981017199112e-04,3.30000000000000e-01
1.05604000000000e-07,3.30000000000000e-01,3.30000000000000e-01,-1.46224725055460e-03,3.30000000000000e-01
1.06116000000000e-07,3.30000000000000e-01,3.30000000000000e-01,-2.68409565903352e-03,3.30000000000000e-01
1.07140000000000e-07,3.30000000000000e-01,3.30000000000000e-01,1.70601357890678e-02,3.30000000000000e-01
1.09188000000000e-07,3.30000000000000e-01,3.30000000000000e-01,1.96573859681728e-01,3.30000000000000e-01
1.12988000000000e-07,3.30000000000000e-01,3.30000000000000e-01,3.42575448048840e-01,3.30000000000000e-01
1.15100000000000e-07,3.30000000000000e-01,3.30000000000000e-01,3.22872688914045e-01,3.30000000000000e-01
1.15110000000000e-07,2.97000000000034e-01,3.30000000000000e-01,3.23170919161086e-01,3.30000000000000e-01
1.15130000000000e-07,2.31000000000046e-01,3.30000000000000e-01,3.23737680895553e-01,3.30000000000000e-01
1.15170000000000e-07,9.90000000000711e-02,3.30000000000000e-01,3.24719305894327e-01,3.30000000000000e-01
1.15200000000000e-07,4.61852778244065e-14,3.30000000000000e-01,3.25395341592780e-01,3.30000000000000e-01
1.15208000000000e-07,0.00000000000000e+00,3.30000000000000e-01,3.25583772043775e-01,3.30000000000000e-01
1.15224000000000e-07,0.00000000000000e+00,3.30000000000000e-01,3.25941843625164e-01,3.30000000000000e-01
1.15256000000000e-07,0.00000000000000e+00,3.30000000000000e-01,3.26574654658704e-01,3.30000000000000e-01
1.15320000000000e-07,0.00000000000000e+00,3.30000000000000e-01,3.27572473000868e-01,3.30000000000000e-01
1.15448000000000e-07,0.00000000000000e+00,3.30000000000000e-01,3.28828102089442e-01,3.30000000000000e-01
1.15704000000000e-07,0.00000000000000e+00,3.30000000000000e-01,3.29890969095635e-01,3.30000000000000e-01
1.16216000000000e-07,0.00000000000000e+00,3.30000000000000e-01,3.29822697220431e-01,3.30000000000000e-01
1.17240000000000e-07,0.00000000000000e+00,3.30000000000000e-01,3.26076675719886e-01,3.30000000000000e-01
1.19288000000000e-07,0.00000000000000e+00,3.30000000000000e-01,3.17536879721629e-01,3.30000000000000e-01
1.23088000000000e-07,0.00000000000000e+00,3.30000000000000e-01,3.24055104566798e-01,3.30000000000000e-01
1.25000000000000e-07,0.00000000000000e+00,3.30000000000000e-01,3.29007027818398e-01,3.30000000000000e-01
1.25010000000000e-07,3.29999999999501e-02,3.30000000000000e-01,3.28978260584448e-01,2.97000000000050e-01
1.25030000000000e-07,9.89999999999376e-02,3.30000000000000e-01,3.28911483107694e-01,2.31000000000062e-01
1.25070000000000e-07,2.30999999999913e-01,3.30000000000000e-01,3.28769616820548e-01,9.90000000000875e-02
