Time,v(clk),v(data),v(out)
1.00000000000000e-08,4.00000000000000e-01,0.00000000000000e+00,9.92674531962931e-06
1.00100000000000e-08,4.00000000000000e-01,3.99999999999990e-02,5.68098124043015e-06
1.00300000000000e-08,4.00000000000000e-01,1.19999999999997e-01,-9.46799601560244e-07
1.00700000000000e-08,4.00000000000000e-01,2.79999999999993e-01,-8.17663468819646e-06
1.01000000000000e-08,4.00000000000000e-01,3.99999999999997e-01,-9.34630863159980e-06
1.01080000000000e-08,4.00000000000000e-01,4.00000000000000e-01,-1.03747016701530e-05
1.01240000000000e-08,4.00000000000000e-01,4.00000000000000e-01,-1.06644933182895e-05
1.01560000000000e-08,4.00000000000000e-01,4.00000000000000e-01,-7.32360822584821e-06
1.02200000000000e-08,4.00000000000000e-01,4.00000000000000e-01,-4.21693536742374e-07
1.03480000000000e-08,4.00000000000000e-01,4.00000000000000e-01,4.42720878952169e-06
1.06040000000000e-08,4.00000000000000e-01,4.00000000000000e-01,1.60435193258257e-06
1.11160000000000e-08,4.00000000000000e-01,4.00000000000000e-01,1.38589757400082e-06
1.21400000000000e-08,4.00000000000000e-01,4.00000000000000e-01,2.69690983642316e-06
1.41880000000000e-08,4.00000000000000e-01,4.00000000000000e-01,9.57779759299445e-07
1.51000000000000e-08,4.00000000000000e-01,4.00000000000000e-01,2.45206977233115e-06
1.51100000000000e-08,3.59999999999994e-01,4.00000000000000e-01,-6.85540430416035e-05
1.51300000000000e-08,2.79999999999996e-01,4.00000000000000e-01,-1.84802848329238e-04
1.51700000000000e-08,1.20000000000000e-01,4.00000000000000e-01,-3.06698043954140e-04
1.52000000000000e-08,0.00000000000000e+00,4.00000000000000e-01,-2.00740464712683e-04
1.52080000000000e-08,0.00000000000000e+00,4.00000000000000e-01,-5.53984121897527e-05
1.52240000000000e-08,0.00000000000000e+00,4.00000000000000e-01,1.71635753896546e-04
1.52560000000000e-08,0.00000000000000e+00,4.00000000000000e-01,3.57718881561192e-04
1.53200000000000e-08,0.00000000000000e+00,4.00000000000000e-01,3.23383198441003e-04
1.54480000000000e-08,0.00000000000000e+00,4.00000000000000e-01,4.47550130220527e-05
1.57040000000000e-08,0.00000000000000e+00,4.00000000000000e-01,-1.48743211485745e-04
1.62160000000000e-08,0.00000000000000e+00,4.00000000000000e-01,2.93260782742322e-05
1.72400000000000e-08,0.00000000000000e+00,4.00000000000000e-01,-6.51804175743533e-05
1.88538738983721e-08,0.00000000000000e+00,4.00000000000000e-01,6.28460100246054e-05
2.18006325931617e-08,0.00000000000000e+00,4.00000000000000e-01,-3.39174697366507e-05
2.50000000000000e-08,0.00000000000000e+00,4.00000000000000e-01,1.59263669427174e-05
2.50100000000000e-08,3.99999999999924e-02,4.00000000000000e-01,1.43475454551720e-04
2.50300000000000e-08,1.20000000000004e-01,4.00000000000000e-01,3.58790508973847e-04
2.50700000000000e-08,2.80000000000000e-01,4.00000000000000e-01,5.60265013513965e-04
2.51000000000000e-08,4.00000000000000e-01,4.00000000000000e-01,5.58984020206287e-04
2.51080000000000e-08,4.00000000000000e-01,4.00000000000000e-01,4.83266547394515e-04
2.51240000000000e-08,4.00000000000000e-01,4.00000000000000e-01,3.41186897632982e-04
2.51560000000000e-08,4.00000000000000e-01,4.00000000000000e-01,-5.01306232020271e-06
2.52200000000000e-08,4.00000000000000e-01,4.00000000000000e-01,-1.25794711899676e-03
2.53480000000000e-08,4.00000000000000e-01,4.00000000000000e-01,-3.58466070177603e-03
2.56040000000000e-08,4.00000000000000e-01,4.00000000000000e-01,-2.57658515509197e-03
2.61160000000000e-08,4.00000000000000e-01,4.00000000000000e-01,2.17092732610607e-01
2.71400000000000e-08,4.00000000000000e-01,4.00000000000000e-01,4.12380794469569e-01
2.87097045777802e-08,4.00000000000000e-01,4.00000000000000e-01,3.91598170153275e-01
3.01000000000000e-08,4.00000000000000e-01,4.00000000000000e-01,4.09459494705843e-01
3.01100000000000e-08,4.00000000000000e-01,3.60000000000021e-01,4.07014991958515e-01
3.01300000000000e-08,4.00000000000000e-01,2.80000000000010e-01,4.03358314491015e-01
3.01700000000000e-08,4.00000000000000e-01,1.20000000000013e-01,4.00402299926962e-01
3.02000000000000e-08,4.00000000000000e-01,9.71445146547012e-15,3.99914435271487e-01
3.02080000000000e-08,4.00000000000000e-01,0.00000000000000e+00,3.99867068726221e-01
3.02240000000000e-08,4.00000000000000e-01,0.00000000000000e+00,3.99788790157453e-01
3.02560000000000e-08,4.00000000000000e-01,0.00000000000000e+00,3.99722539015072e-01
3.03200000000000e-08,4.00000000000000e-01,0.00000000000000e+00,3.99772043412948e-01
3.04480000000000e-08,4.00000000000000e-01,0.00000000000000e+00,3.99877000375756e-01
3.07040000000000e-08,4.00000000000000e-01,0.00000000000000e+00,3.99956406801268e-01
3.12160000000000e-08,4.00000000000000e-01,0.00000000000000e+00,3.99986855113424e-01
3.20264389470514e-08,4.00000000000000e-01,0.00000000000000e+00,3.99960590731588e-01
3.36473168411540e-08,4.00000000000000e-01,0.00000000000000e+00,3.99985402458157e-01
3.51000000000000e-08,3.99999999999980e-01,0.00000000000000e+00,3.99970616800650e-01
3.51100000000000e-08,3.59999999999988e-01,0.00000000000000e+00,3.99894731836598e-01
3.51300000000000e-08,2.79999999999976e-01,0.00000000000000e+00,3.99781688372593e-01
3.51700000000000e-08,1.19999999999980e-01,0.00000000000000e+00,3.99779703358806e-01
3.52000000000000e-08,0.00000000000000e+00,0.00000000000000e+00,4.00583983525180e-01
3.52080000000000e-08,0.00000000000000e+00,0.00000000000000e+00,4.00946645425403e-01
3.52240000000000e-08,0.00000000000000e+00,0.00000000000000e+00,4.01497579122122e-01
3.52560000000000e-08,0.00000000000000e+00,0.00000000000000e+00,4.02037151441722e-01
3.53200000000000e-08,0.00000000000000e+00,0.00000000000000e+00,4.02342546629511e-01
3.54480000000000e-08,0.00000000000000e+00,0.00000000000000e+00,4.00167033216682e-01
3.57040000000000e-08,0.00000000000000e+00,0.00000000000000e+00,3.90792553494666e-01
3.62160000000000e-08,0.00000000000000e+00,0.00000000000000e+00,3.94954352285679e-01
3.70945373442098e-08,0.00000000000000e+00,0.00000000000000e+00,4.02259057165153e-01
3.84994564985727e-08,0.00000000000000e+00,0.00000000000000e+00,3.97438410185649e-01
3.91000000000000e-08,0.00000000000000e+00,0.00000000000000e+00,4.01243763508319e-01
3.93043579616465e-08,0.00000000000000e+00,0.00000000000000e+00,4.00136716673655e-01
3.97130738849394e-08,0.00000000000000e+00,0.00000000000000e+00,3.99631535073413e-01
4.05305057315252e-08,0.00000000000000e+00,0.00000000000000e+00,3.99967514709346e-01
4.21653694246968e-08,0.00000000000000e+00,0.00000000000000e+00,3.99763144778976e-01
4.50000000000000e-08,0.00000000000000e+00,0.00000000000000e+00,4.00003360709468e-01
4.50100000000000e-08,3.99999999999924e-02,0.00000000000000e+00,4.00078374492193e-01
4.50300000000000e-08,1.20000000000004e-01,0.00000000000000e+00,4.00174815408810e-01
4.50700000000000e-08,2.80000000000000e-01,0.00000000000000e+00,4.00161073824513e-01
4.51000000000000e-08,4.00000000000000e-01,0.00000000000000e+00,4.00045829230587e-01
4.51080000000000e-08,4.00000000000000e-01,0.00000000000000e+00,3.99966466610751e-01
4.51240000000000e-08,4.00000000000000e-01,0.00000000000000e+00,3.99840699828337e-01
4.51560000000000e-08,4.00000000000000e-01,0.00000000000000e+00,3.99712059184724e-01
4.52200000000000e-08,4.00000000000000e-01,0.00000000000000e+00,3.99665113451689e-01
4.53480000000000e-08,4.00000000000000e-01,0.00000000000000e+00,3.99733793045449e-01
4.56040000000000e-08,4.00000000000000e-01,0.00000000000000e+00,4.00211879022685e-01
4.61160000000000e-08,4.00000000000000e-01,0.00000000000000e+00,4.23455093939865e-01
4.71400000000000e-08,4.00000000000000e-01,0.00000000000000e+00,6.49677732683093e-02
4.85150763919906e-08,4.00000000000000e-01,0.00000000000000e+00,-3.64018131454397e-02
5.00000000000000e-08,4.00000000000000e-01,0.00000000000000e+00,3.70756505313121e-02
5.00100000000000e-08,4.00000000000000e-01,3.99999999999924e-02,3.27944466646639e-02
5.00300000000000e-08,4.00000000000000e-01,1.19999999999977e-01,2.53248047764679e-02
5.00700000000000e-08,4.00000000000000e-01,2.80000000000000e-01,1.51150800989680e-02
5.01000000000000e-08,4.00000000000000e-01,4.00000000000000e-01,1.03082477955949e-02
5.01080000000000e-08,4.00000000000000e-01,4.00000000000000e-01,9.36070698538506e-03
5.01240000000000e-08,4.00000000000000e-01,4.00000000000000e-01,7.64524909648247e-03
5.01560000000000e-08,4.00000000000000e-01,4.00000000000000e-01,5.07814722302716e-03
5.02200000000000e-08,4.00000000000000e-01,4.00000000000000e-01,2.15717903819739e-03
5.03480000000000e-08,4.00000000000000e-01,4.00000000000000e-01,2.36256861905253e-04
5.06040000000000e-08,4.00000000000000e-01,4.00000000000000e-01,-5.55449809625450e-05
5.11160000000001e-08,4.00000000000000e-01,4.00000000000000e-01,2.16611150219530e-05
5.21400000000002e-08,4.00000000000000e-01,4.00000000000000e-01,-1.74815450118011e-05
5.41880000000003e-08,4.00000000000000e-01,4.00000000000000e-01,1.32343553159420e-05
5.51000000000000e-08,4.00000000000000e-01,4.00000000000000e-01,-1.06236057476738e-05
5.51100000000000e-08,3.60000000000014e-01,4.00000000000000e-01,-7.97677829436697e-05
5.51300000000000e-08,2.80000000000003e-01,4.00000000000000e-01,-1.94625987287450e-04
5.51700000000000e-08,1.20000000000007e-01,4.00000000000000e-01,-3.13292475250963e-04
5.52000000000000e-08,0.00000000000000e+00,4.00000000000000e-01,-2.05837780898693e-04
5.52080000000000e-08,0.00000000000000e+00,4.00000000000000e-01,-5.98084466148993e-05
5.52240000000000e-08,0.00000000000000e+00,4.00000000000000e-01,1.67020575487849e-04
5.52560000000000e-08,0.00000000000000e+00,4.00000000000000e-01,3.51859848300058e-04
5.53200000000000e-08,0.00000000000000e+00,4.00000000000000e-01,3.08255660564548e-04
5.54480000000000e-08,0.00000000000000e+00,4.00000000000000e-01,-9.79307574093119e-05
5.57040000000000e-08,0.00000000000000e+00,4.00000000000000e-01,-9.67872223505591e-04
5.62160000000000e-08,0.00000000000000e+00,4.00000000000000e-01,1.93387222322112e-04
5.69862041632661e-08,0.00000000000000e+00,4.00000000000000e-01,-1.00019202978681e-04
5.85266124897983e-08,0.00000000000000e+00,4.00000000000000e-01,4.30917624451204e-05
6.07020741833032e-08,0.00000000000000e+00,4.00000000000000e-01,3.28245397187722e-05
6.41427258237029e-08,0.00000000000000e+00,4.00000000000000e-01,-6.51748515427463e-05
6.50000000000000e-08,0.00000000000000e+00,4.00000000000000e-01,1.49218361722000e-04
6.50100000000000e-08,3.99999999999924e-02,4.00000000000000e-01,2.29765170745078e-04
6.50300000000000e-08,1.19999999999977e-01,4.00000000000000e-01,3.86897165930308e-04
6.50700000000000e-08,2.79999999999947e-01,4.00000000000000e-01,5.62960760515346e-04
6.51000000000000e-08,3.99999999999977e-01,4.00000000000000e-01,5.55932889787752e-04
6.51080000000000e-08,4.00000000000000e-01,4.00000000000000e-01,4.80123383841451e-04
6.51240000000000e-08,4.00000000000000e-01,4.00000000000000e-01,3.43445138300445e-04
6.51560000000000e-08,4.00000000000000e-01,4.00000000000000e-01,4.94760784536460e-05
6.52200000000000e-08,4.00000000000000e-01,4.00000000000000e-01,-1.11561396201927e-03
6.53480000000000e-08,4.00000000000000e-01,4.00000000000000e-01,-3.45993491643088e-03
6.56040000000000e-08,4.00000000000000e-01,4.00000000000000e-01,-3.42006108424182e-03
6.61159999999999e-08,4.00000000000000e-01,4.00000000000000e-01,2.08996579474708e-01
6.71399999999999e-08,4.00000000000000e-01,4.00000000000000e-01,4.11508118375529e-01
6.87468753150993e-08,4.00000000000000e-01,4.00000000000000e-01,3.92358910295743e-01
7.01000000000000e-08,4.00000000000000e-01,4.00000000000000e-01,4.08762541483583e-01
7.01100000000000e-08,4.00000000000000e-01,3.60000000000008e-01,4.06491854809852e-01
7.01300000000000e-08,4.00000000000000e-01,2.80000000000023e-01,4.03087477584644e-01
7.01700000000000e-08,4.00000000000000e-01,1.20000000000053e-01,4.00328448747356e-01
7.02000000000000e-08,4.00000000000000e-01,2.28705943072782e-14,3.99882587431637e-01
7.02080000000000e-08,4.00000000000000e-01,0.00000000000000e+00,3.99839461996332e-01
7.02240000000000e-08,4.00000000000000e-01,0.00000000000000e+00,3.99768272932636e-01
7.02560000000000e-08,4.00000000000000e-01,0.00000000000000e+00,3.99709712150221e-01
7.03200000000000e-08,4.00000000000000e-01,0.00000000000000e+00,3.99765463261532e-01
7.04480000000000e-08,4.00000000000000e-01,0.00000000000000e+00,3.99874405709202e-01
7.07040000000000e-08,4.00000000000000e-01,0.00000000000000e+00,3.99953971780462e-01
7.12159999999999e-08,4.00000000000000e-01,0.00000000000000e+00,3.99988018480229e-01
7.20230168151567e-08,4.00000000000000e-01,0.00000000000000e+00,3.99959278510452e-01
7.36370504454703e-08,4.00000000000000e-01,0.00000000000000e+00,3.99986213295873e-01
7.51000000000000e-08,4.00000000000000e-01,0.00000000000000e+00,3.99969566559299e-01
7.51100000000000e-08,3.60000000000041e-01,0.00000000000000e+00,3.99893922625633e-01
7.51300000000000e-08,2.80000000000056e-01,0.00000000000000e+00,3.99781241199923e-01
7.51700000000000e-08,1.20000000000086e-01,0.00000000000000e+00,3.99793148415210e-01
7.52000000000000e-08,5.59552404411079e-14,0.00000000000000e+00,4.00589031878614e-01
7.52080000000000e-08,0.00000000000000e+00,0.00000000000000e+00,4.00950653032322e-01
7.52240000000000e-08,0.00000000000000e+00,0.00000000000000e+00,4.01499936968083e-01
7.52560000000000e-08,0.00000000000000e+00,0.00000000000000e+00,4.02037765922001e-01
7.53200000000000e-08,0.00000000000000e+00,0.00000000000000e+00,4.02341168968086e-01
7.54480000000000e-08,0.00000000000000e+00,0.00000000000000e+00,4.00157665478119e-01
7.57040000000000e-08,0.00000000000000e+00,0.00000000000000e+00,3.90781333646246e-01
7.62159999999999e-08,0.00000000000000e+00,0.00000000000000e+00,3.94956925214044e-01
7.70945548397553e-08,0.00000000000000e+00,0.00000000000000e+00,4.02258170249325e-01
7.81000000000000e-08,0.00000000000000e+00,0.00000000000000e+00,3.97560893614324e-01
7.82404950205561e-08,0.00000000000000e+00,0.00000000000000e+00,3.99035321088711e-01
7.85214850616683e-08,0.00000000000000e+00,0.00000000000000e+00,3.99999934241181e-01
7.90834651438927e-08,0.00000000000000e+00,0.00000000000000e+00,3.99622148225163e-01
8.02074253083416e-08,0.00000000000000e+00,0.00000000000000e+00,3.99953599643445e-01
8.24553456372392e-08,0.00000000000000e+00,0.00000000000000e+00,3.99765904422548e-01
8.50000000000000e-08,0.00000000000000e+00,0.00000000000000e+00,4.00003293348111e-01
8.50100000000000e-08,3.99999999999924e-02,0.00000000000000e+00,4.00077885917758e-01
8.50300000000000e-08,1.19999999999977e-01,0.00000000000000e+00,4.00174212761796e-01
8.50700000000000e-08,2.79999999999947e-01,0.00000000000000e+00,4.00160777042636e-01
8.51000000000000e-08,3.99999999999977e-01,0.00000000000000e+00,4.00045757445033e-01
8.51080000000000e-08,4.00000000000000e-01,0.00000000000000e+00,3.99966343290776e-01
8.51240000000000e-08,4.00000000000000e-01,0.00000000000000e+00,3.99840510511197e-01
8.51560000000000e-08,4.00000000000000e-01,0.00000000000000e+00,3.99711970787345e-01
8.52200000000000e-08,4.00000000000000e-01,0.00000000000000e+00,3.99665158566437e-01
8.53480000000000e-08,4.00000000000000e-01,0.00000000000000e+00,3.99733920965568e-01
8.56040000000000e-08,4.00000000000000e-01,0.00000000000000e+00,4.00211767402661e-01
8.61159999999999e-08,4.00000000000000e-01,0.00000000000000e+00,4.23452566848240e-01
8.71399999999999e-08,4.00000000000000e-01,0.00000000000000e+00,6.49639560554099e-02
8.85150685024716e-08,4.00000000000000e-01,0.00000000000000e+00,-3.64007123592305e-02
9.00000000000000e-08,4.00000000000000e-01,0.00000000000000e+00,3.70740907894037e-02
9.00100000000000e-08,4.00000000000000e-01,3.99999999999924e-02,3.27929553085798e-02
9.00300000000000e-08,4.00000000000000e-01,1.19999999999977e-01,2.53235041642219e-02
9.00700000000000e-08,4.00000000000000e-01,2.79999999999947e-01,1.51142197592615e-02
9.01000000000000e-08,4.00000000000000e-01,3.99999999999977e-01,1.03076314629845e-02
9.01080000000000e-08,4.00000000000000e-01,4.00000000000000e-01,9.36014418899184e-03
9.01240000000000e-08,4.00000000000000e-01,4.00000000000000e-01,7.64478400050753e-03
9.01560000000000e-08,4.00000000000000e-01,4.00000000000000e-01,5.07783243360800e-03
9.02200000000000e-08,4.00000000000000e-01,4.00000000000000e-01,2.15704125069378e-03
9.03480000000000e-08,4.00000000000000e-01,4.00000000000000e-01,2.36240755479272e-04
9.06040000000000e-08,4.00000000000000e-01,4.00000000000000e-01,-5.55411911545983e-05
9.11159999999999e-08,4.00000000000000e-01,4.00000000000000e-01,2.16601683965395e-05
9.21399999999999e-08,4.00000000000000e-01,4.00000000000000e-01,-1.74809592601863e-05
9.41879999999998e-08,4.00000000000000e-01,4.00000000000000e-01,1.32339008445223e-05
9.51000000000000e-08,4.00000000000000e-01,4.00000000000000e-01,-1.06234064144138e-05
9.51100000000000e-08,3.60000000000041e-01,4.00000000000000e-01,-7.97675517999058e-05
9.51300000000000e-08,2.80000000000056e-01,4.00000000000000e-01,-1.94625737396294e-04
9.51700000000000e-08,1.20000000000086e-01,4.00000000000000e-01,-3.13292272743931e-04
9.52000000000000e-08,5.59552404411079e-14,4.00000000000000e-01,-2.05837626093872e-04
9.52080000000000e-08,0.00000000000000e+00,4.00000000000000e-01,-5.98083023214402e-05
9.52240000000000e-08,0.00000000000000e+00,4.00000000000000e-01,1.67020695837565e-04
9.52560000000000e-08,0.00000000000000e+00,4.00000000000000e-01,3.51859923870712e-04
9.53200000000000e-08,0.00000000000000e+00,4.00000000000000e-01,3.08255634153515e-04
9.54480000000000e-08,0.00000000000000e+00,4.00000000000000e-01,-9.79313452490471e-05
9.57040000000000e-08,0.00000000000000e+00,4.00000000000000e-01,-9.67874701114167e-04
9.62159999999999e-08,0.00000000000000e+00,4.00000000000000e-01,1.93387246327972e-04
9.69862032122150e-08,0.00000000000000e+00,4.00000000000000e-01,-1.00018977626572e-04
9.85266096366452e-08,0.00000000000000e+00,4.00000000000000e-01,4.30914234801124e-05
1.00702066735989e-07,0.00000000000000e+00,4.00000000000000e-01,3.28250788515679e-05
1.04142716372073e-07,0.00000000000000e+00,4.00000000000000e-01,-6.51754054792324e-05
1.05000000000000e-07,0.00000000000000e+00,4.00000000000000e-01,1.49218246160048e-04
1.05010000000000e-07,3.99999999999924e-02,4.00000000000000e-01,2.29764948285104e-04
1.05030000000000e-07,1.19999999999977e-01,4.00000000000000e-01,3.86896829763110e-04
1.05070000000000e-07,2.79999999999947e-01,4.00000000000000e-01,5.62960487160570e-04
1.05100000000000e-07,3.99999999999977e-01,4.00000000000000e-01,5.55932673345978e-04
1.05108000000000e-07,4.00000000000000e-01,4.00000000000000e-01,4.80123174821767e-04
1.05124000000000e-07,4.00000000000000e-01,4.00000000000000e-01,3.43444918089429e-04
1.05156000000000e-07,4.00000000000000e-01,4.00000000000000e-01,4.94755538543862e-05
1.05220000000000e-07,4.00000000000000e-01,4.00000000000000e-01,-1.11561510316318e-03
1.05348000000000e-07,4.00000000000000e-01,4.00000000000000e-01,-3.45993559874537e-03
1.05604000000000e-07,4.00000000000000e-01,4.00000000000000e-01,-3.42005950533454e-03
1.06116000000000e-07,4.00000000000000e-01,4.00000000000000e-01,2.08996598617790e-01
1.07140000000000e-07,4.00000000000000e-01,4.00000000000000e-01,4.11508120775339e-01
1.08746875223052e-07,4.00000000000000e-01,4.00000000000000e-01,3.92358908341955e-01
1.10100000000000e-07,4.00000000000000e-01,4.00000000000000e-01,4.08762543385913e-01
1.10110000000000e-07,4.00000000000000e-01,3.60000000000061e-01,4.06491856227855e-01
1.10130000000000e-07,4.00000000000000e-01,2.80000000000076e-01,4.03087478302699e-01
1.10170000000000e-07,4.00000000000000e-01,1.20000000000106e-01,4.00328448943112e-01
1.10200000000000e-07,4.00000000000000e-01,7.58837437331294e-14,3.99882587509993e-01
1.10208000000000e-07,4.00000000000000e-01,0.00000000000000e+00,3.99839462062290e-01
1.10224000000000e-07,4.00000000000000e-01,0.00000000000000e+00,3.99768272977837e-01
1.10256000000000e-07,4.00000000000000e-01,0.00000000000000e+00,3.99709712173874e-01
1.10320000000000e-07,4.00000000000000e-01,0.00000000000000e+00,3.99765463271982e-01
1.10448000000000e-07,4.00000000000000e-01,0.00000000000000e+00,3.99874405713338e-01
1.10704000000000e-07,4.00000000000000e-01,0.00000000000000e+00,3.99953971789850e-01
1.11216000000000e-07,4.00000000000000e-01,0.00000000000000e+00,3.99988018475196e-01
