Time,v(clk),v(data),v(out)
1.00000000000000e-08,7.50000000000000e-01,0.00000000000000e+00,-1.13249408683477e-05
1.00100000000000e-08,7.50000000000000e-01,7.49999999999982e-02,-5.23533360745343e-06
1.00300000000000e-08,7.50000000000000e-01,2.24999999999995e-01,-3.27348240000691e-07
1.00700000000000e-08,7.50000000000000e-01,5.24999999999987e-01,-5.71356307814408e-07
1.01000000000000e-08,7.50000000000000e-01,7.49999999999994e-01,1.35599337883208e-06
1.01080000000000e-08,7.50000000000000e-01,7.50000000000000e-01,2.71854902354762e-06
1.01240000000000e-08,7.50000000000000e-01,7.50000000000000e-01,5.45473625483683e-06
1.01560000000000e-08,7.50000000000000e-01,7.50000000000000e-01,6.42873420290957e-06
1.02200000000000e-08,7.50000000000000e-01,7.50000000000000e-01,3.38100344964010e-06
1.03480000000000e-08,7.50000000000000e-01,7.50000000000000e-01,3.91102351001218e-06
1.06040000000000e-08,7.50000000000000e-01,7.50000000000000e-01,4.49466385405578e-06
1.11160000000000e-08,7.50000000000000e-01,7.50000000000000e-01,3.89353870045711e-06
1.21400000000000e-08,7.50000000000000e-01,7.50000000000000e-01,4.12598386397966e-06
1.41880000000000e-08,7.50000000000000e-01,7.50000000000000e-01,3.46929533827627e-06
1.51000000000000e-08,7.50000000000000e-01,7.50000000000000e-01,3.74805470470824e-06
1.51100000000000e-08,6.74999999999989e-01,7.50000000000000e-01,-8.03913014358337e-05
1.51300000000000e-08,5.24999999999993e-01,7.50000000000000e-01,-1.70370000930356e-04
1.51700000000000e-08,2.25000000000000e-01,7.50000000000000e-01,7.49351925170491e-05
1.52000000000000e-08,0.00000000000000e+00,7.50000000000000e-01,4.64756594441063e-04
1.52080000000000e-08,0.00000000000000e+00,7.50000000000000e-01,5.43812425917625e-04
1.52240000000000e-08,0.00000000000000e+00,7.50000000000000e-01,4.64926173148847e-04
1.52560000000000e-08,0.00000000000000e+00,7.50000000000000e-01,-2.01704767200522e-04
1.53200000000000e-08,0.00000000000000e+00,7.50000000000000e-01,-4.58257427568241e-04
1.54480000000000e-08,0.00000000000000e+00,7.50000000000000e-01,1.81388261891700e-05
1.56358156122088e-08,0.00000000000000e+00,7.50000000000000e-01,-9.48600124440722e-05
1.58892511419843e-08,0.00000000000000e+00,7.50000000000000e-01,3.06597496051622e-04
1.63961222015353e-08,0.00000000000000e+00,7.50000000000000e-01,-3.64522816476382e-04
1.68789014215489e-08,0.00000000000000e+00,7.50000000000000e-01,3.62393873196443e-04
1.78444598615760e-08,0.00000000000000e+00,7.50000000000000e-01,-3.46424203951194e-04
1.93463945340759e-08,0.00000000000000e+00,7.50000000000000e-01,3.42582065619188e-04
2.16257735377534e-08,0.00000000000000e+00,7.50000000000000e-01,-3.31673157477761e-04
2.50000000000000e-08,0.00000000000000e+00,7.50000000000000e-01,3.31704825084566e-04
2.50100000000000e-08,7.49999999999858e-02,7.50000000000000e-01,3.95749777870547e-04
2.50300000000000e-08,2.25000000000007e-01,7.50000000000000e-01,4.21658393446073e-04
2.50700000000000e-08,5.25000000000000e-01,7.50000000000000e-01,9.05138497974134e-05
2.51000000000000e-08,7.50000000000000e-01,7.50000000000000e-01,-2.31849726693016e-03
2.51080000000000e-08,7.50000000000000e-01,7.50000000000000e-01,-3.43955049301185e-03
2.51240000000000e-08,7.50000000000000e-01,7.50000000000000e-01,-5.34542818191043e-03
2.51560000000000e-08,7.50000000000000e-01,7.50000000000000e-01,-5.86898944888199e-03
2.52200000000000e-08,7.50000000000000e-01,7.50000000000000e-01,8.09122813217328e-02
2.53480000000000e-08,7.50000000000000e-01,7.50000000000000e-01,6.31959831434628e-01
2.56040000000000e-08,7.50000000000000e-01,7.50000000000000e-01,7.75181532559166e-01
2.58556897999837e-08,7.50000000000000e-01,7.50000000000000e-01,7.26652200425156e-01
2.63590693999510e-08,7.50000000000000e-01,7.50000000000000e-01,7.71080123114811e-01
2.70788935812135e-08,7.50000000000000e-01,7.50000000000000e-01,7.28884235485130e-01
2.85185419437385e-08,7.50000000000000e-01,7.50000000000000e-01,7.69838521014122e-01
3.10700715161573e-08,7.50000000000000e-01,7.50000000000000e-01,7.29584343320514e-01
3.48700715161573e-08,7.50000000000000e-01,7.50000000000000e-01,7.69470305943102e-01
3.51000000000000e-08,7.49999999999963e-01,7.50000000000000e-01,7.32248896955805e-01
3.51100000000000e-08,6.74999999999977e-01,7.50000000000000e-01,7.42165121810695e-01
3.51300000000000e-08,5.24999999999956e-01,7.50000000000000e-01,7.50898983814491e-01
3.51700000000000e-08,2.24999999999963e-01,7.50000000000000e-01,7.50914535403045e-01
3.52000000000000e-08,0.00000000000000e+00,7.50000000000000e-01,7.53708679176059e-01
3.52080000000000e-08,0.00000000000000e+00,7.50000000000000e-01,7.52751609661815e-01
3.52240000000000e-08,0.00000000000000e+00,7.50000000000000e-01,7.47411880573586e-01
3.52560000000000e-08,0.00000000000000e+00,7.50000000000000e-01,7.31417025555163e-01
3.53200000000000e-08,0.00000000000000e+00,7.50000000000000e-01,7.33628721509013e-01
3.54480000000000e-08,0.00000000000000e+00,7.50000000000000e-01,7.52690516792339e-01
3.56493713788974e-08,0.00000000000000e+00,7.50000000000000e-01,7.46975239750382e-01
3.59476718173424e-08,0.00000000000000e+00,7.50000000000000e-01,7.51892191708179e-01
3.65442726942326e-08,0.00000000000000e+00,7.50000000000000e-01,7.47868907274925e-01
3.77374744480129e-08,0.00000000000000e+00,7.50000000000000e-01,7.51791396309944e-01
4.01238779555735e-08,0.00000000000000e+00,7.50000000000000e-01,7.48094186790058e-01
4.39238779555735e-08,0.00000000000000e+00,7.50000000000000e-01,7.51764443255470e-01
4.50000000000000e-08,0.00000000000000e+00,7.50000000000000e-01,7.48219424973163e-01
4.50100000000000e-08,7.49999999999858e-02,7.50000000000000e-01,7.49044648930390e-01
4.50300000000000e-08,2.25000000000007e-01,7.50000000000000e-01,7.49950329368156e-01
4.50700000000000e-08,5.25000000000000e-01,7.50000000000000e-01,7.49962195383935e-01
4.51000000000000e-08,7.50000000000000e-01,7.50000000000000e-01,7.48819993182515e-01
4.51080000000000e-08,7.50000000000000e-01,6.90000000000031e-01,7.48351662010950e-01
4.51240000000000e-08,7.50000000000000e-01,5.69999999999994e-01,7.47640388720172e-01
4.51560000000000e-08,7.50000000000000e-01,3.30000000000020e-01,7.47000615667301e-01
4.52000000000000e-08,7.50000000000000e-01,4.29656310529936e-14,7.47002402084985e-01
4.52064000000000e-08,7.50000000000000e-01,0.00000000000000e+00,7.47128708159330e-01
4.52192000000000e-08,7.50000000000000e-01,0.00000000000000e+00,7.47385826499601e-01
4.52448000000000e-08,7.50000000000000e-01,0.00000000000000e+00,7.47938381640529e-01
4.52960000000000e-08,7.50000000000000e-01,0.00000000000000e+00,7.48824347691891e-01
4.53984000000000e-08,7.50000000000000e-01,0.00000000000000e+00,7.49668293066098e-01
4.55727254424358e-08,7.50000000000000e-01,0.00000000000000e+00,7.49973643599636e-01
4.57864020466589e-08,7.50000000000000e-01,0.00000000000000e+00,7.50021735207202e-01
4.62137552551050e-08,7.50000000000000e-01,0.00000000000000e+00,7.49981188384153e-01
4.70684616719973e-08,7.50000000000000e-01,0.00000000000000e+00,7.50017693184641e-01
4.87091494652922e-08,7.50000000000000e-01,0.00000000000000e+00,7.49982822712458e-01
5.19905250518819e-08,7.50000000000000e-01,0.00000000000000e+00,7.50016891670816e-01
5.51000000000000e-08,7.50000000000000e-01,0.00000000000000e+00,7.49983397019975e-01
5.51100000000000e-08,6.75000000000027e-01,0.00000000000000e+00,7.49914684112169e-01
5.51300000000000e-08,5.25000000000005e-01,0.00000000000000e+00,7.49887710523410e-01
5.51700000000000e-08,2.25000000000013e-01,0.00000000000000e+00,7.51444862268441e-01
5.52000000000000e-08,0.00000000000000e+00,0.00000000000000e+00,7.54604099474781e-01
5.52080000000000e-08,0.00000000000000e+00,0.00000000000000e+00,7.55347071991959e-01
5.52240000000000e-08,0.00000000000000e+00,0.00000000000000e+00,7.56430475350669e-01
5.52560000000000e-08,0.00000000000000e+00,0.00000000000000e+00,7.55473593939585e-01
5.53200000000000e-08,0.00000000000000e+00,0.00000000000000e+00,7.49795643226556e-01
5.54480000000000e-08,0.00000000000000e+00,0.00000000000000e+00,7.49583512546890e-01
5.56075294894359e-08,0.00000000000000e+00,0.00000000000000e+00,7.49812393512978e-01
5.59265884683078e-08,0.00000000000000e+00,0.00000000000000e+00,7.49715155091472e-01
5.62838794261639e-08,0.00000000000000e+00,0.00000000000000e+00,7.49942636226118e-01
5.69984613418760e-08,0.00000000000000e+00,0.00000000000000e+00,7.49798114108973e-01
5.84276251733003e-08,0.00000000000000e+00,0.00000000000000e+00,7.50022578020746e-01
6.12859528361488e-08,0.00000000000000e+00,0.00000000000000e+00,7.49848473151088e-01
6.50000000000000e-08,0.00000000000000e+00,0.00000000000000e+00,7.50048421428795e-01
6.50100000000000e-08,7.49999999999858e-02,0.00000000000000e+00,7.50039096193328e-01
6.50300000000000e-08,2.24999999999957e-01,0.00000000000000e+00,7.50004489974841e-01
6.50700000000000e-08,5.24999999999900e-01,0.00000000000000e+00,7.49925491752951e-01
6.51000000000000e-08,7.49999999999957e-01,0.00000000000000e+00,7.49748791944097e-01
6.51080000000000e-08,7.50000000000000e-01,0.00000000000000e+00,7.49690437514131e-01
6.51240000000000e-08,7.50000000000000e-01,0.00000000000000e+00,7.49679415820989e-01
6.51560000000000e-08,7.50000000000000e-01,0.00000000000000e+00,7.49959677669395e-01
6.52200000000000e-08,7.50000000000000e-01,0.00000000000000e+00,7.54569513370702e-01
6.53480000000000e-08,7.50000000000000e-01,0.00000000000000e+00,5.07465198193585e-01
6.56040000000000e-08,7.50000000000000e-01,0.00000000000000e+00,-3.22082619001631e-02
6.58572503517877e-08,7.50000000000000e-01,0.00000000000000e+00,1.93825122820160e-02
6.63637510553631e-08,7.50000000000000e-01,0.00000000000000e+00,-1.22605298551835e-02
6.68750704819308e-08,7.50000000000000e-01,0.00000000000000e+00,9.52085016892220e-03
6.78977093350661e-08,7.50000000000000e-01,0.00000000000000e+00,-6.93343826958713e-03
6.98793808875780e-08,7.50000000000000e-01,0.00000000000000e+00,7.03496594921318e-03
7.28786939481866e-08,7.50000000000000e-01,0.00000000000000e+00,-5.75501980366856e-03
7.51000000000000e-08,7.50000000000000e-01,0.00000000000000e+00,5.92414960361230e-03
7.51100000000000e-08,6.75000000000076e-01,0.00000000000000e+00,6.63394312779578e-03
7.51300000000000e-08,5.25000000000105e-01,0.00000000000000e+00,4.84813190109652e-03
7.51700000000000e-08,2.25000000000162e-01,0.00000000000000e+00,8.30800223166353e-04
7.52000000000000e-08,1.05027098129540e-13,0.00000000000000e+00,9.05755016732221e-04
7.52080000000000e-08,0.00000000000000e+00,0.00000000000000e+00,7.52358216441748e-04
7.52240000000000e-08,0.00000000000000e+00,0.00000000000000e+00,2.05532723590987e-04
7.52560000000000e-08,0.00000000000000e+00,0.00000000000000e+00,-1.08570582496229e-03
7.53200000000000e-08,0.00000000000000e+00,0.00000000000000e+00,-9.24832182287186e-04
7.54480000000000e-08,0.00000000000000e+00,0.00000000000000e+00,4.05285612416772e-04
7.56349946431340e-08,0.00000000000000e+00,0.00000000000000e+00,-2.33785815636500e-04
7.59664211803166e-08,0.00000000000000e+00,0.00000000000000e+00,1.80537123697954e-04
7.66292742546817e-08,0.00000000000000e+00,0.00000000000000e+00,-1.51606137999879e-04
7.79549804034120e-08,0.00000000000000e+00,0.00000000000000e+00,1.46842637078168e-04
8.06063927008726e-08,0.00000000000000e+00,0.00000000000000e+00,-1.36323065253011e-04
8.44063927008726e-08,0.00000000000000e+00,0.00000000000000e+00,1.38636390499066e-04
8.50000000000000e-08,0.00000000000000e+00,0.00000000000000e+00,-1.13851261083223e-04
8.50100000000000e-08,7.49999999999858e-02,0.00000000000000e+00,4.51263216328796e-05
8.50300000000000e-08,2.24999999999957e-01,0.00000000000000e+00,1.68842671655969e-04
8.50700000000000e-08,5.24999999999900e-01,0.00000000000000e+00,3.40349490785125e-05
8.51000000000000e-08,7.49999999999957e-01,0.00000000000000e+00,-2.17057655515496e-04
8.51080000000000e-08,7.50000000000000e-01,0.00000000000000e+00,-3.02833076447920e-04
8.51240000000000e-08,7.50000000000000e-01,0.00000000000000e+00,-3.62803686127719e-04
8.51560000000000e-08,7.50000000000000e-01,0.00000000000000e+00,-2.35173949641510e-04
8.52200000000000e-08,7.50000000000000e-01,0.00000000000000e+00,1.67031563809011e-05
8.53480000000000e-08,7.50000000000000e-01,0.00000000000000e+00,1.13740293225913e-04
8.56040000000000e-08,7.50000000000000e-01,0.00000000000000e+00,-2.90892883006919e-05
8.61159999999999e-08,7.50000000000000e-01,0.00000000000000e+00,3.30508387221765e-05
8.67080386962900e-08,7.50000000000000e-01,0.00000000000000e+00,-1.28532428213882e-05
8.78921160888703e-08,7.50000000000000e-01,0.00000000000000e+00,2.23100210721789e-05
9.00000000000000e-08,7.50000000000000e-01,0.00000000000000e+00,-1.14891228358508e-05
9.00100000000000e-08,7.50000000000000e-01,7.49999999999858e-02,-5.28800546673036e-06
9.00300000000000e-08,7.50000000000000e-01,2.24999999999957e-01,-3.69230690258626e-07
9.00700000000000e-08,7.50000000000000e-01,5.24999999999900e-01,-5.43916354539542e-07
9.01000000000000e-08,7.50000000000000e-01,7.49999999999957e-01,1.43814747627369e-06
9.01080000000000e-08,7.50000000000000e-01,7.50000000000000e-01,2.75635374756555e-06
9.01240000000000e-08,7.50000000000000e-01,7.50000000000000e-01,5.39201899328601e-06
9.01560000000000e-08,7.50000000000000e-01,7.50000000000000e-01,6.37652257712285e-06
9.02200000000000e-08,7.50000000000000e-01,7.50000000000000e-01,3.37931943854286e-06
9.03480000000000e-08,7.50000000000000e-01,7.50000000000000e-01,3.91674561423666e-06
9.06040000000000e-08,7.50000000000000e-01,7.50000000000000e-01,4.50011872499267e-06
9.11159999999999e-08,7.50000000000000e-01,7.50000000000000e-01,3.88424864328565e-06
9.21399999999999e-08,7.50000000000000e-01,7.50000000000000e-01,4.20642137469000e-06
9.41879999999998e-08,7.50000000000000e-01,7.50000000000000e-01,3.39194305563548e-06
9.51000000000000e-08,7.50000000000000e-01,7.50000000000000e-01,3.81835520610069e-06
9.51100000000000e-08,6.75000000000076e-01,7.50000000000000e-01,-8.03343849015148e-05
9.51300000000000e-08,5.25000000000105e-01,7.50000000000000e-01,-1.70395423157596e-04
9.51700000000000e-08,2.25000000000162e-01,7.50000000000000e-01,7.49371766844489e-05
9.52000000000000e-08,1.05027098129540e-13,7.50000000000000e-01,4.64753596075743e-04
9.52080000000000e-08,0.00000000000000e+00,7.50000000000000e-01,5.43808534027884e-04
9.52240000000000e-08,0.00000000000000e+00,7.50000000000000e-01,4.64918274480322e-04
9.52560000000000e-08,0.00000000000000e+00,7.50000000000000e-01,-2.01717804947515e-04
9.53200000000000e-08,0.00000000000000e+00,7.50000000000000e-01,-4.58252484222356e-04
9.54480000000000e-08,0.00000000000000e+00,7.50000000000000e-01,1.81358031397516e-05
9.56358161059908e-08,0.00000000000000e+00,7.50000000000000e-01,-9.48577130833808e-05
9.58892513005827e-08,0.00000000000000e+00,7.50000000000000e-01,3.06597237811311e-04
9.63961216897666e-08,0.00000000000000e+00,7.50000000000000e-01,-3.64523489712372e-04
9.68789020019083e-08,0.00000000000000e+00,7.50000000000000e-01,3.62395122759407e-04
9.78444626261916e-08,0.00000000000000e+00,7.50000000000000e-01,-3.46425713061129e-04
9.93463959128887e-08,0.00000000000000e+00,7.50000000000000e-01,3.42583659080650e-04
1.01625777713250e-07,0.00000000000000e+00,7.50000000000000e-01,-3.31674837068156e-04
1.05000000000000e-07,0.00000000000000e+00,7.50000000000000e-01,3.31706518883538e-04
1.05010000000000e-07,7.49999999999858e-02,7.50000000000000e-01,3.95750593051067e-04
1.05030000000000e-07,2.24999999999957e-01,7.50000000000000e-01,4.21658043807505e-04
1.05070000000000e-07,5.24999999999900e-01,7.50000000000000e-01,9.05132706258693e-05
1.05100000000000e-07,7.49999999999957e-01,7.50000000000000e-01,-2.31849763404161e-03
1.05108000000000e-07,7.50000000000000e-01,7.50000000000000e-01,-3.43955081499134e-03
1.05124000000000e-07,7.50000000000000e-01,7.50000000000000e-01,-5.34542840299143e-03
1.05156000000000e-07,7.50000000000000e-01,7.50000000000000e-01,-5.86898944625776e-03
1.05220000000000e-07,7.50000000000000e-01,7.50000000000000e-01,8.09122831686258e-02
1.05348000000000e-07,7.50000000000000e-01,7.50000000000000e-01,6.31959832112705e-01
1.05604000000000e-07,7.50000000000000e-01,7.50000000000000e-01,7.75181532507728e-01
1.05855689800181e-07,7.50000000000000e-01,7.50000000000000e-01,7.26652200487771e-01
1.06359069400542e-07,7.50000000000000e-01,7.50000000000000e-01,7.71080123067156e-01
1.07078893582644e-07,7.50000000000000e-01,7.50000000000000e-01,7.28884235541731e-01
1.08518541946847e-07,7.50000000000000e-01,7.50000000000000e-01,7.69838520970101e-01
1.11070071524299e-07,7.50000000000000e-01,7.50000000000000e-01,7.29584343365717e-01
1.14870071524299e-07,7.50000000000000e-01,7.50000000000000e-01,7.69470305900233e-01
1.15100000000000e-07,7.50000000000000e-01,7.50000000000000e-01,7.32248897078321e-01
1.15110000000000e-07,6.75000000000076e-01,7.50000000000000e-01,7.42165121861548e-01
1.15130000000000e-07,5.25000000000105e-01,7.50000000000000e-01,7.50898983806042e-01
1.15170000000000e-07,2.25000000000162e-01,7.50000000000000e-01,7.50914535407524e-01
1.15200000000000e-07,1.05027098129540e-13,7.50000000000000e-01,7.53708679175516e-01
1.15208000000000e-07,0.00000000000000e+00,7.50000000000000e-01,7.52751609663502e-01
1.15224000000000e-07,0.00000000000000e+00,7.50000000000000e-01,7.47411880577574e-01
1.15256000000000e-07,0.00000000000000e+00,7.50000000000000e-01,7.31417025578872e-01
1.15320000000000e-07,0.00000000000000e+00,7.50000000000000e-01,7.33628721517513e-01
1.15448000000000e-07,0.00000000000000e+00,7.50000000000000e-01,7.52690516753974e-01
1.15649371379313e-07,0.00000000000000e+00,7.50000000000000e-01,7.46975239782243e-01
1.15947671817340e-07,0.00000000000000e+00,7.50000000000000e-01,7.51892191684176e-01
1.16544272693393e-07,0.00000000000000e+00,7.50000000000000e-01,7.47868907298910e-01
1.17737474445500e-07,0.00000000000000e+00,7.50000000000000e-01,7.51791396286921e-01
1.20123877949714e-07,0.00000000000000e+00,7.50000000000000e-01,7.48094186812861e-01
1.23923877949714e-07,0.00000000000000e+00,7.50000000000000e-01,7.51764443233169e-01
1.25000000000000e-07,0.00000000000000e+00,7.50000000000000e-01,7.48219424993832e-01
1.25010000000000e-07,7.49999999998865e-02,7.50000000000000e-01,7.49044648942230e-01
1.25030000000000e-07,2.24999999999858e-01,7.50000000000000e-01,7.49950329369759e-01
1.25070000000000e-07,5.24999999999801e-01,7.50000000000000e-01,7.49962195383522e-01
1.25100000000000e-07,7.49999999999858e-01,7.50000000000000e-01,7.48819993181987e-01
1.25108000000000e-07,7.50000000000000e-01,6.89999999999932e-01,7.48351662010908e-01
1.25124000000000e-07,7.50000000000000e-01,5.69999999999994e-01,7.47640388719995e-01
1.25156000000000e-07,7.50000000000000e-01,3.29999999999921e-01,7.47000615666490e-01
1.25200000000000e-07,7.50000000000000e-01,0.00000000000000e+00,7.47002402086819e-01
1.25206400000000e-07,7.50000000000000e-01,0.00000000000000e+00,7.47128708159680e-01
1.25219200000000e-07,7.50000000000000e-01,0.00000000000000e+00,7.47385826499894e-01
1.25244800000000e-07,7.50000000000000e-01,0.00000000000000e+00,7.47938381640251e-01
1.25296000000000e-07,7.50000000000000e-01,0.00000000000000e+00,7.48824347691088e-01
1.25398400000000e-07,7.50000000000000e-01,0.00000000000000e+00,7.49668293066531e-01
1.25572725442758e-07,7.50000000000000e-01,0.00000000000000e+00,7.49973643599599e-01
1.25786402046743e-07,7.50000000000000e-01,0.00000000000000e+00,7.50021735207441e-01
1.26213755254713e-07,7.50000000000000e-01,0.00000000000000e+00,7.49981188383757e-01
1.27068461670654e-07,7.50000000000000e-01,0.00000000000000e+00,7.50017693184944e-01
1.28709149465972e-07,7.50000000000000e-01,0.00000000000000e+00,7.49982822712150e-01
1.31990525056609e-07,7.50000000000000e-01,0.00000000000000e+00,7.50016891671253e-01
1.35100000000000e-07,7.49999999999864e-01,0.00000000000000e+00,7.49983397019600e-01
1.35110000000000e-07,6.74999999999778e-01,0.00000000000000e+00,7.49914684112009e-01
1.35130000000000e-07,5.24999999999807e-01,0.00000000000000e+00,7.49887710523453e-01
1.35170000000000e-07,2.24999999999864e-01,0.00000000000000e+00,7.51444862277211e-01
1.35200000000000e-07,0.00000000000000e+00,0.00000000000000e+00,7.54604099480846e-01
1.35208000000000e-07,0.00000000000000e+00,0.00000000000000e+00,7.55347071995575e-01
