Time,v(clk),v(data),v(out),v(reset)
1.00000000000000e-08,7.50000000000000e-01,0.00000000000000e+00,4.08556448463875e-06,0.00000000000000e+00
1.00100000000000e-08,7.50000000000000e-01,7.49999999999982e-02,1.75716144606985e-06,0.00000000000000e+00
1.00300000000000e-08,7.50000000000000e-01,2.24999999999995e-01,-1.22409487561537e-06,0.00000000000000e+00
1.00700000000000e-08,7.50000000000000e-01,5.24999999999987e-01,-1.41961125153106e-06,0.00000000000000e+00
1.01000000000000e-08,7.50000000000000e-01,7.49999999999994e-01,-1.21136316352799e-06,0.00000000000000e+00
1.01080000000000e-08,7.50000000000000e-01,7.50000000000000e-01,1.81388745981725e-07,0.00000000000000e+00
1.01240000000000e-08,7.50000000000000e-01,7.50000000000000e-01,2.95129901321800e-06,0.00000000000000e+00
1.01560000000000e-08,7.50000000000000e-01,7.50000000000000e-01,4.42626214252478e-06,0.00000000000000e+00
1.02200000000000e-08,7.50000000000000e-01,7.50000000000000e-01,2.44215017730642e-06,0.00000000000000e+00
1.03480000000000e-08,7.50000000000000e-01,7.50000000000000e-01,1.98424131251512e-06,0.00000000000000e+00
1.06040000000000e-08,7.50000000000000e-01,7.50000000000000e-01,3.21734328901507e-06,0.00000000000000e+00
1.11160000000000e-08,7.50000000000000e-01,7.50000000000000e-01,2.06410635667821e-06,0.00000000000000e+00
1.21400000000000e-08,7.50000000000000e-01,7.50000000000000e-01,2.70761320100843e-06,0.00000000000000e+00
1.41880000000000e-08,7.50000000000000e-01,7.50000000000000e-01,1.57147799234201e-06,0.00000000000000e+00
1.51000000000000e-08,7.50000000000000e-01,7.50000000000000e-01,2.22509091574955e-06,0.00000000000000e+00
1.51100000000000e-08,6.74999999999989e-01,7.50000000000000e-01,2.81526594940310e-04,7.50000000000106e-02
1.51300000000000e-08,5.24999999999993e-01,7.50000000000000e-01,4.79902053493478e-04,2.25000000000007e-01
1.51700000000000e-08,2.25000000000000e-01,7.50000000000000e-01,2.53924751836859e-04,5.25000000000000e-01
1.52000000000000e-08,0.00000000000000e+00,7.50000000000000e-01,1.86881239745751e-04,7.50000000000000e-01
1.52080000000000e-08,0.00000000000000e+00,7.50000000000000e-01,1.31712323059655e-04,7.50000000000000e-01
1.52240000000000e-08,0.00000000000000e+00,7.50000000000000e-01,5.33565156822097e-05,7.50000000000000e-01
1.52560000000000e-08,0.00000000000000e+00,7.50000000000000e-01,-4.93414668724379e-05,7.50000000000000e-01
1.53200000000000e-08,0.00000000000000e+00,7.50000000000000e-01,-2.32898364096984e-04,7.50000000000000e-01
1.54480000000000e-08,0.00000000000000e+00,7.50000000000000e-01,-1.76191311920003e-04,7.50000000000000e-01
1.56866828617828e-08,0.00000000000000e+00,7.50000000000000e-01,-1.93409546660261e-04,7.50000000000000e-01
1.60511781115205e-08,0.00000000000000e+00,7.50000000000000e-01,1.66976795782037e-04,7.50000000000000e-01
1.65732042244263e-08,0.00000000000000e+00,7.50000000000000e-01,4.65476586237659e-05,7.50000000000000e-01
1.73693324367082e-08,0.00000000000000e+00,7.50000000000000e-01,-1.22561364772696e-04,7.50000000000000e-01
1.86005639223693e-08,0.00000000000000e+00,7.50000000000000e-01,1.56201094481205e-04,7.50000000000000e-01
2.10168567199265e-08,0.00000000000000e+00,7.50000000000000e-01,-1.67554938284280e-04,7.50000000000000e-01
2.48168567199265e-08,0.00000000000000e+00,7.50000000000000e-01,1.75093071246130e-04,7.50000000000000e-01
2.50000000000000e-08,0.00000000000000e+00,7.50000000000000e-01,-1.98663775309010e-04,7.50000000000000e-01
2.50100000000000e-08,7.49999999999858e-02,7.50000000000000e-01,3.05616030648326e-05,7.50000000000000e-01
2.50300000000000e-08,2.25000000000007e-01,7.50000000000000e-01,3.42115060595963e-04,7.50000000000000e-01
2.50700000000000e-08,5.25000000000000e-01,7.50000000000000e-01,3.69720003058210e-04,7.50000000000000e-01
2.51000000000000e-08,7.50000000000000e-01,7.50000000000000e-01,-1.96831657055105e-03,7.50000000000000e-01
2.51080000000000e-08,7.50000000000000e-01,7.50000000000000e-01,-3.14367883541775e-03,7.50000000000000e-01
2.51240000000000e-08,7.50000000000000e-01,7.50000000000000e-01,-5.18123842991161e-03,7.50000000000000e-01
2.51560000000000e-08,7.50000000000000e-01,7.50000000000000e-01,-7.18437867893455e-03,7.50000000000000e-01
2.52200000000000e-08,7.50000000000000e-01,7.50000000000000e-01,2.68745761181129e-02,7.50000000000000e-01
2.53480000000000e-08,7.50000000000000e-01,7.50000000000000e-01,4.22783500637386e-01,7.50000000000000e-01
2.56040000000000e-08,7.50000000000000e-01,7.50000000000000e-01,7.74541018904404e-01,7.50000000000000e-01
2.59186623718071e-08,7.50000000000000e-01,7.50000000000000e-01,7.30196253346527e-01,7.50000000000000e-01
2.65208744262541e-08,7.50000000000000e-01,7.50000000000000e-01,7.68679538121960e-01,7.50000000000000e-01
2.71947706713347e-08,7.50000000000000e-01,7.50000000000000e-01,7.32727102880128e-01,7.50000000000000e-01
2.84092419945998e-08,7.50000000000000e-01,7.50000000000000e-01,7.66473139155203e-01,7.50000000000000e-01
3.07594073391122e-08,7.50000000000000e-01,7.50000000000000e-01,7.33809462825705e-01,7.50000000000000e-01
3.45594073391122e-08,7.50000000000000e-01,7.50000000000000e-01,7.65878100237023e-01,7.50000000000000e-01
3.51000000000000e-08,7.49999999999963e-01,7.50000000000000e-01,7.35539978979101e-01,7.50000000000000e-01
3.51100000000000e-08,6.74999999999977e-01,7.50000000000000e-01,7.41181674610094e-01,7.50000000000000e-01
3.51300000000000e-08,5.24999999999956e-01,7.50000000000000e-01,7.48010098800887e-01,7.50000000000000e-01
3.51700000000000e-08,2.24999999999963e-01,7.50000000000000e-01,7.51224236839853e-01,7.50000000000000e-01
3.52000000000000e-08,0.00000000000000e+00,7.50000000000000e-01,7.53470975179013e-01,7.50000000000000e-01
3.52080000000000e-08,0.00000000000000e+00,7.50000000000000e-01,7.54016546004200e-01,7.50000000000000e-01
3.52240000000000e-08,0.00000000000000e+00,7.50000000000000e-01,7.54187967551066e-01,7.50000000000000e-01
3.52560000000000e-08,0.00000000000000e+00,7.50000000000000e-01,7.48437311637226e-01,7.50000000000000e-01
3.53200000000000e-08,0.00000000000000e+00,7.50000000000000e-01,7.28255470419803e-01,7.50000000000000e-01
3.54480000000000e-08,0.00000000000000e+00,7.50000000000000e-01,7.29268143800612e-01,7.50000000000000e-01
3.57040000000000e-08,0.00000000000000e+00,7.50000000000000e-01,7.54522389579369e-01,7.50000000000000e-01
3.60929686619153e-08,0.00000000000000e+00,7.50000000000000e-01,7.45547709133880e-01,7.50000000000000e-01
3.66697047944194e-08,0.00000000000000e+00,7.50000000000000e-01,7.52995561467807e-01,7.50000000000000e-01
3.78231770594275e-08,0.00000000000000e+00,7.50000000000000e-01,7.46786806954775e-01,7.50000000000000e-01
4.01301215894439e-08,0.00000000000000e+00,7.50000000000000e-01,7.52736938018337e-01,7.50000000000000e-01
4.39301215894439e-08,0.00000000000000e+00,7.50000000000000e-01,7.47089488438782e-01,7.50000000000000e-01
4.50000000000000e-08,0.00000000000000e+00,7.50000000000000e-01,7.52411778886964e-01,7.50000000000000e-01
4.50100000000000e-08,7.49999999999858e-02,7.50000000000000e-01,7.51547479059959e-01,6.75000000000014e-01
4.50300000000000e-08,2.25000000000007e-01,7.50000000000000e-01,7.50316473753942e-01,5.24999999999993e-01
4.50700000000000e-08,5.25000000000000e-01,7.50000000000000e-01,7.52658725045377e-01,2.25000000000000e-01
4.51000000000000e-08,7.50000000000000e-01,7.50000000000000e-01,7.60334997524348e-01,0.00000000000000e+00
4.51080000000000e-08,7.50000000000000e-01,7.50000000000000e-01,7.62950583583992e-01,0.00000000000000e+00
4.51240000000000e-08,7.50000000000000e-01,7.50000000000000e-01,7.67636579481681e-01,0.00000000000000e+00
4.51560000000000e-08,7.50000000000000e-01,7.50000000000000e-01,7.76349556789028e-01,0.00000000000000e+00
4.52200000000000e-08,7.50000000000000e-01,7.50000000000000e-01,6.42644421204035e-01,0.00000000000000e+00
4.53480000000000e-08,7.50000000000000e-01,7.50000000000000e-01,1.09731525031527e-01,0.00000000000000e+00
4.55444259294706e-08,7.50000000000000e-01,7.50000000000000e-01,-4.40858944152773e-02,0.00000000000000e+00
4.58435786441914e-08,7.50000000000000e-01,7.50000000000000e-01,3.12710353670924e-02,0.00000000000000e+00
4.62912630218950e-08,7.50000000000000e-01,7.50000000000000e-01,-2.29576319133422e-02,0.00000000000000e+00
4.70221665891396e-08,7.50000000000000e-01,7.50000000000000e-01,2.03514979201991e-02,0.00000000000000e+00
4.84839737236288e-08,7.50000000000000e-01,7.50000000000000e-01,-1.82707894863539e-02,0.00000000000000e+00
5.01000000000000e-08,7.50000000000000e-01,7.49999999999957e-01,1.75520998723688e-02,0.00000000000000e+00
5.03687101664538e-08,7.50000000000000e-01,7.50000000000000e-01,1.60271949415286e-03,0.00000000000000e+00
5.09061304993614e-08,7.50000000000000e-01,7.50000000000000e-01,-1.27607318463752e-03,0.00000000000000e+00
5.19809711651765e-08,7.50000000000000e-01,7.50000000000000e-01,1.14732144528815e-03,0.00000000000000e+00
5.41306524968068e-08,7.50000000000000e-01,7.50000000000000e-01,-1.08186786071387e-03,0.00000000000000e+00
5.51000000000000e-08,7.50000000000000e-01,7.50000000000000e-01,9.59013734260473e-04,0.00000000000000e+00
5.51100000000000e-08,6.75000000000027e-01,7.50000000000000e-01,9.88658681313162e-04,7.49999999999734e-02
5.51300000000000e-08,5.25000000000005e-01,7.50000000000000e-01,8.27762267699941e-04,2.24999999999995e-01
5.51700000000000e-08,2.25000000000013e-01,7.50000000000000e-01,3.25799851884315e-04,5.24999999999987e-01
5.52000000000000e-08,0.00000000000000e+00,7.50000000000000e-01,2.03023093711910e-04,7.50000000000000e-01
5.52080000000000e-08,0.00000000000000e+00,7.50000000000000e-01,1.39799712022784e-04,7.50000000000000e-01
5.52240000000000e-08,0.00000000000000e+00,7.50000000000000e-01,3.25314285222894e-05,7.50000000000000e-01
5.52560000000000e-08,0.00000000000000e+00,7.50000000000000e-01,-3.00549852831178e-04,7.50000000000000e-01
5.53200000000000e-08,0.00000000000000e+00,7.50000000000000e-01,-1.03795197304690e-03,7.50000000000000e-01
5.54480000000000e-08,0.00000000000000e+00,7.50000000000000e-01,-2.06154024497390e-04,7.50000000000000e-01
5.56539527559085e-08,0.00000000000000e+00,7.50000000000000e-01,2.33207774712269e-04,7.50000000000000e-01
5.60369171815246e-08,0.00000000000000e+00,7.50000000000000e-01,-3.42214677355039e-04,7.50000000000000e-01
5.64931294898244e-08,0.00000000000000e+00,7.50000000000000e-01,3.81872480539818e-04,7.50000000000000e-01
5.73042373656002e-08,0.00000000000000e+00,7.50000000000000e-01,-3.64614474981984e-04,7.50000000000000e-01
5.85171546097215e-08,0.00000000000000e+00,7.50000000000000e-01,3.51561653303439e-04,7.50000000000000e-01
6.05662828632125e-08,0.00000000000000e+00,7.50000000000000e-01,-3.39735292741408e-04,7.50000000000000e-01
6.41002067855138e-08,0.00000000000000e+00,7.50000000000000e-01,3.35522226085326e-04,7.50000000000000e-01
6.50000000000000e-08,0.00000000000000e+00,7.50000000000000e-01,-3.09169768249786e-04,7.50000000000000e-01
6.50100000000000e-08,7.49999999999858e-02,7.50000000000000e-01,-3.14003608632013e-05,7.50000000000000e-01
6.50300000000000e-08,2.24999999999957e-01,7.50000000000000e-01,3.20089838137749e-04,7.50000000000000e-01
6.50700000000000e-08,5.24999999999900e-01,7.50000000000000e-01,1.41859130936395e-04,7.50000000000000e-01
6.51000000000000e-08,7.49999999999957e-01,7.50000000000000e-01,-2.38287131734335e-03,7.50000000000000e-01
6.51080000000000e-08,7.50000000000000e-01,7.50000000000000e-01,-3.52084142715058e-03,7.50000000000000e-01
6.51240000000000e-08,7.50000000000000e-01,7.50000000000000e-01,-5.47372039022785e-03,7.50000000000000e-01
6.51560000000000e-08,7.50000000000000e-01,7.50000000000000e-01,-7.11402546526756e-03,7.50000000000000e-01
6.52200000000000e-08,7.50000000000000e-01,7.50000000000000e-01,3.21819105979113e-02,7.50000000000000e-01
6.53480000000000e-08,7.50000000000000e-01,7.50000000000000e-01,4.37601606161458e-01,7.50000000000000e-01
6.56040000000000e-08,7.50000000000000e-01,7.50000000000000e-01,7.75778205541736e-01,7.50000000000000e-01
6.59145242890337e-08,7.50000000000000e-01,7.50000000000000e-01,7.29135631760435e-01,7.50000000000000e-01
6.65270028752593e-08,7.50000000000000e-01,7.50000000000000e-01,7.69523952437339e-01,7.50000000000000e-01
6.71994914656907e-08,7.50000000000000e-01,7.50000000000000e-01,7.31897898920532e-01,7.50000000000000e-01
6.84544884501791e-08,7.50000000000000e-01,7.50000000000000e-01,7.67213675941571e-01,7.50000000000000e-01
7.08644577601413e-08,7.50000000000000e-01,7.50000000000000e-01,7.33025528987215e-01,7.50000000000000e-01
7.46644577601413e-08,7.50000000000000e-01,7.50000000000000e-01,7.66594104924567e-01,7.50000000000000e-01
7.51000000000000e-08,7.50000000000000e-01,7.50000000000000e-01,7.35238052585818e-01,7.50000000000000e-01
7.51100000000000e-08,6.75000000000076e-01,7.50000000000000e-01,7.40965958574226e-01,7.50000000000000e-01
7.51300000000000e-08,5.25000000000105e-01,7.50000000000000e-01,7.47921864345603e-01,7.50000000000000e-01
7.51700000000000e-08,2.25000000000162e-01,7.50000000000000e-01,7.51211452464998e-01,7.50000000000000e-01
7.52000000000000e-08,1.05027098129540e-13,7.50000000000000e-01,7.53458141493189e-01,7.50000000000000e-01
7.52080000000000e-08,0.00000000000000e+00,7.50000000000000e-01,7.54004628993973e-01,7.50000000000000e-01
7.52240000000000e-08,0.00000000000000e+00,7.50000000000000e-01,7.54173016159888e-01,7.50000000000000e-01
7.52560000000000e-08,0.00000000000000e+00,7.50000000000000e-01,7.48429938860445e-01,7.50000000000000e-01
7.53200000000000e-08,0.00000000000000e+00,7.50000000000000e-01,7.28251189033264e-01,7.50000000000000e-01
7.54480000000000e-08,0.00000000000000e+00,7.50000000000000e-01,7.29264198904698e-01,7.50000000000000e-01
7.57040000000000e-08,0.00000000000000e+00,7.50000000000000e-01,7.54517867934215e-01,7.50000000000000e-01
7.60930283326626e-08,0.00000000000000e+00,7.50000000000000e-01,7.45551741767800e-01,7.50000000000000e-01
7.66696798191586e-08,0.00000000000000e+00,7.50000000000000e-01,7.52992262385927e-01,7.50000000000000e-01
7.78229827921506e-08,0.00000000000000e+00,7.50000000000000e-01,7.46789934954186e-01,7.50000000000000e-01
8.01295887381345e-08,0.00000000000000e+00,7.50000000000000e-01,7.52733907654680e-01,7.50000000000000e-01
8.39295887381345e-08,0.00000000000000e+00,7.50000000000000e-01,7.47092422595648e-01,7.50000000000000e-01
8.50000000000000e-08,0.00000000000000e+00,7.50000000000000e-01,7.52409770625150e-01,7.50000000000000e-01
8.50100000000000e-08,7.49999999999858e-02,7.50000000000000e-01,7.51546313206198e-01,6.75000000000014e-01
8.50300000000000e-08,2.24999999999957e-01,7.50000000000000e-01,7.50316286811205e-01,5.25000000000043e-01
8.50700000000000e-08,5.24999999999900e-01,7.50000000000000e-01,7.52659173242347e-01,2.25000000000100e-01
8.51000000000000e-08,7.49999999999957e-01,7.50000000000000e-01,7.60335233910756e-01,4.29656310529936e-14
8.51080000000000e-08,7.50000000000000e-01,7.50000000000000e-01,7.62950781557447e-01,0.00000000000000e+00
8.51240000000000e-08,7.50000000000000e-01,7.50000000000000e-01,7.67636801448693e-01,0.00000000000000e+00
8.51560000000000e-08,7.50000000000000e-01,7.50000000000000e-01,7.76352801649147e-01,0.00000000000000e+00
8.52200000000000e-08,7.50000000000000e-01,7.50000000000000e-01,6.42684730117872e-01,0.00000000000000e+00
8.53480000000000e-08,7.50000000000000e-01,7.50000000000000e-01,1.09762167300340e-01,0.00000000000000e+00
8.55450164166648e-08,7.50000000000000e-01,7.50000000000000e-01,-4.41991076035994e-02,0.00000000000000e+00
8.58440120315853e-08,7.50000000000000e-01,7.50000000000000e-01,3.13805846049502e-02,0.00000000000000e+00
8.62922235590995e-08,7.50000000000000e-01,7.50000000000000e-01,-2.30385240397086e-02,0.00000000000000e+00
8.70223961823303e-08,7.50000000000000e-01,7.50000000000000e-01,2.04217446926335e-02,0.00000000000000e+00
8.84827414287919e-08,7.50000000000000e-01,7.50000000000000e-01,-1.83297137327569e-02,0.00000000000000e+00
9.01000000000000e-08,7.50000000000000e-01,7.49999999999957e-01,1.76110610784594e-02,0.00000000000000e+00
9.03682120470156e-08,7.50000000000000e-01,7.50000000000000e-01,1.61125985484345e-03,0.00000000000000e+00
9.09046361410469e-08,7.50000000000000e-01,7.50000000000000e-01,-1.28229571954426e-03,0.00000000000000e+00
9.19774843291094e-08,7.50000000000000e-01,7.50000000000000e-01,1.15266826588039e-03,0.00000000000000e+00
9.41231807052344e-08,7.50000000000000e-01,7.50000000000000e-01,-1.08679203392309e-03,0.00000000000000e+00
9.51000000000000e-08,7.50000000000000e-01,7.50000000000000e-01,9.64270369117903e-04,0.00000000000000e+00
9.51100000000000e-08,6.75000000000076e-01,7.50000000000000e-01,9.92569473064628e-04,7.49999999999237e-02
9.51300000000000e-08,5.25000000000105e-01,7.50000000000000e-01,8.29733649508752e-04,2.24999999999895e-01
9.51700000000000e-08,2.25000000000162e-01,7.50000000000000e-01,3.26228521037225e-04,5.24999999999838e-01
9.52000000000000e-08,1.05027098129540e-13,7.50000000000000e-01,2.03169482239224e-04,7.49999999999895e-01
9.52080000000000e-08,0.00000000000000e+00,7.50000000000000e-01,1.39916651918481e-04,7.50000000000000e-01
9.52240000000000e-08,0.00000000000000e+00,7.50000000000000e-01,3.25946933140281e-05,7.50000000000000e-01
9.52560000000000e-08,0.00000000000000e+00,7.50000000000000e-01,-3.00563129427042e-04,7.50000000000000e-01
9.53200000000000e-08,0.00000000000000e+00,7.50000000000000e-01,-1.03810402927985e-03,7.50000000000000e-01
9.54480000000000e-08,0.00000000000000e+00,7.50000000000000e-01,-2.06169295625183e-04,7.50000000000000e-01
9.56540434630459e-08,0.00000000000000e+00,7.50000000000000e-01,2.33134692362205e-04,7.50000000000000e-01
9.60369470419451e-08,0.00000000000000e+00,7.50000000000000e-01,-3.42097595763398e-04,7.50000000000000e-01
9.64933331943772e-08,0.00000000000000e+00,7.50000000000000e-01,3.81765169148918e-04,7.50000000000000e-01
9.73043808836644e-08,0.00000000000000e+00,7.50000000000000e-01,-3.64544750033472e-04,7.50000000000000e-01
9.85179425785328e-08,0.00000000000000e+00,7.50000000000000e-01,3.51524393502279e-04,7.50000000000000e-01
1.00567856273924e-07,0.00000000000000e+00,7.50000000000000e-01,-3.39714262181413e-04,7.50000000000000e-01
1.04103736620864e-07,0.00000000000000e+00,7.50000000000000e-01,3.35510666957860e-04,7.50000000000000e-01
1.05000000000000e-07,0.00000000000000e+00,7.50000000000000e-01,-3.09081330139163e-04,7.50000000000000e-01
1.05010000000000e-07,7.49999999999858e-02,7.50000000000000e-01,-3.13060864331888e-05,7.50000000000000e-01
1.05030000000000e-07,2.24999999999957e-01,7.50000000000000e-01,3.20167411703987e-04,7.50000000000000e-01
1.05070000000000e-07,5.24999999999900e-01,7.50000000000000e-01,1.41883614435324e-04,7.50000000000000e-01
1.05100000000000e-07,7.49999999999957e-01,7.50000000000000e-01,-2.38286375884787e-03,7.50000000000000e-01
1.05108000000000e-07,7.50000000000000e-01,7.50000000000000e-01,-3.52083669683342e-03,7.50000000000000e-01
1.05124000000000e-07,7.50000000000000e-01,7.50000000000000e-01,-5.47371905928756e-03,7.50000000000000e-01
1.05156000000000e-07,7.50000000000000e-01,7.50000000000000e-01,-7.11403722216918e-03,7.50000000000000e-01
1.05220000000000e-07,7.50000000000000e-01,7.50000000000000e-01,3.21816194159703e-02,7.50000000000000e-01
1.05348000000000e-07,7.50000000000000e-01,7.50000000000000e-01,4.37600817113267e-01,7.50000000000000e-01
1.05604000000000e-07,7.50000000000000e-01,7.50000000000000e-01,7.75778142048992e-01,7.50000000000000e-01
1.05914524500883e-07,7.50000000000000e-01,7.50000000000000e-01,7.29135686312748e-01,7.50000000000000e-01
1.06527003430298e-07,7.50000000000000e-01,7.50000000000000e-01,7.69523911695157e-01,7.50000000000000e-01
1.07199491884616e-07,7.50000000000000e-01,7.50000000000000e-01,7.31897940037550e-01,7.50000000000000e-01
1.08454487842790e-07,7.50000000000000e-01,7.50000000000000e-01,7.67213640089195e-01,7.50000000000000e-01
1.10864454616712e-07,7.50000000000000e-01,7.50000000000000e-01,7.33025567169815e-01,7.50000000000000e-01
1.14664454616712e-07,7.50000000000000e-01,7.50000000000000e-01,7.66594070386687e-01,7.50000000000000e-01
1.15100000000000e-07,7.50000000000000e-01,7.50000000000000e-01,7.35238070427712e-01,7.50000000000000e-01
