Time,v(clk),v(data),v(out)
1.00000000000000e-08,7.50000000000000e-01,0.00000000000000e+00,1.60654447656037e-05
1.00100000000000e-08,7.50000000000000e-01,7.49999999999982e-02,1.74585900482027e-05
1.00300000000000e-08,7.50000000000000e-01,2.24999999999995e-01,1.48189111528335e-05
1.00700000000000e-08,7.50000000000000e-01,5.24999999999987e-01,4.83601181391902e-06
1.01000000000000e-08,7.50000000000000e-01,7.49999999999994e-01,-1.02503775439855e-07
1.01080000000000e-08,7.50000000000000e-01,7.50000000000000e-01,-1.15198063160848e-06
1.01240000000000e-08,7.50000000000000e-01,7.50000000000000e-01,-6.49372227795597e-08
1.01560000000000e-08,7.50000000000000e-01,7.50000000000000e-01,5.61899822508483e-06
1.02200000000000e-08,7.50000000000000e-01,7.50000000000000e-01,9.08687971579863e-06
1.03480000000000e-08,7.50000000000000e-01,7.50000000000000e-01,2.78553846114887e-06
1.06040000000000e-08,7.50000000000000e-01,7.50000000000000e-01,1.16872624433828e-06
1.10645657734125e-08,7.50000000000000e-01,7.50000000000000e-01,2.89915325375756e-06
1.19856973202374e-08,7.50000000000000e-01,7.50000000000000e-01,1.40936867113785e-06
1.38279604138873e-08,7.50000000000000e-01,7.50000000000000e-01,2.44301628136642e-06
1.51000000000000e-08,7.50000000000000e-01,7.50000000000000e-01,1.28654268548301e-06
1.51100000000000e-08,6.74999999999989e-01,7.50000000000000e-01,-1.11878350836730e-04
1.51300000000000e-08,5.24999999999993e-01,7.50000000000000e-01,-2.78449685288173e-04
1.51700000000000e-08,2.25000000000000e-01,7.50000000000000e-01,-1.88780664891433e-04
1.52000000000000e-08,0.00000000000000e+00,7.50000000000000e-01,3.30447806674419e-04
1.52080000000000e-08,0.00000000000000e+00,7.50000000000000e-01,5.61047132190087e-04
1.52240000000000e-08,0.00000000000000e+00,7.50000000000000e-01,8.22501653115051e-04
1.52560000000000e-08,0.00000000000000e+00,7.50000000000000e-01,7.35733607851841e-04
1.53200000000000e-08,0.00000000000000e+00,7.50000000000000e-01,-2.21738237186075e-05
1.54480000000000e-08,0.00000000000000e+00,7.50000000000000e-01,-4.78686682973177e-04
1.57040000000000e-08,0.00000000000000e+00,7.50000000000000e-01,5.22855822029655e-05
1.60456941555902e-08,0.00000000000000e+00,7.50000000000000e-01,-1.26407840723701e-04
1.65552729101836e-08,0.00000000000000e+00,7.50000000000000e-01,3.15638631206542e-04
1.75744304193705e-08,0.00000000000000e+00,7.50000000000000e-01,-3.35437056032598e-04
1.85260863618320e-08,0.00000000000000e+00,7.50000000000000e-01,3.32269561033433e-04
2.04293982467550e-08,0.00000000000000e+00,7.50000000000000e-01,-3.22308256837192e-04
2.34916940933564e-08,0.00000000000000e+00,7.50000000000000e-01,3.15418637778717e-04
2.50000000000000e-08,0.00000000000000e+00,7.50000000000000e-01,-2.97564804127606e-04
2.50100000000000e-08,7.49999999999858e-02,7.50000000000000e-01,-6.12271892787841e-05
2.50300000000000e-08,2.25000000000007e-01,7.50000000000000e-01,3.19947117810998e-04
2.50700000000000e-08,5.25000000000000e-01,7.50000000000000e-01,7.37754088823345e-04
2.51000000000000e-08,7.50000000000000e-01,7.50000000000000e-01,5.06718654249144e-05
2.51080000000000e-08,7.50000000000000e-01,7.50000000000000e-01,-5.55459765070668e-04
2.51240000000000e-08,7.50000000000000e-01,7.50000000000000e-01,-1.84926478548419e-03
2.51560000000000e-08,7.50000000000000e-01,7.50000000000000e-01,-4.29303693820410e-03
2.52200000000000e-08,7.50000000000000e-01,7.50000000000000e-01,-7.09462259804089e-03
2.53480000000000e-08,7.50000000000000e-01,7.50000000000000e-01,5.34927588517807e-02
2.56040000000000e-08,7.50000000000000e-01,7.50000000000000e-01,6.16241790055666e-01
2.61160000000000e-08,7.50000000000000e-01,7.50000000000000e-01,7.78366436306441e-01
2.66017320549149e-08,7.50000000000000e-01,7.50000000000000e-01,7.23570332734630e-01
2.75731961647448e-08,7.50000000000000e-01,7.50000000000000e-01,7.73870347404024e-01
2.89890993853241e-08,7.50000000000000e-01,7.50000000000000e-01,7.25934454890815e-01
3.01000000000000e-08,7.50000000000000e-01,7.50000000000000e-01,7.71857052611677e-01
3.01100000000000e-08,7.50000000000000e-01,6.75000000000039e-01,7.62329900833894e-01
3.01300000000000e-08,7.50000000000000e-01,5.25000000000018e-01,7.51567593752877e-01
3.01700000000000e-08,7.50000000000000e-01,2.25000000000025e-01,7.49637071252181e-01
3.02000000000000e-08,7.50000000000000e-01,1.80966353013901e-14,7.50001252448173e-01
3.02080000000000e-08,7.50000000000000e-01,0.00000000000000e+00,7.49989860800872e-01
3.02240000000000e-08,7.50000000000000e-01,0.00000000000000e+00,7.49964950265886e-01
3.02560000000000e-08,7.50000000000000e-01,0.00000000000000e+00,7.49939070548908e-01
3.03200000000000e-08,7.50000000000000e-01,0.00000000000000e+00,7.49942030584218e-01
3.04480000000000e-08,7.50000000000000e-01,0.00000000000000e+00,7.50001337140132e-01
3.06661866086731e-08,7.50000000000000e-01,0.00000000000000e+00,7.49977593096704e-01
3.10239993402185e-08,7.50000000000000e-01,0.00000000000000e+00,7.49976315925512e-01
3.15102046135402e-08,7.50000000000000e-01,0.00000000000000e+00,7.49986598831043e-01
3.24826151601834e-08,7.50000000000000e-01,0.00000000000000e+00,7.49977857187339e-01
3.44274362534699e-08,7.50000000000000e-01,0.00000000000000e+00,7.49991554270384e-01
3.51000000000000e-08,7.49999999999963e-01,0.00000000000000e+00,7.49979973172759e-01
3.51100000000000e-08,6.74999999999977e-01,0.00000000000000e+00,7.49886469358702e-01
3.51300000000000e-08,5.24999999999956e-01,0.00000000000000e+00,7.49774963582386e-01
3.51700000000000e-08,2.24999999999963e-01,0.00000000000000e+00,7.50983813137134e-01
3.52000000000000e-08,0.00000000000000e+00,0.00000000000000e+00,7.53682245954103e-01
3.52080000000000e-08,0.00000000000000e+00,0.00000000000000e+00,7.54228735157190e-01
3.52240000000000e-08,0.00000000000000e+00,0.00000000000000e+00,7.54251355712306e-01
3.52560000000000e-08,0.00000000000000e+00,0.00000000000000e+00,7.48159985316366e-01
3.53200000000000e-08,0.00000000000000e+00,0.00000000000000e+00,7.28741007797594e-01
3.54480000000000e-08,0.00000000000000e+00,0.00000000000000e+00,7.32345602146904e-01
3.56817089080223e-08,0.00000000000000e+00,0.00000000000000e+00,7.53932741075014e-01
3.59951366368469e-08,0.00000000000000e+00,0.00000000000000e+00,7.46033810967090e-01
3.66046322131611e-08,0.00000000000000e+00,0.00000000000000e+00,7.52613665272546e-01
3.72939875068295e-08,0.00000000000000e+00,0.00000000000000e+00,7.47336530492456e-01
3.86726980941662e-08,0.00000000000000e+00,0.00000000000000e+00,7.52181499692199e-01
3.91000000000000e-08,0.00000000000000e+00,0.00000000000000e+00,7.48106428701979e-01
3.93757421174673e-08,0.00000000000000e+00,0.00000000000000e+00,7.49749852965463e-01
3.99272263524020e-08,0.00000000000000e+00,0.00000000000000e+00,7.50051529001102e-01
4.10301948222714e-08,0.00000000000000e+00,0.00000000000000e+00,7.49812122298102e-01
4.32361317620101e-08,0.00000000000000e+00,0.00000000000000e+00,7.50063317191367e-01
4.50000000000000e-08,0.00000000000000e+00,0.00000000000000e+00,7.49848496186172e-01
4.50100000000000e-08,7.49999999999858e-02,0.00000000000000e+00,7.49983526506906e-01
4.50300000000000e-08,2.25000000000007e-01,0.00000000000000e+00,7.50124861623374e-01
4.50700000000000e-08,5.25000000000000e-01,0.00000000000000e+00,7.50069249860281e-01
4.51000000000000e-08,7.50000000000000e-01,0.00000000000000e+00,7.49842277448250e-01
4.51080000000000e-08,7.50000000000000e-01,0.00000000000000e+00,7.49740587557606e-01
4.51240000000000e-08,7.50000000000000e-01,0.00000000000000e+00,7.49627076235053e-01
4.51560000000000e-08,7.50000000000000e-01,0.00000000000000e+00,7.49599521471578e-01
4.52200000000000e-08,7.50000000000000e-01,0.00000000000000e+00,7.49773614084448e-01
4.53480000000000e-08,7.50000000000000e-01,0.00000000000000e+00,7.53133846764801e-01
4.56040000000000e-08,7.50000000000000e-01,0.00000000000000e+00,5.11614780334553e-01
4.61160000000000e-08,7.50000000000000e-01,0.00000000000000e+00,-2.91328836423979e-02
4.66143913536795e-08,7.50000000000000e-01,0.00000000000000e+00,1.78305711259222e-02
4.76111740610383e-08,7.50000000000000e-01,0.00000000000000e+00,-1.08741558775839e-02
4.86513284930073e-08,7.50000000000000e-01,0.00000000000000e+00,8.71013026782617e-03
5.00000000000000e-08,7.50000000000000e-01,0.00000000000000e+00,-5.38800603170595e-03
5.00100000000000e-08,7.50000000000000e-01,7.49999999999858e-02,-6.55808644911342e-03
5.00300000000000e-08,7.50000000000000e-01,2.24999999999957e-01,-6.67614289699209e-03
5.00700000000000e-08,7.50000000000000e-01,5.25000000000000e-01,-3.45720718932993e-03
5.01000000000000e-08,7.50000000000000e-01,7.50000000000000e-01,-2.14130477551495e-03
5.01080000000000e-08,7.50000000000000e-01,7.50000000000000e-01,-1.87679318943337e-03
5.01240000000000e-08,7.50000000000000e-01,7.50000000000000e-01,-1.42069591795853e-03
5.01560000000000e-08,7.50000000000000e-01,7.50000000000000e-01,-8.03857904941488e-04
5.02200000000000e-08,7.50000000000000e-01,7.50000000000000e-01,-2.45229289732862e-04
5.03480000000000e-08,7.50000000000000e-01,7.50000000000000e-01,7.54118334598403e-06
5.06040000000000e-08,7.50000000000000e-01,7.50000000000000e-01,-3.06656001362871e-06
5.10961812671980e-08,7.50000000000000e-01,7.50000000000000e-01,2.21833160031493e-06
5.20805438015940e-08,7.50000000000000e-01,7.50000000000000e-01,-1.50656211803275e-06
5.40492688703859e-08,7.50000000000000e-01,7.50000000000000e-01,1.54388258101924e-06
5.51000000000000e-08,7.50000000000000e-01,7.50000000000000e-01,-1.33862444906020e-06
5.51100000000000e-08,6.75000000000027e-01,7.50000000000000e-01,-1.19104883675017e-04
5.51300000000000e-08,5.25000000000005e-01,7.50000000000000e-01,-2.88727609068284e-04
5.51700000000000e-08,2.25000000000013e-01,7.50000000000000e-01,-1.92745059750560e-04
5.52000000000000e-08,0.00000000000000e+00,7.50000000000000e-01,3.18121996579740e-04
5.52080000000000e-08,0.00000000000000e+00,7.50000000000000e-01,5.43189645743888e-04
5.52240000000000e-08,0.00000000000000e+00,7.50000000000000e-01,7.72957859101489e-04
5.52560000000000e-08,0.00000000000000e+00,7.50000000000000e-01,4.29508336337175e-04
5.53200000000000e-08,0.00000000000000e+00,7.50000000000000e-01,-1.20628002272083e-03
5.54480000000000e-08,0.00000000000000e+00,7.50000000000000e-01,-1.15544707552162e-03
5.57040000000000e-08,0.00000000000000e+00,7.50000000000000e-01,3.70322347253239e-04
5.60449881002662e-08,0.00000000000000e+00,7.50000000000000e-01,-3.22549118432814e-04
5.65549655004046e-08,0.00000000000000e+00,7.50000000000000e-01,4.61481298032307e-04
5.75749203006816e-08,0.00000000000000e+00,7.50000000000000e-01,-4.64370878004158e-04
5.85259081897429e-08,0.00000000000000e+00,7.50000000000000e-01,4.44827862195272e-04
6.04278839678655e-08,0.00000000000000e+00,7.50000000000000e-01,-4.29728012279096e-04
6.34927473508216e-08,0.00000000000000e+00,7.50000000000000e-01,4.18159482139025e-04
6.50000000000000e-08,0.00000000000000e+00,7.50000000000000e-01,-3.93800566058885e-04
6.50100000000000e-08,7.49999999999858e-02,7.50000000000000e-01,-1.20194626988507e-04
6.50300000000000e-08,2.24999999999957e-01,7.50000000000000e-01,2.97289912729426e-04
6.50700000000000e-08,5.24999999999900e-01,7.50000000000000e-01,7.24671260859330e-04
6.51000000000000e-08,7.49999999999957e-01,7.50000000000000e-01,4.58271897336299e-05
6.51080000000000e-08,7.50000000000000e-01,7.50000000000000e-01,-5.60277437316958e-04
6.51240000000000e-08,7.50000000000000e-01,7.50000000000000e-01,-1.85340896778426e-03
6.51560000000000e-08,7.50000000000000e-01,7.50000000000000e-01,-4.29535704999402e-03
6.52200000000000e-08,7.50000000000000e-01,7.50000000000000e-01,-7.09540369670329e-03
6.53480000000000e-08,7.50000000000000e-01,7.50000000000000e-01,5.34946485374565e-02
6.56040000000000e-08,7.50000000000000e-01,7.50000000000000e-01,6.16243736442345e-01
6.61159999999999e-08,7.50000000000000e-01,7.50000000000000e-01,7.78366241914276e-01
6.66017332296280e-08,7.50000000000000e-01,7.50000000000000e-01,7.23570486368166e-01
6.75731996888842e-08,7.50000000000000e-01,7.50000000000000e-01,7.73870207013228e-01
6.89891078079511e-08,7.50000000000000e-01,7.50000000000000e-01,7.25934593347462e-01
7.01000000000000e-08,7.50000000000000e-01,7.50000000000000e-01,7.71856920374996e-01
7.01100000000000e-08,7.50000000000000e-01,6.75000000000014e-01,7.62329823969562e-01
7.01300000000000e-08,7.50000000000000e-01,5.25000000000043e-01,7.51567582407323e-01
7.01700000000000e-08,7.50000000000000e-01,2.25000000000100e-01,7.49637073740635e-01
7.02000000000000e-08,7.50000000000000e-01,4.29656310529936e-14,7.50001250226008e-01
7.02080000000000e-08,7.50000000000000e-01,0.00000000000000e+00,7.49989860631207e-01
7.02240000000000e-08,7.50000000000000e-01,0.00000000000000e+00,7.49964951769280e-01
7.02560000000000e-08,7.50000000000000e-01,0.00000000000000e+00,7.49939071970448e-01
7.03200000000000e-08,7.50000000000000e-01,0.00000000000000e+00,7.49942031302471e-01
7.04480000000000e-08,7.50000000000000e-01,0.00000000000000e+00,7.50001336152547e-01
7.06661866157117e-08,7.50000000000000e-01,0.00000000000000e+00,7.49977593244214e-01
7.10239995741804e-08,7.50000000000000e-01,0.00000000000000e+00,7.49976315654659e-01
7.15102054288241e-08,7.50000000000000e-01,0.00000000000000e+00,7.49986598903704e-01
7.24826171381114e-08,7.50000000000000e-01,0.00000000000000e+00,7.49977856953162e-01
7.44274405566859e-08,7.50000000000000e-01,0.00000000000000e+00,7.49991554343871e-01
7.51000000000000e-08,7.50000000000000e-01,0.00000000000000e+00,7.49979973035106e-01
7.51100000000000e-08,6.75000000000076e-01,0.00000000000000e+00,7.49886469102834e-01
7.51300000000000e-08,5.25000000000105e-01,0.00000000000000e+00,7.49774963284895e-01
7.51700000000000e-08,2.25000000000162e-01,0.00000000000000e+00,7.50983812984189e-01
7.52000000000000e-08,1.05027098129540e-13,0.00000000000000e+00,7.53682245365505e-01
7.52080000000000e-08,0.00000000000000e+00,0.00000000000000e+00,7.54228733958921e-01
7.52240000000000e-08,0.00000000000000e+00,0.00000000000000e+00,7.54251352085787e-01
7.52560000000000e-08,0.00000000000000e+00,0.00000000000000e+00,7.48159974963954e-01
7.53200000000000e-08,0.00000000000000e+00,0.00000000000000e+00,7.28740997078830e-01
7.54480000000000e-08,0.00000000000000e+00,0.00000000000000e+00,7.32345604759923e-01
7.56817089087969e-08,0.00000000000000e+00,0.00000000000000e+00,7.53932740069950e-01
7.59951366373461e-08,0.00000000000000e+00,0.00000000000000e+00,7.46033811667928e-01
7.66046322141428e-08,0.00000000000000e+00,0.00000000000000e+00,7.52613664663497e-01
7.72939875078688e-08,0.00000000000000e+00,0.00000000000000e+00,7.47336531022661e-01
7.81000000000000e-08,0.00000000000000e+00,0.00000000000000e+00,7.52039777745885e-01
7.82378710587452e-08,0.00000000000000e+00,0.00000000000000e+00,7.50213690098315e-01
7.85136131762356e-08,0.00000000000000e+00,0.00000000000000e+00,7.49655872477402e-01
7.90650974112165e-08,0.00000000000000e+00,0.00000000000000e+00,7.50090015742392e-01
8.01680658811781e-08,0.00000000000000e+00,0.00000000000000e+00,7.49750231703847e-01
8.23740028211014e-08,0.00000000000000e+00,0.00000000000000e+00,7.50106709541282e-01
8.50000000000000e-08,0.00000000000000e+00,0.00000000000000e+00,7.49799475269741e-01
8.50100000000000e-08,7.49999999999858e-02,0.00000000000000e+00,7.49942316612966e-01
8.50300000000000e-08,2.24999999999957e-01,0.00000000000000e+00,7.50097222260709e-01
8.50700000000000e-08,5.24999999999900e-01,0.00000000000000e+00,7.50063216839142e-01
8.51000000000000e-08,7.49999999999957e-01,0.00000000000000e+00,7.49859555861631e-01
8.51080000000000e-08,7.50000000000000e-01,0.00000000000000e+00,7.49755963908901e-01
8.51240000000000e-08,7.50000000000000e-01,0.00000000000000e+00,7.49636253717745e-01
8.51560000000000e-08,7.50000000000000e-01,0.00000000000000e+00,7.49600001063689e-01
8.52200000000000e-08,7.50000000000000e-01,0.00000000000000e+00,7.49769443053922e-01
8.53480000000000e-08,7.50000000000000e-01,0.00000000000000e+00,7.53136454656183e-01
8.56040000000000e-08,7.50000000000000e-01,0.00000000000000e+00,5.11583552155262e-01
8.61159999999999e-08,7.50000000000000e-01,0.00000000000000e+00,-2.91400992528980e-02
8.66143769622076e-08,7.50000000000000e-01,0.00000000000000e+00,1.78355785291161e-02
8.76111308866230e-08,7.50000000000000e-01,0.00000000000000e+00,-1.08777672479923e-02
8.86512843888248e-08,7.50000000000000e-01,0.00000000000000e+00,8.71318684566291e-03
9.00000000000000e-08,7.50000000000000e-01,0.00000000000000e+00,-5.39066800159928e-03
9.00100000000000e-08,7.50000000000000e-01,7.49999999999858e-02,-6.56009777350035e-03
9.00300000000000e-08,7.50000000000000e-01,2.24999999999957e-01,-6.67739480492434e-03
9.00700000000000e-08,7.50000000000000e-01,5.24999999999900e-01,-3.45792203262971e-03
9.01000000000000e-08,7.50000000000000e-01,7.49999999999957e-01,-2.14169958438790e-03
9.01080000000000e-08,7.50000000000000e-01,7.50000000000000e-01,-1.87714706093024e-03
9.01240000000000e-08,7.50000000000000e-01,7.50000000000000e-01,-1.42096993282803e-03
9.01560000000000e-08,7.50000000000000e-01,7.50000000000000e-01,-8.04010381652814e-04
9.02200000000000e-08,7.50000000000000e-01,7.50000000000000e-01,-2.45277709848765e-04
9.03480000000000e-08,7.50000000000000e-01,7.50000000000000e-01,7.53825266750635e-06
9.06040000000000e-08,7.50000000000000e-01,7.50000000000000e-01,-3.06496481348312e-06
9.10963013905541e-08,7.50000000000000e-01,7.50000000000000e-01,2.21790672817052e-06
9.20809041716622e-08,7.50000000000000e-01,7.50000000000000e-01,-1.50599083298224e-06
9.40501097338786e-08,7.50000000000000e-01,7.50000000000000e-01,1.54381899525151e-06
9.51000000000000e-08,7.50000000000000e-01,7.50000000000000e-01,-1.33834971862215e-06
9.51100000000000e-08,6.75000000000076e-01,7.50000000000000e-01,-1.19102057093770e-04
9.51300000000000e-08,5.25000000000105e-01,7.50000000000000e-01,-2.88722174204906e-04
9.51700000000000e-08,2.25000000000162e-01,7.50000000000000e-01,-1.92740621700035e-04
9.52000000000000e-08,1.05027098129540e-13,7.50000000000000e-01,3.18123352665872e-04
9.52080000000000e-08,0.00000000000000e+00,7.50000000000000e-01,5.43192702159051e-04
9.52240000000000e-08,0.00000000000000e+00,7.50000000000000e-01,7.72970030821635e-04
9.52560000000000e-08,0.00000000000000e+00,7.50000000000000e-01,4.29566269730841e-04
9.53200000000000e-08,0.00000000000000e+00,7.50000000000000e-01,-1.20595072044506e-03
9.54480000000000e-08,0.00000000000000e+00,7.50000000000000e-01,-1.15519808238150e-03
9.57040000000000e-08,0.00000000000000e+00,7.50000000000000e-01,3.70230140985153e-04
9.60449884338325e-08,0.00000000000000e+00,7.50000000000000e-01,-3.22500793342874e-04
9.65549656668338e-08,0.00000000000000e+00,7.50000000000000e-01,4.61448148178133e-04
9.75749201328365e-08,0.00000000000000e+00,7.50000000000000e-01,-4.64342420819908e-04
9.85259083336030e-08,0.00000000000000e+00,7.50000000000000e-01,4.44803603076502e-04
1.00427884735136e-07,0.00000000000000e+00,7.50000000000000e-01,-4.29705316164276e-04
1.03492747083476e-07,0.00000000000000e+00,7.50000000000000e-01,4.18137776186039e-04
1.05000000000000e-07,0.00000000000000e+00,7.50000000000000e-01,-3.93780455925455e-04
1.05010000000000e-07,7.49999999999858e-02,7.50000000000000e-01,-1.20184374489865e-04
1.05030000000000e-07,2.24999999999957e-01,7.50000000000000e-01,2.97292750879946e-04
1.05070000000000e-07,5.24999999999900e-01,7.50000000000000e-01,7.24674845772669e-04
1.05100000000000e-07,7.49999999999957e-01,7.50000000000000e-01,4.58287308018057e-05
1.05108000000000e-07,7.50000000000000e-01,7.50000000000000e-01,-5.60275827823808e-04
1.05124000000000e-07,7.50000000000000e-01,7.50000000000000e-01,-1.85340747869456e-03
1.05156000000000e-07,7.50000000000000e-01,7.50000000000000e-01,-4.29535610078605e-03
1.05220000000000e-07,7.50000000000000e-01,7.50000000000000e-01,-7.09540331754856e-03
1.05348000000000e-07,7.50000000000000e-01,7.50000000000000e-01,5.34946475724129e-02
1.05604000000000e-07,7.50000000000000e-01,7.50000000000000e-01,6.16243735421007e-01
1.06116000000000e-07,7.50000000000000e-01,7.50000000000000e-01,7.78366242018015e-01
1.06601733229035e-07,7.50000000000000e-01,7.50000000000000e-01,7.23570486283504e-01
