Time,v(clk),v(data),v(out),v(reset)
1.00000000000000e-08,3.30000000000000e-01,0.00000000000000e+00,1.31038459894015e-02,0.00000000000000e+00
1.00100000000000e-08,3.30000000000000e-01,3.29999999999992e-02,1.22641848426199e-02,0.00000000000000e+00
1.00300000000000e-08,3.30000000000000e-01,9.89999999999976e-02,1.07299792310972e-02,0.00000000000000e+00
1.00700000000000e-08,3.30000000000000e-01,2.30999999999994e-01,8.17923105283747e-03,0.00000000000000e+00
1.01000000000000e-08,3.30000000000000e-01,3.29999999999998e-01,6.75538900210891e-03,0.00000000000000e+00
1.01080000000000e-08,3.30000000000000e-01,3.30000000000000e-01,6.42310579587525e-03,0.00000000000000e+00
1.01240000000000e-08,3.30000000000000e-01,3.30000000000000e-01,5.73494975702786e-03,0.00000000000000e+00
1.01560000000000e-08,3.30000000000000e-01,3.30000000000000e-01,4.56627631893002e-03,0.00000000000000e+00
1.02200000000000e-08,3.30000000000000e-01,3.30000000000000e-01,2.99669813683864e-03,0.00000000000000e+00
1.03480000000000e-08,3.30000000000000e-01,3.30000000000000e-01,1.23945665371896e-03,0.00000000000000e+00
1.06040000000000e-08,3.30000000000000e-01,3.30000000000000e-01,1.84856680164863e-04,0.00000000000000e+00
1.11160000000000e-08,3.30000000000000e-01,3.30000000000000e-01,2.63930392626838e-05,0.00000000000000e+00
1.21400000000000e-08,3.30000000000000e-01,3.30000000000000e-01,-5.05597510593774e-06,0.00000000000000e+00
1.41880000000000e-08,3.30000000000000e-01,3.30000000000000e-01,1.48757824103719e-06,0.00000000000000e+00
1.51000000000000e-08,3.30000000000000e-01,3.30000000000000e-01,-4.44108142573507e-07,0.00000000000000e+00
1.51100000000000e-08,2.96999999999995e-01,3.30000000000000e-01,4.24030868375509e-05,3.30000000000047e-02
1.51300000000000e-08,2.30999999999997e-01,3.30000000000000e-01,1.10277303236438e-04,9.90000000000031e-02
1.51700000000000e-08,9.90000000000001e-02,3.30000000000000e-01,1.61009268895541e-04,2.31000000000000e-01
1.52000000000000e-08,0.00000000000000e+00,3.30000000000000e-01,1.48042089684601e-04,3.30000000000000e-01
1.52080000000000e-08,0.00000000000000e+00,3.30000000000000e-01,1.35679375460600e-04,3.30000000000000e-01
1.52240000000000e-08,0.00000000000000e+00,3.30000000000000e-01,1.12662856828056e-04,3.30000000000000e-01
1.52560000000000e-08,0.00000000000000e+00,3.30000000000000e-01,7.53039381650306e-05,3.30000000000000e-01
1.53200000000000e-08,0.00000000000000e+00,3.30000000000000e-01,2.68156698985146e-05,3.30000000000000e-01
1.54480000000000e-08,0.00000000000000e+00,3.30000000000000e-01,-1.44963124760582e-05,3.30000000000000e-01
1.57040000000000e-08,0.00000000000000e+00,3.30000000000000e-01,-1.56669802660239e-05,3.30000000000000e-01
1.62160000000000e-08,0.00000000000000e+00,3.30000000000000e-01,-5.41251742349272e-06,3.30000000000000e-01
1.72400000000000e-08,0.00000000000000e+00,3.30000000000000e-01,-9.66314724060949e-06,3.30000000000000e-01
1.92880000000000e-08,0.00000000000000e+00,3.30000000000000e-01,-5.71934017262986e-05,3.30000000000000e-01
2.30880000000000e-08,0.00000000000000e+00,3.30000000000000e-01,-1.77669693395921e-05,3.30000000000000e-01
2.50000000000000e-08,0.00000000000000e+00,3.30000000000000e-01,-1.71364918196627e-05,3.30000000000000e-01
2.50100000000000e-08,3.29999999999937e-02,3.30000000000000e-01,7.97805412367653e-06,3.30000000000000e-01
2.50300000000000e-08,9.90000000000031e-02,3.30000000000000e-01,5.05452406217473e-05,3.30000000000000e-01
2.50700000000000e-08,2.31000000000000e-01,3.30000000000000e-01,9.43503996357412e-05,3.30000000000000e-01
2.51000000000000e-08,3.30000000000000e-01,3.30000000000000e-01,9.32723315267975e-05,3.30000000000000e-01
2.51080000000000e-08,3.30000000000000e-01,3.30000000000000e-01,7.57958730264394e-05,3.30000000000000e-01
2.51240000000000e-08,3.30000000000000e-01,3.30000000000000e-01,4.02329150216256e-05,3.30000000000000e-01
2.51560000000000e-08,3.30000000000000e-01,3.30000000000000e-01,-3.05251950206142e-05,3.30000000000000e-01
2.52200000000000e-08,3.30000000000000e-01,3.30000000000000e-01,-1.62397205814034e-04,3.30000000000000e-01
2.53480000000000e-08,3.30000000000000e-01,3.30000000000000e-01,-3.80689104526424e-04,3.30000000000000e-01
2.56040000000000e-08,3.30000000000000e-01,3.30000000000000e-01,-6.61455258830943e-04,3.30000000000000e-01
2.61160000000000e-08,3.30000000000000e-01,3.30000000000000e-01,-1.26483622539126e-03,3.30000000000000e-01
2.71400000000000e-08,3.30000000000000e-01,3.30000000000000e-01,3.16930465338805e-03,3.30000000000000e-01
2.91880000000000e-08,3.30000000000000e-01,3.30000000000000e-01,1.12966083379048e-01,3.30000000000000e-01
3.29880000000000e-08,3.30000000000000e-01,3.30000000000000e-01,3.15938316283215e-01,3.30000000000000e-01
3.51000000000000e-08,3.29999999999984e-01,3.30000000000000e-01,3.29958698589493e-01,3.30000000000000e-01
3.51100000000000e-08,2.96999999999990e-01,3.30000000000000e-01,3.30000523591008e-01,3.30000000000000e-01
3.51300000000000e-08,2.30999999999981e-01,3.30000000000000e-01,3.30065176909759e-01,3.30000000000000e-01
3.51700000000000e-08,9.89999999999837e-02,3.30000000000000e-01,3.30127829497176e-01,3.30000000000000e-01
3.52000000000000e-08,0.00000000000000e+00,3.30000000000000e-01,3.30166153656908e-01,3.30000000000000e-01
3.52080000000000e-08,0.00000000000000e+00,3.30000000000000e-01,3.30198062321973e-01,3.30000000000000e-01
3.52240000000000e-08,0.00000000000000e+00,3.30000000000000e-01,3.30257909854865e-01,3.30000000000000e-01
3.52560000000000e-08,0.00000000000000e+00,3.30000000000000e-01,3.30342498199052e-01,3.30000000000000e-01
3.53200000000000e-08,0.00000000000000e+00,3.30000000000000e-01,3.30458939395396e-01,3.30000000000000e-01
3.54480000000000e-08,0.00000000000000e+00,3.30000000000000e-01,3.30580697303895e-01,3.30000000000000e-01
3.57040000000000e-08,0.00000000000000e+00,3.30000000000000e-01,3.30544136594574e-01,3.30000000000000e-01
3.62160000000000e-08,0.00000000000000e+00,3.30000000000000e-01,3.30104627790018e-01,3.30000000000000e-01
3.72400000000000e-08,0.00000000000000e+00,3.30000000000000e-01,3.28431547548134e-01,3.30000000000000e-01
3.92880000000000e-08,0.00000000000000e+00,3.30000000000000e-01,3.22368655803811e-01,3.30000000000000e-01
4.30880000000000e-08,0.00000000000000e+00,3.30000000000000e-01,3.16461469407967e-01,3.30000000000000e-01
4.50000000000000e-08,0.00000000000000e+00,3.30000000000000e-01,3.18958821954466e-01,3.30000000000000e-01
4.50100000000000e-08,3.29999999999937e-02,3.30000000000000e-01,3.18948999839794e-01,2.97000000000006e-01
4.50300000000000e-08,9.90000000000031e-02,3.30000000000000e-01,3.18926864045519e-01,2.30999999999997e-01
4.50700000000000e-08,2.31000000000000e-01,3.30000000000000e-01,3.18867315436959e-01,9.90000000000001e-02
4.51000000000000e-08,3.30000000000000e-01,3.30000000000000e-01,3.18897597064223e-01,0.00000000000000e+00
4.51080000000000e-08,3.30000000000000e-01,3.30000000000000e-01,3.18947504197989e-01,0.00000000000000e+00
4.51240000000000e-08,3.30000000000000e-01,3.30000000000000e-01,3.19039586581150e-01,0.00000000000000e+00
4.51560000000000e-08,3.30000000000000e-01,3.30000000000000e-01,3.19220947687366e-01,0.00000000000000e+00
4.52200000000000e-08,3.30000000000000e-01,3.30000000000000e-01,3.19549958756974e-01,0.00000000000000e+00
4.53480000000000e-08,3.30000000000000e-01,3.30000000000000e-01,3.20141258723323e-01,0.00000000000000e+00
4.56040000000000e-08,3.30000000000000e-01,3.30000000000000e-01,3.21206663665114e-01,0.00000000000000e+00
4.61160000000000e-08,3.30000000000000e-01,3.30000000000000e-01,3.22837767292319e-01,0.00000000000000e+00
4.71400000000000e-08,3.30000000000000e-01,3.30000000000000e-01,3.23848313085016e-01,0.00000000000000e+00
4.91880000000000e-08,3.30000000000000e-01,3.30000000000000e-01,3.13612446224158e-01,0.00000000000000e+00
5.01000000000000e-08,3.30000000000000e-01,3.29999999999981e-01,2.97298126826535e-01,0.00000000000000e+00
5.04800000000000e-08,3.30000000000000e-01,3.30000000000000e-01,2.81777334245918e-01,0.00000000000000e+00
5.12400000000000e-08,3.30000000000000e-01,3.30000000000000e-01,2.31206223483564e-01,0.00000000000000e+00
5.27600000000000e-08,3.30000000000000e-01,3.30000000000000e-01,4.09667535846170e-02,0.00000000000000e+00
5.51000000000000e-08,3.30000000000000e-01,3.30000000000000e-01,-1.14971897323166e-02,0.00000000000000e+00
5.51100000000000e-08,2.97000000000012e-01,3.30000000000000e-01,-1.04810890838045e-02,3.29999999999883e-02
5.51300000000000e-08,2.31000000000002e-01,3.30000000000000e-01,-8.65770592190074e-03,9.89999999999976e-02
5.51700000000000e-08,9.90000000000056e-02,3.30000000000000e-01,-5.95473101033463e-03,2.30999999999994e-01
5.52000000000000e-08,0.00000000000000e+00,3.30000000000000e-01,-4.52893890984215e-03,3.30000000000000e-01
5.52080000000000e-08,0.00000000000000e+00,3.30000000000000e-01,-4.23014166070746e-03,3.30000000000000e-01
5.52240000000000e-08,0.00000000000000e+00,3.30000000000000e-01,-3.67201438649788e-03,3.30000000000000e-01
5.52560000000000e-08,0.00000000000000e+00,3.30000000000000e-01,-2.73340772315654e-03,3.30000000000000e-01
5.53200000000000e-08,0.00000000000000e+00,3.30000000000000e-01,-1.53568904740491e-03,3.30000000000000e-01
5.54480000000000e-08,0.00000000000000e+00,3.30000000000000e-01,-4.33258681436835e-04,3.30000000000000e-01
5.57040000000000e-08,0.00000000000000e+00,3.30000000000000e-01,2.40616620493187e-05,3.30000000000000e-01
5.62160000000000e-08,0.00000000000000e+00,3.30000000000000e-01,-9.88643107461325e-06,3.30000000000000e-01
5.72400000000000e-08,0.00000000000000e+00,3.30000000000000e-01,-6.18861415967479e-06,3.30000000000000e-01
5.92880000000000e-08,0.00000000000000e+00,3.30000000000000e-01,-6.49600629723211e-05,3.30000000000000e-01
6.30880000000000e-08,0.00000000000000e+00,3.30000000000000e-01,1.35509721544210e-05,3.30000000000000e-01
6.50000000000000e-08,0.00000000000000e+00,3.30000000000000e-01,-7.02554586331540e-06,3.30000000000000e-01
6.50100000000000e-08,3.29999999999937e-02,3.30000000000000e-01,2.06075589341340e-05,3.30000000000000e-01
6.50300000000000e-08,9.89999999999812e-02,3.30000000000000e-01,6.99985518957877e-05,3.30000000000000e-01
6.50700000000000e-08,2.30999999999956e-01,3.30000000000000e-01,1.28618996051042e-04,3.30000000000000e-01
6.51000000000000e-08,3.29999999999981e-01,3.30000000000000e-01,1.38935680038893e-04,3.30000000000000e-01
6.51080000000000e-08,3.30000000000000e-01,3.30000000000000e-01,1.25509422013396e-04,3.30000000000000e-01
6.51240000000000e-08,3.30000000000000e-01,3.30000000000000e-01,1.00040698670024e-04,3.30000000000000e-01
6.51560000000000e-08,3.30000000000000e-01,3.30000000000000e-01,5.50378667732200e-05,3.30000000000000e-01
6.52200000000000e-08,3.30000000000000e-01,3.30000000000000e-01,-2.98298862946265e-05,3.30000000000000e-01
6.53480000000000e-08,3.30000000000000e-01,3.30000000000000e-01,-2.78589152310433e-04,3.30000000000000e-01
6.56040000000000e-08,3.30000000000000e-01,3.30000000000000e-01,-7.29275971020668e-04,3.30000000000000e-01
6.61159999999999e-08,3.30000000000000e-01,3.30000000000000e-01,-1.40691448290032e-03,3.30000000000000e-01
6.71399999999999e-08,3.30000000000000e-01,3.30000000000000e-01,4.51668417531583e-03,3.30000000000000e-01
6.91879999999998e-08,3.30000000000000e-01,3.30000000000000e-01,1.18446954673773e-01,3.30000000000000e-01
7.29879999999998e-08,3.30000000000000e-01,3.30000000000000e-01,3.17952573114384e-01,3.30000000000000e-01
7.51000000000000e-08,3.30000000000000e-01,3.30000000000000e-01,3.29788950538643e-01,3.30000000000000e-01
7.51100000000000e-08,2.97000000000034e-01,3.30000000000000e-01,3.29835759455590e-01,3.30000000000000e-01
7.51300000000000e-08,2.31000000000046e-01,3.30000000000000e-01,3.29908238104212e-01,3.30000000000000e-01
7.51700000000000e-08,9.90000000000711e-02,3.30000000000000e-01,3.29991623338846e-01,3.30000000000000e-01
7.52000000000000e-08,4.61852778244065e-14,3.30000000000000e-01,3.30039259822435e-01,3.30000000000000e-01
7.52080000000000e-08,0.00000000000000e+00,3.30000000000000e-01,3.30073718282408e-01,3.30000000000000e-01
7.52240000000000e-08,0.00000000000000e+00,3.30000000000000e-01,3.30138565173535e-01,3.30000000000000e-01
7.52560000000000e-08,0.00000000000000e+00,3.30000000000000e-01,3.30232843135343e-01,3.30000000000000e-01
7.53200000000000e-08,0.00000000000000e+00,3.30000000000000e-01,3.30360765428369e-01,3.30000000000000e-01
7.54480000000000e-08,0.00000000000000e+00,3.30000000000000e-01,3.30512500940697e-01,3.30000000000000e-01
7.57040000000000e-08,0.00000000000000e+00,3.30000000000000e-01,3.30508182409401e-01,3.30000000000000e-01
7.62159999999999e-08,0.00000000000000e+00,3.30000000000000e-01,3.30111700940302e-01,3.30000000000000e-01
7.72399999999999e-08,0.00000000000000e+00,3.30000000000000e-01,3.28482127867972e-01,3.30000000000000e-01
7.92879999999998e-08,0.00000000000000e+00,3.30000000000000e-01,3.22445907804067e-01,3.30000000000000e-01
8.30879999999998e-08,0.00000000000000e+00,3.30000000000000e-01,3.16487884137426e-01,3.30000000000000e-01
8.50000000000000e-08,0.00000000000000e+00,3.30000000000000e-01,3.18947442068936e-01,3.30000000000000e-01
8.50100000000000e-08,3.29999999999937e-02,3.30000000000000e-01,3.18936918834012e-01,2.97000000000006e-01
8.50300000000000e-08,9.89999999999812e-02,3.30000000000000e-01,3.18913838982685e-01,2.31000000000019e-01
8.50700000000000e-08,2.30999999999956e-01,3.30000000000000e-01,3.18852579264780e-01,9.90000000000438e-02
8.51000000000000e-08,3.29999999999981e-01,3.30000000000000e-01,3.18881860333874e-01,1.88737914186277e-14
8.51080000000000e-08,3.30000000000000e-01,3.30000000000000e-01,3.18931525028506e-01,0.00000000000000e+00
8.51240000000000e-08,3.30000000000000e-01,3.30000000000000e-01,3.19023133168812e-01,0.00000000000000e+00
8.51560000000000e-08,3.30000000000000e-01,3.30000000000000e-01,3.19203571330747e-01,0.00000000000000e+00
8.52200000000000e-08,3.30000000000000e-01,3.30000000000000e-01,3.19535519613149e-01,0.00000000000000e+00
8.53480000000000e-08,3.30000000000000e-01,3.30000000000000e-01,3.20118096608694e-01,0.00000000000000e+00
8.56040000000000e-08,3.30000000000000e-01,3.30000000000000e-01,3.21187857200557e-01,0.00000000000000e+00
8.61159999999999e-08,3.30000000000000e-01,3.30000000000000e-01,3.22805413705364e-01,0.00000000000000e+00
8.71399999999999e-08,3.30000000000000e-01,3.30000000000000e-01,3.23798696797577e-01,0.00000000000000e+00
8.91879999999998e-08,3.30000000000000e-01,3.30000000000000e-01,3.13521094475108e-01,0.00000000000000e+00
9.01000000000000e-08,3.30000000000000e-01,3.29999999999981e-01,2.97180845488468e-01,0.00000000000000e+00
9.04800000000000e-08,3.30000000000000e-01,3.30000000000000e-01,2.81643096802725e-01,0.00000000000000e+00
9.12400000000000e-08,3.30000000000000e-01,3.30000000000000e-01,2.31020169764567e-01,0.00000000000000e+00
9.27600000000000e-08,3.30000000000000e-01,3.30000000000000e-01,4.08668353969974e-02,0.00000000000000e+00
9.51000000000000e-08,3.30000000000000e-01,3.30000000000000e-01,-1.14917633592066e-02,0.00000000000000e+00
9.51100000000000e-08,2.97000000000034e-01,3.30000000000000e-01,-1.04764572728532e-02,3.29999999999664e-02
9.51300000000000e-08,2.31000000000046e-01,3.30000000000000e-01,-8.65428430358004e-03,9.89999999999539e-02
9.51700000000000e-08,9.90000000000711e-02,3.30000000000000e-01,-5.95256788039769e-03,2.30999999999929e-01
9.52000000000000e-08,4.61852778244065e-14,3.30000000000000e-01,-4.52731715671890e-03,3.29999999999954e-01
9.52080000000000e-08,0.00000000000000e+00,3.30000000000000e-01,-4.22862948420086e-03,3.30000000000000e-01
9.52240000000000e-08,0.00000000000000e+00,3.30000000000000e-01,-3.67070253169743e-03,3.30000000000000e-01
9.52560000000000e-08,0.00000000000000e+00,3.30000000000000e-01,-2.73241921989972e-03,3.30000000000000e-01
9.53200000000000e-08,0.00000000000000e+00,3.30000000000000e-01,-1.53507658801292e-03,3.30000000000000e-01
9.54480000000000e-08,0.00000000000000e+00,3.30000000000000e-01,-4.32969853292981e-04,3.30000000000000e-01
9.57040000000000e-08,0.00000000000000e+00,3.30000000000000e-01,2.42060903328720e-05,3.30000000000000e-01
9.62159999999999e-08,0.00000000000000e+00,3.30000000000000e-01,-9.91320556264011e-06,3.30000000000000e-01
9.72399999999999e-08,0.00000000000000e+00,3.30000000000000e-01,-6.32885751862761e-06,3.30000000000000e-01
9.92879999999998e-08,0.00000000000000e+00,3.30000000000000e-01,-6.54313088835783e-05,3.30000000000000e-01
1.03088000000000e-07,0.00000000000000e+00,3.30000000000000e-01,1.43739535452291e-05,3.30000000000000e-01
1.05000000000000e-07,0.00000000000000e+00,3.30000000000000e-01,-7.60233144084894e-06,3.30000000000000e-01
1.05010000000000e-07,3.29999999999937e-02,3.30000000000000e-01,2.00319805946786e-05,3.30000000000000e-01
1.05030000000000e-07,9.89999999999812e-02,3.30000000000000e-01,6.94303883629621e-05,3.30000000000000e-01
1.05070000000000e-07,2.30999999999956e-01,3.30000000000000e-01,1.28123395188810e-04,3.30000000000000e-01
1.05100000000000e-07,3.29999999999981e-01,3.30000000000000e-01,1.38502528606633e-04,3.30000000000000e-01
1.05108000000000e-07,3.30000000000000e-01,3.30000000000000e-01,1.25089861386551e-04,3.30000000000000e-01
1.05124000000000e-07,3.30000000000000e-01,3.30000000000000e-01,9.96403474787487e-05,3.30000000000000e-01
1.05156000000000e-07,3.30000000000000e-01,3.30000000000000e-01,5.46202646120458e-05,3.30000000000000e-01
1.05220000000000e-07,3.30000000000000e-01,3.30000000000000e-01,-3.06683262197779e-05,3.30000000000000e-01
1.05348000000000e-07,3.30000000000000e-01,3.30000000000000e-01,-2.81278369793176e-04,3.30000000000000e-01
1.05604000000000e-07,3.30000000000000e-01,3.30000000000000e-01,-7.34833680117442e-04,3.30000000000000e-01
1.06116000000000e-07,3.30000000000000e-01,3.30000000000000e-01,-1.41844191698257e-03,3.30000000000000e-01
1.07140000000000e-07,3.30000000000000e-01,3.30000000000000e-01,4.67317921620760e-03,3.30000000000000e-01
1.09188000000000e-07,3.30000000000000e-01,3.30000000000000e-01,1.18935198230061e-01,3.30000000000000e-01
1.12988000000000e-07,3.30000000000000e-01,3.30000000000000e-01,3.18082942227736e-01,3.30000000000000e-01
1.15100000000000e-07,3.30000000000000e-01,3.30000000000000e-01,3.29781149804606e-01,3.30000000000000e-01
1.15110000000000e-07,2.97000000000034e-01,3.30000000000000e-01,3.29828074194637e-01,3.30000000000000e-01
1.15130000000000e-07,2.31000000000046e-01,3.30000000000000e-01,3.29900847169517e-01,3.30000000000000e-01
1.15170000000000e-07,9.90000000000711e-02,3.30000000000000e-01,3.29984813671683e-01,3.30000000000000e-01
1.15200000000000e-07,4.61852778244065e-14,3.30000000000000e-01,3.30032459984770e-01,3.30000000000000e-01
1.15208000000000e-07,0.00000000000000e+00,3.30000000000000e-01,3.30067042934067e-01,3.30000000000000e-01
1.15224000000000e-07,0.00000000000000e+00,3.30000000000000e-01,3.30132132122357e-01,3.30000000000000e-01
1.15256000000000e-07,0.00000000000000e+00,3.30000000000000e-01,3.30226899318988e-01,3.30000000000000e-01
1.15320000000000e-07,0.00000000000000e+00,3.30000000000000e-01,3.30355713121367e-01,3.30000000000000e-01
1.15448000000000e-07,0.00000000000000e+00,3.30000000000000e-01,3.30508859214616e-01,3.30000000000000e-01
1.15704000000000e-07,0.00000000000000e+00,3.30000000000000e-01,3.30506503056184e-01,3.30000000000000e-01
1.16216000000000e-07,0.00000000000000e+00,3.30000000000000e-01,3.30112296367084e-01,3.30000000000000e-01
1.17240000000000e-07,0.00000000000000e+00,3.30000000000000e-01,3.28485680440942e-01,3.30000000000000e-01
1.19288000000000e-07,0.00000000000000e+00,3.30000000000000e-01,3.22451998680892e-01,3.30000000000000e-01
1.23088000000000e-07,0.00000000000000e+00,3.30000000000000e-01,3.16488708744737e-01,3.30000000000000e-01
1.25000000000000e-07,0.00000000000000e+00,3.30000000000000e-01,3.18946146365775e-01,3.30000000000000e-01
1.25010000000000e-07,3.29999999999501e-02,3.30000000000000e-01,3.18935628115413e-01,2.97000000000050e-01
1.25030000000000e-07,9.89999999999376e-02,3.30000000000000e-01,3.18912552600849e-01,2.31000000000062e-01
1.25070000000000e-07,2.30999999999913e-01,3.30000000000000e-01,3.18851302502672e-01,9.90000000000875e-02
