Time,v(clk),v(data),v(out)
1.00000000000000e-08,6.75000000000000e-01,0.00000000000000e+00,3.21809487422355e-05
1.00100000000000e-08,6.75000000000000e-01,6.74999999999984e-02,2.62109614848072e-05
1.00300000000000e-08,6.75000000000000e-01,2.02499999999995e-01,1.88224412945026e-05
1.00700000000000e-08,6.75000000000000e-01,4.72499999999989e-01,1.30891139018402e-05
1.01000000000000e-08,6.75000000000000e-01,6.74999999999995e-01,1.13668912392478e-05
1.01080000000000e-08,6.75000000000000e-01,6.75000000000000e-01,1.06918449938598e-05
1.01240000000000e-08,6.75000000000000e-01,6.75000000000000e-01,1.16863746189577e-05
1.01560000000000e-08,6.75000000000000e-01,6.75000000000000e-01,1.78060387385631e-05
1.02200000000000e-08,6.75000000000000e-01,6.75000000000000e-01,1.78990083431405e-05
1.03480000000000e-08,6.75000000000000e-01,6.75000000000000e-01,1.30978131152454e-05
1.06040000000000e-08,6.75000000000000e-01,6.75000000000000e-01,1.45759894997939e-05
1.11160000000000e-08,6.75000000000000e-01,6.75000000000000e-01,1.41194894381497e-05
1.21400000000000e-08,6.75000000000000e-01,6.75000000000000e-01,1.37588043143582e-05
1.41880000000000e-08,6.75000000000000e-01,6.75000000000000e-01,1.33917076226317e-05
1.51000000000000e-08,6.75000000000000e-01,6.75000000000000e-01,1.30712385270470e-05
1.51100000000000e-08,6.07499999999990e-01,6.75000000000000e-01,-7.40563823163898e-05
1.51300000000000e-08,4.72499999999994e-01,6.75000000000000e-01,-1.84784381230221e-04
1.51700000000000e-08,2.02500000000000e-01,6.75000000000000e-01,-1.71850689903788e-05
1.52000000000000e-08,0.00000000000000e+00,6.75000000000000e-01,4.11978392461348e-04
1.52080000000000e-08,0.00000000000000e+00,6.75000000000000e-01,5.57066345302407e-04
1.52240000000000e-08,0.00000000000000e+00,6.75000000000000e-01,6.37728433034029e-04
1.52560000000000e-08,0.00000000000000e+00,6.75000000000000e-01,1.85643718010317e-04
1.53200000000000e-08,0.00000000000000e+00,6.75000000000000e-01,-5.41389780031626e-04
1.54480000000000e-08,0.00000000000000e+00,6.75000000000000e-01,-3.22841393054357e-05
1.56987405096279e-08,0.00000000000000e+00,6.75000000000000e-01,-1.50344373644525e-04
1.60106456683917e-08,0.00000000000000e+00,6.75000000000000e-01,1.62799781902295e-04
1.65995815202252e-08,0.00000000000000e+00,6.75000000000000e-01,1.07102827435982e-05
1.73066615143010e-08,0.00000000000000e+00,6.75000000000000e-01,-5.93910329475394e-05
1.87126863323041e-08,0.00000000000000e+00,6.75000000000000e-01,1.07798692503119e-04
2.15247359683104e-08,0.00000000000000e+00,6.75000000000000e-01,-9.43014807068070e-05
2.50000000000000e-08,0.00000000000000e+00,6.75000000000000e-01,1.25108054785144e-04
2.50100000000000e-08,6.74999999999872e-02,6.75000000000000e-01,2.27307124063852e-04
2.50300000000000e-08,2.02500000000006e-01,6.75000000000000e-01,3.65178150582721e-04
2.50700000000000e-08,4.72500000000000e-01,6.75000000000000e-01,4.67770745986883e-04
2.51000000000000e-08,6.75000000000000e-01,6.75000000000000e-01,-6.20625633332025e-04
2.51080000000000e-08,6.75000000000000e-01,6.75000000000000e-01,-1.35354664820163e-03
2.51240000000000e-08,6.75000000000000e-01,6.75000000000000e-01,-2.82613866762307e-03
2.51560000000000e-08,6.75000000000000e-01,6.75000000000000e-01,-5.07247111079578e-03
2.52200000000000e-08,6.75000000000000e-01,6.75000000000000e-01,-1.64106397816577e-03
2.53480000000000e-08,6.75000000000000e-01,6.75000000000000e-01,2.35569084550077e-01
2.56040000000000e-08,6.75000000000000e-01,6.75000000000000e-01,6.70892393631982e-01
2.60064048795409e-08,6.75000000000000e-01,6.75000000000000e-01,6.74747128028278e-01
2.65978584120452e-08,6.75000000000000e-01,6.75000000000000e-01,6.75432621204022e-01
2.73754425656037e-08,6.75000000000000e-01,6.75000000000000e-01,6.74411835935900e-01
2.85814959018334e-08,6.75000000000000e-01,6.75000000000000e-01,6.75578484609403e-01
3.01000000000000e-08,6.75000000000000e-01,6.75000000000000e-01,6.74365066683035e-01
3.01100000000000e-08,6.75000000000000e-01,6.07500000000035e-01,6.74822149073254e-01
3.01300000000000e-08,6.75000000000000e-01,4.72500000000016e-01,6.75161507063537e-01
3.01700000000000e-08,6.75000000000000e-01,2.02500000000023e-01,6.74981523458468e-01
3.02000000000000e-08,6.75000000000000e-01,1.63202784619898e-14,6.75034493447007e-01
3.02080000000000e-08,6.75000000000000e-01,0.00000000000000e+00,6.75023973787235e-01
3.02240000000000e-08,6.75000000000000e-01,0.00000000000000e+00,6.75009776940445e-01
3.02560000000000e-08,6.75000000000000e-01,0.00000000000000e+00,6.74978239676858e-01
3.03200000000000e-08,6.75000000000000e-01,0.00000000000000e+00,6.74972913455721e-01
3.04480000000000e-08,6.75000000000000e-01,0.00000000000000e+00,6.74998367601761e-01
3.06771651776054e-08,6.75000000000000e-01,0.00000000000000e+00,6.74964299335643e-01
3.09933191935349e-08,6.75000000000000e-01,0.00000000000000e+00,6.74985715597263e-01
3.16018663880642e-08,6.75000000000000e-01,0.00000000000000e+00,6.74972927061880e-01
3.28189607771228e-08,6.75000000000000e-01,0.00000000000000e+00,6.74987700655859e-01
3.51000000000000e-08,6.74999999999967e-01,0.00000000000000e+00,6.74978259384728e-01
3.51100000000000e-08,6.07499999999979e-01,0.00000000000000e+00,6.74905946284159e-01
3.51300000000000e-08,4.72499999999960e-01,0.00000000000000e+00,6.74854600072727e-01
3.51700000000000e-08,2.02499999999967e-01,0.00000000000000e+00,6.76066729980456e-01
3.52000000000000e-08,0.00000000000000e+00,0.00000000000000e+00,6.78574329612837e-01
3.52080000000000e-08,0.00000000000000e+00,0.00000000000000e+00,6.78919466743170e-01
3.52240000000000e-08,0.00000000000000e+00,0.00000000000000e+00,6.78136559187839e-01
3.52560000000000e-08,0.00000000000000e+00,0.00000000000000e+00,6.68826486169970e-01
3.53200000000000e-08,0.00000000000000e+00,0.00000000000000e+00,6.55344847402533e-01
3.54480000000000e-08,0.00000000000000e+00,0.00000000000000e+00,6.70501526557478e-01
3.57009187970549e-08,0.00000000000000e+00,0.00000000000000e+00,6.76371491248274e-01
3.60039442840549e-08,0.00000000000000e+00,0.00000000000000e+00,6.73031989410214e-01
3.65569658535999e-08,0.00000000000000e+00,0.00000000000000e+00,6.76081182545443e-01
3.74133908585647e-08,0.00000000000000e+00,0.00000000000000e+00,6.73620717193350e-01
3.91000000000000e-08,0.00000000000000e+00,0.00000000000000e+00,6.76032375832010e-01
3.92712850009930e-08,0.00000000000000e+00,0.00000000000000e+00,6.75003859686447e-01
3.96138550029789e-08,0.00000000000000e+00,0.00000000000000e+00,6.74797998675040e-01
4.02989950069507e-08,0.00000000000000e+00,0.00000000000000e+00,6.74978596020810e-01
4.16692750148944e-08,0.00000000000000e+00,0.00000000000000e+00,6.74826280927470e-01
4.44098350307817e-08,0.00000000000000e+00,0.00000000000000e+00,6.74985620867584e-01
4.50000000000000e-08,0.00000000000000e+00,0.00000000000000e+00,6.74845525453832e-01
4.50100000000000e-08,6.74999999999872e-02,0.00000000000000e+00,6.74939413642451e-01
4.50300000000000e-08,2.02500000000006e-01,0.00000000000000e+00,6.75011947545352e-01
4.50700000000000e-08,4.72500000000000e-01,0.00000000000000e+00,6.74927402335909e-01
4.51000000000000e-08,6.75000000000000e-01,0.00000000000000e+00,6.74775049463290e-01
4.51080000000000e-08,6.75000000000000e-01,0.00000000000000e+00,6.74713644435655e-01
4.51240000000000e-08,6.75000000000000e-01,0.00000000000000e+00,6.74639413746709e-01
4.51560000000000e-08,6.75000000000000e-01,0.00000000000000e+00,6.74669970243411e-01
4.52200000000000e-08,6.75000000000000e-01,0.00000000000000e+00,6.75290064614244e-01
4.53480000000000e-08,6.75000000000000e-01,0.00000000000000e+00,6.85531177733193e-01
4.56040000000000e-08,6.75000000000000e-01,0.00000000000000e+00,2.54693468212347e-01
4.59460394842413e-08,6.75000000000000e-01,0.00000000000000e+00,-7.19214474302566e-02
4.63994798274996e-08,6.75000000000000e-01,0.00000000000000e+00,5.34552843902341e-02
4.71016091522065e-08,6.75000000000000e-01,0.00000000000000e+00,-3.62173826982223e-02
4.79334564287882e-08,6.75000000000000e-01,0.00000000000000e+00,3.10346263483919e-02
4.95971509819517e-08,6.75000000000000e-01,0.00000000000000e+00,-2.58188276636288e-02
5.00000000000000e-08,6.75000000000000e-01,0.00000000000000e+00,1.67730888155890e-02
5.00100000000000e-08,6.75000000000000e-01,6.74999999999872e-02,1.41846997150343e-02
5.00300000000000e-08,6.75000000000000e-01,2.02499999999962e-01,9.45634799694182e-03
5.00700000000000e-08,6.75000000000000e-01,4.72500000000000e-01,3.67905742529277e-03
5.01000000000000e-08,6.75000000000000e-01,6.75000000000000e-01,1.89695750217610e-03
5.01080000000000e-08,6.75000000000000e-01,6.75000000000000e-01,1.60791854050214e-03
5.01240000000000e-08,6.75000000000000e-01,6.75000000000000e-01,1.04732018979534e-03
5.01560000000000e-08,6.75000000000000e-01,6.75000000000000e-01,5.18991745292463e-04
5.02200000000000e-08,6.75000000000000e-01,6.75000000000000e-01,8.90181101369653e-05
5.03480000000000e-08,6.75000000000000e-01,6.75000000000000e-01,-3.49094776561087e-06
5.06040000000000e-08,6.75000000000000e-01,6.75000000000000e-01,8.70490099522808e-06
5.11160000000001e-08,6.75000000000000e-01,6.75000000000000e-01,9.79394236263337e-06
5.21400000000002e-08,6.75000000000000e-01,6.75000000000000e-01,8.25915290275214e-06
5.41880000000003e-08,6.75000000000000e-01,6.75000000000000e-01,1.03283091715321e-05
5.51000000000000e-08,6.75000000000000e-01,6.75000000000000e-01,8.19346954499412e-06
5.51100000000000e-08,6.07500000000024e-01,6.75000000000000e-01,-7.71423685803074e-05
5.51300000000000e-08,4.72500000000005e-01,6.75000000000000e-01,-1.88189390099000e-04
5.51700000000000e-08,2.02500000000011e-01,6.75000000000000e-01,-1.45334673470610e-05
5.52000000000000e-08,0.00000000000000e+00,6.75000000000000e-01,3.89009416507560e-04
5.52080000000000e-08,0.00000000000000e+00,6.75000000000000e-01,5.14284943389662e-04
5.52240000000000e-08,0.00000000000000e+00,6.75000000000000e-01,5.03898941332737e-04
5.52560000000000e-08,0.00000000000000e+00,6.75000000000000e-01,-4.91505052952632e-04
5.53200000000000e-08,0.00000000000000e+00,6.75000000000000e-01,-1.63532088918800e-03
5.54480000000000e-08,0.00000000000000e+00,6.75000000000000e-01,-1.62155189589584e-04
5.56970991731508e-08,0.00000000000000e+00,6.75000000000000e-01,-6.09308066013697e-06
5.60107592231652e-08,0.00000000000000e+00,6.75000000000000e-01,3.90963419271348e-05
5.65946008197004e-08,0.00000000000000e+00,6.75000000000000e-01,1.16175949558910e-04
5.73021468214509e-08,0.00000000000000e+00,6.75000000000000e-01,-1.55216376830570e-04
5.86997365087986e-08,0.00000000000000e+00,6.75000000000000e-01,1.98193078811653e-04
6.14949158834939e-08,0.00000000000000e+00,6.75000000000000e-01,-1.82572858030024e-04
6.50000000000000e-08,0.00000000000000e+00,6.75000000000000e-01,2.10791509622507e-04
6.50100000000000e-08,6.74999999999872e-02,6.75000000000000e-01,2.88606403849465e-04
6.50300000000000e-08,2.02499999999962e-01,6.75000000000000e-01,3.90312497262790e-04
6.50700000000000e-08,4.72499999999910e-01,6.75000000000000e-01,4.66852923650340e-04
6.51000000000000e-08,6.74999999999961e-01,6.75000000000000e-01,-6.22251635503876e-04
6.51080000000000e-08,6.75000000000000e-01,6.75000000000000e-01,-1.35520485848865e-03
6.51240000000000e-08,6.75000000000000e-01,6.75000000000000e-01,-2.82766608009445e-03
6.51560000000000e-08,6.75000000000000e-01,6.75000000000000e-01,-5.07344775784475e-03
6.52200000000000e-08,6.75000000000000e-01,6.75000000000000e-01,-1.64319389054508e-03
6.53480000000000e-08,6.75000000000000e-01,6.75000000000000e-01,2.35550749913563e-01
6.56040000000000e-08,6.75000000000000e-01,6.75000000000000e-01,6.70888187388992e-01
6.60064233746936e-08,6.75000000000000e-01,6.75000000000000e-01,6.74749094472661e-01
6.65978599320149e-08,6.75000000000000e-01,6.75000000000000e-01,6.75430683195495e-01
6.73754685927514e-08,6.75000000000000e-01,6.75000000000000e-01,6.74413575680767e-01
6.85815126394836e-08,6.75000000000000e-01,6.75000000000000e-01,6.75576759958118e-01
7.01000000000000e-08,6.75000000000000e-01,6.75000000000000e-01,6.74366700634856e-01
7.01100000000000e-08,6.75000000000000e-01,6.07500000000013e-01,6.74822977931830e-01
7.01300000000000e-08,6.75000000000000e-01,4.72500000000038e-01,6.75161533534419e-01
7.01700000000000e-08,6.75000000000000e-01,2.02500000000090e-01,6.74981528244957e-01
7.02000000000000e-08,6.75000000000000e-01,3.86357612569554e-14,6.75034493900363e-01
7.02080000000000e-08,6.75000000000000e-01,0.00000000000000e+00,6.75023979533215e-01
7.02240000000000e-08,6.75000000000000e-01,0.00000000000000e+00,6.75009786072789e-01
7.02560000000000e-08,6.75000000000000e-01,0.00000000000000e+00,6.74978247227007e-01
7.03200000000000e-08,6.75000000000000e-01,0.00000000000000e+00,6.74972916655011e-01
7.04480000000000e-08,6.75000000000000e-01,0.00000000000000e+00,6.74998366904832e-01
7.06771708295196e-08,6.75000000000000e-01,0.00000000000000e+00,6.74964299457146e-01
7.09933238969331e-08,6.75000000000000e-01,0.00000000000000e+00,6.74985715239180e-01
7.16018911760385e-08,6.75000000000000e-01,0.00000000000000e+00,6.74972927019550e-01
7.28190257342492e-08,6.75000000000000e-01,0.00000000000000e+00,6.74987700579482e-01
7.51000000000000e-08,6.75000000000000e-01,0.00000000000000e+00,6.74978259328914e-01
7.51100000000000e-08,6.07500000000069e-01,0.00000000000000e+00,6.74905946940882e-01
7.51300000000000e-08,4.72500000000094e-01,0.00000000000000e+00,6.74854601066951e-01
7.51700000000000e-08,2.02500000000145e-01,0.00000000000000e+00,6.76066729931083e-01
7.52000000000000e-08,9.43689570931383e-14,0.00000000000000e+00,6.78574328460849e-01
7.52080000000000e-08,0.00000000000000e+00,0.00000000000000e+00,6.78919464614955e-01
7.52240000000000e-08,0.00000000000000e+00,0.00000000000000e+00,6.78136552301542e-01
7.52560000000000e-08,0.00000000000000e+00,0.00000000000000e+00,6.68826468856745e-01
7.53200000000000e-08,0.00000000000000e+00,0.00000000000000e+00,6.55344836434909e-01
7.54480000000000e-08,0.00000000000000e+00,0.00000000000000e+00,6.70501531474351e-01
7.57009187860208e-08,0.00000000000000e+00,0.00000000000000e+00,6.76371487287450e-01
7.60039442762399e-08,0.00000000000000e+00,0.00000000000000e+00,6.73031992550103e-01
7.65569658376326e-08,0.00000000000000e+00,0.00000000000000e+00,6.76081179772641e-01
7.74133908644632e-08,0.00000000000000e+00,0.00000000000000e+00,6.73620719756814e-01
7.81000000000000e-08,0.00000000000000e+00,0.00000000000000e+00,6.75931499613259e-01
7.82712850053662e-08,0.00000000000000e+00,0.00000000000000e+00,6.74973792327913e-01
7.86138550160984e-08,0.00000000000000e+00,0.00000000000000e+00,6.74785516566221e-01
7.92989950375629e-08,0.00000000000000e+00,0.00000000000000e+00,6.74961458278599e-01
8.06692750804920e-08,0.00000000000000e+00,0.00000000000000e+00,6.74824857154009e-01
8.34098351663501e-08,0.00000000000000e+00,0.00000000000000e+00,6.74979192904869e-01
8.50000000000000e-08,0.00000000000000e+00,0.00000000000000e+00,6.74843876981976e-01
8.50100000000000e-08,6.74999999999872e-02,0.00000000000000e+00,6.74939875766532e-01
8.50300000000000e-08,2.02499999999962e-01,0.00000000000000e+00,6.75014122613873e-01
8.50700000000000e-08,4.72499999999910e-01,0.00000000000000e+00,6.74927590829522e-01
8.51000000000000e-08,6.74999999999961e-01,0.00000000000000e+00,6.74774723005538e-01
8.51080000000000e-08,6.75000000000000e-01,0.00000000000000e+00,6.74713746552551e-01
8.51240000000000e-08,6.75000000000000e-01,0.00000000000000e+00,6.74638077154320e-01
8.51560000000000e-08,6.75000000000000e-01,0.00000000000000e+00,6.74688515309442e-01
8.52200000000000e-08,6.75000000000000e-01,0.00000000000000e+00,6.75272008058933e-01
8.53480000000000e-08,6.75000000000000e-01,0.00000000000000e+00,6.85551282269605e-01
8.56040000000000e-08,6.75000000000000e-01,0.00000000000000e+00,2.54644944052602e-01
8.59459097681765e-08,6.75000000000000e-01,0.00000000000000e+00,-7.18912369517966e-02
8.63994114842643e-08,6.75000000000000e-01,0.00000000000000e+00,5.34348662323977e-02
8.71010844309659e-08,6.75000000000000e-01,0.00000000000000e+00,-3.61978926110230e-02
8.79330465208521e-08,6.75000000000000e-01,0.00000000000000e+00,3.10184521006253e-02
8.95969707006246e-08,6.75000000000000e-01,0.00000000000000e+00,-2.58062696431502e-02
9.00000000000000e-08,6.75000000000000e-01,0.00000000000000e+00,1.67687299981519e-02
9.00100000000000e-08,6.75000000000000e-01,6.74999999999872e-02,1.41806974707824e-02
9.00300000000000e-08,6.75000000000000e-01,2.02499999999962e-01,9.45360540680668e-03
9.00700000000000e-08,6.75000000000000e-01,4.72499999999910e-01,3.67816856415375e-03
9.01000000000000e-08,6.75000000000000e-01,6.74999999999961e-01,1.89639773804687e-03
9.01080000000000e-08,6.75000000000000e-01,6.75000000000000e-01,1.60746062870849e-03
9.01240000000000e-08,6.75000000000000e-01,6.75000000000000e-01,1.04700795427329e-03
9.01560000000000e-08,6.75000000000000e-01,6.75000000000000e-01,5.18837566882785e-04
9.02200000000000e-08,6.75000000000000e-01,6.75000000000000e-01,8.89941332724922e-05
9.03480000000000e-08,6.75000000000000e-01,6.75000000000000e-01,-3.49677075724142e-06
9.06040000000000e-08,6.75000000000000e-01,6.75000000000000e-01,8.69664141756737e-06
9.11159999999999e-08,6.75000000000000e-01,6.75000000000000e-01,9.78792321701914e-06
9.21399999999999e-08,6.75000000000000e-01,6.75000000000000e-01,8.25225281795693e-06
9.41879999999998e-08,6.75000000000000e-01,6.75000000000000e-01,1.03231700324009e-05
9.51000000000000e-08,6.75000000000000e-01,6.75000000000000e-01,8.18738509879638e-06
9.51100000000000e-08,6.07500000000069e-01,6.75000000000000e-01,-7.71448510483441e-05
9.51300000000000e-08,4.72500000000094e-01,6.75000000000000e-01,-1.88189478845788e-04
9.51700000000000e-08,2.02500000000145e-01,6.75000000000000e-01,-1.45393967249802e-05
9.52000000000000e-08,9.43689570931383e-14,6.75000000000000e-01,3.88961043100156e-04
9.52080000000000e-08,0.00000000000000e+00,6.75000000000000e-01,5.14192594204321e-04
9.52240000000000e-08,0.00000000000000e+00,6.75000000000000e-01,5.03658896719064e-04
9.52560000000000e-08,0.00000000000000e+00,6.75000000000000e-01,-4.92243918748442e-04
9.53200000000000e-08,0.00000000000000e+00,6.75000000000000e-01,-1.63715223380263e-03
9.54480000000000e-08,0.00000000000000e+00,6.75000000000000e-01,-1.62862933516993e-04
9.56970992888579e-08,0.00000000000000e+00,6.75000000000000e-01,-5.46287348145158e-06
9.60107580201822e-08,0.00000000000000e+00,6.75000000000000e-01,3.85811808788980e-05
9.65945998960861e-08,0.00000000000000e+00,6.75000000000000e-01,1.16629518393859e-04
9.73021452183456e-08,0.00000000000000e+00,6.75000000000000e-01,-1.55630487928117e-04
9.86997339483148e-08,0.00000000000000e+00,6.75000000000000e-01,1.98584654947341e-04
1.01494911408253e-07,0.00000000000000e+00,6.75000000000000e-01,-1.82956652867041e-04
1.05000000000000e-07,0.00000000000000e+00,6.75000000000000e-01,2.11165643011774e-04
1.05010000000000e-07,6.74999999999872e-02,6.75000000000000e-01,2.88827311017190e-04
1.05030000000000e-07,2.02499999999962e-01,6.75000000000000e-01,3.90383336325226e-04
1.05070000000000e-07,4.72499999999910e-01,6.75000000000000e-01,4.66866848417236e-04
1.05100000000000e-07,6.74999999999961e-01,6.75000000000000e-01,-6.22258646233359e-04
1.05108000000000e-07,6.75000000000000e-01,6.75000000000000e-01,-1.35520963214120e-03
1.05124000000000e-07,6.75000000000000e-01,6.75000000000000e-01,-2.82766929217503e-03
1.05156000000000e-07,6.75000000000000e-01,6.75000000000000e-01,-5.07345068548067e-03
1.05220000000000e-07,6.75000000000000e-01,6.75000000000000e-01,-1.64318668260516e-03
1.05348000000000e-07,6.75000000000000e-01,6.75000000000000e-01,2.35550831281091e-01
1.05604000000000e-07,6.75000000000000e-01,6.75000000000000e-01,6.70888206211165e-01
1.06006423298684e-07,6.75000000000000e-01,6.75000000000000e-01,6.74749085661777e-01
1.06597859936418e-07,6.75000000000000e-01,6.75000000000000e-01,6.75430691902678e-01
1.07375468491465e-07,6.75000000000000e-01,6.75000000000000e-01,6.74413567858071e-01
1.08581512574263e-07,6.75000000000000e-01,6.75000000000000e-01,6.75576767725989e-01
1.10100000000000e-07,6.75000000000000e-01,6.75000000000000e-01,6.74366693274320e-01
1.10110000000000e-07,6.75000000000000e-01,6.07500000000102e-01,6.74822974241749e-01
