Time,v(clk),v(data),v(out)
1.00000000000000e-08,6.75000000000000e-01,0.00000000000000e+00,2.23943520833740e-05
1.00100000000000e-08,6.75000000000000e-01,6.74999999999984e-02,2.03405004444018e-05
1.00300000000000e-08,6.75000000000000e-01,2.02499999999995e-01,1.47921133353685e-05
1.00700000000000e-08,6.75000000000000e-01,4.72499999999989e-01,6.30391088660143e-06
1.01000000000000e-08,6.75000000000000e-01,6.74999999999995e-01,2.25562593318684e-06
1.01080000000000e-08,6.75000000000000e-01,6.75000000000000e-01,1.80623302813154e-06
1.01240000000000e-08,6.75000000000000e-01,6.75000000000000e-01,3.29216585687186e-06
1.01560000000000e-08,6.75000000000000e-01,6.75000000000000e-01,7.71318612305394e-06
1.02200000000000e-08,6.75000000000000e-01,6.75000000000000e-01,9.78849770787854e-06
1.03480000000000e-08,6.75000000000000e-01,6.75000000000000e-01,3.27328048276010e-06
1.06040000000000e-08,6.75000000000000e-01,6.75000000000000e-01,4.11595375191670e-06
1.11160000000000e-08,6.75000000000000e-01,6.75000000000000e-01,4.14412977827426e-06
1.21400000000000e-08,6.75000000000000e-01,6.75000000000000e-01,4.02185923901142e-06
1.41880000000000e-08,6.75000000000000e-01,6.75000000000000e-01,3.51982955887516e-06
1.51000000000000e-08,6.75000000000000e-01,6.75000000000000e-01,3.69937499821935e-06
1.51100000000000e-08,6.07499999999990e-01,6.75000000000000e-01,-9.11106961627578e-05
1.51300000000000e-08,4.72499999999994e-01,6.75000000000000e-01,-2.22508434972526e-04
1.51700000000000e-08,2.02500000000000e-01,6.75000000000000e-01,-1.10628074603880e-04
1.52000000000000e-08,0.00000000000000e+00,6.75000000000000e-01,3.42082589583168e-04
1.52080000000000e-08,0.00000000000000e+00,6.75000000000000e-01,5.29319223546723e-04
1.52240000000000e-08,0.00000000000000e+00,6.75000000000000e-01,7.13934574492869e-04
1.52560000000000e-08,0.00000000000000e+00,6.75000000000000e-01,4.95715431556965e-04
1.53200000000000e-08,0.00000000000000e+00,6.75000000000000e-01,-2.74707781111119e-04
1.54480000000000e-08,0.00000000000000e+00,6.75000000000000e-01,-2.98351231853081e-04
1.57040000000000e-08,0.00000000000000e+00,6.75000000000000e-01,2.00675155529358e-05
1.60399314285374e-08,0.00000000000000e+00,6.75000000000000e-01,-6.27321079086779e-05
1.65543721894014e-08,0.00000000000000e+00,6.75000000000000e-01,2.34282076114322e-04
1.75265851507857e-08,0.00000000000000e+00,6.75000000000000e-01,-2.69209335874413e-04
1.86270625821930e-08,0.00000000000000e+00,6.75000000000000e-01,2.87142722821741e-04
2.08280174450075e-08,0.00000000000000e+00,6.75000000000000e-01,-2.85650690820483e-04
2.41889701721209e-08,0.00000000000000e+00,6.75000000000000e-01,2.89049119445597e-04
2.50000000000000e-08,0.00000000000000e+00,6.75000000000000e-01,-2.75664386806995e-04
2.50100000000000e-08,6.74999999999872e-02,6.75000000000000e-01,-5.76439333945383e-05
2.50300000000000e-08,2.02500000000006e-01,6.75000000000000e-01,2.86806202638240e-04
2.50700000000000e-08,4.72500000000000e-01,6.75000000000000e-01,6.12052892718568e-04
2.51000000000000e-08,6.75000000000000e-01,6.75000000000000e-01,-1.14911403870779e-04
2.51080000000000e-08,6.75000000000000e-01,6.75000000000000e-01,-7.20455028274225e-04
2.51240000000000e-08,6.75000000000000e-01,6.75000000000000e-01,-2.01020725175657e-03
2.51560000000000e-08,6.75000000000000e-01,6.75000000000000e-01,-4.32813421437589e-03
2.52200000000000e-08,6.75000000000000e-01,6.75000000000000e-01,-6.16065077328588e-03
2.53480000000000e-08,6.75000000000000e-01,6.75000000000000e-01,1.00289847249963e-01
2.56040000000000e-08,6.75000000000000e-01,6.75000000000000e-01,6.11451733291111e-01
2.61160000000000e-08,6.75000000000000e-01,6.75000000000000e-01,6.92150542342293e-01
2.66411956905548e-08,6.75000000000000e-01,6.75000000000000e-01,6.57882246943406e-01
2.76663598496177e-08,6.75000000000000e-01,6.75000000000000e-01,6.90113814880998e-01
2.90327067800481e-08,6.75000000000000e-01,6.75000000000000e-01,6.59486315263466e-01
3.01000000000000e-08,6.75000000000000e-01,6.75000000000000e-01,6.88982361951851e-01
3.01100000000000e-08,6.75000000000000e-01,6.07500000000035e-01,6.82423729241123e-01
3.01300000000000e-08,6.75000000000000e-01,4.72500000000016e-01,6.75472261177117e-01
3.01700000000000e-08,6.75000000000000e-01,2.02500000000023e-01,6.74892715743420e-01
3.02000000000000e-08,6.75000000000000e-01,1.63202784619898e-14,6.75055198818948e-01
3.02080000000000e-08,6.75000000000000e-01,0.00000000000000e+00,6.75025778727765e-01
3.02240000000000e-08,6.75000000000000e-01,0.00000000000000e+00,6.74986417309640e-01
3.02560000000000e-08,6.75000000000000e-01,0.00000000000000e+00,6.74964419455880e-01
3.03200000000000e-08,6.75000000000000e-01,0.00000000000000e+00,6.74969572177180e-01
3.04480000000000e-08,6.75000000000000e-01,0.00000000000000e+00,6.75004865847483e-01
3.06576895420235e-08,6.75000000000000e-01,0.00000000000000e+00,6.74970766370007e-01
3.10112753416602e-08,6.75000000000000e-01,0.00000000000000e+00,6.74985502211967e-01
3.14977700571225e-08,6.75000000000000e-01,0.00000000000000e+00,6.74982112641208e-01
3.24707594880471e-08,6.75000000000000e-01,0.00000000000000e+00,6.74984025337896e-01
3.44167383498962e-08,6.75000000000000e-01,0.00000000000000e+00,6.74987129404626e-01
3.51000000000000e-08,6.74999999999967e-01,0.00000000000000e+00,6.74985424212917e-01
3.51100000000000e-08,6.07499999999979e-01,0.00000000000000e+00,6.74908245467200e-01
3.51300000000000e-08,4.72499999999960e-01,0.00000000000000e+00,6.74820567827688e-01
3.51700000000000e-08,2.02499999999967e-01,0.00000000000000e+00,6.75875514887453e-01
3.52000000000000e-08,0.00000000000000e+00,0.00000000000000e+00,6.78367960112985e-01
3.52080000000000e-08,0.00000000000000e+00,0.00000000000000e+00,6.78884172375398e-01
3.52240000000000e-08,0.00000000000000e+00,0.00000000000000e+00,6.78974532737068e-01
3.52560000000000e-08,0.00000000000000e+00,0.00000000000000e+00,6.73063819680265e-01
3.53200000000000e-08,0.00000000000000e+00,0.00000000000000e+00,6.55874562056997e-01
3.54480000000000e-08,0.00000000000000e+00,0.00000000000000e+00,6.63543047057029e-01
3.56851975892214e-08,0.00000000000000e+00,0.00000000000000e+00,6.78926254464726e-01
3.59909169806204e-08,0.00000000000000e+00,0.00000000000000e+00,6.70983817392881e-01
3.66023557634184e-08,0.00000000000000e+00,0.00000000000000e+00,6.77752434398741e-01
3.73218188523789e-08,0.00000000000000e+00,0.00000000000000e+00,6.72181010110907e-01
3.87607450303000e-08,0.00000000000000e+00,0.00000000000000e+00,6.77364452808774e-01
3.91000000000000e-08,0.00000000000000e+00,0.00000000000000e+00,6.73016615867180e-01
3.93877852355842e-08,0.00000000000000e+00,0.00000000000000e+00,6.74765610993291e-01
3.99633557067527e-08,0.00000000000000e+00,0.00000000000000e+00,6.75040508042292e-01
4.11144966490896e-08,0.00000000000000e+00,0.00000000000000e+00,6.74816590894606e-01
4.34167785337633e-08,0.00000000000000e+00,0.00000000000000e+00,6.75051343240013e-01
4.50000000000000e-08,0.00000000000000e+00,0.00000000000000e+00,6.74846065322262e-01
4.50100000000000e-08,6.74999999999872e-02,0.00000000000000e+00,6.74961705443450e-01
4.50300000000000e-08,2.02500000000006e-01,0.00000000000000e+00,6.75073462478594e-01
4.50700000000000e-08,4.72500000000000e-01,0.00000000000000e+00,6.75005793971805e-01
4.51000000000000e-08,6.75000000000000e-01,0.00000000000000e+00,6.74827023340771e-01
4.51080000000000e-08,6.75000000000000e-01,0.00000000000000e+00,6.74749785595612e-01
4.51240000000000e-08,6.75000000000000e-01,0.00000000000000e+00,6.74672238166793e-01
4.51560000000000e-08,6.75000000000000e-01,0.00000000000000e+00,6.74667937520592e-01
4.52200000000000e-08,6.75000000000000e-01,0.00000000000000e+00,6.74875044540217e-01
4.53480000000000e-08,6.75000000000000e-01,0.00000000000000e+00,6.79681067277098e-01
4.56040000000000e-08,6.75000000000000e-01,0.00000000000000e+00,3.55841714922117e-01
4.61059828374680e-08,6.75000000000000e-01,0.00000000000000e+00,-6.84864815434069e-02
4.65620262703501e-08,6.75000000000000e-01,0.00000000000000e+00,4.93395176627637e-02
4.74741131361145e-08,6.75000000000000e-01,0.00000000000000e+00,-3.23730547533338e-02
4.84315174894162e-08,6.75000000000000e-01,0.00000000000000e+00,2.84763518888003e-02
5.00000000000000e-08,6.75000000000000e-01,0.00000000000000e+00,-2.17559681289005e-02
5.00100000000000e-08,6.75000000000000e-01,6.74999999999872e-02,-1.96781703824575e-02
5.00300000000000e-08,6.75000000000000e-01,2.02499999999962e-01,-1.45635634428562e-02
5.00700000000000e-08,6.75000000000000e-01,4.72500000000000e-01,-6.32934374646540e-03
5.01000000000000e-08,6.75000000000000e-01,6.75000000000000e-01,-3.54735960507292e-03
5.01080000000000e-08,6.75000000000000e-01,6.75000000000000e-01,-3.05010349734351e-03
5.01240000000000e-08,6.75000000000000e-01,6.75000000000000e-01,-2.11625354244327e-03
5.01560000000000e-08,6.75000000000000e-01,6.75000000000000e-01,-1.12151520235226e-03
5.02200000000000e-08,6.75000000000000e-01,6.75000000000000e-01,-2.55234515215814e-04
5.03480000000000e-08,6.75000000000000e-01,6.75000000000000e-01,2.59566363825167e-05
5.06040000000000e-08,6.75000000000000e-01,6.75000000000000e-01,-7.76958704747782e-06
5.11160000000001e-08,6.75000000000000e-01,6.75000000000000e-01,7.28000620840545e-06
5.21400000000002e-08,6.75000000000000e-01,6.75000000000000e-01,-2.98195325147688e-06
5.41880000000003e-08,6.75000000000000e-01,6.75000000000000e-01,5.16074851554960e-06
5.51000000000000e-08,6.75000000000000e-01,6.75000000000000e-01,-6.26236042498146e-07
5.51100000000000e-08,6.07500000000024e-01,6.75000000000000e-01,-9.38824661257387e-05
5.51300000000000e-08,4.72500000000005e-01,6.75000000000000e-01,-2.19439887068656e-04
5.51700000000000e-08,2.02500000000011e-01,6.75000000000000e-01,-1.12522968319664e-04
5.52000000000000e-08,0.00000000000000e+00,6.75000000000000e-01,3.35513806072274e-04
5.52080000000000e-08,0.00000000000000e+00,6.75000000000000e-01,5.18532573825420e-04
5.52240000000000e-08,0.00000000000000e+00,6.75000000000000e-01,6.80994632392962e-04
5.52560000000000e-08,0.00000000000000e+00,6.75000000000000e-01,2.24242536359207e-04
5.53200000000000e-08,0.00000000000000e+00,6.75000000000000e-01,-9.60358241855225e-04
5.54480000000000e-08,0.00000000000000e+00,6.75000000000000e-01,-5.07889799460613e-04
5.57040000000000e-08,0.00000000000000e+00,6.75000000000000e-01,1.69855389348134e-04
5.60400025550280e-08,0.00000000000000e+00,6.75000000000000e-01,-1.74657953263872e-04
5.65544011322614e-08,0.00000000000000e+00,6.75000000000000e-01,3.26442523100962e-04
5.75268455764944e-08,0.00000000000000e+00,6.75000000000000e-01,-3.52979399544874e-04
5.86270741819953e-08,0.00000000000000e+00,6.75000000000000e-01,3.62813762478119e-04
6.08275313929971e-08,0.00000000000000e+00,6.75000000000000e-01,-3.59315599307509e-04
6.41878417236623e-08,0.00000000000000e+00,6.75000000000000e-01,3.59570776138471e-04
6.50000000000000e-08,0.00000000000000e+00,6.75000000000000e-01,-3.39637636167454e-04
6.50100000000000e-08,6.74999999999872e-02,6.75000000000000e-01,-1.00133781403819e-04
6.50300000000000e-08,2.02499999999962e-01,6.75000000000000e-01,2.69128131295621e-04
6.50700000000000e-08,4.72499999999910e-01,6.75000000000000e-01,6.07296777029379e-04
6.51000000000000e-08,6.74999999999961e-01,6.75000000000000e-01,-1.15951103733636e-04
6.51080000000000e-08,6.75000000000000e-01,6.75000000000000e-01,-7.21515730958328e-04
6.51240000000000e-08,6.75000000000000e-01,6.75000000000000e-01,-2.01106526138509e-03
6.51560000000000e-08,6.75000000000000e-01,6.75000000000000e-01,-4.32844072096691e-03
6.52200000000000e-08,6.75000000000000e-01,6.75000000000000e-01,-6.16056577487574e-03
6.53480000000000e-08,6.75000000000000e-01,6.75000000000000e-01,1.00295205934856e-01
6.56040000000000e-08,6.75000000000000e-01,6.75000000000000e-01,6.11454733305673e-01
6.61159999999999e-08,6.75000000000000e-01,6.75000000000000e-01,6.92149895702246e-01
6.66412004669766e-08,6.75000000000000e-01,6.75000000000000e-01,6.57882882343134e-01
6.76663553196600e-08,6.75000000000000e-01,6.75000000000000e-01,6.90113242488999e-01
6.90327045795058e-08,6.75000000000000e-01,6.75000000000000e-01,6.59486910972764e-01
7.01000000000000e-08,6.75000000000000e-01,6.75000000000000e-01,6.88981832656286e-01
7.01100000000000e-08,6.75000000000000e-01,6.07500000000013e-01,6.82423453843835e-01
7.01300000000000e-08,6.75000000000000e-01,4.72500000000038e-01,6.75472248926053e-01
7.01700000000000e-08,6.75000000000000e-01,2.02500000000090e-01,6.74892720191890e-01
7.02000000000000e-08,6.75000000000000e-01,3.86357612569554e-14,6.75055198088832e-01
7.02080000000000e-08,6.75000000000000e-01,0.00000000000000e+00,6.75025778245964e-01
7.02240000000000e-08,6.75000000000000e-01,0.00000000000000e+00,6.74986417546730e-01
7.02560000000000e-08,6.75000000000000e-01,0.00000000000000e+00,6.74964420419389e-01
7.03200000000000e-08,6.75000000000000e-01,0.00000000000000e+00,6.74969573030130e-01
7.04480000000000e-08,6.75000000000000e-01,0.00000000000000e+00,6.75004866413710e-01
7.06576898291685e-08,6.75000000000000e-01,0.00000000000000e+00,6.74970766576177e-01
7.10112753684541e-08,6.75000000000000e-01,0.00000000000000e+00,6.74985502483034e-01
7.14977712942473e-08,6.75000000000000e-01,0.00000000000000e+00,6.74982112834387e-01
7.24707631458336e-08,6.75000000000000e-01,0.00000000000000e+00,6.74984025536057e-01
7.44167468490062e-08,6.75000000000000e-01,0.00000000000000e+00,6.74987129510453e-01
7.51000000000000e-08,6.75000000000000e-01,0.00000000000000e+00,6.74985424341742e-01
7.51100000000000e-08,6.07500000000069e-01,0.00000000000000e+00,6.74908245514598e-01
7.51300000000000e-08,4.72500000000094e-01,0.00000000000000e+00,6.74820567839558e-01
7.51700000000000e-08,2.02500000000145e-01,0.00000000000000e+00,6.75875515042038e-01
7.52000000000000e-08,9.43689570931383e-14,0.00000000000000e+00,6.78367961189368e-01
7.52080000000000e-08,0.00000000000000e+00,0.00000000000000e+00,6.78884174519745e-01
7.52240000000000e-08,0.00000000000000e+00,0.00000000000000e+00,6.78974539760515e-01
7.52560000000000e-08,0.00000000000000e+00,0.00000000000000e+00,6.73063842997794e-01
7.53200000000000e-08,0.00000000000000e+00,0.00000000000000e+00,6.55874584764972e-01
7.54480000000000e-08,0.00000000000000e+00,0.00000000000000e+00,6.63543039808041e-01
7.56851975877989e-08,0.00000000000000e+00,0.00000000000000e+00,6.78926258648071e-01
7.59909169791364e-08,0.00000000000000e+00,0.00000000000000e+00,6.70983814179885e-01
7.66023557618113e-08,0.00000000000000e+00,0.00000000000000e+00,6.77752437189167e-01
7.73218188482708e-08,0.00000000000000e+00,0.00000000000000e+00,6.72181007606747e-01
7.81000000000000e-08,0.00000000000000e+00,0.00000000000000e+00,6.77212890415671e-01
7.82438926172919e-08,0.00000000000000e+00,0.00000000000000e+00,6.75194365691215e-01
7.85316778518757e-08,0.00000000000000e+00,0.00000000000000e+00,6.74660428693878e-01
7.91072483210434e-08,0.00000000000000e+00,0.00000000000000e+00,6.75095179808129e-01
8.02583892593786e-08,0.00000000000000e+00,0.00000000000000e+00,6.74742656855859e-01
8.25606711360491e-08,0.00000000000000e+00,0.00000000000000e+00,6.75109186287679e-01
8.50000000000000e-08,0.00000000000000e+00,0.00000000000000e+00,6.74783963706405e-01
8.50100000000000e-08,6.74999999999872e-02,0.00000000000000e+00,6.74912336857677e-01
8.50300000000000e-08,2.02499999999962e-01,0.00000000000000e+00,6.75044628848966e-01
8.50700000000000e-08,4.72499999999910e-01,0.00000000000000e+00,6.75001948524308e-01
8.51000000000000e-08,6.74999999999961e-01,0.00000000000000e+00,6.74841446063573e-01
8.51080000000000e-08,6.75000000000000e-01,0.00000000000000e+00,6.74760196474341e-01
8.51240000000000e-08,6.75000000000000e-01,0.00000000000000e+00,6.74674421524893e-01
8.51560000000000e-08,6.75000000000000e-01,0.00000000000000e+00,6.74668709278825e-01
8.52200000000000e-08,6.75000000000000e-01,0.00000000000000e+00,6.74876459484664e-01
8.53480000000000e-08,6.75000000000000e-01,0.00000000000000e+00,6.79680488690767e-01
8.56040000000000e-08,6.75000000000000e-01,0.00000000000000e+00,3.55804492707519e-01
8.61060131089725e-08,6.75000000000000e-01,0.00000000000000e+00,-6.85000271850385e-02
8.65620741869882e-08,6.75000000000000e-01,0.00000000000000e+00,4.93504010864263e-02
8.74741963430196e-08,6.75000000000000e-01,0.00000000000000e+00,-3.23809903751977e-02
8.84316412960268e-08,6.75000000000000e-01,0.00000000000000e+00,2.84837582515877e-02
9.00000000000000e-08,6.75000000000000e-01,0.00000000000000e+00,-2.17617736633755e-02
9.00100000000000e-08,6.75000000000000e-01,6.74999999999872e-02,-1.96823928623907e-02
9.00300000000000e-08,6.75000000000000e-01,2.02499999999962e-01,-1.45659000004525e-02
9.00700000000000e-08,6.75000000000000e-01,4.72499999999910e-01,-6.33045372443027e-03
9.01000000000000e-08,6.75000000000000e-01,6.74999999999961e-01,-3.54790432184450e-03
9.01080000000000e-08,6.75000000000000e-01,6.75000000000000e-01,-3.05058571624064e-03
9.01240000000000e-08,6.75000000000000e-01,6.75000000000000e-01,-2.11658023857071e-03
9.01560000000000e-08,6.75000000000000e-01,6.75000000000000e-01,-1.12169133426226e-03
9.02200000000000e-08,6.75000000000000e-01,6.75000000000000e-01,-2.55278950618540e-04
9.03480000000000e-08,6.75000000000000e-01,6.75000000000000e-01,2.59617073796251e-05
9.06040000000000e-08,6.75000000000000e-01,6.75000000000000e-01,-7.77174841101042e-06
9.11159999999999e-08,6.75000000000000e-01,6.75000000000000e-01,7.28144884993946e-06
9.21399999999999e-08,6.75000000000000e-01,6.75000000000000e-01,-2.98325932326232e-06
9.41879999999998e-08,6.75000000000000e-01,6.75000000000000e-01,5.16183730070886e-06
9.51000000000000e-08,6.75000000000000e-01,6.75000000000000e-01,-6.27185277456144e-07
9.51100000000000e-08,6.07500000000069e-01,6.75000000000000e-01,-9.38772432672735e-05
9.51300000000000e-08,4.72500000000094e-01,6.75000000000000e-01,-2.19440718415551e-04
9.51700000000000e-08,2.02500000000145e-01,6.75000000000000e-01,-1.12523873808251e-04
9.52000000000000e-08,9.43689570931383e-14,6.75000000000000e-01,3.35513427471137e-04
9.52080000000000e-08,0.00000000000000e+00,6.75000000000000e-01,5.18532145989403e-04
9.52240000000000e-08,0.00000000000000e+00,6.75000000000000e-01,6.80993421904613e-04
9.52560000000000e-08,0.00000000000000e+00,6.75000000000000e-01,2.24235050101176e-04
9.53200000000000e-08,0.00000000000000e+00,6.75000000000000e-01,-9.60383828358641e-04
9.54480000000000e-08,0.00000000000000e+00,6.75000000000000e-01,-5.07899767065473e-04
9.57040000000000e-08,0.00000000000000e+00,6.75000000000000e-01,1.69862139208728e-04
9.60400027465232e-08,0.00000000000000e+00,6.75000000000000e-01,-1.74662939912345e-04
9.65544013761669e-08,0.00000000000000e+00,6.75000000000000e-01,3.26446786834293e-04
9.75268456337633e-08,0.00000000000000e+00,6.75000000000000e-01,-3.52983365145323e-04
9.86270751953400e-08,0.00000000000000e+00,6.75000000000000e-01,3.62817416402924e-04
1.00827534318493e-07,0.00000000000000e+00,6.75000000000000e-01,-3.59319153381475e-04
1.04187846860770e-07,0.00000000000000e+00,6.75000000000000e-01,3.59574233309393e-04
1.05000000000000e-07,0.00000000000000e+00,6.75000000000000e-01,-3.39640663209368e-04
1.05010000000000e-07,6.74999999999872e-02,6.75000000000000e-01,-1.00135550245933e-04
1.05030000000000e-07,2.02499999999962e-01,6.75000000000000e-01,2.69127579376638e-04
1.05070000000000e-07,4.72499999999910e-01,6.75000000000000e-01,6.07296648149527e-04
1.05100000000000e-07,6.74999999999961e-01,6.75000000000000e-01,-1.15950556439717e-04
1.05108000000000e-07,6.75000000000000e-01,6.75000000000000e-01,-7.21515064760481e-04
1.05124000000000e-07,6.75000000000000e-01,6.75000000000000e-01,-2.01106444747312e-03
1.05156000000000e-07,6.75000000000000e-01,6.75000000000000e-01,-4.32844006630398e-03
1.05220000000000e-07,6.75000000000000e-01,6.75000000000000e-01,-6.16056615472327e-03
1.05348000000000e-07,6.75000000000000e-01,6.75000000000000e-01,1.00295181366908e-01
1.05604000000000e-07,6.75000000000000e-01,6.75000000000000e-01,6.11454719162741e-01
1.06116000000000e-07,6.75000000000000e-01,6.75000000000000e-01,6.92149898775819e-01
1.06641200443990e-07,6.75000000000000e-01,6.75000000000000e-01,6.57882879327139e-01
