Time,v(clk),v(data),v(out)
1.00000000000000e-08,6.75000000000000e-01,0.00000000000000e+00,1.43049230552552e-05
1.00100000000000e-08,6.75000000000000e-01,6.74999999999984e-02,1.89878502408758e-05
1.00300000000000e-08,6.75000000000000e-01,2.02499999999995e-01,2.13328839727966e-05
1.00700000000000e-08,6.75000000000000e-01,4.72499999999989e-01,1.58277867128853e-05
1.01000000000000e-08,6.75000000000000e-01,6.74999999999995e-01,1.29965690633810e-05
1.01080000000000e-08,6.75000000000000e-01,6.75000000000000e-01,1.20601084066668e-05
1.01240000000000e-08,6.75000000000000e-01,6.75000000000000e-01,1.27554278159386e-05
1.01560000000000e-08,6.75000000000000e-01,6.75000000000000e-01,1.66439498419380e-05
1.02200000000000e-08,6.75000000000000e-01,6.75000000000000e-01,1.93977207934154e-05
1.03480000000000e-08,6.75000000000000e-01,6.75000000000000e-01,1.59255823374976e-05
1.06040000000000e-08,6.75000000000000e-01,6.75000000000000e-01,1.37815020966950e-05
1.10954187957415e-08,6.75000000000000e-01,6.75000000000000e-01,1.56497345515129e-05
1.20782563872246e-08,6.75000000000000e-01,6.75000000000000e-01,1.35022086009233e-05
1.40439315701908e-08,6.75000000000000e-01,6.75000000000000e-01,1.44986993744524e-05
1.51000000000000e-08,6.75000000000000e-01,6.75000000000000e-01,1.28224984026985e-05
1.51100000000000e-08,6.07499999999990e-01,6.75000000000000e-01,-8.65590617003809e-05
1.51300000000000e-08,4.72499999999994e-01,6.75000000000000e-01,-2.36096343034356e-04
1.51700000000000e-08,2.02500000000000e-01,6.75000000000000e-01,-1.53540787888234e-04
1.52000000000000e-08,0.00000000000000e+00,6.75000000000000e-01,3.01193006792211e-04
1.52080000000000e-08,0.00000000000000e+00,6.75000000000000e-01,5.03669416231561e-04
1.52240000000000e-08,0.00000000000000e+00,6.75000000000000e-01,7.33091899896995e-04
1.52560000000000e-08,0.00000000000000e+00,6.75000000000000e-01,6.14268485260222e-04
1.53200000000000e-08,0.00000000000000e+00,6.75000000000000e-01,-1.38776233011562e-04
1.54480000000000e-08,0.00000000000000e+00,6.75000000000000e-01,-4.77726678464192e-04
1.57040000000000e-08,0.00000000000000e+00,6.75000000000000e-01,8.81231876142946e-05
1.60534418232682e-08,0.00000000000000e+00,6.75000000000000e-01,-1.33418920760051e-04
1.65925015484044e-08,0.00000000000000e+00,6.75000000000000e-01,2.95973922234551e-04
1.76706209986769e-08,0.00000000000000e+00,6.75000000000000e-01,-2.78557977402420e-04
1.86793189467329e-08,0.00000000000000e+00,6.75000000000000e-01,2.92530013935460e-04
2.06967148428450e-08,0.00000000000000e+00,6.75000000000000e-01,-2.57708915915109e-04
2.42015634057449e-08,0.00000000000000e+00,6.75000000000000e-01,2.73442546122286e-04
2.50000000000000e-08,0.00000000000000e+00,6.75000000000000e-01,-2.14310858077703e-04
2.50100000000000e-08,6.74999999999872e-02,6.75000000000000e-01,-2.21519426089750e-05
2.50300000000000e-08,2.02500000000006e-01,6.75000000000000e-01,2.93309257300020e-04
2.50700000000000e-08,4.72500000000000e-01,6.75000000000000e-01,6.51585769430474e-04
2.51000000000000e-08,6.75000000000000e-01,6.75000000000000e-01,2.70460524995422e-04
2.51080000000000e-08,6.75000000000000e-01,6.75000000000000e-01,-1.65277814752535e-04
2.51240000000000e-08,6.75000000000000e-01,6.75000000000000e-01,-1.13844588764904e-03
2.51560000000000e-08,6.75000000000000e-01,6.75000000000000e-01,-3.17169445829073e-03
2.52200000000000e-08,6.75000000000000e-01,6.75000000000000e-01,-5.68926687590526e-03
2.53480000000000e-08,6.75000000000000e-01,6.75000000000000e-01,2.62577976376854e-02
2.56040000000000e-08,6.75000000000000e-01,6.75000000000000e-01,5.14532071408075e-01
2.61160000000000e-08,6.75000000000000e-01,6.75000000000000e-01,7.01332406788461e-01
2.66199965803973e-08,6.75000000000000e-01,6.75000000000000e-01,6.51417771449371e-01
2.76279897411918e-08,6.75000000000000e-01,6.75000000000000e-01,6.96656107210066e-01
2.90568133404652e-08,6.75000000000000e-01,6.75000000000000e-01,6.53255600169646e-01
3.01000000000000e-08,6.75000000000000e-01,6.75000000000000e-01,6.94769004869147e-01
3.01100000000000e-08,6.75000000000000e-01,6.07500000000035e-01,6.86072050689868e-01
3.01300000000000e-08,6.75000000000000e-01,4.72500000000016e-01,6.76335689758709e-01
3.01700000000000e-08,6.75000000000000e-01,2.02500000000023e-01,6.74642829837862e-01
3.02000000000000e-08,6.75000000000000e-01,1.63202784619898e-14,6.75032190669266e-01
3.02080000000000e-08,6.75000000000000e-01,0.00000000000000e+00,6.74999542000842e-01
3.02240000000000e-08,6.75000000000000e-01,0.00000000000000e+00,6.74956835743857e-01
3.02560000000000e-08,6.75000000000000e-01,0.00000000000000e+00,6.74930790766339e-01
3.03200000000000e-08,6.75000000000000e-01,0.00000000000000e+00,6.74931918598745e-01
3.04480000000000e-08,6.75000000000000e-01,0.00000000000000e+00,6.74974893450463e-01
3.06800183245050e-08,6.75000000000000e-01,0.00000000000000e+00,6.74970602561197e-01
3.10384469314201e-08,6.75000000000000e-01,0.00000000000000e+00,6.74960153333616e-01
3.15648042372197e-08,6.75000000000000e-01,0.00000000000000e+00,6.74978400151731e-01
3.26175188488190e-08,6.75000000000000e-01,0.00000000000000e+00,6.74964793290460e-01
3.47229480720176e-08,6.75000000000000e-01,0.00000000000000e+00,6.74986356136234e-01
3.51000000000000e-08,6.74999999999967e-01,0.00000000000000e+00,6.74969165993828e-01
3.51100000000000e-08,6.07499999999979e-01,0.00000000000000e+00,6.74890492569184e-01
3.51300000000000e-08,4.72499999999960e-01,0.00000000000000e+00,6.74803684560103e-01
3.51700000000000e-08,2.02499999999967e-01,0.00000000000000e+00,6.75870236146379e-01
3.52000000000000e-08,0.00000000000000e+00,0.00000000000000e+00,6.78354534152723e-01
3.52080000000000e-08,0.00000000000000e+00,0.00000000000000e+00,6.78902460173360e-01
3.52240000000000e-08,0.00000000000000e+00,0.00000000000000e+00,6.79257965221977e-01
3.52560000000000e-08,0.00000000000000e+00,0.00000000000000e+00,6.75417773574946e-01
3.53200000000000e-08,0.00000000000000e+00,0.00000000000000e+00,6.59293970505708e-01
3.54480000000000e-08,0.00000000000000e+00,0.00000000000000e+00,6.59244410493821e-01
3.56831039169210e-08,0.00000000000000e+00,0.00000000000000e+00,6.78155498810452e-01
3.60145008589088e-08,0.00000000000000e+00,0.00000000000000e+00,6.71275324187655e-01
3.66449483023866e-08,0.00000000000000e+00,0.00000000000000e+00,6.77260478637021e-01
3.73987628907867e-08,0.00000000000000e+00,0.00000000000000e+00,6.72504881719748e-01
3.89063920675869e-08,0.00000000000000e+00,0.00000000000000e+00,6.76952983882986e-01
3.91000000000000e-08,0.00000000000000e+00,0.00000000000000e+00,6.73645103982834e-01
3.94015258353600e-08,0.00000000000000e+00,0.00000000000000e+00,6.74763925911388e-01
4.00045775060801e-08,0.00000000000000e+00,0.00000000000000e+00,6.74959651191437e-01
4.12106808475202e-08,0.00000000000000e+00,0.00000000000000e+00,6.74813868443096e-01
4.36228875304005e-08,0.00000000000000e+00,0.00000000000000e+00,6.74979995878288e-01
4.50000000000000e-08,0.00000000000000e+00,0.00000000000000e+00,6.74843774745968e-01
4.50100000000000e-08,6.74999999999872e-02,0.00000000000000e+00,6.74952612061965e-01
4.50300000000000e-08,2.02500000000006e-01,0.00000000000000e+00,6.75061706188481e-01
4.50700000000000e-08,4.72500000000000e-01,0.00000000000000e+00,6.75000608021902e-01
4.51000000000000e-08,6.75000000000000e-01,0.00000000000000e+00,6.74840199038239e-01
4.51080000000000e-08,6.75000000000000e-01,0.00000000000000e+00,6.74753532465461e-01
4.51240000000000e-08,6.75000000000000e-01,0.00000000000000e+00,6.74653714110070e-01
4.51560000000000e-08,6.75000000000000e-01,0.00000000000000e+00,6.74633290720733e-01
4.52200000000000e-08,6.75000000000000e-01,0.00000000000000e+00,6.74766274570913e-01
4.53480000000000e-08,6.75000000000000e-01,0.00000000000000e+00,6.76615341233914e-01
4.56040000000000e-08,6.75000000000000e-01,0.00000000000000e+00,5.53666934517264e-01
4.61160000000000e-08,6.75000000000000e-01,0.00000000000000e+00,2.51450200555866e-02
4.66056809046504e-08,6.75000000000000e-01,0.00000000000000e+00,-1.58814512138655e-02
4.75850427139511e-08,6.75000000000000e-01,0.00000000000000e+00,1.38500986210961e-02
4.88005536690863e-08,6.75000000000000e-01,0.00000000000000e+00,-1.15172459439076e-02
5.00000000000000e-08,6.75000000000000e-01,0.00000000000000e+00,1.06280511711556e-02
5.00100000000000e-08,6.75000000000000e-01,6.74999999999872e-02,7.33380425418652e-03
5.00300000000000e-08,6.75000000000000e-01,2.02499999999962e-01,3.48694929992642e-03
5.00700000000000e-08,6.75000000000000e-01,4.72500000000000e-01,1.77123614243048e-03
5.01000000000000e-08,6.75000000000000e-01,6.75000000000000e-01,1.09325187569355e-03
5.01080000000000e-08,6.75000000000000e-01,6.75000000000000e-01,9.88402047345807e-04
5.01240000000000e-08,6.75000000000000e-01,6.75000000000000e-01,7.87756352881641e-04
5.01560000000000e-08,6.75000000000000e-01,6.75000000000000e-01,4.80494690443450e-04
5.02200000000000e-08,6.75000000000000e-01,6.75000000000000e-01,1.77503609134787e-04
5.03480000000000e-08,6.75000000000000e-01,6.75000000000000e-01,1.47694776267138e-05
5.06040000000000e-08,6.75000000000000e-01,6.75000000000000e-01,-4.31263780109950e-06
5.11099985899408e-08,6.75000000000000e-01,6.75000000000000e-01,1.61454400378000e-05
5.21219957698223e-08,6.75000000000000e-01,6.75000000000000e-01,2.06777978965615e-06
5.41459901295853e-08,6.75000000000000e-01,6.75000000000000e-01,1.43033005076589e-05
5.51000000000000e-08,6.75000000000000e-01,6.75000000000000e-01,3.83210678333960e-06
5.51100000000000e-08,6.07500000000024e-01,6.75000000000000e-01,-9.44813028890823e-05
5.51300000000000e-08,4.72500000000005e-01,6.75000000000000e-01,-2.40411759498835e-04
5.51700000000000e-08,2.02500000000011e-01,6.75000000000000e-01,-1.47164344216785e-04
5.52000000000000e-08,0.00000000000000e+00,6.75000000000000e-01,2.88690553464907e-04
5.52080000000000e-08,0.00000000000000e+00,6.75000000000000e-01,4.83211725150409e-04
5.52240000000000e-08,0.00000000000000e+00,6.75000000000000e-01,6.79302728887901e-04
5.52560000000000e-08,0.00000000000000e+00,6.75000000000000e-01,3.18571031210912e-04
5.53200000000000e-08,0.00000000000000e+00,6.75000000000000e-01,-1.38632458004222e-03
5.54480000000000e-08,0.00000000000000e+00,6.75000000000000e-01,-1.48731823350803e-03
5.56952261279792e-08,0.00000000000000e+00,6.75000000000000e-01,4.08137627037723e-04
5.60469839340938e-08,0.00000000000000e+00,6.75000000000000e-01,-3.10193873007104e-04
5.65795034450701e-08,0.00000000000000e+00,6.75000000000000e-01,4.17206198415350e-04
5.76445424670226e-08,0.00000000000000e+00,6.75000000000000e-01,-3.80113263494606e-04
5.86419123597521e-08,0.00000000000000e+00,6.75000000000000e-01,3.75953861217474e-04
6.06366521452112e-08,0.00000000000000e+00,6.75000000000000e-01,-3.35644603105863e-04
6.41657032087632e-08,0.00000000000000e+00,6.75000000000000e-01,3.47090311528014e-04
6.50000000000000e-08,0.00000000000000e+00,6.75000000000000e-01,-2.79390763340498e-04
6.50100000000000e-08,6.74999999999872e-02,6.75000000000000e-01,-5.14579504517915e-05
6.50300000000000e-08,2.02499999999962e-01,6.75000000000000e-01,2.90151246686590e-04
6.50700000000000e-08,4.72499999999910e-01,6.75000000000000e-01,6.42551771857597e-04
6.51000000000000e-08,6.74999999999961e-01,6.75000000000000e-01,2.68162828806637e-04
6.51080000000000e-08,6.75000000000000e-01,6.75000000000000e-01,-1.67305932858255e-04
6.51240000000000e-08,6.75000000000000e-01,6.75000000000000e-01,-1.13965004082527e-03
6.51560000000000e-08,6.75000000000000e-01,6.75000000000000e-01,-3.17170836601362e-03
6.52200000000000e-08,6.75000000000000e-01,6.75000000000000e-01,-5.69050681029084e-03
6.53480000000000e-08,6.75000000000000e-01,6.75000000000000e-01,2.61777283418383e-02
6.56040000000000e-08,6.75000000000000e-01,6.75000000000000e-01,5.14383000403779e-01
6.61159999999999e-08,6.75000000000000e-01,6.75000000000000e-01,7.01335272148548e-01
6.66200116749393e-08,6.75000000000000e-01,6.75000000000000e-01,6.51417625098731e-01
6.76280350248182e-08,6.75000000000000e-01,6.75000000000000e-01,6.96657220469496e-01
6.90565778521636e-08,6.75000000000000e-01,6.75000000000000e-01,6.53255159423236e-01
7.01000000000000e-08,6.75000000000000e-01,6.75000000000000e-01,6.94770070486842e-01
7.01100000000000e-08,6.75000000000000e-01,6.07500000000013e-01,6.86072499975309e-01
7.01300000000000e-08,6.75000000000000e-01,4.72500000000038e-01,6.76335696081811e-01
7.01700000000000e-08,6.75000000000000e-01,2.02500000000090e-01,6.74642696576187e-01
7.02000000000000e-08,6.75000000000000e-01,3.86357612569554e-14,6.75032254394566e-01
7.02080000000000e-08,6.75000000000000e-01,0.00000000000000e+00,6.74999555008042e-01
7.02240000000000e-08,6.75000000000000e-01,0.00000000000000e+00,6.74956820452808e-01
7.02560000000000e-08,6.75000000000000e-01,0.00000000000000e+00,6.74930802289164e-01
7.03200000000000e-08,6.75000000000000e-01,0.00000000000000e+00,6.74931902726698e-01
7.04480000000000e-08,6.75000000000000e-01,0.00000000000000e+00,6.74974896809897e-01
7.06800271169538e-08,6.75000000000000e-01,0.00000000000000e+00,6.74970610397432e-01
7.10384106730508e-08,6.75000000000000e-01,0.00000000000000e+00,6.74960149961184e-01
7.15647621745631e-08,6.75000000000000e-01,0.00000000000000e+00,6.74978406551060e-01
7.26174651775877e-08,6.75000000000000e-01,0.00000000000000e+00,6.74964790363998e-01
7.47228711836369e-08,6.75000000000000e-01,0.00000000000000e+00,6.74986361273723e-01
7.51000000000000e-08,6.75000000000000e-01,0.00000000000000e+00,6.74969165033694e-01
7.51100000000000e-08,6.07500000000069e-01,0.00000000000000e+00,6.74890501238012e-01
7.51300000000000e-08,4.72500000000094e-01,0.00000000000000e+00,6.74803698895418e-01
7.51700000000000e-08,2.02500000000145e-01,0.00000000000000e+00,6.75870243917883e-01
7.52000000000000e-08,9.43689570931383e-14,0.00000000000000e+00,6.78354543164777e-01
7.52080000000000e-08,0.00000000000000e+00,0.00000000000000e+00,6.78902478562872e-01
7.52240000000000e-08,0.00000000000000e+00,0.00000000000000e+00,6.79258007437751e-01
7.52560000000000e-08,0.00000000000000e+00,0.00000000000000e+00,6.75417894874634e-01
7.53200000000000e-08,0.00000000000000e+00,0.00000000000000e+00,6.59294103259718e-01
7.54480000000000e-08,0.00000000000000e+00,0.00000000000000e+00,6.59244372387855e-01
7.56831038565841e-08,0.00000000000000e+00,0.00000000000000e+00,6.78155499240005e-01
7.60145008093696e-08,0.00000000000000e+00,0.00000000000000e+00,6.71275323821435e-01
7.66449482200024e-08,0.00000000000000e+00,0.00000000000000e+00,6.77260479123418e-01
7.73987628122670e-08,0.00000000000000e+00,0.00000000000000e+00,6.72504881263900e-01
7.81000000000000e-08,0.00000000000000e+00,0.00000000000000e+00,6.76757903331457e-01
7.82507629184529e-08,0.00000000000000e+00,0.00000000000000e+00,6.75105644512030e-01
7.85522887553588e-08,0.00000000000000e+00,0.00000000000000e+00,6.74642017324900e-01
7.91553404291705e-08,0.00000000000000e+00,0.00000000000000e+00,6.75019272271932e-01
8.03614437767939e-08,0.00000000000000e+00,0.00000000000000e+00,6.74730603393315e-01
8.27736504720408e-08,0.00000000000000e+00,0.00000000000000e+00,6.75044590187720e-01
8.50000000000000e-08,0.00000000000000e+00,0.00000000000000e+00,6.74775702500884e-01
8.50100000000000e-08,6.74999999999872e-02,0.00000000000000e+00,6.74896374268367e-01
8.50300000000000e-08,2.02499999999962e-01,0.00000000000000e+00,6.75024545776426e-01
8.50700000000000e-08,4.72499999999910e-01,0.00000000000000e+00,6.74992159707888e-01
8.51000000000000e-08,6.74999999999961e-01,0.00000000000000e+00,6.74836931596003e-01
8.51080000000000e-08,6.75000000000000e-01,0.00000000000000e+00,6.74748679934987e-01
8.51240000000000e-08,6.75000000000000e-01,0.00000000000000e+00,6.74647634274009e-01
8.51560000000000e-08,6.75000000000000e-01,0.00000000000000e+00,6.74660278755596e-01
8.52200000000000e-08,6.75000000000000e-01,0.00000000000000e+00,6.74755342121281e-01
8.53480000000000e-08,6.75000000000000e-01,0.00000000000000e+00,6.76628743356515e-01
8.56040000000000e-08,6.75000000000000e-01,0.00000000000000e+00,5.53544114366292e-01
8.61159999999999e-08,6.75000000000000e-01,0.00000000000000e+00,2.50999107123566e-02
8.66057268882033e-08,6.75000000000000e-01,0.00000000000000e+00,-1.58591474743379e-02
8.75851806646100e-08,6.75000000000000e-01,0.00000000000000e+00,1.38336390058849e-02
8.88005948598283e-08,6.75000000000000e-01,0.00000000000000e+00,-1.15045669981403e-02
9.00000000000000e-08,6.75000000000000e-01,0.00000000000000e+00,1.06183244749661e-02
9.00100000000000e-08,6.75000000000000e-01,6.74999999999872e-02,7.32476461727463e-03
9.00300000000000e-08,6.75000000000000e-01,2.02499999999962e-01,3.47950502232004e-03
9.00700000000000e-08,6.75000000000000e-01,4.72499999999910e-01,1.76690719184073e-03
9.01000000000000e-08,6.75000000000000e-01,6.74999999999961e-01,1.09052729048528e-03
9.01080000000000e-08,6.75000000000000e-01,6.75000000000000e-01,9.85965473747949e-04
9.01240000000000e-08,6.75000000000000e-01,6.75000000000000e-01,7.85843218669688e-04
9.01560000000000e-08,6.75000000000000e-01,6.75000000000000e-01,4.79340741217124e-04
9.02200000000000e-08,6.75000000000000e-01,6.75000000000000e-01,1.77089172904508e-04
9.03480000000000e-08,6.75000000000000e-01,6.75000000000000e-01,1.47700742988421e-05
9.06040000000000e-08,6.75000000000000e-01,6.75000000000000e-01,-4.27469840639377e-06
9.11101004370921e-08,6.75000000000000e-01,6.75000000000000e-01,1.61420919531155e-05
9.21223013112763e-08,6.75000000000000e-01,6.75000000000000e-01,2.08800965692361e-06
9.41467030596447e-08,6.75000000000000e-01,6.75000000000000e-01,1.43036815139505e-05
9.51000000000000e-08,6.75000000000000e-01,6.75000000000000e-01,3.84870564858371e-06
9.51100000000000e-08,6.07500000000069e-01,6.75000000000000e-01,-9.44626382304165e-05
9.51300000000000e-08,4.72500000000094e-01,6.75000000000000e-01,-2.40392909677978e-04
9.51700000000000e-08,2.02500000000145e-01,6.75000000000000e-01,-1.47146363466605e-04
9.52000000000000e-08,9.43689570931383e-14,6.75000000000000e-01,2.88727287984486e-04
9.52080000000000e-08,0.00000000000000e+00,6.75000000000000e-01,4.83269031677142e-04
9.52240000000000e-08,0.00000000000000e+00,6.75000000000000e-01,6.79444944369265e-04
9.52560000000000e-08,0.00000000000000e+00,6.75000000000000e-01,3.19102330457538e-04
9.53200000000000e-08,0.00000000000000e+00,6.75000000000000e-01,-1.38417294287711e-03
9.54480000000000e-08,0.00000000000000e+00,6.75000000000000e-01,-1.48507294915225e-03
9.56953722712620e-08,0.00000000000000e+00,6.75000000000000e-01,4.08142216020355e-04
9.60470711955387e-08,0.00000000000000e+00,6.75000000000000e-01,-3.10169699216375e-04
9.65796969122369e-08,0.00000000000000e+00,6.75000000000000e-01,4.17295709236397e-04
9.76449483456334e-08,0.00000000000000e+00,6.75000000000000e-01,-3.80280721919162e-04
9.86424663580384e-08,0.00000000000000e+00,6.75000000000000e-01,3.76183657630856e-04
1.00637502382848e-07,0.00000000000000e+00,6.75000000000000e-01,-3.35895165115264e-04
1.04165996020567e-07,0.00000000000000e+00,6.75000000000000e-01,3.47340243634059e-04
1.05000000000000e-07,0.00000000000000e+00,6.75000000000000e-01,-2.79633679278626e-04
1.05010000000000e-07,6.74999999999872e-02,6.75000000000000e-01,-5.16682456160322e-05
1.05030000000000e-07,2.02499999999962e-01,6.75000000000000e-01,2.90028575191281e-04
1.05070000000000e-07,4.72499999999910e-01,6.75000000000000e-01,6.42527735459128e-04
1.05100000000000e-07,6.74999999999961e-01,6.75000000000000e-01,2.68158717869837e-04
1.05108000000000e-07,6.75000000000000e-01,6.75000000000000e-01,-1.67303865903842e-04
1.05124000000000e-07,6.75000000000000e-01,6.75000000000000e-01,-1.13963973486525e-03
1.05156000000000e-07,6.75000000000000e-01,6.75000000000000e-01,-3.17169585643275e-03
1.05220000000000e-07,6.75000000000000e-01,6.75000000000000e-01,-5.69048870640005e-03
1.05348000000000e-07,6.75000000000000e-01,6.75000000000000e-01,2.61783673877793e-02
1.05604000000000e-07,6.75000000000000e-01,6.75000000000000e-01,5.14384188134100e-01
1.06116000000000e-07,6.75000000000000e-01,6.75000000000000e-01,7.01335248957801e-01
1.06620011549846e-07,6.75000000000000e-01,6.75000000000000e-01,6.51417626525521e-01
1.07628034649540e-07,6.75000000000000e-01,6.75000000000000e-01,6.96657211303831e-01
