Time,v(clk),v(data),v(out)
1.00000000000000e-08,7.50000000000000e-01,0.00000000000000e+00,2.08643059051304e-05
1.00100000000000e-08,7.50000000000000e-01,7.49999999999982e-02,1.83211320346627e-05
1.00300000000000e-08,7.50000000000000e-01,2.24999999999995e-01,1.53698806451830e-05
1.00700000000000e-08,7.50000000000000e-01,5.24999999999987e-01,1.16488739446002e-05
1.01000000000000e-08,7.50000000000000e-01,7.49999999999994e-01,1.19328559411991e-05
1.01080000000000e-08,7.50000000000000e-01,7.50000000000000e-01,1.14903152740320e-05
1.01240000000000e-08,7.50000000000000e-01,7.50000000000000e-01,1.25995374215260e-05
1.01560000000000e-08,7.50000000000000e-01,7.50000000000000e-01,1.78224035516511e-05
1.02200000000000e-08,7.50000000000000e-01,7.50000000000000e-01,1.89035025082440e-05
1.03480000000000e-08,7.50000000000000e-01,7.50000000000000e-01,1.47148581664050e-05
1.06040000000000e-08,7.50000000000000e-01,7.50000000000000e-01,1.56343138391184e-05
1.11160000000000e-08,7.50000000000000e-01,7.50000000000000e-01,1.55455877341708e-05
1.21400000000000e-08,7.50000000000000e-01,7.50000000000000e-01,1.48066027645874e-05
1.41880000000000e-08,7.50000000000000e-01,7.50000000000000e-01,1.48662291678948e-05
1.51000000000000e-08,7.50000000000000e-01,7.50000000000000e-01,1.41295652085803e-05
1.51100000000000e-08,6.74999999999989e-01,7.50000000000000e-01,-7.70516049208164e-05
1.51300000000000e-08,5.24999999999993e-01,7.50000000000000e-01,-1.84663653849351e-04
1.51700000000000e-08,2.25000000000000e-01,7.50000000000000e-01,5.53533125740580e-05
1.52000000000000e-08,0.00000000000000e+00,7.50000000000000e-01,4.87285840210433e-04
1.52080000000000e-08,0.00000000000000e+00,7.50000000000000e-01,5.91296135274505e-04
1.52240000000000e-08,0.00000000000000e+00,7.50000000000000e-01,5.64549286256183e-04
1.52560000000000e-08,0.00000000000000e+00,7.50000000000000e-01,-7.05249631053340e-05
1.53200000000000e-08,0.00000000000000e+00,7.50000000000000e-01,-6.00998911077719e-04
1.54480000000000e-08,0.00000000000000e+00,7.50000000000000e-01,4.99745690641026e-05
1.56475197342430e-08,0.00000000000000e+00,7.50000000000000e-01,-1.76958821127365e-04
1.59482279753315e-08,0.00000000000000e+00,7.50000000000000e-01,3.06674802928626e-04
1.64691437057861e-08,0.00000000000000e+00,7.50000000000000e-01,-2.12629592010079e-04
1.70053526093707e-08,0.00000000000000e+00,7.50000000000000e-01,1.88030771953989e-04
1.80777704165400e-08,0.00000000000000e+00,7.50000000000000e-01,-1.38863099340191e-04
2.02226060308785e-08,0.00000000000000e+00,7.50000000000000e-01,1.55281817960989e-04
2.37102228070376e-08,0.00000000000000e+00,7.50000000000000e-01,-1.22414606022315e-04
2.50000000000000e-08,0.00000000000000e+00,7.50000000000000e-01,1.33623711551250e-04
2.50100000000000e-08,7.49999999999858e-02,7.50000000000000e-01,2.89001576587011e-04
2.50300000000000e-08,2.25000000000007e-01,7.50000000000000e-01,4.62387410976012e-04
2.50700000000000e-08,5.25000000000000e-01,7.50000000000000e-01,3.55355277162364e-04
2.51000000000000e-08,7.50000000000000e-01,7.50000000000000e-01,-1.44241216102935e-03
2.51080000000000e-08,7.50000000000000e-01,7.50000000000000e-01,-2.42367188825128e-03
2.51240000000000e-08,7.50000000000000e-01,7.50000000000000e-01,-4.20701732946524e-03
2.51560000000000e-08,7.50000000000000e-01,7.50000000000000e-01,-6.08963036094932e-03
2.52200000000000e-08,7.50000000000000e-01,7.50000000000000e-01,2.29769114808411e-02
2.53480000000000e-08,7.50000000000000e-01,7.50000000000000e-01,4.78344671323406e-01
2.56040000000000e-08,7.50000000000000e-01,7.50000000000000e-01,7.75116652323146e-01
2.58792844806789e-08,7.50000000000000e-01,7.50000000000000e-01,7.29519638199871e-01
2.64298534420366e-08,7.50000000000000e-01,7.50000000000000e-01,7.69225571974439e-01
2.70808862745301e-08,7.50000000000000e-01,7.50000000000000e-01,7.31333994790611e-01
2.82046856815339e-08,7.50000000000000e-01,7.50000000000000e-01,7.67732685716465e-01
3.01000000000000e-08,7.50000000000000e-01,7.50000000000000e-01,7.32152071004616e-01
3.01100000000000e-08,7.50000000000000e-01,6.75000000000039e-01,7.41704889466621e-01
3.01300000000000e-08,7.50000000000000e-01,5.25000000000018e-01,7.50585543467223e-01
3.01700000000000e-08,7.50000000000000e-01,2.25000000000025e-01,7.49775002025634e-01
3.02000000000000e-08,7.50000000000000e-01,1.80966353013901e-14,7.50084518244622e-01
3.02080000000000e-08,7.50000000000000e-01,0.00000000000000e+00,7.50036092685021e-01
3.02240000000000e-08,7.50000000000000e-01,0.00000000000000e+00,7.49980375707713e-01
3.02560000000000e-08,7.50000000000000e-01,0.00000000000000e+00,7.49963335954349e-01
3.03200000000000e-08,7.50000000000000e-01,0.00000000000000e+00,7.49981579968657e-01
3.04480000000000e-08,7.50000000000000e-01,0.00000000000000e+00,7.49993793707192e-01
3.06463248205428e-08,7.50000000000000e-01,0.00000000000000e+00,7.49959750505244e-01
3.09312045501293e-08,7.50000000000000e-01,0.00000000000000e+00,7.49993150774036e-01
3.15009640093024e-08,7.50000000000000e-01,0.00000000000000e+00,7.49965054806605e-01
3.26404829276486e-08,7.50000000000000e-01,0.00000000000000e+00,7.49995735871830e-01
3.49195207643409e-08,7.50000000000000e-01,0.00000000000000e+00,7.49971033365248e-01
3.51000000000000e-08,7.49999999999963e-01,0.00000000000000e+00,7.49996514467914e-01
3.51100000000000e-08,6.74999999999977e-01,0.00000000000000e+00,7.49908658900992e-01
3.51300000000000e-08,5.24999999999956e-01,0.00000000000000e+00,7.49869968937392e-01
3.51700000000000e-08,2.24999999999963e-01,0.00000000000000e+00,7.51446762338628e-01
3.52000000000000e-08,0.00000000000000e+00,0.00000000000000e+00,7.53847953687979e-01
3.52080000000000e-08,0.00000000000000e+00,0.00000000000000e+00,7.53563676099938e-01
3.52240000000000e-08,0.00000000000000e+00,0.00000000000000e+00,7.50062692884919e-01
3.52560000000000e-08,0.00000000000000e+00,0.00000000000000e+00,7.35604749831731e-01
3.53200000000000e-08,0.00000000000000e+00,0.00000000000000e+00,7.30137941319554e-01
3.54480000000000e-08,0.00000000000000e+00,0.00000000000000e+00,7.50734733003966e-01
3.56290684850114e-08,0.00000000000000e+00,0.00000000000000e+00,7.48017133794835e-01
3.59401757535422e-08,0.00000000000000e+00,0.00000000000000e+00,7.50717969248510e-01
3.63577806620970e-08,0.00000000000000e+00,0.00000000000000e+00,7.48798658985792e-01
3.71929904792065e-08,0.00000000000000e+00,0.00000000000000e+00,7.50716727737504e-01
3.88634101134257e-08,0.00000000000000e+00,0.00000000000000e+00,7.49035878033771e-01
3.91000000000000e-08,0.00000000000000e+00,0.00000000000000e+00,7.50547222901588e-01
3.94340839268438e-08,0.00000000000000e+00,0.00000000000000e+00,7.49920146372860e-01
4.01022517805315e-08,0.00000000000000e+00,0.00000000000000e+00,7.49872802936677e-01
4.14385874879068e-08,0.00000000000000e+00,0.00000000000000e+00,7.49927633659746e-01
4.41112589026574e-08,0.00000000000000e+00,0.00000000000000e+00,7.49885254825912e-01
4.50000000000000e-08,0.00000000000000e+00,0.00000000000000e+00,7.49930760653998e-01
4.50100000000000e-08,7.49999999999858e-02,0.00000000000000e+00,7.49995573604765e-01
4.50300000000000e-08,2.25000000000007e-01,0.00000000000000e+00,7.50017146606690e-01
4.50700000000000e-08,5.25000000000000e-01,0.00000000000000e+00,7.49897748609418e-01
4.51000000000000e-08,7.50000000000000e-01,0.00000000000000e+00,7.49741375741029e-01
4.51080000000000e-08,7.50000000000000e-01,0.00000000000000e+00,7.49671815113725e-01
4.51240000000000e-08,7.50000000000000e-01,0.00000000000000e+00,7.49629777750776e-01
4.51560000000000e-08,7.50000000000000e-01,0.00000000000000e+00,7.49746171919034e-01
4.52200000000000e-08,7.50000000000000e-01,0.00000000000000e+00,7.51772598088328e-01
4.53480000000000e-08,7.50000000000000e-01,0.00000000000000e+00,7.34146258978840e-01
4.56040000000000e-08,7.50000000000000e-01,0.00000000000000e+00,1.44454342896165e-01
4.58524832637783e-08,7.50000000000000e-01,0.00000000000000e+00,-5.71354788423086e-02
4.63494497913348e-08,7.50000000000000e-01,0.00000000000000e+00,4.50022613674073e-02
4.69127460906060e-08,7.50000000000000e-01,0.00000000000000e+00,-3.27027623070556e-02
4.78867545047582e-08,7.50000000000000e-01,0.00000000000000e+00,2.94949057053726e-02
4.97176661635469e-08,7.50000000000000e-01,0.00000000000000e+00,-2.62696374755677e-02
5.00000000000000e-08,7.50000000000000e-01,0.00000000000000e+00,1.67955230941289e-02
5.00100000000000e-08,7.50000000000000e-01,7.49999999999858e-02,1.16386430168285e-02
5.00300000000000e-08,7.50000000000000e-01,2.24999999999957e-01,5.66093640064969e-03
5.00700000000000e-08,7.50000000000000e-01,5.25000000000000e-01,2.20699152329040e-03
5.01000000000000e-08,7.50000000000000e-01,7.50000000000000e-01,8.23975321052967e-04
5.01080000000000e-08,7.50000000000000e-01,7.50000000000000e-01,7.36797706742329e-04
5.01240000000000e-08,7.50000000000000e-01,7.50000000000000e-01,5.22767880443392e-04
5.01560000000000e-08,7.50000000000000e-01,7.50000000000000e-01,2.25050029245444e-04
5.02200000000000e-08,7.50000000000000e-01,7.50000000000000e-01,5.37765159023817e-05
5.03480000000000e-08,7.50000000000000e-01,7.50000000000000e-01,-6.88533705704014e-06
5.06040000000000e-08,7.50000000000000e-01,7.50000000000000e-01,1.73597473297378e-05
5.11160000000001e-08,7.50000000000000e-01,7.50000000000000e-01,-1.17930384944259e-06
5.21400000000002e-08,7.50000000000000e-01,7.50000000000000e-01,1.82255402636057e-05
5.41880000000003e-08,7.50000000000000e-01,7.50000000000000e-01,-8.46799408451854e-07
5.51000000000000e-08,7.50000000000000e-01,7.50000000000000e-01,1.54683340333047e-05
5.51100000000000e-08,6.75000000000027e-01,7.50000000000000e-01,-7.86971155646715e-05
5.51300000000000e-08,5.25000000000005e-01,7.50000000000000e-01,-1.91237598403865e-04
5.51700000000000e-08,2.25000000000013e-01,7.50000000000000e-01,5.32377155116198e-05
5.52000000000000e-08,0.00000000000000e+00,7.50000000000000e-01,3.96115250514487e-04
5.52080000000000e-08,0.00000000000000e+00,7.50000000000000e-01,4.16618419561199e-04
5.52240000000000e-08,0.00000000000000e+00,7.50000000000000e-01,1.00228684459649e-04
5.52560000000000e-08,0.00000000000000e+00,7.50000000000000e-01,-1.50850386441345e-03
5.53200000000000e-08,0.00000000000000e+00,7.50000000000000e-01,-2.01592584511275e-03
5.54480000000000e-08,0.00000000000000e+00,7.50000000000000e-01,1.96010998709459e-04
5.56462882870136e-08,0.00000000000000e+00,7.50000000000000e-01,-1.96823091063902e-04
5.59448140763372e-08,0.00000000000000e+00,7.50000000000000e-01,3.02615147785831e-04
5.64632788863330e-08,0.00000000000000e+00,7.50000000000000e-01,-2.03323348238875e-04
5.69967295761432e-08,0.00000000000000e+00,7.50000000000000e-01,1.77967668056724e-04
5.80636309557635e-08,0.00000000000000e+00,7.50000000000000e-01,-1.29602204069858e-04
6.01974337150042e-08,0.00000000000000e+00,7.50000000000000e-01,1.46533473354819e-04
6.37057728982033e-08,0.00000000000000e+00,7.50000000000000e-01,-1.14098110852686e-04
6.50000000000000e-08,0.00000000000000e+00,7.50000000000000e-01,1.26556221782624e-04
6.50100000000000e-08,7.49999999999858e-02,7.50000000000000e-01,2.68023181575330e-04
6.50300000000000e-08,2.24999999999957e-01,7.50000000000000e-01,4.48442051732015e-04
6.50700000000000e-08,5.24999999999900e-01,7.50000000000000e-01,3.63038929031632e-04
6.51000000000000e-08,7.49999999999957e-01,7.50000000000000e-01,-1.44263626503986e-03
6.51080000000000e-08,7.50000000000000e-01,7.50000000000000e-01,-2.42252559793106e-03
6.51240000000000e-08,7.50000000000000e-01,7.50000000000000e-01,-4.20539363651649e-03
6.51560000000000e-08,7.50000000000000e-01,7.50000000000000e-01,-6.08882049686159e-03
6.52200000000000e-08,7.50000000000000e-01,7.50000000000000e-01,2.29862914111095e-02
6.53480000000000e-08,7.50000000000000e-01,7.50000000000000e-01,4.78375454242009e-01
6.56040000000000e-08,7.50000000000000e-01,7.50000000000000e-01,7.75118462121761e-01
6.58792767200120e-08,7.50000000000000e-01,7.50000000000000e-01,7.29518026887092e-01
6.64298301600361e-08,7.50000000000000e-01,7.50000000000000e-01,7.69226918421368e-01
6.70808637822568e-08,7.50000000000000e-01,7.50000000000000e-01,7.31332597685167e-01
6.82046545297671e-08,7.50000000000000e-01,7.50000000000000e-01,7.67733922820650e-01
7.01000000000000e-08,7.50000000000000e-01,7.50000000000000e-01,7.32150749567007e-01
7.01100000000000e-08,7.50000000000000e-01,6.75000000000014e-01,7.41704219826905e-01
7.01300000000000e-08,7.50000000000000e-01,5.25000000000043e-01,7.50585602056503e-01
7.01700000000000e-08,7.50000000000000e-01,2.25000000000100e-01,7.49774983718733e-01
7.02000000000000e-08,7.50000000000000e-01,4.29656310529936e-14,7.50084524261238e-01
7.02080000000000e-08,7.50000000000000e-01,0.00000000000000e+00,7.50036098682327e-01
7.02240000000000e-08,7.50000000000000e-01,0.00000000000000e+00,7.49980380294586e-01
7.02560000000000e-08,7.50000000000000e-01,0.00000000000000e+00,7.49963337380786e-01
7.03200000000000e-08,7.50000000000000e-01,0.00000000000000e+00,7.49981577054486e-01
7.04480000000000e-08,7.50000000000000e-01,0.00000000000000e+00,7.49993794039148e-01
7.06463248259673e-08,7.50000000000000e-01,0.00000000000000e+00,7.49959748693350e-01
7.09312051698171e-08,7.50000000000000e-01,0.00000000000000e+00,7.49993151190238e-01
7.15009658575168e-08,7.50000000000000e-01,0.00000000000000e+00,7.49965053543039e-01
7.26404872329162e-08,7.50000000000000e-01,0.00000000000000e+00,7.49995736877166e-01
7.49195299837150e-08,7.50000000000000e-01,0.00000000000000e+00,7.49971031752074e-01
7.51000000000000e-08,7.50000000000000e-01,0.00000000000000e+00,7.49996516999339e-01
7.51100000000000e-08,6.75000000000076e-01,0.00000000000000e+00,7.49908664254664e-01
7.51300000000000e-08,5.25000000000105e-01,0.00000000000000e+00,7.49869974361635e-01
7.51700000000000e-08,2.25000000000162e-01,0.00000000000000e+00,7.51446761266675e-01
7.52000000000000e-08,1.05027098129540e-13,0.00000000000000e+00,7.53847948185265e-01
7.52080000000000e-08,0.00000000000000e+00,0.00000000000000e+00,7.53563666844201e-01
7.52240000000000e-08,0.00000000000000e+00,0.00000000000000e+00,7.50062670485121e-01
7.52560000000000e-08,0.00000000000000e+00,0.00000000000000e+00,7.35604710811226e-01
7.53200000000000e-08,0.00000000000000e+00,0.00000000000000e+00,7.30137921387069e-01
7.54480000000000e-08,0.00000000000000e+00,0.00000000000000e+00,7.50734738500192e-01
7.56290684846986e-08,0.00000000000000e+00,0.00000000000000e+00,7.48017128973888e-01
7.59401757516616e-08,0.00000000000000e+00,0.00000000000000e+00,7.50717973118043e-01
7.63577806611715e-08,0.00000000000000e+00,0.00000000000000e+00,7.48798655546008e-01
7.71929904801913e-08,0.00000000000000e+00,0.00000000000000e+00,7.50716730932514e-01
7.81000000000000e-08,0.00000000000000e+00,0.00000000000000e+00,7.49044591985693e-01
7.82670419638040e-08,0.00000000000000e+00,0.00000000000000e+00,7.49804156209480e-01
7.86011258914119e-08,0.00000000000000e+00,0.00000000000000e+00,7.49937987760235e-01
7.92692937466278e-08,0.00000000000000e+00,0.00000000000000e+00,7.49836488649343e-01
8.06056294570595e-08,0.00000000000000e+00,0.00000000000000e+00,7.49949961029914e-01
8.32783008779229e-08,0.00000000000000e+00,0.00000000000000e+00,7.49858617758120e-01
8.50000000000000e-08,0.00000000000000e+00,0.00000000000000e+00,7.49956122975830e-01
8.50100000000000e-08,7.49999999999858e-02,0.00000000000000e+00,7.50007408628636e-01
8.50300000000000e-08,2.24999999999957e-01,0.00000000000000e+00,7.50013383498731e-01
8.50700000000000e-08,5.24999999999900e-01,0.00000000000000e+00,7.49896990687493e-01
8.51000000000000e-08,7.49999999999957e-01,0.00000000000000e+00,7.49741324680918e-01
8.51080000000000e-08,7.50000000000000e-01,0.00000000000000e+00,7.49672902353739e-01
8.51240000000000e-08,7.50000000000000e-01,0.00000000000000e+00,7.49633660216419e-01
8.51560000000000e-08,7.50000000000000e-01,0.00000000000000e+00,7.49748307976812e-01
8.52200000000000e-08,7.50000000000000e-01,0.00000000000000e+00,7.51774364717721e-01
8.53480000000000e-08,7.50000000000000e-01,0.00000000000000e+00,7.34111983354258e-01
8.56040000000000e-08,7.50000000000000e-01,0.00000000000000e+00,1.44412290552615e-01
8.58524863157618e-08,7.50000000000000e-01,0.00000000000000e+00,-5.71265755368675e-02
8.63494589472855e-08,7.50000000000000e-01,0.00000000000000e+00,4.49954935983873e-02
8.69127804629520e-08,7.50000000000000e-01,0.00000000000000e+00,-3.26987159606137e-02
8.78869098945648e-08,7.50000000000000e-01,0.00000000000000e+00,2.94917933717101e-02
8.97180167822766e-08,7.50000000000000e-01,0.00000000000000e+00,-2.62672878685187e-02
9.00000000000000e-08,7.50000000000000e-01,0.00000000000000e+00,1.67843415720942e-02
9.00100000000000e-08,7.50000000000000e-01,7.49999999999858e-02,1.16296903263907e-02
9.00300000000000e-08,7.50000000000000e-01,2.24999999999957e-01,5.65550352864193e-03
9.00700000000000e-08,7.50000000000000e-01,5.24999999999900e-01,2.20512974293455e-03
9.01000000000000e-08,7.50000000000000e-01,7.49999999999957e-01,8.23123855443239e-04
9.01080000000000e-08,7.50000000000000e-01,7.50000000000000e-01,7.36091220139734e-04
9.01240000000000e-08,7.50000000000000e-01,7.50000000000000e-01,5.22295487143651e-04
9.01560000000000e-08,7.50000000000000e-01,7.50000000000000e-01,2.24845897864534e-04
9.02200000000000e-08,7.50000000000000e-01,7.50000000000000e-01,5.37518696460959e-05
9.03480000000000e-08,7.50000000000000e-01,7.50000000000000e-01,-6.87917191785625e-06
9.06040000000000e-08,7.50000000000000e-01,7.50000000000000e-01,1.73572525472461e-05
9.11159999999999e-08,7.50000000000000e-01,7.50000000000000e-01,-1.17606983039351e-06
9.21399999999999e-08,7.50000000000000e-01,7.50000000000000e-01,1.82234007757411e-05
9.41879999999998e-08,7.50000000000000e-01,7.50000000000000e-01,-8.44090784773641e-07
9.51000000000000e-08,7.50000000000000e-01,7.50000000000000e-01,1.54674573957271e-05
9.51100000000000e-08,6.75000000000076e-01,7.50000000000000e-01,-7.86978006526579e-05
9.51300000000000e-08,5.25000000000105e-01,7.50000000000000e-01,-1.91237966238489e-04
9.51700000000000e-08,2.25000000000162e-01,7.50000000000000e-01,5.32380234297136e-05
9.52000000000000e-08,1.05027098129540e-13,7.50000000000000e-01,3.96120451485363e-04
9.52080000000000e-08,0.00000000000000e+00,7.50000000000000e-01,4.16627286243046e-04
9.52240000000000e-08,0.00000000000000e+00,7.50000000000000e-01,1.00245515232564e-04
9.52560000000000e-08,0.00000000000000e+00,7.50000000000000e-01,-1.50846508754482e-03
9.53200000000000e-08,0.00000000000000e+00,7.50000000000000e-01,-2.01587105354744e-03
9.54480000000000e-08,0.00000000000000e+00,7.50000000000000e-01,1.96021932883463e-04
9.56462883009771e-08,0.00000000000000e+00,7.50000000000000e-01,-1.96836747079338e-04
9.59448176229017e-08,0.00000000000000e+00,7.50000000000000e-01,3.02626783589457e-04
9.64632842346237e-08,0.00000000000000e+00,7.50000000000000e-01,-2.03334381689863e-04
9.69967376967069e-08,0.00000000000000e+00,7.50000000000000e-01,1.77978090673443e-04
9.80636446208731e-08,0.00000000000000e+00,7.50000000000000e-01,-1.29612239302643e-04
1.00197458469206e-07,0.00000000000000e+00,7.50000000000000e-01,1.46543303203965e-04
1.03705811110983e-07,0.00000000000000e+00,7.50000000000000e-01,-1.14107809277463e-04
1.05000000000000e-07,0.00000000000000e+00,7.50000000000000e-01,1.26565101128785e-04
1.05010000000000e-07,7.49999999999858e-02,7.50000000000000e-01,2.68028571111564e-04
1.05030000000000e-07,2.24999999999957e-01,7.50000000000000e-01,4.48443475965996e-04
1.05070000000000e-07,5.24999999999900e-01,7.50000000000000e-01,3.63039043755620e-04
1.05100000000000e-07,7.49999999999957e-01,7.50000000000000e-01,-1.44263609716627e-03
1.05108000000000e-07,7.50000000000000e-01,7.50000000000000e-01,-2.42252535876195e-03
1.05124000000000e-07,7.50000000000000e-01,7.50000000000000e-01,-4.20539339141864e-03
1.05156000000000e-07,7.50000000000000e-01,7.50000000000000e-01,-6.08882063851696e-03
1.05220000000000e-07,7.50000000000000e-01,7.50000000000000e-01,2.29862846080302e-02
1.05348000000000e-07,7.50000000000000e-01,7.50000000000000e-01,4.78375429684301e-01
1.05604000000000e-07,7.50000000000000e-01,7.50000000000000e-01,7.75118460782531e-01
1.05879276726290e-07,7.50000000000000e-01,7.50000000000000e-01,7.29518028076973e-01
