Time,v(clk),v(data),v(out)
1.00000000000000e-08,7.50000000000000e-01,0.00000000000000e+00,1.61713679033499e-05
1.00100000000000e-08,7.50000000000000e-01,7.49999999999982e-02,1.39675952350593e-05
1.00300000000000e-08,7.50000000000000e-01,2.24999999999995e-01,9.27608268826152e-06
1.00700000000000e-08,7.50000000000000e-01,5.24999999999987e-01,4.21005104080108e-06
1.01000000000000e-08,7.50000000000000e-01,7.49999999999994e-01,1.90163065688642e-06
1.01080000000000e-08,7.50000000000000e-01,7.50000000000000e-01,1.62429208118431e-06
1.01240000000000e-08,7.50000000000000e-01,7.50000000000000e-01,3.18103207823384e-06
1.01560000000000e-08,7.50000000000000e-01,7.50000000000000e-01,6.67629055928209e-06
1.02200000000000e-08,7.50000000000000e-01,7.50000000000000e-01,6.53214122497969e-06
1.03480000000000e-08,7.50000000000000e-01,7.50000000000000e-01,3.18572845004611e-06
1.06040000000000e-08,7.50000000000000e-01,7.50000000000000e-01,3.57674668376162e-06
1.10645426246073e-08,7.50000000000000e-01,7.50000000000000e-01,3.37496234084980e-06
1.19856278738218e-08,7.50000000000000e-01,7.50000000000000e-01,3.55665616128854e-06
1.38277983722509e-08,7.50000000000000e-01,7.50000000000000e-01,3.00864526189999e-06
1.51000000000000e-08,7.50000000000000e-01,7.50000000000000e-01,3.29122900084508e-06
1.51100000000000e-08,6.74999999999989e-01,7.50000000000000e-01,-8.74475125992452e-05
1.51300000000000e-08,5.24999999999993e-01,7.50000000000000e-01,-1.98578621724094e-04
1.51700000000000e-08,2.25000000000000e-01,7.50000000000000e-01,5.56243978337700e-05
1.52000000000000e-08,0.00000000000000e+00,7.50000000000000e-01,6.20368822156700e-04
1.52080000000000e-08,0.00000000000000e+00,7.50000000000000e-01,7.88646988872252e-04
1.52240000000000e-08,0.00000000000000e+00,7.50000000000000e-01,8.32564931969121e-04
1.52560000000000e-08,0.00000000000000e+00,7.50000000000000e-01,5.77871228849003e-05
1.53200000000000e-08,0.00000000000000e+00,7.50000000000000e-01,-5.22465231579533e-04
1.54480000000000e-08,0.00000000000000e+00,7.50000000000000e-01,9.18291258927909e-05
1.56376570423508e-08,0.00000000000000e+00,7.50000000000000e-01,-3.28001157989845e-04
1.60129704322776e-08,0.00000000000000e+00,7.50000000000000e-01,2.29883366770958e-04
1.64276261276308e-08,0.00000000000000e+00,7.50000000000000e-01,4.20031199664730e-05
1.71527183062334e-08,0.00000000000000e+00,7.50000000000000e-01,-1.13183090542838e-04
1.82379843341623e-08,0.00000000000000e+00,7.50000000000000e-01,1.47508339221513e-04
2.04085163900202e-08,0.00000000000000e+00,7.50000000000000e-01,-1.54990454209642e-04
2.42009613056590e-08,0.00000000000000e+00,7.50000000000000e-01,1.63839922960666e-04
2.50000000000000e-08,0.00000000000000e+00,7.50000000000000e-01,-1.76982437757467e-04
2.50100000000000e-08,7.49999999999858e-02,7.50000000000000e-01,5.72418236446381e-05
2.50300000000000e-08,2.25000000000007e-01,7.50000000000000e-01,3.86865566643399e-04
2.50700000000000e-08,5.25000000000000e-01,7.50000000000000e-01,7.57774021035815e-04
2.51000000000000e-08,7.50000000000000e-01,7.50000000000000e-01,6.81817632891255e-04
2.51080000000000e-08,7.50000000000000e-01,7.50000000000000e-01,3.74594082837382e-04
2.51240000000000e-08,7.50000000000000e-01,7.50000000000000e-01,-5.02516182087256e-04
2.51560000000000e-08,7.50000000000000e-01,7.50000000000000e-01,-2.91294238325486e-03
2.52200000000000e-08,7.50000000000000e-01,7.50000000000000e-01,-6.42836894617108e-03
2.53480000000000e-08,7.50000000000000e-01,7.50000000000000e-01,7.82742356278821e-02
2.56040000000000e-08,7.50000000000000e-01,7.50000000000000e-01,6.92569464154039e-01
2.60637340119344e-08,7.50000000000000e-01,7.50000000000000e-01,7.65197932213109e-01
2.65291740516977e-08,7.50000000000000e-01,7.50000000000000e-01,7.35202023347289e-01
2.74589277227726e-08,7.50000000000000e-01,7.50000000000000e-01,7.63911902062287e-01
2.88036233398299e-08,7.50000000000000e-01,7.50000000000000e-01,7.35904957782739e-01
3.01000000000000e-08,7.50000000000000e-01,7.50000000000000e-01,7.63352231142498e-01
3.01100000000000e-08,7.50000000000000e-01,6.75000000000039e-01,7.55155572599489e-01
3.01300000000000e-08,7.50000000000000e-01,5.25000000000018e-01,7.48898935276831e-01
3.01700000000000e-08,7.50000000000000e-01,2.25000000000025e-01,7.50565255941987e-01
3.02000000000000e-08,7.50000000000000e-01,1.80966353013901e-14,7.49759930828567e-01
3.02080000000000e-08,7.50000000000000e-01,0.00000000000000e+00,7.49878749435950e-01
3.02240000000000e-08,7.50000000000000e-01,0.00000000000000e+00,7.49978112885076e-01
3.02560000000000e-08,7.50000000000000e-01,0.00000000000000e+00,7.49958809229917e-01
3.03200000000000e-08,7.50000000000000e-01,0.00000000000000e+00,7.50006234883236e-01
3.04480000000000e-08,7.50000000000000e-01,0.00000000000000e+00,7.49978974286637e-01
3.06363338923318e-08,7.50000000000000e-01,0.00000000000000e+00,7.49997400549295e-01
3.09886026223131e-08,7.50000000000000e-01,0.00000000000000e+00,7.49982858550565e-01
3.16174839427941e-08,7.50000000000000e-01,0.00000000000000e+00,7.49996632587951e-01
3.28752465837561e-08,7.50000000000000e-01,0.00000000000000e+00,7.49986427584522e-01
3.51000000000000e-08,7.49999999999963e-01,0.00000000000000e+00,7.49998537174273e-01
3.51100000000000e-08,6.74999999999977e-01,0.00000000000000e+00,7.49922147093357e-01
3.51300000000000e-08,5.24999999999956e-01,0.00000000000000e+00,7.49880789158306e-01
3.51700000000000e-08,2.24999999999963e-01,0.00000000000000e+00,7.51473503362707e-01
3.52000000000000e-08,0.00000000000000e+00,0.00000000000000e+00,7.53659453510721e-01
3.52080000000000e-08,0.00000000000000e+00,0.00000000000000e+00,7.52795917146175e-01
3.52240000000000e-08,0.00000000000000e+00,0.00000000000000e+00,7.47896632665163e-01
3.52560000000000e-08,0.00000000000000e+00,0.00000000000000e+00,7.33264159632022e-01
3.53200000000000e-08,0.00000000000000e+00,0.00000000000000e+00,7.35696647313589e-01
3.54480000000000e-08,0.00000000000000e+00,0.00000000000000e+00,7.51903632099810e-01
3.56358865028121e-08,0.00000000000000e+00,0.00000000000000e+00,7.47569853984201e-01
3.59621576155248e-08,0.00000000000000e+00,0.00000000000000e+00,7.51450047195858e-01
3.65053519517245e-08,0.00000000000000e+00,0.00000000000000e+00,7.48332448119813e-01
3.72902967202404e-08,0.00000000000000e+00,0.00000000000000e+00,7.51350057446053e-01
3.88601862572723e-08,0.00000000000000e+00,0.00000000000000e+00,7.48564497743631e-01
3.91000000000000e-08,0.00000000000000e+00,0.00000000000000e+00,7.51076723057456e-01
3.94139779074064e-08,0.00000000000000e+00,0.00000000000000e+00,7.50000275788211e-01
4.00419337222191e-08,0.00000000000000e+00,0.00000000000000e+00,7.49924764717230e-01
4.12978453518447e-08,0.00000000000000e+00,0.00000000000000e+00,7.50007206683877e-01
4.38096686110957e-08,0.00000000000000e+00,0.00000000000000e+00,7.49941401866412e-01
4.50000000000000e-08,0.00000000000000e+00,0.00000000000000e+00,7.50014458451014e-01
4.50100000000000e-08,7.49999999999858e-02,0.00000000000000e+00,7.50064486829811e-01
4.50300000000000e-08,2.25000000000007e-01,0.00000000000000e+00,7.50062034296218e-01
4.50700000000000e-08,5.25000000000000e-01,0.00000000000000e+00,7.49984152179134e-01
4.51000000000000e-08,7.50000000000000e-01,0.00000000000000e+00,7.49892677427781e-01
4.51080000000000e-08,7.50000000000000e-01,0.00000000000000e+00,7.49845686381660e-01
4.51240000000000e-08,7.50000000000000e-01,0.00000000000000e+00,7.49824424946959e-01
4.51560000000000e-08,7.50000000000000e-01,0.00000000000000e+00,7.49851385536685e-01
4.52200000000000e-08,7.50000000000000e-01,0.00000000000000e+00,7.49956311713990e-01
4.53480000000000e-08,7.50000000000000e-01,0.00000000000000e+00,7.54206931805065e-01
4.56040000000000e-08,7.50000000000000e-01,0.00000000000000e+00,4.07483966894221e-01
4.60931795744729e-08,7.50000000000000e-01,0.00000000000000e+00,-7.78423361151803e-02
4.65417860710999e-08,7.50000000000000e-01,0.00000000000000e+00,4.90687423835208e-02
4.74086562924600e-08,7.50000000000000e-01,0.00000000000000e+00,-3.14497516177192e-02
4.83108742337206e-08,7.50000000000000e-01,0.00000000000000e+00,2.50934286072200e-02
5.00000000000000e-08,7.50000000000000e-01,0.00000000000000e+00,-1.94581479325009e-02
5.00100000000000e-08,7.50000000000000e-01,7.49999999999858e-02,-1.84499506543655e-02
5.00300000000000e-08,7.50000000000000e-01,2.24999999999957e-01,-1.46309466018354e-02
5.00700000000000e-08,7.50000000000000e-01,5.25000000000000e-01,-7.07947185209523e-03
5.01000000000000e-08,7.50000000000000e-01,7.50000000000000e-01,-4.41587889394592e-03
5.01080000000000e-08,7.50000000000000e-01,7.50000000000000e-01,-3.88232328754359e-03
5.01240000000000e-08,7.50000000000000e-01,7.50000000000000e-01,-2.95117120535811e-03
5.01560000000000e-08,7.50000000000000e-01,7.50000000000000e-01,-1.71773047778492e-03
5.02200000000000e-08,7.50000000000000e-01,7.50000000000000e-01,-5.28666463104316e-04
5.03480000000000e-08,7.50000000000000e-01,7.50000000000000e-01,1.11227097479225e-05
5.06040000000000e-08,7.50000000000000e-01,7.50000000000000e-01,-2.05018750219776e-07
5.10962333335201e-08,7.50000000000000e-01,7.50000000000000e-01,1.58765149532031e-06
5.20807000005603e-08,7.50000000000000e-01,7.50000000000000e-01,1.80649264623634e-06
5.40496333346406e-08,7.50000000000000e-01,7.50000000000000e-01,7.82043859373117e-07
5.51000000000000e-08,7.50000000000000e-01,7.50000000000000e-01,1.67744919396182e-06
5.51100000000000e-08,6.75000000000027e-01,7.50000000000000e-01,-9.43022585686848e-05
5.51300000000000e-08,5.25000000000005e-01,7.50000000000000e-01,-2.09394458609971e-04
5.51700000000000e-08,2.25000000000013e-01,7.50000000000000e-01,4.81639908135323e-05
5.52000000000000e-08,0.00000000000000e+00,7.50000000000000e-01,5.66539338234431e-04
5.52080000000000e-08,0.00000000000000e+00,7.50000000000000e-01,6.66054338753178e-04
5.52240000000000e-08,0.00000000000000e+00,7.50000000000000e-01,4.37939953291555e-04
5.52560000000000e-08,0.00000000000000e+00,7.50000000000000e-01,-9.54304304307457e-04
5.53200000000000e-08,0.00000000000000e+00,7.50000000000000e-01,-1.46577232997298e-03
5.54480000000000e-08,0.00000000000000e+00,7.50000000000000e-01,4.91095522783813e-06
5.56373484207322e-08,0.00000000000000e+00,7.50000000000000e-01,-2.99631421760614e-04
5.60153574717865e-08,0.00000000000000e+00,7.50000000000000e-01,2.17874311227401e-04
5.64290308276342e-08,0.00000000000000e+00,7.50000000000000e-01,4.50728186270899e-05
5.71564546898804e-08,0.00000000000000e+00,7.50000000000000e-01,-1.11992802542463e-04
5.82419487542123e-08,0.00000000000000e+00,7.50000000000000e-01,1.44093612705736e-04
6.04129368828762e-08,0.00000000000000e+00,7.50000000000000e-01,-1.50595517550487e-04
6.42017834881283e-08,0.00000000000000e+00,7.50000000000000e-01,1.58939654703976e-04
6.50000000000000e-08,0.00000000000000e+00,7.50000000000000e-01,-1.69879100062456e-04
6.50100000000000e-08,7.49999999999858e-02,7.50000000000000e-01,5.39334843137895e-05
6.50300000000000e-08,2.24999999999957e-01,7.50000000000000e-01,3.78460460869076e-04
6.50700000000000e-08,5.24999999999900e-01,7.50000000000000e-01,7.56986496207007e-04
6.51000000000000e-08,7.49999999999957e-01,7.50000000000000e-01,6.86303203392372e-04
6.51080000000000e-08,7.50000000000000e-01,7.50000000000000e-01,3.85211847605496e-04
6.51240000000000e-08,7.50000000000000e-01,7.50000000000000e-01,-4.81548214689848e-04
6.51560000000000e-08,7.50000000000000e-01,7.50000000000000e-01,-2.88697382768573e-03
6.52200000000000e-08,7.50000000000000e-01,7.50000000000000e-01,-6.42213372125311e-03
6.53480000000000e-08,7.50000000000000e-01,7.50000000000000e-01,7.75412377652255e-02
6.56040000000000e-08,7.50000000000000e-01,7.50000000000000e-01,6.92254380450679e-01
6.60632922775731e-08,7.50000000000000e-01,7.50000000000000e-01,7.65260504980091e-01
6.65283576056350e-08,7.50000000000000e-01,7.50000000000000e-01,7.35145261830587e-01
6.74584882617589e-08,7.50000000000000e-01,7.50000000000000e-01,7.63966432201045e-01
6.88023040128659e-08,7.50000000000000e-01,7.50000000000000e-01,7.35849794168188e-01
7.01000000000000e-08,7.50000000000000e-01,7.50000000000000e-01,7.63404529577032e-01
7.01100000000000e-08,7.50000000000000e-01,6.75000000000014e-01,7.55175074764592e-01
7.01300000000000e-08,7.50000000000000e-01,5.25000000000043e-01,7.48893930873128e-01
7.01700000000000e-08,7.50000000000000e-01,2.25000000000100e-01,7.50567701334762e-01
7.02000000000000e-08,7.50000000000000e-01,4.29656310529936e-14,7.49758846817108e-01
7.02080000000000e-08,7.50000000000000e-01,0.00000000000000e+00,7.49878185042514e-01
7.02240000000000e-08,7.50000000000000e-01,0.00000000000000e+00,7.49978052647826e-01
7.02560000000000e-08,7.50000000000000e-01,0.00000000000000e+00,7.49958773589793e-01
7.03200000000000e-08,7.50000000000000e-01,0.00000000000000e+00,7.50006286505285e-01
7.04480000000000e-08,7.50000000000000e-01,0.00000000000000e+00,7.49978962640903e-01
7.06363344454273e-08,7.50000000000000e-01,0.00000000000000e+00,7.49997432510223e-01
7.09885486103983e-08,7.50000000000000e-01,0.00000000000000e+00,7.49982815044525e-01
7.16171410153140e-08,7.50000000000000e-01,0.00000000000000e+00,7.49996678352447e-01
7.28743258251455e-08,7.50000000000000e-01,0.00000000000000e+00,7.49986383317399e-01
7.51000000000000e-08,7.50000000000000e-01,0.00000000000000e+00,7.49998579726614e-01
7.51100000000000e-08,6.75000000000076e-01,0.00000000000000e+00,7.49922179927197e-01
7.51300000000000e-08,5.25000000000105e-01,0.00000000000000e+00,7.49880806601568e-01
7.51700000000000e-08,2.25000000000162e-01,0.00000000000000e+00,7.51473509532726e-01
7.52000000000000e-08,1.05027098129540e-13,0.00000000000000e+00,7.53659548557440e-01
7.52080000000000e-08,0.00000000000000e+00,0.00000000000000e+00,7.52796087721168e-01
7.52240000000000e-08,0.00000000000000e+00,0.00000000000000e+00,7.47896910367812e-01
7.52560000000000e-08,0.00000000000000e+00,0.00000000000000e+00,7.33264388752354e-01
7.53200000000000e-08,0.00000000000000e+00,0.00000000000000e+00,7.35696543210890e-01
7.54480000000000e-08,0.00000000000000e+00,0.00000000000000e+00,7.51903645187016e-01
7.56358864977720e-08,0.00000000000000e+00,0.00000000000000e+00,7.47569843749574e-01
7.59621569029323e-08,0.00000000000000e+00,0.00000000000000e+00,7.51450055650190e-01
7.65053516225759e-08,0.00000000000000e+00,0.00000000000000e+00,7.48332440098701e-01
7.72902949214623e-08,0.00000000000000e+00,0.00000000000000e+00,7.51350064816712e-01
7.81000000000000e-08,0.00000000000000e+00,0.00000000000000e+00,7.48592485864124e-01
7.82569886597773e-08,0.00000000000000e+00,0.00000000000000e+00,7.49840404616382e-01
7.85709659793319e-08,0.00000000000000e+00,0.00000000000000e+00,7.50035042367726e-01
7.91989206184410e-08,0.00000000000000e+00,0.00000000000000e+00,7.49875336293605e-01
8.04548298966593e-08,0.00000000000000e+00,0.00000000000000e+00,7.50043035253460e-01
8.29666484530959e-08,0.00000000000000e+00,0.00000000000000e+00,7.49899749343921e-01
8.50000000000000e-08,0.00000000000000e+00,0.00000000000000e+00,7.50053755634203e-01
8.50100000000000e-08,7.49999999999858e-02,0.00000000000000e+00,7.50076360440981e-01
8.50300000000000e-08,2.24999999999957e-01,0.00000000000000e+00,7.50050171088321e-01
8.50700000000000e-08,5.24999999999900e-01,0.00000000000000e+00,7.49982478451323e-01
8.51000000000000e-08,7.49999999999957e-01,0.00000000000000e+00,7.49906562451207e-01
8.51080000000000e-08,7.50000000000000e-01,0.00000000000000e+00,7.49854980927443e-01
8.51240000000000e-08,7.50000000000000e-01,0.00000000000000e+00,7.49826395879116e-01
8.51560000000000e-08,7.50000000000000e-01,0.00000000000000e+00,7.49852697309610e-01
8.52200000000000e-08,7.50000000000000e-01,0.00000000000000e+00,7.49957536577402e-01
8.53480000000000e-08,7.50000000000000e-01,0.00000000000000e+00,7.54206689424471e-01
8.56040000000000e-08,7.50000000000000e-01,0.00000000000000e+00,4.07469383734100e-01
8.60932385300687e-08,7.50000000000000e-01,0.00000000000000e+00,-7.78560773716299e-02
8.65418527973283e-08,7.50000000000000e-01,0.00000000000000e+00,4.90792001578157e-02
8.74087495479733e-08,7.50000000000000e-01,0.00000000000000e+00,-3.14567616872585e-02
8.83110189503376e-08,7.50000000000000e-01,0.00000000000000e+00,2.50994028221940e-02
9.00000000000000e-08,7.50000000000000e-01,0.00000000000000e+00,-1.94626976079145e-02
9.00100000000000e-08,7.50000000000000e-01,7.49999999999858e-02,-1.84534389999650e-02
9.00300000000000e-08,7.50000000000000e-01,2.24999999999957e-01,-1.46331088399883e-02
9.00700000000000e-08,7.50000000000000e-01,5.24999999999900e-01,-7.08062958406425e-03
9.01000000000000e-08,7.50000000000000e-01,7.49999999999957e-01,-4.41654749914645e-03
9.01080000000000e-08,7.50000000000000e-01,7.50000000000000e-01,-3.88291962400723e-03
9.01240000000000e-08,7.50000000000000e-01,7.50000000000000e-01,-2.95163223579352e-03
9.01560000000000e-08,7.50000000000000e-01,7.50000000000000e-01,-1.71799965215991e-03
9.02200000000000e-08,7.50000000000000e-01,7.50000000000000e-01,-5.28751806559855e-04
9.03480000000000e-08,7.50000000000000e-01,7.50000000000000e-01,1.11260232880869e-05
9.06040000000000e-08,7.50000000000000e-01,7.50000000000000e-01,-2.06758607658453e-07
9.10963578130312e-08,7.50000000000000e-01,7.50000000000000e-01,1.58928843832506e-06
9.20810734390936e-08,7.50000000000000e-01,7.50000000000000e-01,1.80493876060853e-06
9.40505046912184e-08,7.50000000000000e-01,7.50000000000000e-01,7.83521191168209e-07
9.51000000000000e-08,7.50000000000000e-01,7.50000000000000e-01,1.67552041288772e-06
9.51100000000000e-08,6.75000000000076e-01,7.50000000000000e-01,-9.43046255621888e-05
9.51300000000000e-08,5.25000000000105e-01,7.50000000000000e-01,-2.09395320228109e-04
9.51700000000000e-08,2.25000000000162e-01,7.50000000000000e-01,4.81634682242826e-05
9.52000000000000e-08,1.05027098129540e-13,7.50000000000000e-01,5.66539187261308e-04
9.52080000000000e-08,0.00000000000000e+00,7.50000000000000e-01,6.66054310939024e-04
9.52240000000000e-08,0.00000000000000e+00,7.50000000000000e-01,4.37940335795792e-04
9.52560000000000e-08,0.00000000000000e+00,7.50000000000000e-01,-9.54301320129733e-04
9.53200000000000e-08,0.00000000000000e+00,7.50000000000000e-01,-1.46576822819489e-03
9.54480000000000e-08,0.00000000000000e+00,7.50000000000000e-01,4.91157239943668e-06
9.56373484304266e-08,0.00000000000000e+00,7.50000000000000e-01,-2.99631621890367e-04
9.60153575106352e-08,0.00000000000000e+00,7.50000000000000e-01,2.17874427418559e-04
9.64290308959528e-08,0.00000000000000e+00,7.50000000000000e-01,4.50727455083358e-05
9.71564547858905e-08,0.00000000000000e+00,7.50000000000000e-01,-1.11992758909800e-04
9.82419489258772e-08,0.00000000000000e+00,7.50000000000000e-01,1.44093585962251e-04
1.00412937205851e-07,0.00000000000000e+00,7.50000000000000e-01,-1.50595499106569e-04
1.04201784470828e-07,0.00000000000000e+00,7.50000000000000e-01,1.58939640177683e-04
1.05000000000000e-07,0.00000000000000e+00,7.50000000000000e-01,-1.69879117720741e-04
1.05010000000000e-07,7.49999999999858e-02,7.50000000000000e-01,5.39335229225307e-05
1.05030000000000e-07,2.24999999999957e-01,7.50000000000000e-01,3.78460511933604e-04
1.05070000000000e-07,5.24999999999900e-01,7.50000000000000e-01,7.56986488965508e-04
1.05100000000000e-07,7.49999999999957e-01,7.50000000000000e-01,6.86303253253917e-04
1.05108000000000e-07,7.50000000000000e-01,7.50000000000000e-01,3.85211940293312e-04
1.05124000000000e-07,7.50000000000000e-01,7.50000000000000e-01,-4.81548044917721e-04
1.05156000000000e-07,7.50000000000000e-01,7.50000000000000e-01,-2.88697361793142e-03
1.05220000000000e-07,7.50000000000000e-01,7.50000000000000e-01,-6.42213367726339e-03
1.05348000000000e-07,7.50000000000000e-01,7.50000000000000e-01,7.75412312467625e-02
1.05604000000000e-07,7.50000000000000e-01,7.50000000000000e-01,6.92254377604983e-01
1.06063292274370e-07,7.50000000000000e-01,7.50000000000000e-01,7.65260505514810e-01
1.06528357599736e-07,7.50000000000000e-01,7.50000000000000e-01,7.35145261341313e-01
1.07458488250467e-07,7.50000000000000e-01,7.50000000000000e-01,7.63966432660144e-01
1.08802303998434e-07,7.50000000000000e-01,7.50000000000000e-01,7.35849793696186e-01
1.10100000000000e-07,7.50000000000000e-01,7.50000000000000e-01,7.63404530030785e-01
