Time,v(clk),v(data),v(out)
1.00000000000000e-08,7.50000000000000e-01,0.00000000000000e+00,1.59939808541589e-06
1.00100000000000e-08,7.50000000000000e-01,7.49999999999982e-02,3.19911757062918e-06
1.00300000000000e-08,7.50000000000000e-01,2.24999999999995e-01,5.10243272772160e-06
1.00700000000000e-08,7.50000000000000e-01,5.24999999999987e-01,5.39848868415932e-06
1.01000000000000e-08,7.50000000000000e-01,7.49999999999994e-01,4.38368871663597e-06
1.01080000000000e-08,7.50000000000000e-01,7.50000000000000e-01,4.30874017458976e-06
1.01240000000000e-08,7.50000000000000e-01,7.50000000000000e-01,4.64835410785014e-06
1.01560000000000e-08,7.50000000000000e-01,7.50000000000000e-01,6.43417240685229e-06
1.02200000000000e-08,7.50000000000000e-01,7.50000000000000e-01,8.35097940402735e-06
1.03480000000000e-08,7.50000000000000e-01,7.50000000000000e-01,6.21645821987163e-06
1.06040000000000e-08,7.50000000000000e-01,7.50000000000000e-01,4.75795402289127e-06
1.10576930618261e-08,7.50000000000000e-01,7.50000000000000e-01,5.57974406317600e-06
1.19650791854783e-08,7.50000000000000e-01,7.50000000000000e-01,4.79902001046528e-06
1.37798514327827e-08,7.50000000000000e-01,7.50000000000000e-01,5.04531823845768e-06
1.51000000000000e-08,7.50000000000000e-01,7.50000000000000e-01,4.28132484701915e-06
1.51100000000000e-08,6.74999999999989e-01,7.50000000000000e-01,-2.71365857868397e-05
1.51300000000000e-08,5.24999999999993e-01,7.50000000000000e-01,-8.22362146244426e-05
1.51700000000000e-08,2.25000000000000e-01,7.50000000000000e-01,-7.22351945377370e-05
1.52000000000000e-08,0.00000000000000e+00,7.50000000000000e-01,7.34555929002567e-05
1.52080000000000e-08,0.00000000000000e+00,7.50000000000000e-01,1.45408153477154e-04
1.52240000000000e-08,0.00000000000000e+00,7.50000000000000e-01,2.38346584448629e-04
1.52560000000000e-08,0.00000000000000e+00,7.50000000000000e-01,2.36016380155281e-04
1.53200000000000e-08,0.00000000000000e+00,7.50000000000000e-01,2.68073732927129e-05
1.54480000000000e-08,0.00000000000000e+00,7.50000000000000e-01,-1.88382146195074e-04
1.57040000000000e-08,0.00000000000000e+00,7.50000000000000e-01,-1.97958705230329e-04
1.61997007829510e-08,0.00000000000000e+00,7.50000000000000e-01,1.39744476419981e-04
1.67300777515346e-08,0.00000000000000e+00,7.50000000000000e-01,7.46272710295693e-05
1.77908316887017e-08,0.00000000000000e+00,7.50000000000000e-01,-1.01527730948154e-04
1.90325094723446e-08,0.00000000000000e+00,7.50000000000000e-01,1.22418916783191e-04
2.15158650396304e-08,0.00000000000000e+00,7.50000000000000e-01,-1.20146014710232e-04
2.50000000000000e-08,0.00000000000000e+00,7.50000000000000e-01,1.26924483638581e-04
2.50100000000000e-08,7.49999999999858e-02,7.50000000000000e-01,1.59433260155155e-04
2.50300000000000e-08,2.25000000000007e-01,7.50000000000000e-01,2.08915178494716e-04
2.50700000000000e-08,5.25000000000000e-01,7.50000000000000e-01,2.47741760607698e-04
2.51000000000000e-08,7.50000000000000e-01,7.50000000000000e-01,-1.82356245576047e-04
2.51080000000000e-08,7.50000000000000e-01,7.50000000000000e-01,-5.13305771678629e-04
2.51240000000000e-08,7.50000000000000e-01,7.50000000000000e-01,-1.29545615606953e-03
2.51560000000000e-08,7.50000000000000e-01,7.50000000000000e-01,-3.01166319199961e-03
2.52200000000000e-08,7.50000000000000e-01,7.50000000000000e-01,-4.67810200653381e-03
2.53480000000000e-08,7.50000000000000e-01,7.50000000000000e-01,7.40267637145594e-02
2.56040000000000e-08,7.50000000000000e-01,7.50000000000000e-01,6.10430388752695e-01
2.61160000000000e-08,7.50000000000000e-01,7.50000000000000e-01,7.81689300183192e-01
2.66599733725994e-08,7.50000000000000e-01,7.50000000000000e-01,7.20611122600581e-01
2.77479201177983e-08,7.50000000000000e-01,7.50000000000000e-01,7.76070103244191e-01
2.92642648954469e-08,7.50000000000000e-01,7.50000000000000e-01,7.23685480369967e-01
3.01000000000000e-08,7.50000000000000e-01,7.50000000000000e-01,7.72944737321591e-01
3.01100000000000e-08,7.50000000000000e-01,6.75000000000039e-01,7.64241530073683e-01
3.01300000000000e-08,7.50000000000000e-01,5.25000000000018e-01,7.53425937547825e-01
3.01700000000000e-08,7.50000000000000e-01,2.25000000000025e-01,7.49609877172697e-01
3.02000000000000e-08,7.50000000000000e-01,1.80966353013901e-14,7.49926005896875e-01
3.02080000000000e-08,7.50000000000000e-01,0.00000000000000e+00,7.49935607632141e-01
3.02240000000000e-08,7.50000000000000e-01,0.00000000000000e+00,7.49944236353280e-01
3.02560000000000e-08,7.50000000000000e-01,0.00000000000000e+00,7.49950690553092e-01
3.03200000000000e-08,7.50000000000000e-01,0.00000000000000e+00,7.49950711648533e-01
3.04480000000000e-08,7.50000000000000e-01,0.00000000000000e+00,7.49965663904650e-01
3.07040000000000e-08,7.50000000000000e-01,0.00000000000000e+00,7.49970051555437e-01
3.11017572918028e-08,7.50000000000000e-01,0.00000000000000e+00,7.49959702557667e-01
3.17239909548425e-08,7.50000000000000e-01,0.00000000000000e+00,7.49973585876885e-01
3.28197236795452e-08,7.50000000000000e-01,0.00000000000000e+00,7.49966816858075e-01
3.50111891289506e-08,7.50000000000000e-01,0.00000000000000e+00,7.49980183125457e-01
3.51000000000000e-08,7.49999999999963e-01,0.00000000000000e+00,7.49975719004435e-01
3.51100000000000e-08,6.74999999999977e-01,0.00000000000000e+00,7.49944359530231e-01
3.51300000000000e-08,5.24999999999956e-01,0.00000000000000e+00,7.49909208199391e-01
3.51700000000000e-08,2.24999999999963e-01,0.00000000000000e+00,7.50486127453593e-01
3.52000000000000e-08,0.00000000000000e+00,0.00000000000000e+00,7.51605700482310e-01
3.52080000000000e-08,0.00000000000000e+00,0.00000000000000e+00,7.51794875113808e-01
3.52240000000000e-08,0.00000000000000e+00,0.00000000000000e+00,7.51772906487182e-01
3.52560000000000e-08,0.00000000000000e+00,0.00000000000000e+00,7.48765685707326e-01
3.53200000000000e-08,0.00000000000000e+00,0.00000000000000e+00,7.31264937097733e-01
3.54480000000000e-08,0.00000000000000e+00,0.00000000000000e+00,7.16933614488110e-01
3.57040000000000e-08,0.00000000000000e+00,0.00000000000000e+00,7.47207647187964e-01
3.60761366545924e-08,0.00000000000000e+00,0.00000000000000e+00,7.50447621641156e-01
3.66790346500553e-08,0.00000000000000e+00,0.00000000000000e+00,7.48796141634914e-01
3.74027928434053e-08,0.00000000000000e+00,0.00000000000000e+00,7.50343545026824e-01
3.88503092301051e-08,0.00000000000000e+00,0.00000000000000e+00,7.49267680063913e-01
3.91000000000000e-08,0.00000000000000e+00,0.00000000000000e+00,7.50103239713870e-01
3.93895032773400e-08,0.00000000000000e+00,0.00000000000000e+00,7.49873059817757e-01
3.99685098320199e-08,0.00000000000000e+00,0.00000000000000e+00,7.49826356732310e-01
4.11265229413798e-08,0.00000000000000e+00,0.00000000000000e+00,7.49901009744201e-01
4.34425491600995e-08,0.00000000000000e+00,0.00000000000000e+00,7.49882746413494e-01
4.50000000000000e-08,0.00000000000000e+00,0.00000000000000e+00,7.49935018532256e-01
4.50100000000000e-08,7.49999999999858e-02,0.00000000000000e+00,7.49952414255640e-01
4.50300000000000e-08,2.25000000000007e-01,0.00000000000000e+00,7.49967718746387e-01
4.50700000000000e-08,5.25000000000000e-01,0.00000000000000e+00,7.49939349096872e-01
4.51000000000000e-08,7.50000000000000e-01,0.00000000000000e+00,7.49859291146217e-01
4.51080000000000e-08,7.50000000000000e-01,0.00000000000000e+00,7.49831496297591e-01
4.51240000000000e-08,7.50000000000000e-01,0.00000000000000e+00,7.49797967023853e-01
4.51560000000000e-08,7.50000000000000e-01,0.00000000000000e+00,7.49798891315243e-01
4.52200000000000e-08,7.50000000000000e-01,0.00000000000000e+00,7.49860960570590e-01
4.53480000000000e-08,7.50000000000000e-01,0.00000000000000e+00,7.52020122958085e-01
4.56040000000000e-08,7.50000000000000e-01,0.00000000000000e+00,5.58400649608689e-01
4.61160000000000e-08,7.50000000000000e-01,0.00000000000000e+00,2.96241701653298e-03
4.66367182562731e-08,7.50000000000000e-01,0.00000000000000e+00,-2.94769886200065e-03
4.76781547688194e-08,7.50000000000000e-01,0.00000000000000e+00,3.91890982999468e-03
4.87880397818690e-08,7.50000000000000e-01,0.00000000000000e+00,-3.40244561578766e-03
5.00000000000000e-08,7.50000000000000e-01,0.00000000000000e+00,4.03740592207842e-03
5.00100000000000e-08,7.50000000000000e-01,7.49999999999858e-02,1.90853317309822e-03
5.00300000000000e-08,7.50000000000000e-01,2.24999999999957e-01,-1.57836200772504e-04
5.00700000000000e-08,7.50000000000000e-01,5.25000000000000e-01,-1.77018218914089e-04
5.01000000000000e-08,7.50000000000000e-01,7.50000000000000e-01,-1.71073593848721e-04
5.01080000000000e-08,7.50000000000000e-01,7.50000000000000e-01,-1.43824370102894e-04
5.01240000000000e-08,7.50000000000000e-01,7.50000000000000e-01,-1.14164102543328e-04
5.01560000000000e-08,7.50000000000000e-01,7.50000000000000e-01,-6.59002875434272e-05
5.02200000000000e-08,7.50000000000000e-01,7.50000000000000e-01,-1.63143591636744e-05
5.03480000000000e-08,7.50000000000000e-01,7.50000000000000e-01,6.51011476875824e-06
5.06040000000000e-08,7.50000000000000e-01,7.50000000000000e-01,-1.47235866981843e-06
5.10805620279163e-08,7.50000000000000e-01,7.50000000000000e-01,3.50572568658981e-06
5.20336860837489e-08,7.50000000000000e-01,7.50000000000000e-01,2.15756687603659e-07
5.39399341954141e-08,7.50000000000000e-01,7.50000000000000e-01,3.69812199829287e-06
5.51000000000000e-08,7.50000000000000e-01,7.50000000000000e-01,4.70769781608059e-07
5.51100000000000e-08,6.75000000000027e-01,7.50000000000000e-01,-2.94889307562718e-05
5.51300000000000e-08,5.25000000000005e-01,7.50000000000000e-01,-8.12310489739440e-05
5.51700000000000e-08,2.25000000000013e-01,7.50000000000000e-01,-6.62003184091833e-05
5.52000000000000e-08,0.00000000000000e+00,7.50000000000000e-01,7.21366726056591e-05
5.52080000000000e-08,0.00000000000000e+00,7.50000000000000e-01,1.39883913642461e-04
5.52240000000000e-08,0.00000000000000e+00,7.50000000000000e-01,2.18429615414455e-04
5.52560000000000e-08,0.00000000000000e+00,7.50000000000000e-01,1.19341655892669e-04
5.53200000000000e-08,0.00000000000000e+00,7.50000000000000e-01,-8.38968577239155e-04
5.54480000000000e-08,0.00000000000000e+00,7.50000000000000e-01,-1.38928923565345e-03
5.57040000000000e-08,0.00000000000000e+00,7.50000000000000e-01,-3.50961803239208e-05
5.61883614516057e-08,0.00000000000000e+00,7.50000000000000e-01,1.20850646081274e-04
5.67213425256628e-08,0.00000000000000e+00,7.50000000000000e-01,4.22455387768840e-05
5.77873046737769e-08,0.00000000000000e+00,7.50000000000000e-01,-5.47034001397084e-05
5.90183232349061e-08,0.00000000000000e+00,7.50000000000000e-01,6.90532857335543e-05
6.14803603571644e-08,0.00000000000000e+00,7.50000000000000e-01,-6.53023271192693e-05
6.50000000000000e-08,0.00000000000000e+00,7.50000000000000e-01,7.13212502249845e-05
6.50100000000000e-08,7.49999999999858e-02,7.50000000000000e-01,1.15987458318881e-04
6.50300000000000e-08,2.24999999999957e-01,7.50000000000000e-01,1.92425672125698e-04
6.50700000000000e-08,5.24999999999900e-01,7.50000000000000e-01,2.58362208452038e-04
6.51000000000000e-08,7.49999999999957e-01,7.50000000000000e-01,-1.70687882201911e-04
6.51080000000000e-08,7.50000000000000e-01,7.50000000000000e-01,-5.01954205852501e-04
6.51240000000000e-08,7.50000000000000e-01,7.50000000000000e-01,-1.28503133705075e-03
6.51560000000000e-08,7.50000000000000e-01,7.50000000000000e-01,-3.00354186332973e-03
6.52200000000000e-08,7.50000000000000e-01,7.50000000000000e-01,-4.67264116876059e-03
6.53480000000000e-08,7.50000000000000e-01,7.50000000000000e-01,7.40652126913141e-02
6.56040000000000e-08,7.50000000000000e-01,7.50000000000000e-01,6.10471780636694e-01
6.61159999999999e-08,7.50000000000000e-01,7.50000000000000e-01,7.81684699994829e-01
6.66599892460971e-08,7.50000000000000e-01,7.50000000000000e-01,7.20614927678615e-01
6.77479677382913e-08,7.50000000000000e-01,7.50000000000000e-01,7.76066684125490e-01
6.92642448432023e-08,7.50000000000000e-01,7.50000000000000e-01,7.23688960479470e-01
7.01000000000000e-08,7.50000000000000e-01,7.50000000000000e-01,7.72941748334100e-01
7.01100000000000e-08,7.50000000000000e-01,6.75000000000014e-01,7.64239692449623e-01
7.01300000000000e-08,7.50000000000000e-01,5.25000000000043e-01,7.53425519668981e-01
7.01700000000000e-08,7.50000000000000e-01,2.25000000000100e-01,7.49609935470041e-01
7.02000000000000e-08,7.50000000000000e-01,4.29656310529936e-14,7.49926019005634e-01
7.02080000000000e-08,7.50000000000000e-01,0.00000000000000e+00,7.49935620860735e-01
7.02240000000000e-08,7.50000000000000e-01,0.00000000000000e+00,7.49944250524702e-01
7.02560000000000e-08,7.50000000000000e-01,0.00000000000000e+00,7.49950702925965e-01
7.03200000000000e-08,7.50000000000000e-01,0.00000000000000e+00,7.49950720318473e-01
7.04480000000000e-08,7.50000000000000e-01,0.00000000000000e+00,7.49965671728132e-01
7.07040000000000e-08,7.50000000000000e-01,0.00000000000000e+00,7.49970051870208e-01
7.11017844943577e-08,7.50000000000000e-01,0.00000000000000e+00,7.49959711008090e-01
7.17240076534307e-08,7.50000000000000e-01,0.00000000000000e+00,7.49973587005327e-01
7.28198809995407e-08,7.50000000000000e-01,0.00000000000000e+00,7.49966823318743e-01
7.50116276917606e-08,7.50000000000000e-01,0.00000000000000e+00,7.49980183701417e-01
7.51000000000000e-08,7.50000000000000e-01,0.00000000000000e+00,7.49975733239760e-01
7.51100000000000e-08,6.75000000000076e-01,0.00000000000000e+00,7.49944372335458e-01
7.51300000000000e-08,5.25000000000105e-01,0.00000000000000e+00,7.49909214711182e-01
7.51700000000000e-08,2.25000000000162e-01,0.00000000000000e+00,7.50486129376847e-01
7.52000000000000e-08,1.05027098129540e-13,0.00000000000000e+00,7.51605712733172e-01
7.52080000000000e-08,0.00000000000000e+00,0.00000000000000e+00,7.51794895328580e-01
7.52240000000000e-08,0.00000000000000e+00,0.00000000000000e+00,7.51772958474697e-01
7.52560000000000e-08,0.00000000000000e+00,0.00000000000000e+00,7.48765897622670e-01
7.53200000000000e-08,0.00000000000000e+00,0.00000000000000e+00,7.31265371164824e-01
7.54480000000000e-08,0.00000000000000e+00,0.00000000000000e+00,7.16933714037472e-01
7.57040000000000e-08,0.00000000000000e+00,0.00000000000000e+00,7.47207553051347e-01
7.60761366413190e-08,0.00000000000000e+00,0.00000000000000e+00,7.50447696124156e-01
7.66790345884902e-08,0.00000000000000e+00,0.00000000000000e+00,7.48796084218896e-01
7.74027927716759e-08,0.00000000000000e+00,0.00000000000000e+00,7.50343594366200e-01
7.81000000000000e-08,0.00000000000000e+00,0.00000000000000e+00,7.49286324148089e-01
7.82447516366372e-08,0.00000000000000e+00,0.00000000000000e+00,7.49676534685231e-01
7.85342549099115e-08,0.00000000000000e+00,0.00000000000000e+00,7.49866309006354e-01
7.91132614564601e-08,0.00000000000000e+00,0.00000000000000e+00,7.49779060343931e-01
8.02712745495573e-08,0.00000000000000e+00,0.00000000000000e+00,7.49903583024182e-01
8.25873007357517e-08,0.00000000000000e+00,0.00000000000000e+00,7.49858304740872e-01
8.50000000000000e-08,0.00000000000000e+00,0.00000000000000e+00,7.49951952340141e-01
8.50100000000000e-08,7.49999999999858e-02,0.00000000000000e+00,7.49964868498516e-01
8.50300000000000e-08,2.24999999999957e-01,0.00000000000000e+00,7.49973595484554e-01
8.50700000000000e-08,5.24999999999900e-01,0.00000000000000e+00,7.49940694389898e-01
8.51000000000000e-08,7.49999999999957e-01,0.00000000000000e+00,7.49860167520359e-01
8.51080000000000e-08,7.50000000000000e-01,0.00000000000000e+00,7.49831877695217e-01
8.51240000000000e-08,7.50000000000000e-01,0.00000000000000e+00,7.49797848095952e-01
8.51560000000000e-08,7.50000000000000e-01,0.00000000000000e+00,7.49798991271009e-01
8.52200000000000e-08,7.50000000000000e-01,0.00000000000000e+00,7.49862438719035e-01
8.53480000000000e-08,7.50000000000000e-01,0.00000000000000e+00,7.52020029955982e-01
8.56040000000000e-08,7.50000000000000e-01,0.00000000000000e+00,5.58510405356832e-01
8.61159999999999e-08,7.50000000000000e-01,0.00000000000000e+00,3.01647432775201e-03
8.66367179066665e-08,7.50000000000000e-01,0.00000000000000e+00,-2.98241154116182e-03
8.76781537199997e-08,7.50000000000000e-01,0.00000000000000e+00,3.94558792662258e-03
8.87881464462914e-08,7.50000000000000e-01,0.00000000000000e+00,-3.42434222923790e-03
9.00000000000000e-08,7.50000000000000e-01,0.00000000000000e+00,4.05510482899739e-03
9.00100000000000e-08,7.50000000000000e-01,7.49999999999858e-02,1.92334151976594e-03
9.00300000000000e-08,7.50000000000000e-01,2.24999999999957e-01,-1.47610186533469e-04
9.00700000000000e-08,7.50000000000000e-01,5.24999999999900e-01,-1.71740098077820e-04
9.01000000000000e-08,7.50000000000000e-01,7.49999999999957e-01,-1.67817998594402e-04
9.01080000000000e-08,7.50000000000000e-01,7.50000000000000e-01,-1.40944267228583e-04
9.01240000000000e-08,7.50000000000000e-01,7.50000000000000e-01,-1.12042323846082e-04
9.01560000000000e-08,7.50000000000000e-01,7.50000000000000e-01,-6.46768742289597e-05
9.02200000000000e-08,7.50000000000000e-01,7.50000000000000e-01,-1.60341458395157e-05
9.03480000000000e-08,7.50000000000000e-01,7.50000000000000e-01,6.50963773198704e-06
9.06040000000000e-08,7.50000000000000e-01,7.50000000000000e-01,-1.47536293621832e-06
9.10806844119351e-08,7.50000000000000e-01,7.50000000000000e-01,3.50005550752222e-06
9.20340532358055e-08,7.50000000000000e-01,7.50000000000000e-01,2.18302996929376e-07
9.39407908835463e-08,7.50000000000000e-01,7.50000000000000e-01,3.69493725660332e-06
9.51000000000000e-08,7.50000000000000e-01,7.50000000000000e-01,4.71680354358073e-07
9.51100000000000e-08,6.75000000000076e-01,7.50000000000000e-01,-2.94863867903034e-05
9.51300000000000e-08,5.25000000000105e-01,7.50000000000000e-01,-8.12281603243953e-05
9.51700000000000e-08,2.25000000000162e-01,7.50000000000000e-01,-6.62010755006215e-05
9.52000000000000e-08,1.05027098129540e-13,7.50000000000000e-01,7.21326798926447e-05
9.52080000000000e-08,0.00000000000000e+00,7.50000000000000e-01,1.39878186493171e-04
9.52240000000000e-08,0.00000000000000e+00,7.50000000000000e-01,2.18416188950764e-04
9.52560000000000e-08,0.00000000000000e+00,7.50000000000000e-01,1.19281835391206e-04
9.53200000000000e-08,0.00000000000000e+00,7.50000000000000e-01,-8.39223784119762e-04
9.54480000000000e-08,0.00000000000000e+00,7.50000000000000e-01,-1.38996860037115e-03
9.57040000000000e-08,0.00000000000000e+00,7.50000000000000e-01,-3.51467426093696e-05
9.61882326579624e-08,0.00000000000000e+00,7.50000000000000e-01,1.21166899565484e-04
9.67212413938809e-08,0.00000000000000e+00,7.50000000000000e-01,4.20306427109593e-05
9.77872588657180e-08,0.00000000000000e+00,7.50000000000000e-01,-5.44955727646854e-05
9.90181505117819e-08,0.00000000000000e+00,7.50000000000000e-01,6.88574868243988e-05
1.01479933803910e-07,0.00000000000000e+00,7.50000000000000e-01,-6.51109734978454e-05
1.05000000000000e-07,0.00000000000000e+00,7.50000000000000e-01,7.11348891315336e-05
1.05010000000000e-07,7.49999999999858e-02,7.50000000000000e-01,1.15855690500592e-04
1.05030000000000e-07,2.24999999999957e-01,7.50000000000000e-01,1.92365808556173e-04
1.05070000000000e-07,5.24999999999900e-01,7.50000000000000e-01,2.58346968250181e-04
1.05100000000000e-07,7.49999999999957e-01,7.50000000000000e-01,-1.70673902169460e-04
1.05108000000000e-07,7.50000000000000e-01,7.50000000000000e-01,-5.01932649040249e-04
1.05124000000000e-07,7.50000000000000e-01,7.50000000000000e-01,-1.28499910613670e-03
1.05156000000000e-07,7.50000000000000e-01,7.50000000000000e-01,-3.00350771961624e-03
1.05220000000000e-07,7.50000000000000e-01,7.50000000000000e-01,-4.67264420858800e-03
1.05348000000000e-07,7.50000000000000e-01,7.50000000000000e-01,7.40645284535466e-02
1.05604000000000e-07,7.50000000000000e-01,7.50000000000000e-01,6.10471021595426e-01
1.06116000000000e-07,7.50000000000000e-01,7.50000000000000e-01,7.81684783212776e-01
1.06659988903448e-07,7.50000000000000e-01,7.50000000000000e-01,7.20614858802611e-01
1.07747966710345e-07,7.50000000000000e-01,7.50000000000000e-01,7.76066745558086e-01
1.09264245020159e-07,7.50000000000000e-01,7.50000000000000e-01,7.23688897740630e-01
1.10100000000000e-07,7.50000000000000e-01,7.50000000000000e-01,7.72941802437321e-01
1.10110000000000e-07,7.50000000000000e-01,6.75000000000114e-01,7.64239725747347e-01
