Time,v(clk),v(data),v(out)
1.00000000000000e-08,6.00000000000000e-01,0.00000000000000e+00,-3.15700891913642e-06
1.00100000000000e-08,6.00000000000000e-01,5.99999999999985e-02,-2.54281938790596e-06
1.00300000000000e-08,6.00000000000000e-01,1.79999999999996e-01,-1.74097209077601e-06
1.00700000000000e-08,6.00000000000000e-01,4.19999999999990e-01,-2.64079925044874e-06
1.01000000000000e-08,6.00000000000000e-01,5.99999999999995e-01,-5.13902190486804e-06
1.01080000000000e-08,6.00000000000000e-01,6.00000000000000e-01,-5.49169798477744e-06
1.01240000000000e-08,6.00000000000000e-01,6.00000000000000e-01,-6.61387427251109e-06
1.01560000000000e-08,6.00000000000000e-01,6.00000000000000e-01,-5.26290536522617e-06
1.02200000000000e-08,6.00000000000000e-01,6.00000000000000e-01,2.19038554835627e-07
1.03480000000000e-08,6.00000000000000e-01,6.00000000000000e-01,6.39421806108292e-06
1.06040000000000e-08,6.00000000000000e-01,6.00000000000000e-01,3.37926540333947e-06
1.11160000000000e-08,6.00000000000000e-01,6.00000000000000e-01,3.30240670630769e-06
1.20458935523431e-08,6.00000000000000e-01,6.00000000000000e-01,3.97834125621076e-06
1.39056806570294e-08,6.00000000000000e-01,6.00000000000000e-01,2.90478175647268e-06
1.51000000000000e-08,6.00000000000000e-01,6.00000000000000e-01,3.46879060563344e-06
1.51100000000000e-08,5.39999999999991e-01,6.00000000000000e-01,-6.15521519750500e-05
1.51300000000000e-08,4.19999999999994e-01,6.00000000000000e-01,-1.75405511719594e-04
1.51700000000000e-08,1.80000000000000e-01,6.00000000000000e-01,-2.84876444407535e-04
1.52000000000000e-08,0.00000000000000e+00,6.00000000000000e-01,-1.39905520685081e-04
1.52080000000000e-08,0.00000000000000e+00,6.00000000000000e-01,-9.62713256780212e-07
1.52240000000000e-08,0.00000000000000e+00,6.00000000000000e-01,2.14457338791420e-04
1.52560000000000e-08,0.00000000000000e+00,6.00000000000000e-01,3.94730499759757e-04
1.53200000000000e-08,0.00000000000000e+00,6.00000000000000e-01,3.67791777207249e-04
1.54480000000000e-08,0.00000000000000e+00,6.00000000000000e-01,2.43427458199719e-05
1.57040000000000e-08,0.00000000000000e+00,6.00000000000000e-01,-2.28903690709017e-04
1.62160000000000e-08,0.00000000000000e+00,6.00000000000000e-01,-3.35271996925630e-05
1.70691603914018e-08,0.00000000000000e+00,6.00000000000000e-01,1.15242448151306e-05
1.81701554001970e-08,0.00000000000000e+00,6.00000000000000e-01,1.12463678425555e-04
2.03721454177875e-08,0.00000000000000e+00,6.00000000000000e-01,-1.48836656536154e-04
2.28553308780786e-08,0.00000000000000e+00,6.00000000000000e-01,1.59492266066913e-04
2.50000000000000e-08,0.00000000000000e+00,6.00000000000000e-01,-1.58683787178890e-04
2.50100000000000e-08,5.99999999999886e-02,6.00000000000000e-01,-3.21726502267791e-05
2.50300000000000e-08,1.80000000000006e-01,6.00000000000000e-01,1.86820321237915e-04
2.50700000000000e-08,4.20000000000000e-01,6.00000000000000e-01,4.48220030976658e-04
2.51000000000000e-08,6.00000000000000e-01,6.00000000000000e-01,4.19909049601874e-04
2.51080000000000e-08,6.00000000000000e-01,6.00000000000000e-01,3.00525179144875e-04
2.51240000000000e-08,6.00000000000000e-01,6.00000000000000e-01,-4.57372477729451e-06
2.51560000000000e-08,6.00000000000000e-01,6.00000000000000e-01,-9.30757905299735e-04
2.52200000000000e-08,6.00000000000000e-01,6.00000000000000e-01,-2.97017953229875e-03
2.53480000000000e-08,6.00000000000000e-01,6.00000000000000e-01,-5.33187164819055e-03
2.56040000000000e-08,6.00000000000000e-01,6.00000000000000e-01,6.95650309134435e-02
2.61160000000000e-08,6.00000000000000e-01,6.00000000000000e-01,5.18207223283665e-01
2.71400000000000e-08,6.00000000000000e-01,6.00000000000000e-01,6.21690597058456e-01
2.82741376262923e-08,6.00000000000000e-01,6.00000000000000e-01,5.77999008395976e-01
3.01000000000000e-08,6.00000000000000e-01,6.00000000000000e-01,6.18555600620238e-01
3.01100000000000e-08,6.00000000000000e-01,5.40000000000031e-01,6.13715649405256e-01
3.01300000000000e-08,6.00000000000000e-01,4.20000000000014e-01,6.06586684109114e-01
3.01700000000000e-08,6.00000000000000e-01,1.80000000000020e-01,6.01192299519669e-01
3.02000000000000e-08,6.00000000000000e-01,1.44328993201270e-14,6.00394625522939e-01
3.02080000000000e-08,6.00000000000000e-01,0.00000000000000e+00,6.00310146341350e-01
3.02240000000000e-08,6.00000000000000e-01,0.00000000000000e+00,6.00178022144557e-01
3.02560000000000e-08,6.00000000000000e-01,0.00000000000000e+00,6.00051926471427e-01
3.03200000000000e-08,6.00000000000000e-01,0.00000000000000e+00,5.99988841901838e-01
3.04480000000000e-08,6.00000000000000e-01,0.00000000000000e+00,5.99957189759254e-01
3.07040000000000e-08,6.00000000000000e-01,0.00000000000000e+00,5.99985645325551e-01
3.12160000000000e-08,6.00000000000000e-01,0.00000000000000e+00,5.99973187615912e-01
3.20702659925535e-08,6.00000000000000e-01,0.00000000000000e+00,5.99966616607868e-01
3.32267982352372e-08,6.00000000000000e-01,0.00000000000000e+00,5.99980345805078e-01
3.51000000000000e-08,5.99999999999970e-01,0.00000000000000e+00,5.99969793757213e-01
3.51100000000000e-08,5.39999999999982e-01,0.00000000000000e+00,5.99910830860777e-01
3.51300000000000e-08,4.19999999999965e-01,0.00000000000000e+00,5.99818091433973e-01
3.51700000000000e-08,1.79999999999970e-01,0.00000000000000e+00,6.00119528165508e-01
3.52000000000000e-08,0.00000000000000e+00,0.00000000000000e+00,6.01348107121857e-01
3.52080000000000e-08,0.00000000000000e+00,0.00000000000000e+00,6.01772793771191e-01
3.52240000000000e-08,0.00000000000000e+00,0.00000000000000e+00,6.02405975835181e-01
3.52560000000000e-08,0.00000000000000e+00,0.00000000000000e+00,6.02886481646592e-01
3.53200000000000e-08,0.00000000000000e+00,0.00000000000000e+00,6.01746481681429e-01
3.54480000000000e-08,0.00000000000000e+00,0.00000000000000e+00,5.88075024715728e-01
3.57040000000000e-08,0.00000000000000e+00,0.00000000000000e+00,5.78635174671102e-01
3.62160000000000e-08,0.00000000000000e+00,0.00000000000000e+00,6.00926216508413e-01
3.68898392608402e-08,0.00000000000000e+00,0.00000000000000e+00,5.98264013158973e-01
3.82375177825204e-08,0.00000000000000e+00,0.00000000000000e+00,6.00766580011048e-01
3.91000000000000e-08,0.00000000000000e+00,0.00000000000000e+00,5.98915153498878e-01
3.92394848082977e-08,0.00000000000000e+00,0.00000000000000e+00,5.99524552966002e-01
3.95184544248930e-08,0.00000000000000e+00,0.00000000000000e+00,5.99878499134845e-01
4.00763936580835e-08,0.00000000000000e+00,0.00000000000000e+00,5.99725700661748e-01
4.11922721244647e-08,0.00000000000000e+00,0.00000000000000e+00,5.99887052022226e-01
4.34240290572271e-08,0.00000000000000e+00,0.00000000000000e+00,5.99813702794804e-01
4.50000000000000e-08,0.00000000000000e+00,0.00000000000000e+00,5.99930731430741e-01
4.50100000000000e-08,5.99999999999886e-02,0.00000000000000e+00,6.00000672174555e-01
4.50300000000000e-08,1.80000000000006e-01,0.00000000000000e+00,6.00096687462430e-01
4.50700000000000e-08,4.20000000000000e-01,0.00000000000000e+00,6.00101224297699e-01
4.51000000000000e-08,6.00000000000000e-01,0.00000000000000e+00,5.99978312587739e-01
4.51080000000000e-08,6.00000000000000e-01,0.00000000000000e+00,5.99909022046047e-01
4.51240000000000e-08,6.00000000000000e-01,0.00000000000000e+00,5.99797363884296e-01
4.51560000000000e-08,6.00000000000000e-01,0.00000000000000e+00,5.99687651755389e-01
4.52200000000000e-08,6.00000000000000e-01,0.00000000000000e+00,5.99633797908793e-01
4.53480000000000e-08,6.00000000000000e-01,0.00000000000000e+00,5.99753608355506e-01
4.56040000000000e-08,6.00000000000000e-01,0.00000000000000e+00,6.02585230692278e-01
4.61160000000000e-08,6.00000000000000e-01,0.00000000000000e+00,3.39454791140271e-01
4.71400000000000e-08,6.00000000000000e-01,0.00000000000000e+00,-4.42765031495263e-02
4.81529774590130e-08,6.00000000000000e-01,0.00000000000000e+00,3.65585142429304e-02
5.00000000000000e-08,6.00000000000000e-01,0.00000000000000e+00,-2.36944409818513e-02
5.00100000000000e-08,6.00000000000000e-01,5.99999999999886e-02,-2.22640421770368e-02
5.00300000000000e-08,6.00000000000000e-01,1.79999999999966e-01,-1.89767427552682e-02
5.00700000000000e-08,6.00000000000000e-01,4.20000000000000e-01,-1.26188704105676e-02
5.01000000000000e-08,6.00000000000000e-01,6.00000000000000e-01,-9.18552595360605e-03
5.01080000000000e-08,6.00000000000000e-01,6.00000000000000e-01,-8.47313059627305e-03
5.01240000000000e-08,6.00000000000000e-01,6.00000000000000e-01,-7.14833250127683e-03
5.01560000000000e-08,6.00000000000000e-01,6.00000000000000e-01,-5.05849871766579e-03
5.02200000000000e-08,6.00000000000000e-01,6.00000000000000e-01,-2.47950155445405e-03
5.03480000000000e-08,6.00000000000000e-01,6.00000000000000e-01,-4.60961593638155e-04
5.06040000000000e-08,6.00000000000000e-01,6.00000000000000e-01,7.08312638388296e-05
5.11160000000001e-08,6.00000000000000e-01,6.00000000000000e-01,-3.23978074299822e-05
5.21292111596345e-08,6.00000000000000e-01,6.00000000000000e-01,2.33192044171091e-05
5.41556334789033e-08,6.00000000000000e-01,6.00000000000000e-01,-1.79885725557121e-05
5.51000000000000e-08,6.00000000000000e-01,6.00000000000000e-01,1.43221571287429e-05
5.51100000000000e-08,5.40000000000021e-01,6.00000000000000e-01,-5.15841407779660e-05
5.51300000000000e-08,4.20000000000004e-01,6.00000000000000e-01,-1.65882547855122e-04
5.51700000000000e-08,1.80000000000010e-01,6.00000000000000e-01,-2.68976186897377e-04
5.52000000000000e-08,0.00000000000000e+00,6.00000000000000e-01,-1.33719440514060e-04
5.52080000000000e-08,0.00000000000000e+00,6.00000000000000e-01,3.75227717719362e-06
5.52240000000000e-08,0.00000000000000e+00,6.00000000000000e-01,2.11717841375032e-04
5.52560000000000e-08,0.00000000000000e+00,6.00000000000000e-01,3.88773095346073e-04
5.53200000000000e-08,0.00000000000000e+00,6.00000000000000e-01,3.26782482692738e-04
5.54480000000000e-08,0.00000000000000e+00,6.00000000000000e-01,-4.35855170876256e-04
5.57040000000000e-08,0.00000000000000e+00,6.00000000000000e-01,-5.65925348254222e-04
5.62160000000000e-08,0.00000000000000e+00,6.00000000000000e-01,1.44664302083524e-04
5.70671947468937e-08,0.00000000000000e+00,6.00000000000000e-01,-1.15982429791540e-04
5.81690270512038e-08,0.00000000000000e+00,6.00000000000000e-01,2.09949512844240e-04
6.03726916598240e-08,0.00000000000000e+00,6.00000000000000e-01,-2.21721204530521e-04
6.28541240815022e-08,0.00000000000000e+00,6.00000000000000e-01,2.25317973651606e-04
6.50000000000000e-08,0.00000000000000e+00,6.00000000000000e-01,-2.18311099723614e-04
6.50100000000000e-08,5.99999999999886e-02,6.00000000000000e-01,-7.49060417739519e-05
6.50300000000000e-08,1.79999999999966e-01,6.00000000000000e-01,1.63423759340815e-04
6.50700000000000e-08,4.19999999999920e-01,6.00000000000000e-01,4.33263487656828e-04
6.51000000000000e-08,5.99999999999966e-01,6.00000000000000e-01,4.09673887457385e-04
6.51080000000000e-08,6.00000000000000e-01,6.00000000000000e-01,2.91170466242156e-04
6.51240000000000e-08,6.00000000000000e-01,6.00000000000000e-01,-1.23262430936563e-05
6.51560000000000e-08,6.00000000000000e-01,6.00000000000000e-01,-9.36104483231670e-04
6.52200000000000e-08,6.00000000000000e-01,6.00000000000000e-01,-2.97270339468899e-03
6.53480000000000e-08,6.00000000000000e-01,6.00000000000000e-01,-5.33253019059280e-03
6.56040000000000e-08,6.00000000000000e-01,6.00000000000000e-01,6.95570735031596e-02
6.61159999999999e-08,6.00000000000000e-01,6.00000000000000e-01,5.18201064120014e-01
6.71399999999999e-08,6.00000000000000e-01,6.00000000000000e-01,6.21691756562718e-01
6.82741242871874e-08,6.00000000000000e-01,6.00000000000000e-01,5.77997903825499e-01
7.01000000000000e-08,6.00000000000000e-01,6.00000000000000e-01,6.18556586719438e-01
7.01100000000000e-08,6.00000000000000e-01,5.40000000000011e-01,6.13716357943640e-01
7.01300000000000e-08,6.00000000000000e-01,4.20000000000034e-01,6.06587016636788e-01
7.01700000000000e-08,6.00000000000000e-01,1.80000000000080e-01,6.01192273970547e-01
7.02000000000000e-08,6.00000000000000e-01,3.44169137633799e-14,6.00394704052323e-01
7.02080000000000e-08,6.00000000000000e-01,0.00000000000000e+00,6.00310188848544e-01
7.02240000000000e-08,6.00000000000000e-01,0.00000000000000e+00,6.00178020707560e-01
7.02560000000000e-08,6.00000000000000e-01,0.00000000000000e+00,6.00051901407597e-01
7.03200000000000e-08,6.00000000000000e-01,0.00000000000000e+00,5.99988837226581e-01
7.04480000000000e-08,6.00000000000000e-01,0.00000000000000e+00,5.99957202178797e-01
7.07040000000000e-08,6.00000000000000e-01,0.00000000000000e+00,5.99985623136778e-01
7.12159999999999e-08,6.00000000000000e-01,0.00000000000000e+00,5.99973213938532e-01
7.20703292256795e-08,6.00000000000000e-01,0.00000000000000e+00,5.99966589844985e-01
7.32271827373281e-08,6.00000000000000e-01,0.00000000000000e+00,5.99980367405170e-01
7.51000000000000e-08,6.00000000000000e-01,0.00000000000000e+00,5.99969773951796e-01
7.51100000000000e-08,5.40000000000061e-01,0.00000000000000e+00,5.99910798175670e-01
7.51300000000000e-08,4.20000000000084e-01,0.00000000000000e+00,5.99818047963700e-01
7.51700000000000e-08,1.80000000000129e-01,0.00000000000000e+00,6.00119501417914e-01
7.52000000000000e-08,8.40438829641244e-14,0.00000000000000e+00,6.01348094947197e-01
7.52080000000000e-08,0.00000000000000e+00,0.00000000000000e+00,6.01772778302225e-01
7.52240000000000e-08,0.00000000000000e+00,0.00000000000000e+00,6.02405956756763e-01
7.52560000000000e-08,0.00000000000000e+00,0.00000000000000e+00,6.02886465029563e-01
7.53200000000000e-08,0.00000000000000e+00,0.00000000000000e+00,6.01746446918589e-01
7.54480000000000e-08,0.00000000000000e+00,0.00000000000000e+00,5.88074946360687e-01
7.57040000000000e-08,0.00000000000000e+00,0.00000000000000e+00,5.78635200241888e-01
7.62159999999999e-08,0.00000000000000e+00,0.00000000000000e+00,6.00926235806632e-01
7.68898394222666e-08,0.00000000000000e+00,0.00000000000000e+00,5.98263992545848e-01
7.81000000000000e-08,0.00000000000000e+00,0.00000000000000e+00,6.00734597075820e-01
7.82347678844533e-08,0.00000000000000e+00,0.00000000000000e+00,5.99988104813407e-01
7.85043036533600e-08,0.00000000000000e+00,0.00000000000000e+00,5.99588485483435e-01
7.90433751911733e-08,0.00000000000000e+00,0.00000000000000e+00,5.99834648768654e-01
8.01215182667999e-08,0.00000000000000e+00,0.00000000000000e+00,5.99726839090443e-01
8.22778044180531e-08,0.00000000000000e+00,0.00000000000000e+00,5.99914308480562e-01
8.50000000000000e-08,0.00000000000000e+00,0.00000000000000e+00,5.99824857390391e-01
8.50100000000000e-08,5.99999999999886e-02,0.00000000000000e+00,5.99903154342508e-01
8.50300000000000e-08,1.79999999999966e-01,0.00000000000000e+00,6.00015037664178e-01
8.50700000000000e-08,4.19999999999920e-01,0.00000000000000e+00,6.00056996649550e-01
8.51000000000000e-08,5.99999999999966e-01,0.00000000000000e+00,5.99953394807100e-01
8.51080000000000e-08,6.00000000000000e-01,0.00000000000000e+00,5.99884939794032e-01
8.51240000000000e-08,6.00000000000000e-01,0.00000000000000e+00,5.99776055557273e-01
8.51560000000000e-08,6.00000000000000e-01,0.00000000000000e+00,5.99674948864695e-01
8.52200000000000e-08,6.00000000000000e-01,0.00000000000000e+00,5.99658267813081e-01
8.53480000000000e-08,6.00000000000000e-01,0.00000000000000e+00,5.99746484813662e-01
8.56040000000000e-08,6.00000000000000e-01,0.00000000000000e+00,6.02601078098297e-01
8.61159999999999e-08,6.00000000000000e-01,0.00000000000000e+00,3.39501762401225e-01
8.71399999999999e-08,6.00000000000000e-01,0.00000000000000e+00,-4.42490617553179e-02
8.81529772237606e-08,6.00000000000000e-01,0.00000000000000e+00,3.65358451847297e-02
9.00000000000000e-08,6.00000000000000e-01,0.00000000000000e+00,-2.36772504523332e-02
9.00100000000000e-08,6.00000000000000e-01,5.99999999999886e-02,-2.22492092370699e-02
9.00300000000000e-08,6.00000000000000e-01,1.79999999999966e-01,-1.89657524707957e-02
9.00700000000000e-08,6.00000000000000e-01,4.19999999999920e-01,-1.26124065016283e-02
9.01000000000000e-08,6.00000000000000e-01,5.99999999999966e-01,-9.18100774061749e-03
9.01080000000000e-08,6.00000000000000e-01,6.00000000000000e-01,-8.46899266466961e-03
9.01240000000000e-08,6.00000000000000e-01,6.00000000000000e-01,-7.14488353168589e-03
9.01560000000000e-08,6.00000000000000e-01,6.00000000000000e-01,-5.05609959714218e-03
9.02200000000000e-08,6.00000000000000e-01,6.00000000000000e-01,-2.47834442897916e-03
9.03480000000000e-08,6.00000000000000e-01,6.00000000000000e-01,-4.60747211679734e-04
9.06040000000000e-08,6.00000000000000e-01,6.00000000000000e-01,7.07991090283557e-05
9.11159999999999e-08,6.00000000000000e-01,6.00000000000000e-01,-3.23838169440458e-05
9.21289731207571e-08,6.00000000000000e-01,6.00000000000000e-01,2.33075215560832e-05
9.41549193622715e-08,6.00000000000000e-01,6.00000000000000e-01,-1.79788340139847e-05
9.51000000000000e-08,6.00000000000000e-01,6.00000000000000e-01,1.43182392703736e-05
9.51100000000000e-08,5.40000000000061e-01,6.00000000000000e-01,-5.15879366053129e-05
9.51300000000000e-08,4.20000000000084e-01,6.00000000000000e-01,-1.65885827570385e-04
9.51700000000000e-08,1.80000000000129e-01,6.00000000000000e-01,-2.68978551175268e-04
9.52000000000000e-08,8.40438829641244e-14,6.00000000000000e-01,-1.33721603807348e-04
9.52080000000000e-08,0.00000000000000e+00,6.00000000000000e-01,3.75011957548521e-06
9.52240000000000e-08,0.00000000000000e+00,6.00000000000000e-01,2.11715576221815e-04
9.52560000000000e-08,0.00000000000000e+00,6.00000000000000e-01,3.88769558761728e-04
9.53200000000000e-08,0.00000000000000e+00,6.00000000000000e-01,3.26761686093704e-04
9.54480000000000e-08,0.00000000000000e+00,6.00000000000000e-01,-4.36216282394562e-04
9.57040000000000e-08,0.00000000000000e+00,6.00000000000000e-01,-5.66292678689094e-04
9.62159999999999e-08,0.00000000000000e+00,6.00000000000000e-01,1.44818114222081e-04
9.70671932423936e-08,0.00000000000000e+00,6.00000000000000e-01,-1.16074200855316e-04
9.81690262239827e-08,0.00000000000000e+00,6.00000000000000e-01,2.10010655861776e-04
1.00372692187161e-07,0.00000000000000e+00,6.00000000000000e-01,-2.21772269025084e-04
1.02854123245875e-07,0.00000000000000e+00,6.00000000000000e-01,2.25360840055780e-04
1.05000000000000e-07,0.00000000000000e+00,6.00000000000000e-01,-2.18346882008566e-04
1.05010000000000e-07,5.99999999999886e-02,6.00000000000000e-01,-7.49334399823623e-05
1.05030000000000e-07,1.79999999999966e-01,6.00000000000000e-01,1.63404827222789e-04
1.05070000000000e-07,4.19999999999920e-01,6.00000000000000e-01,4.33246999619441e-04
1.05100000000000e-07,5.99999999999966e-01,6.00000000000000e-01,4.09660343069551e-04
1.05108000000000e-07,6.00000000000000e-01,6.00000000000000e-01,2.91157593628869e-04
1.05124000000000e-07,6.00000000000000e-01,6.00000000000000e-01,-1.23378636715105e-05
1.05156000000000e-07,6.00000000000000e-01,6.00000000000000e-01,-9.36113882538135e-04
1.05220000000000e-07,6.00000000000000e-01,6.00000000000000e-01,-2.97270913068975e-03
1.05348000000000e-07,6.00000000000000e-01,6.00000000000000e-01,-5.33253190201825e-03
1.05604000000000e-07,6.00000000000000e-01,6.00000000000000e-01,6.95570843002152e-02
1.06116000000000e-07,6.00000000000000e-01,6.00000000000000e-01,5.18201073218496e-01
1.07140000000000e-07,6.00000000000000e-01,6.00000000000000e-01,6.21691754924231e-01
1.08274124309903e-07,6.00000000000000e-01,6.00000000000000e-01,5.77997905381591e-01
1.10100000000000e-07,6.00000000000000e-01,6.00000000000000e-01,6.18556585329777e-01
1.10110000000000e-07,6.00000000000000e-01,5.40000000000091e-01,6.13716356926912e-01
1.10130000000000e-07,6.00000000000000e-01,4.20000000000114e-01,6.06587016166269e-01
1.10170000000000e-07,6.00000000000000e-01,1.80000000000159e-01,6.01192273911181e-01
1.10200000000000e-07,6.00000000000000e-01,1.13686837721616e-13,6.00394704037447e-01
1.10208000000000e-07,6.00000000000000e-01,0.00000000000000e+00,6.00310188843243e-01
1.10224000000000e-07,6.00000000000000e-01,0.00000000000000e+00,6.00178020715682e-01
1.10256000000000e-07,6.00000000000000e-01,0.00000000000000e+00,6.00051901424652e-01
1.10320000000000e-07,6.00000000000000e-01,0.00000000000000e+00,5.99988837240358e-01
