Time,v(clk),v(data),v(out)
1.00000000000000e-08,5.75000000000000e-01,0.00000000000000e+00,2.30520854681490e-05
1.00100000000000e-08,5.75000000000000e-01,5.74999999999986e-02,2.03437344892116e-05
1.00300000000000e-08,5.75000000000000e-01,1.72499999999996e-01,1.42030144494945e-05
1.00700000000000e-08,5.75000000000000e-01,4.02499999999990e-01,5.80151886900998e-06
1.01000000000000e-08,5.75000000000000e-01,5.74999999999996e-01,2.84148678109802e-06
1.01080000000000e-08,5.75000000000000e-01,5.75000000000000e-01,2.25865731707381e-06
1.01240000000000e-08,5.75000000000000e-01,5.75000000000000e-01,3.22618469207614e-06
1.01560000000000e-08,5.75000000000000e-01,5.75000000000000e-01,6.62734038105878e-06
1.02200000000000e-08,5.75000000000000e-01,5.75000000000000e-01,7.96361350374752e-06
1.03480000000000e-08,5.75000000000000e-01,5.75000000000000e-01,1.95816857932740e-06
1.06040000000000e-08,5.75000000000000e-01,5.75000000000000e-01,4.52323032260407e-06
1.11160000000000e-08,5.75000000000000e-01,5.75000000000000e-01,3.03091290706353e-06
1.21400000000000e-08,5.75000000000000e-01,5.75000000000000e-01,4.00437446554901e-06
1.41880000000000e-08,5.75000000000000e-01,5.75000000000000e-01,2.63381739452938e-06
1.51000000000000e-08,5.75000000000000e-01,5.75000000000000e-01,3.57599120727210e-06
1.51100000000000e-08,5.17499999999992e-01,5.75000000000000e-01,-7.45332291903419e-05
1.51300000000000e-08,4.02499999999995e-01,5.75000000000000e-01,-1.76096027383658e-04
1.51700000000000e-08,1.72500000000000e-01,5.75000000000000e-01,-1.00701262628788e-04
1.52000000000000e-08,0.00000000000000e+00,5.75000000000000e-01,2.68879010109649e-04
1.52080000000000e-08,0.00000000000000e+00,5.75000000000000e-01,4.30364872008232e-04
1.52240000000000e-08,0.00000000000000e+00,5.75000000000000e-01,5.82574800226748e-04
1.52560000000000e-08,0.00000000000000e+00,5.75000000000000e-01,3.62580472118429e-04
1.53200000000000e-08,0.00000000000000e+00,5.75000000000000e-01,-2.63153055776018e-04
1.54480000000000e-08,0.00000000000000e+00,5.75000000000000e-01,-2.23038266972436e-04
1.57040000000000e-08,0.00000000000000e+00,5.75000000000000e-01,5.36024058517548e-05
1.60676688036397e-08,0.00000000000000e+00,5.75000000000000e-01,-8.23560036896601e-05
1.65998676473045e-08,0.00000000000000e+00,5.75000000000000e-01,1.99171649927350e-04
1.76468794641660e-08,0.00000000000000e+00,5.75000000000000e-01,-2.23113153254742e-04
1.88707577028086e-08,0.00000000000000e+00,5.75000000000000e-01,2.37144317209227e-04
2.13185141800939e-08,0.00000000000000e+00,5.75000000000000e-01,-2.36715193271668e-04
2.50000000000000e-08,0.00000000000000e+00,5.75000000000000e-01,2.40536957154761e-04
2.50100000000000e-08,5.74999999999891e-02,5.75000000000000e-01,3.40339293821212e-04
2.50300000000000e-08,1.72500000000005e-01,5.75000000000000e-01,4.66462115312843e-04
2.50700000000000e-08,4.02500000000000e-01,5.75000000000000e-01,5.45212686361797e-04
2.51000000000000e-08,5.75000000000000e-01,5.75000000000000e-01,-1.29280714856017e-04
2.51080000000000e-08,5.75000000000000e-01,5.75000000000000e-01,-6.79250147781800e-04
2.51240000000000e-08,5.75000000000000e-01,5.75000000000000e-01,-1.85119697418365e-03
2.51560000000000e-08,5.75000000000000e-01,5.75000000000000e-01,-3.92035072258359e-03
2.52200000000000e-08,5.75000000000000e-01,5.75000000000000e-01,-5.70999189356550e-03
2.53480000000000e-08,5.75000000000000e-01,5.75000000000000e-01,8.89165958700041e-02
2.56040000000000e-08,5.75000000000000e-01,5.75000000000000e-01,5.26765364226635e-01
2.61160000000000e-08,5.75000000000000e-01,5.75000000000000e-01,5.88577945878607e-01
2.66800292996660e-08,5.75000000000000e-01,5.75000000000000e-01,5.60728015047119e-01
2.77285899267965e-08,5.75000000000000e-01,5.75000000000000e-01,5.87121488813198e-01
2.91566064053633e-08,5.75000000000000e-01,5.75000000000000e-01,5.62167718577175e-01
3.01000000000000e-08,5.75000000000000e-01,5.75000000000000e-01,5.86208995190864e-01
3.01100000000000e-08,5.75000000000000e-01,5.17500000000030e-01,5.80858777635468e-01
3.01300000000000e-08,5.75000000000000e-01,4.02500000000014e-01,5.75285601869764e-01
3.01700000000000e-08,5.75000000000000e-01,1.72500000000019e-01,5.74972480283872e-01
3.02000000000000e-08,5.75000000000000e-01,1.38777878078145e-14,5.75071578131019e-01
3.02080000000000e-08,5.75000000000000e-01,0.00000000000000e+00,5.75041926449755e-01
3.02240000000000e-08,5.75000000000000e-01,0.00000000000000e+00,5.75004333380222e-01
3.02560000000000e-08,5.75000000000000e-01,0.00000000000000e+00,5.74984405027472e-01
3.03200000000000e-08,5.75000000000000e-01,0.00000000000000e+00,5.74978602331476e-01
3.04480000000000e-08,5.75000000000000e-01,0.00000000000000e+00,5.74999252037263e-01
3.06620585504547e-08,5.75000000000000e-01,0.00000000000000e+00,5.74981697453415e-01
3.10432662126923e-08,5.75000000000000e-01,0.00000000000000e+00,5.74980788837828e-01
3.15433173140359e-08,5.75000000000000e-01,0.00000000000000e+00,5.74990867810745e-01
3.25434195167231e-08,5.75000000000000e-01,0.00000000000000e+00,5.74979420697691e-01
3.45436239220976e-08,5.75000000000000e-01,0.00000000000000e+00,5.74994985653919e-01
3.51000000000000e-08,5.74999999999972e-01,0.00000000000000e+00,5.74980199732729e-01
3.51100000000000e-08,5.17499999999982e-01,0.00000000000000e+00,5.74914720416374e-01
3.51300000000000e-08,4.02499999999966e-01,0.00000000000000e+00,5.74850236043439e-01
3.51700000000000e-08,1.72499999999972e-01,0.00000000000000e+00,5.75530139469977e-01
3.52000000000000e-08,0.00000000000000e+00,0.00000000000000e+00,5.77661255383635e-01
3.52080000000000e-08,0.00000000000000e+00,0.00000000000000e+00,5.78199183585257e-01
3.52240000000000e-08,0.00000000000000e+00,0.00000000000000e+00,5.78683601213232e-01
3.52560000000000e-08,0.00000000000000e+00,0.00000000000000e+00,5.75706991709361e-01
3.53200000000000e-08,0.00000000000000e+00,0.00000000000000e+00,5.61753805131422e-01
3.54480000000000e-08,0.00000000000000e+00,0.00000000000000e+00,5.64337258863194e-01
3.56784126483683e-08,0.00000000000000e+00,0.00000000000000e+00,5.78517178682460e-01
3.59898976991890e-08,0.00000000000000e+00,0.00000000000000e+00,5.71297685823837e-01
3.66128678008302e-08,0.00000000000000e+00,0.00000000000000e+00,5.77561399530883e-01
3.73647415076927e-08,0.00000000000000e+00,0.00000000000000e+00,5.72349121869826e-01
3.88684889214177e-08,0.00000000000000e+00,0.00000000000000e+00,5.77237772239362e-01
3.91000000000000e-08,0.00000000000000e+00,0.00000000000000e+00,5.73307771410066e-01
3.94007494827450e-08,0.00000000000000e+00,0.00000000000000e+00,5.74799889249984e-01
4.00022484482350e-08,0.00000000000000e+00,0.00000000000000e+00,5.75018061071731e-01
4.12052463792150e-08,0.00000000000000e+00,0.00000000000000e+00,5.74840673507307e-01
4.36112422411750e-08,0.00000000000000e+00,0.00000000000000e+00,5.75029632493946e-01
4.50000000000000e-08,0.00000000000000e+00,0.00000000000000e+00,5.74864912234757e-01
4.50100000000000e-08,5.74999999999891e-02,0.00000000000000e+00,5.74962421896032e-01
4.50300000000000e-08,1.72500000000005e-01,0.00000000000000e+00,5.75055339302104e-01
4.50700000000000e-08,4.02500000000000e-01,0.00000000000000e+00,5.74983807378947e-01
4.51000000000000e-08,5.75000000000000e-01,0.00000000000000e+00,5.74833591528995e-01
4.51080000000000e-08,5.75000000000000e-01,0.00000000000000e+00,5.74769799708612e-01
4.51240000000000e-08,5.75000000000000e-01,0.00000000000000e+00,5.74706368394229e-01
4.51560000000000e-08,5.75000000000000e-01,0.00000000000000e+00,5.74704509487297e-01
4.52200000000000e-08,5.75000000000000e-01,0.00000000000000e+00,5.74876290598009e-01
4.53480000000000e-08,5.75000000000000e-01,0.00000000000000e+00,5.79518650438329e-01
4.56040000000000e-08,5.75000000000000e-01,0.00000000000000e+00,2.71356810988060e-01
4.61160000000000e-08,5.75000000000000e-01,0.00000000000000e+00,-6.27649910420484e-02
4.65800239947194e-08,5.75000000000000e-01,0.00000000000000e+00,5.13687637647447e-02
4.75080719841583e-08,5.75000000000000e-01,0.00000000000000e+00,-3.39429689763264e-02
4.85600218227968e-08,5.75000000000000e-01,0.00000000000000e+00,3.27531209171373e-02
5.00000000000000e-08,5.75000000000000e-01,0.00000000000000e+00,-2.46825839328346e-02
5.00100000000000e-08,5.75000000000000e-01,5.74999999999891e-02,-2.11533394116973e-02
5.00300000000000e-08,5.75000000000000e-01,1.72499999999967e-01,-1.41208630750074e-02
5.00700000000000e-08,5.75000000000000e-01,4.02500000000000e-01,-5.13831033825838e-03
5.01000000000000e-08,5.75000000000000e-01,5.75000000000000e-01,-2.58182184055872e-03
5.01080000000000e-08,5.75000000000000e-01,5.75000000000000e-01,-2.16313568523702e-03
5.01240000000000e-08,5.75000000000000e-01,5.75000000000000e-01,-1.47992875525017e-03
5.01560000000000e-08,5.75000000000000e-01,5.75000000000000e-01,-6.81909199489662e-04
5.02200000000000e-08,5.75000000000000e-01,5.75000000000000e-01,-1.00815108734637e-04
5.03480000000000e-08,5.75000000000000e-01,5.75000000000000e-01,1.88492785238997e-05
5.06040000000000e-08,5.75000000000000e-01,5.75000000000000e-01,-7.47045886917777e-06
5.11160000000001e-08,5.75000000000000e-01,5.75000000000000e-01,7.54773533871538e-06
5.21400000000002e-08,5.75000000000000e-01,5.75000000000000e-01,-3.98861921290915e-06
5.41880000000003e-08,5.75000000000000e-01,5.75000000000000e-01,5.95811996155797e-06
5.51000000000000e-08,5.75000000000000e-01,5.75000000000000e-01,-2.18442925278058e-06
5.51100000000000e-08,5.17500000000020e-01,5.75000000000000e-01,-7.82031600926880e-05
5.51300000000000e-08,4.02500000000004e-01,5.75000000000000e-01,-1.73291330054136e-04
5.51700000000000e-08,1.72500000000010e-01,5.75000000000000e-01,-9.09423645138255e-05
5.52000000000000e-08,0.00000000000000e+00,5.75000000000000e-01,2.67096787500830e-04
5.52080000000000e-08,0.00000000000000e+00,5.75000000000000e-01,4.25775143000420e-04
5.52240000000000e-08,0.00000000000000e+00,5.75000000000000e-01,5.62011780879765e-04
5.52560000000000e-08,0.00000000000000e+00,5.75000000000000e-01,2.21541464256958e-04
5.53200000000000e-08,0.00000000000000e+00,5.75000000000000e-01,-8.01158394229111e-04
5.54480000000000e-08,0.00000000000000e+00,5.75000000000000e-01,-3.82838753559926e-04
5.57040000000000e-08,0.00000000000000e+00,5.75000000000000e-01,1.95530374729611e-04
5.60674385015956e-08,0.00000000000000e+00,5.75000000000000e-01,-2.04324908578924e-04
5.65996919582144e-08,0.00000000000000e+00,5.75000000000000e-01,3.05473457144186e-04
5.76466696659603e-08,0.00000000000000e+00,5.75000000000000e-01,-3.23918769806838e-04
5.88699838023072e-08,0.00000000000000e+00,5.75000000000000e-01,3.31908558252069e-04
6.13166120750009e-08,0.00000000000000e+00,5.75000000000000e-01,-3.30155325439937e-04
6.50000000000000e-08,0.00000000000000e+00,5.75000000000000e-01,3.31298874609656e-04
6.50100000000000e-08,5.74999999999891e-02,5.75000000000000e-01,3.90592106364371e-04
6.50300000000000e-08,1.72499999999967e-01,5.75000000000000e-01,4.80129959880352e-04
6.50700000000000e-08,4.02499999999924e-01,5.75000000000000e-01,5.45428684661835e-04
6.51000000000000e-08,5.74999999999967e-01,5.75000000000000e-01,-1.32081640376217e-04
6.51080000000000e-08,5.75000000000000e-01,5.75000000000000e-01,-6.81331273835135e-04
6.51240000000000e-08,5.75000000000000e-01,5.75000000000000e-01,-1.85265242661389e-03
6.51560000000000e-08,5.75000000000000e-01,5.75000000000000e-01,-3.92142311315260e-03
6.52200000000000e-08,5.75000000000000e-01,5.75000000000000e-01,-5.71000515405724e-03
6.53480000000000e-08,5.75000000000000e-01,5.75000000000000e-01,8.89294925884635e-02
6.56040000000000e-08,5.75000000000000e-01,5.75000000000000e-01,5.26772112808607e-01
6.61159999999999e-08,5.75000000000000e-01,5.75000000000000e-01,5.88576335686896e-01
6.66800451947854e-08,5.75000000000000e-01,5.75000000000000e-01,5.60729710821439e-01
6.77285813459231e-08,5.75000000000000e-01,5.75000000000000e-01,5.87120017174515e-01
6.91565956232515e-08,5.75000000000000e-01,5.75000000000000e-01,5.62169303386158e-01
7.01000000000000e-08,5.75000000000000e-01,5.75000000000000e-01,5.86207623867192e-01
7.01100000000000e-08,5.75000000000000e-01,5.17500000000011e-01,5.80858092856538e-01
7.01300000000000e-08,5.75000000000000e-01,4.02500000000033e-01,5.75285608472687e-01
7.01700000000000e-08,5.75000000000000e-01,1.72500000000076e-01,5.74972482385468e-01
7.02000000000000e-08,5.75000000000000e-01,3.28626015289046e-14,5.75071574493082e-01
7.02080000000000e-08,5.75000000000000e-01,0.00000000000000e+00,5.75041927560600e-01
7.02240000000000e-08,5.75000000000000e-01,0.00000000000000e+00,5.75004338882346e-01
7.02560000000000e-08,5.75000000000000e-01,0.00000000000000e+00,5.74984408694007e-01
7.03200000000000e-08,5.75000000000000e-01,0.00000000000000e+00,5.74978604520299e-01
7.04480000000000e-08,5.75000000000000e-01,0.00000000000000e+00,5.74999250716953e-01
7.06620593771022e-08,5.75000000000000e-01,0.00000000000000e+00,5.74981699055615e-01
7.10432667764091e-08,5.75000000000000e-01,0.00000000000000e+00,5.74980789145713e-01
7.15433216143905e-08,5.75000000000000e-01,0.00000000000000e+00,5.74990868593574e-01
7.25434312903532e-08,5.75000000000000e-01,0.00000000000000e+00,5.74979421090369e-01
7.45436506422786e-08,5.75000000000000e-01,0.00000000000000e+00,5.74994986117910e-01
7.51000000000000e-08,5.75000000000000e-01,0.00000000000000e+00,5.74980199941632e-01
7.51100000000000e-08,5.17500000000058e-01,0.00000000000000e+00,5.74914719951828e-01
7.51300000000000e-08,4.02500000000080e-01,0.00000000000000e+00,5.74850235211120e-01
7.51700000000000e-08,1.72500000000124e-01,0.00000000000000e+00,5.75530139733026e-01
7.52000000000000e-08,8.04911692853238e-14,0.00000000000000e+00,5.77661257078114e-01
7.52080000000000e-08,0.00000000000000e+00,0.00000000000000e+00,5.78199186501070e-01
7.52240000000000e-08,0.00000000000000e+00,0.00000000000000e+00,5.78683611479764e-01
7.52560000000000e-08,0.00000000000000e+00,0.00000000000000e+00,5.75707048824632e-01
7.53200000000000e-08,0.00000000000000e+00,0.00000000000000e+00,5.61753881073873e-01
7.54480000000000e-08,0.00000000000000e+00,0.00000000000000e+00,5.64337247825138e-01
7.56784126444788e-08,0.00000000000000e+00,0.00000000000000e+00,5.78517180470520e-01
7.59898976957686e-08,0.00000000000000e+00,0.00000000000000e+00,5.71297684481427e-01
7.66128677983483e-08,0.00000000000000e+00,0.00000000000000e+00,5.77561400745916e-01
7.73647414978114e-08,0.00000000000000e+00,0.00000000000000e+00,5.72349120762347e-01
7.81000000000000e-08,0.00000000000000e+00,0.00000000000000e+00,5.77078181194830e-01
7.82503747398926e-08,0.00000000000000e+00,0.00000000000000e+00,5.75159022277325e-01
7.85511242196779e-08,0.00000000000000e+00,0.00000000000000e+00,5.74690604169720e-01
7.91526231792484e-08,0.00000000000000e+00,0.00000000000000e+00,5.75081632681006e-01
8.03556210983893e-08,0.00000000000000e+00,0.00000000000000e+00,5.74761185306507e-01
8.27616169366713e-08,0.00000000000000e+00,0.00000000000000e+00,5.75095181230106e-01
8.50000000000000e-08,0.00000000000000e+00,0.00000000000000e+00,5.74796353135235e-01
8.50100000000000e-08,5.74999999999891e-02,0.00000000000000e+00,5.74909432925561e-01
8.50300000000000e-08,1.72499999999967e-01,0.00000000000000e+00,5.75026404113807e-01
8.50700000000000e-08,4.02499999999924e-01,0.00000000000000e+00,5.74981096084884e-01
8.51000000000000e-08,5.74999999999967e-01,0.00000000000000e+00,5.74846036526302e-01
8.51080000000000e-08,5.75000000000000e-01,0.00000000000000e+00,5.74778807246204e-01
8.51240000000000e-08,5.75000000000000e-01,0.00000000000000e+00,5.74708605864115e-01
8.51560000000000e-08,5.75000000000000e-01,0.00000000000000e+00,5.74705252673337e-01
8.52200000000000e-08,5.75000000000000e-01,0.00000000000000e+00,5.74877298394517e-01
8.53480000000000e-08,5.75000000000000e-01,0.00000000000000e+00,5.79518631501476e-01
8.56040000000000e-08,5.75000000000000e-01,0.00000000000000e+00,2.71328302930769e-01
8.61159999999999e-08,5.75000000000000e-01,0.00000000000000e+00,-6.27707470059673e-02
8.65800421918933e-08,5.75000000000000e-01,0.00000000000000e+00,5.13751930366056e-02
8.75081265756801e-08,5.75000000000000e-01,0.00000000000000e+00,-3.39477065422599e-02
8.85600970845941e-08,5.75000000000000e-01,0.00000000000000e+00,3.27579021716485e-02
9.00000000000000e-08,5.75000000000000e-01,0.00000000000000e+00,-2.46862744790091e-02
9.00100000000000e-08,5.75000000000000e-01,5.74999999999891e-02,-2.11558674554614e-02
9.00300000000000e-08,5.75000000000000e-01,1.72499999999967e-01,-1.41210473441517e-02
9.00700000000000e-08,5.75000000000000e-01,4.02499999999924e-01,-5.13958823348618e-03
9.01000000000000e-08,5.75000000000000e-01,5.74999999999967e-01,-2.58200421227327e-03
9.01080000000000e-08,5.75000000000000e-01,5.75000000000000e-01,-2.16392452148224e-03
9.01240000000000e-08,5.75000000000000e-01,5.75000000000000e-01,-1.48132734134397e-03
9.01560000000000e-08,5.75000000000000e-01,5.75000000000000e-01,-6.82569647465804e-04
9.02200000000000e-08,5.75000000000000e-01,5.75000000000000e-01,-1.00700726026977e-04
9.03480000000000e-08,5.75000000000000e-01,5.75000000000000e-01,1.80547876266514e-05
9.06040000000000e-08,5.75000000000000e-01,5.75000000000000e-01,-6.70866284171318e-06
9.11159999999999e-08,5.75000000000000e-01,5.75000000000000e-01,6.80740591895747e-06
9.21399999999999e-08,5.75000000000000e-01,5.75000000000000e-01,-3.30674652598926e-06
9.41879999999998e-08,5.75000000000000e-01,5.75000000000000e-01,5.24313108651864e-06
9.51000000000000e-08,5.75000000000000e-01,5.75000000000000e-01,-1.49917508541261e-06
9.51100000000000e-08,5.17500000000058e-01,5.75000000000000e-01,-7.80389315749933e-05
9.51300000000000e-08,4.02500000000080e-01,5.75000000000000e-01,-1.74185130127957e-04
9.51700000000000e-08,1.72500000000124e-01,5.75000000000000e-01,-9.08714403157623e-05
9.52000000000000e-08,8.04911692853238e-14,5.75000000000000e-01,2.67529230430004e-04
9.52080000000000e-08,0.00000000000000e+00,5.75000000000000e-01,4.26135451958631e-04
9.52240000000000e-08,0.00000000000000e+00,5.75000000000000e-01,5.62270066784304e-04
9.52560000000000e-08,0.00000000000000e+00,5.75000000000000e-01,2.21616687904082e-04
9.53200000000000e-08,0.00000000000000e+00,5.75000000000000e-01,-8.01314904344978e-04
9.54480000000000e-08,0.00000000000000e+00,5.75000000000000e-01,-3.82920159814889e-04
9.57040000000000e-08,0.00000000000000e+00,5.75000000000000e-01,1.95593876972450e-04
9.60674376773942e-08,0.00000000000000e+00,5.75000000000000e-01,-2.04377093692747e-04
9.65996910407976e-08,0.00000000000000e+00,5.75000000000000e-01,3.05518085598403e-04
9.76466690193797e-08,0.00000000000000e+00,5.75000000000000e-01,-3.23960690557959e-04
9.88699797854035e-08,0.00000000000000e+00,5.75000000000000e-01,3.31947655257800e-04
1.01316601317451e-07,0.00000000000000e+00,5.75000000000000e-01,-3.30193495742823e-04
1.05000000000000e-07,0.00000000000000e+00,5.75000000000000e-01,3.31336024096928e-04
1.05010000000000e-07,5.74999999999891e-02,5.75000000000000e-01,3.90614314613638e-04
1.05030000000000e-07,1.72499999999967e-01,5.75000000000000e-01,4.80136983466412e-04
1.05070000000000e-07,4.02499999999924e-01,5.75000000000000e-01,5.45430283043123e-04
1.05100000000000e-07,5.74999999999967e-01,5.75000000000000e-01,-1.32083059141308e-04
1.05108000000000e-07,5.75000000000000e-01,5.75000000000000e-01,-6.81332643249689e-04
1.05124000000000e-07,5.75000000000000e-01,5.75000000000000e-01,-1.85265386770549e-03
1.05156000000000e-07,5.75000000000000e-01,5.75000000000000e-01,-3.92142428982277e-03
1.05220000000000e-07,5.75000000000000e-01,5.75000000000000e-01,-5.71000480803176e-03
1.05348000000000e-07,5.75000000000000e-01,5.75000000000000e-01,8.89295306881004e-02
1.05604000000000e-07,5.75000000000000e-01,5.75000000000000e-01,5.26772132659371e-01
1.06116000000000e-07,5.75000000000000e-01,5.75000000000000e-01,5.88576331054047e-01
1.06680045240083e-07,5.75000000000000e-01,5.75000000000000e-01,5.60729715700342e-01
1.07728581320789e-07,5.75000000000000e-01,5.75000000000000e-01,5.87120012943450e-01
1.09156595611271e-07,5.75000000000000e-01,5.75000000000000e-01,5.62169307930999e-01
1.10100000000000e-07,5.75000000000000e-01,5.75000000000000e-01,5.86207619917007e-01
