Time,v(clk),v(data),v(out)
1.00000000000000e-08,6.00000000000000e-01,0.00000000000000e+00,2.35573864872107e-05
1.00100000000000e-08,6.00000000000000e-01,5.99999999999985e-02,1.68452337158745e-05
1.00300000000000e-08,6.00000000000000e-01,1.79999999999996e-01,7.35304191249592e-06
1.00700000000000e-08,6.00000000000000e-01,4.19999999999990e-01,3.80933266829614e-07
1.01000000000000e-08,6.00000000000000e-01,5.99999999999995e-01,-9.43688584820884e-07
1.01080000000000e-08,6.00000000000000e-01,6.00000000000000e-01,-6.07712210418804e-07
1.01240000000000e-08,6.00000000000000e-01,6.00000000000000e-01,5.03272621084350e-07
1.01560000000000e-08,6.00000000000000e-01,6.00000000000000e-01,2.83321306737347e-06
1.02200000000000e-08,6.00000000000000e-01,6.00000000000000e-01,2.43173161849214e-06
1.03480000000000e-08,6.00000000000000e-01,6.00000000000000e-01,5.72794843962249e-07
1.06040000000000e-08,6.00000000000000e-01,6.00000000000000e-01,1.64636379341217e-06
1.11160000000000e-08,6.00000000000000e-01,6.00000000000000e-01,1.16016104539842e-06
1.21400000000000e-08,6.00000000000000e-01,6.00000000000000e-01,1.30973930359980e-06
1.41880000000000e-08,6.00000000000000e-01,6.00000000000000e-01,9.33158352146770e-07
1.51000000000000e-08,6.00000000000000e-01,6.00000000000000e-01,1.11931304033449e-06
1.51100000000000e-08,5.39999999999991e-01,6.00000000000000e-01,-2.33190229788106e-05
1.51300000000000e-08,4.19999999999994e-01,6.00000000000000e-01,-5.89564022547805e-05
1.51700000000000e-08,1.80000000000000e-01,6.00000000000000e-01,-6.00831111775904e-05
1.52000000000000e-08,0.00000000000000e+00,6.00000000000000e-01,3.01006011363368e-05
1.52080000000000e-08,0.00000000000000e+00,6.00000000000000e-01,8.51282161849556e-05
1.52240000000000e-08,0.00000000000000e+00,6.00000000000000e-01,1.48868487796404e-04
1.52560000000000e-08,0.00000000000000e+00,6.00000000000000e-01,1.31033963853704e-04
1.53200000000000e-08,0.00000000000000e+00,6.00000000000000e-01,-9.33011346784807e-06
1.54480000000000e-08,0.00000000000000e+00,6.00000000000000e-01,-9.27548937229069e-05
1.57040000000000e-08,0.00000000000000e+00,6.00000000000000e-01,-8.30869197345433e-05
1.62160000000000e-08,0.00000000000000e+00,6.00000000000000e-01,4.69820354661752e-05
1.68453166512603e-08,0.00000000000000e+00,6.00000000000000e-01,3.97634541775774e-05
1.80416365215841e-08,0.00000000000000e+00,6.00000000000000e-01,-5.11474557764718e-05
1.95122462395362e-08,0.00000000000000e+00,6.00000000000000e-01,5.64669217744478e-05
2.24534656754403e-08,0.00000000000000e+00,6.00000000000000e-01,-5.74696550456981e-05
2.50000000000000e-08,0.00000000000000e+00,6.00000000000000e-01,5.89507941514775e-05
2.50100000000000e-08,5.99999999999886e-02,6.00000000000000e-01,9.03273757655344e-05
2.50300000000000e-08,1.80000000000006e-01,6.00000000000000e-01,1.25070817055973e-04
2.50700000000000e-08,4.20000000000000e-01,6.00000000000000e-01,7.16257860663219e-05
2.51000000000000e-08,6.00000000000000e-01,6.00000000000000e-01,-9.40078971780389e-04
2.51080000000000e-08,6.00000000000000e-01,6.00000000000000e-01,-1.53877201851554e-03
2.51240000000000e-08,6.00000000000000e-01,6.00000000000000e-01,-2.71635662887956e-03
2.51560000000000e-08,6.00000000000000e-01,6.00000000000000e-01,-4.46398866702111e-03
2.52200000000000e-08,6.00000000000000e-01,6.00000000000000e-01,4.83181271686694e-03
2.53480000000000e-08,6.00000000000000e-01,6.00000000000000e-01,1.99789912285673e-01
2.56040000000000e-08,6.00000000000000e-01,6.00000000000000e-01,5.83946331780754e-01
2.60998807698201e-08,6.00000000000000e-01,6.00000000000000e-01,6.05777905200361e-01
2.66895544127970e-08,6.00000000000000e-01,6.00000000000000e-01,5.94616509730573e-01
2.77759086389485e-08,6.00000000000000e-01,6.00000000000000e-01,6.03935785072938e-01
2.90396173714987e-08,6.00000000000000e-01,6.00000000000000e-01,5.95984625454982e-01
3.15670348365990e-08,6.00000000000000e-01,6.00000000000000e-01,6.03348128796669e-01
3.51000000000000e-08,5.99999999999970e-01,6.00000000000000e-01,5.96400283474138e-01
3.51100000000000e-08,5.39999999999982e-01,6.00000000000000e-01,5.97246796962851e-01
3.51300000000000e-08,4.19999999999965e-01,6.00000000000000e-01,5.98491116595121e-01
3.51700000000000e-08,1.79999999999970e-01,6.00000000000000e-01,5.99740418870054e-01
3.52000000000000e-08,0.00000000000000e+00,6.00000000000000e-01,6.00691925020076e-01
3.52080000000000e-08,0.00000000000000e+00,6.00000000000000e-01,6.00941090009163e-01
3.52240000000000e-08,0.00000000000000e+00,6.00000000000000e-01,6.01269295566328e-01
3.52560000000000e-08,0.00000000000000e+00,6.00000000000000e-01,6.01157749733192e-01
3.53200000000000e-08,0.00000000000000e+00,6.00000000000000e-01,5.95676015822590e-01
3.54480000000000e-08,0.00000000000000e+00,6.00000000000000e-01,5.74676811686661e-01
3.57040000000000e-08,0.00000000000000e+00,6.00000000000000e-01,5.84501121401075e-01
3.62160000000000e-08,0.00000000000000e+00,6.00000000000000e-01,6.06446370704172e-01
3.69717713228667e-08,0.00000000000000e+00,6.00000000000000e-01,5.93874116705396e-01
3.83758232417987e-08,0.00000000000000e+00,6.00000000000000e-01,6.04680115228144e-01
4.11839270796626e-08,0.00000000000000e+00,6.00000000000000e-01,5.95168658244197e-01
4.49839270796626e-08,0.00000000000000e+00,6.00000000000000e-01,6.04296564376066e-01
4.50000000000000e-08,0.00000000000000e+00,6.00000000000000e-01,6.02872866859645e-01
4.50100000000000e-08,5.99999999999886e-02,6.00000000000000e-01,6.02325927961732e-01
4.50300000000000e-08,1.80000000000006e-01,6.00000000000000e-01,6.01437082594724e-01
4.50700000000000e-08,4.20000000000000e-01,6.00000000000000e-01,6.00476562865230e-01
4.51000000000000e-08,6.00000000000000e-01,6.00000000000000e-01,5.99605139387331e-01
4.51080000000000e-08,6.00000000000000e-01,5.52000000000025e-01,5.99210518602636e-01
4.51240000000000e-08,6.00000000000000e-01,4.55999999999996e-01,5.98431198161767e-01
4.51560000000000e-08,6.00000000000000e-01,2.64000000000016e-01,5.97206202565527e-01
4.52000000000000e-08,6.00000000000000e-01,3.44169137633799e-14,5.96287874917247e-01
4.52064000000000e-08,6.00000000000000e-01,0.00000000000000e+00,5.96251642263123e-01
4.52192000000000e-08,6.00000000000000e-01,0.00000000000000e+00,5.96242526445523e-01
4.52448000000000e-08,6.00000000000000e-01,0.00000000000000e+00,5.96595537572423e-01
4.52960000000000e-08,6.00000000000000e-01,0.00000000000000e+00,5.97894844181683e-01
4.53984000000000e-08,6.00000000000000e-01,0.00000000000000e+00,5.99576675843467e-01
4.56032000000000e-08,6.00000000000000e-01,0.00000000000000e+00,6.00066904886038e-01
4.58988954358324e-08,6.00000000000000e-01,0.00000000000000e+00,5.99980482735161e-01
4.64902863074973e-08,6.00000000000000e-01,0.00000000000000e+00,6.00011101179363e-01
4.71209463447073e-08,6.00000000000000e-01,0.00000000000000e+00,5.99996170550073e-01
4.83822664191275e-08,6.00000000000000e-01,0.00000000000000e+00,6.00001223753668e-01
5.09049065679677e-08,6.00000000000000e-01,0.00000000000000e+00,5.99999829257941e-01
5.47049065679677e-08,6.00000000000000e-01,0.00000000000000e+00,5.99999512183731e-01
5.51000000000000e-08,6.00000000000000e-01,0.00000000000000e+00,6.00004700448195e-01
5.51100000000000e-08,5.40000000000021e-01,0.00000000000000e+00,5.99970600943332e-01
5.51300000000000e-08,4.20000000000004e-01,0.00000000000000e+00,5.99922368504043e-01
5.51700000000000e-08,1.80000000000010e-01,0.00000000000000e+00,6.00160676898316e-01
5.52000000000000e-08,0.00000000000000e+00,0.00000000000000e+00,6.00981867964183e-01
5.52080000000000e-08,0.00000000000000e+00,0.00000000000000e+00,6.01224518621486e-01
5.52240000000000e-08,0.00000000000000e+00,0.00000000000000e+00,6.01590002225995e-01
5.52560000000000e-08,0.00000000000000e+00,0.00000000000000e+00,6.01942214808102e-01
5.53200000000000e-08,0.00000000000000e+00,0.00000000000000e+00,6.02347263328428e-01
5.54480000000000e-08,0.00000000000000e+00,0.00000000000000e+00,6.02241745985860e-01
5.57040000000000e-08,0.00000000000000e+00,0.00000000000000e+00,5.99599185821836e-01
5.60243135243950e-08,0.00000000000000e+00,0.00000000000000e+00,5.99682526572088e-01
5.66649405731851e-08,0.00000000000000e+00,0.00000000000000e+00,5.99862142428803e-01
5.73243415129958e-08,0.00000000000000e+00,0.00000000000000e+00,5.99706705334316e-01
5.86431433926171e-08,0.00000000000000e+00,0.00000000000000e+00,5.99946044849861e-01
6.12807471518596e-08,0.00000000000000e+00,0.00000000000000e+00,5.99773734161466e-01
6.50000000000000e-08,0.00000000000000e+00,0.00000000000000e+00,6.00009492293499e-01
6.50100000000000e-08,5.99999999999886e-02,0.00000000000000e+00,5.99993467301417e-01
6.50300000000000e-08,1.79999999999966e-01,0.00000000000000e+00,5.99968092344170e-01
6.50700000000000e-08,4.19999999999920e-01,0.00000000000000e+00,5.99905276987968e-01
6.51000000000000e-08,5.99999999999966e-01,0.00000000000000e+00,5.99779122945943e-01
6.51080000000000e-08,6.00000000000000e-01,0.00000000000000e+00,5.99745795219389e-01
6.51240000000000e-08,6.00000000000000e-01,0.00000000000000e+00,5.99694634063265e-01
6.51560000000000e-08,6.00000000000000e-01,0.00000000000000e+00,5.99670013460294e-01
6.52200000000000e-08,6.00000000000000e-01,0.00000000000000e+00,6.00379345303758e-01
6.53480000000000e-08,6.00000000000000e-01,0.00000000000000e+00,6.06685959166275e-01
6.56040000000000e-08,6.00000000000000e-01,0.00000000000000e+00,1.88578678876380e-01
6.60213512359471e-08,6.00000000000000e-01,0.00000000000000e+00,-6.38794302509398e-02
6.64497193046131e-08,6.00000000000000e-01,0.00000000000000e+00,5.94881846461458e-02
6.73064554419452e-08,6.00000000000000e-01,0.00000000000000e+00,-4.15934525799830e-02
6.82587477594400e-08,6.00000000000000e-01,0.00000000000000e+00,4.26563749810550e-02
7.00931747080781e-08,6.00000000000000e-01,0.00000000000000e+00,-3.42430634918127e-02
7.28439177793123e-08,6.00000000000000e-01,0.00000000000000e+00,3.74806032732167e-02
7.51000000000000e-08,6.00000000000000e-01,0.00000000000000e+00,-3.10341574671632e-02
7.51100000000000e-08,5.40000000000061e-01,0.00000000000000e+00,-2.34035617724272e-02
7.51300000000000e-08,4.20000000000084e-01,0.00000000000000e+00,-1.16290002148984e-02
7.51700000000000e-08,1.80000000000129e-01,0.00000000000000e+00,-2.15685875627674e-03
7.52000000000000e-08,8.40438829641244e-14,0.00000000000000e+00,-7.83325502248806e-04
7.52080000000000e-08,0.00000000000000e+00,0.00000000000000e+00,-5.38031228549313e-04
7.52240000000000e-08,0.00000000000000e+00,0.00000000000000e+00,-1.91875331085521e-04
7.52560000000000e-08,0.00000000000000e+00,0.00000000000000e+00,1.43220248067580e-05
7.53200000000000e-08,0.00000000000000e+00,0.00000000000000e+00,-1.54740788644303e-04
7.54480000000000e-08,0.00000000000000e+00,0.00000000000000e+00,-6.77296888251801e-04
7.57040000000000e-08,0.00000000000000e+00,0.00000000000000e+00,2.33672901076314e-04
7.61390272153810e-08,0.00000000000000e+00,0.00000000000000e+00,-1.12805552070099e-04
7.68999088576015e-08,0.00000000000000e+00,0.00000000000000e+00,6.49328166882480e-05
7.82332246968927e-08,0.00000000000000e+00,0.00000000000000e+00,-4.13520661309680e-05
8.08998563754751e-08,0.00000000000000e+00,0.00000000000000e+00,3.19691205399254e-05
8.46998563754751e-08,0.00000000000000e+00,0.00000000000000e+00,-2.46915496478757e-05
8.50000000000000e-08,0.00000000000000e+00,0.00000000000000e+00,-3.63195745344512e-05
8.50100000000000e-08,5.99999999999886e-02,0.00000000000000e+00,5.52571116508964e-05
8.50300000000000e-08,1.79999999999966e-01,0.00000000000000e+00,1.39431273458439e-04
8.50700000000000e-08,4.19999999999920e-01,0.00000000000000e+00,5.51051349326377e-05
8.51000000000000e-08,5.99999999999966e-01,0.00000000000000e+00,-1.13166281274876e-04
8.51080000000000e-08,6.00000000000000e-01,0.00000000000000e+00,-1.41508829243586e-04
8.51240000000000e-08,6.00000000000000e-01,0.00000000000000e+00,-1.60789786108815e-04
8.51560000000000e-08,6.00000000000000e-01,0.00000000000000e+00,-1.19748752303677e-04
8.52200000000000e-08,6.00000000000000e-01,0.00000000000000e+00,-5.90257997181536e-05
8.53480000000000e-08,6.00000000000000e-01,0.00000000000000e+00,4.44250471044148e-05
8.56040000000000e-08,6.00000000000000e-01,0.00000000000000e+00,2.74996724763223e-05
8.61159999999999e-08,6.00000000000000e-01,0.00000000000000e+00,-2.32089035228939e-05
8.67664378732885e-08,6.00000000000000e-01,0.00000000000000e+00,2.62829434913279e-05
8.80673136198655e-08,6.00000000000000e-01,0.00000000000000e+00,-2.09105048738711e-05
9.00000000000000e-08,6.00000000000000e-01,0.00000000000000e+00,2.33451975265090e-05
9.00100000000000e-08,6.00000000000000e-01,5.99999999999886e-02,1.66988589758374e-05
9.00300000000000e-08,6.00000000000000e-01,1.79999999999966e-01,7.28440146419498e-06
9.00700000000000e-08,6.00000000000000e-01,4.19999999999920e-01,3.95903956906113e-07
9.01000000000000e-08,6.00000000000000e-01,5.99999999999966e-01,-8.24064947814451e-07
9.01080000000000e-08,6.00000000000000e-01,6.00000000000000e-01,-4.96642972212802e-07
9.01240000000000e-08,6.00000000000000e-01,6.00000000000000e-01,5.44519779308028e-07
9.01560000000000e-08,6.00000000000000e-01,6.00000000000000e-01,2.73030255107734e-06
9.02200000000000e-08,6.00000000000000e-01,6.00000000000000e-01,2.35498383206398e-06
9.03480000000000e-08,6.00000000000000e-01,6.00000000000000e-01,6.46663830206062e-07
9.06040000000000e-08,6.00000000000000e-01,6.00000000000000e-01,1.46661506693086e-06
9.11159999999999e-08,6.00000000000000e-01,6.00000000000000e-01,1.36158200884787e-06
9.21399999999999e-08,6.00000000000000e-01,6.00000000000000e-01,1.10499795791946e-06
9.41879999999998e-08,6.00000000000000e-01,6.00000000000000e-01,1.13925410819872e-06
9.51000000000000e-08,6.00000000000000e-01,6.00000000000000e-01,8.28250753719464e-07
9.51100000000000e-08,5.40000000000061e-01,6.00000000000000e-01,-2.34503553450775e-05
9.51300000000000e-08,4.20000000000084e-01,6.00000000000000e-01,-5.89824482568335e-05
9.51700000000000e-08,1.80000000000129e-01,6.00000000000000e-01,-6.00841211816985e-05
9.52000000000000e-08,8.40438829641244e-14,6.00000000000000e-01,3.00878846270884e-05
9.52080000000000e-08,0.00000000000000e+00,6.00000000000000e-01,8.51162325794311e-05
9.52240000000000e-08,0.00000000000000e+00,6.00000000000000e-01,1.48858722168518e-04
9.52560000000000e-08,0.00000000000000e+00,6.00000000000000e-01,1.31029128313691e-04
9.53200000000000e-08,0.00000000000000e+00,6.00000000000000e-01,-9.32684989230284e-06
9.54480000000000e-08,0.00000000000000e+00,6.00000000000000e-01,-9.27447857541272e-05
9.57040000000000e-08,0.00000000000000e+00,6.00000000000000e-01,-8.30931813908340e-05
9.62159999999999e-08,0.00000000000000e+00,6.00000000000000e-01,4.69880866617494e-05
9.68453133081368e-08,0.00000000000000e+00,6.00000000000000e-01,3.97601825638228e-05
9.80416327761834e-08,0.00000000000000e+00,6.00000000000000e-01,-5.11458287307818e-05
9.95122355533671e-08,0.00000000000000e+00,6.00000000000000e-01,5.64663533694813e-05
1.02453441107734e-07,0.00000000000000e+00,6.00000000000000e-01,-5.74695108214859e-05
1.05000000000000e-07,0.00000000000000e+00,6.00000000000000e-01,5.89510547619748e-05
1.05010000000000e-07,5.99999999999886e-02,6.00000000000000e-01,9.03263157277755e-05
1.05030000000000e-07,1.79999999999966e-01,6.00000000000000e-01,1.25069454346823e-04
1.05070000000000e-07,4.19999999999920e-01,6.00000000000000e-01,7.16257493518953e-05
1.05100000000000e-07,5.99999999999966e-01,6.00000000000000e-01,-9.40079665410761e-04
1.05108000000000e-07,6.00000000000000e-01,6.00000000000000e-01,-1.53877283659915e-03
1.05124000000000e-07,6.00000000000000e-01,6.00000000000000e-01,-2.71635747850993e-03
1.05156000000000e-07,6.00000000000000e-01,6.00000000000000e-01,-4.46398913796886e-03
1.05220000000000e-07,6.00000000000000e-01,6.00000000000000e-01,4.83180449411180e-03
1.05348000000000e-07,6.00000000000000e-01,6.00000000000000e-01,1.99789876419317e-01
1.05604000000000e-07,6.00000000000000e-01,6.00000000000000e-01,5.83946320176859e-01
1.06099880809876e-07,6.00000000000000e-01,6.00000000000000e-01,6.05777910168680e-01
1.06689554438451e-07,6.00000000000000e-01,6.00000000000000e-01,5.94616504549540e-01
1.07775908716534e-07,6.00000000000000e-01,6.00000000000000e-01,6.03935789074347e-01
1.09039617443868e-07,6.00000000000000e-01,6.00000000000000e-01,5.95984621201203e-01
1.11567034898536e-07,6.00000000000000e-01,6.00000000000000e-01,6.03348132420492e-01
1.15100000000000e-07,6.00000000000000e-01,6.00000000000000e-01,5.96400279519765e-01
1.15110000000000e-07,5.40000000000061e-01,6.00000000000000e-01,5.97246794194467e-01
1.15130000000000e-07,4.20000000000084e-01,6.00000000000000e-01,5.98491115469550e-01
1.15170000000000e-07,1.80000000000129e-01,6.00000000000000e-01,5.99740418768117e-01
1.15200000000000e-07,8.40438829641244e-14,6.00000000000000e-01,6.00691924977781e-01
1.15208000000000e-07,0.00000000000000e+00,6.00000000000000e-01,6.00941089978032e-01
1.15224000000000e-07,0.00000000000000e+00,6.00000000000000e-01,6.01269295549774e-01
1.15256000000000e-07,0.00000000000000e+00,6.00000000000000e-01,6.01157749757528e-01
1.15320000000000e-07,0.00000000000000e+00,6.00000000000000e-01,5.95676016015836e-01
1.15448000000000e-07,0.00000000000000e+00,6.00000000000000e-01,5.74676811818859e-01
1.15704000000000e-07,0.00000000000000e+00,6.00000000000000e-01,5.84501121333244e-01
1.16216000000000e-07,0.00000000000000e+00,6.00000000000000e-01,6.06446370828516e-01
1.16971771319843e-07,0.00000000000000e+00,6.00000000000000e-01,5.93874116597754e-01
1.18375823244038e-07,0.00000000000000e+00,6.00000000000000e-01,6.04680115319222e-01
1.21183927092427e-07,0.00000000000000e+00,6.00000000000000e-01,5.95168658146283e-01
1.24983927092427e-07,0.00000000000000e+00,6.00000000000000e-01,6.04296564459682e-01
1.25000000000000e-07,0.00000000000000e+00,6.00000000000000e-01,6.02872867858726e-01
1.25010000000000e-07,5.99999999999092e-02,6.00000000000000e-01,6.02325928766005e-01
1.25030000000000e-07,1.79999999999886e-01,6.00000000000000e-01,6.01437083084857e-01
1.25070000000000e-07,4.19999999999841e-01,6.00000000000000e-01,6.00476563036281e-01
1.25100000000000e-07,5.99999999999886e-01,6.00000000000000e-01,5.99605139470416e-01
1.25108000000000e-07,6.00000000000000e-01,5.51999999999946e-01,5.99210518674168e-01
1.25124000000000e-07,6.00000000000000e-01,4.55999999999996e-01,5.98431198212621e-01
1.25156000000000e-07,6.00000000000000e-01,2.63999999999937e-01,5.97206202589243e-01
1.25200000000000e-07,6.00000000000000e-01,0.00000000000000e+00,5.96287874924712e-01
1.25206400000000e-07,6.00000000000000e-01,0.00000000000000e+00,5.96251642269831e-01
1.25219200000000e-07,6.00000000000000e-01,0.00000000000000e+00,5.96242526453307e-01
1.25244800000000e-07,6.00000000000000e-01,0.00000000000000e+00,5.96595537572081e-01
1.25296000000000e-07,6.00000000000000e-01,0.00000000000000e+00,5.97894844179112e-01
1.25398400000000e-07,6.00000000000000e-01,0.00000000000000e+00,5.99576675844013e-01
1.25603200000000e-07,6.00000000000000e-01,0.00000000000000e+00,6.00066904885948e-01
1.25898895434238e-07,6.00000000000000e-01,0.00000000000000e+00,5.99980482735709e-01
1.26490286302713e-07,6.00000000000000e-01,0.00000000000000e+00,6.00011101178768e-01
1.27120946319629e-07,6.00000000000000e-01,0.00000000000000e+00,5.99996170550747e-01
1.28382266353460e-07,6.00000000000000e-01,0.00000000000000e+00,6.00001223752991e-01
1.30904906421122e-07,6.00000000000000e-01,0.00000000000000e+00,5.99999829258545e-01
1.34704906421122e-07,6.00000000000000e-01,0.00000000000000e+00,5.99999512183108e-01
1.35100000000000e-07,5.99999999999891e-01,0.00000000000000e+00,6.00004700447413e-01
1.35110000000000e-07,5.39999999999823e-01,0.00000000000000e+00,5.99970600942836e-01
1.35130000000000e-07,4.19999999999845e-01,0.00000000000000e+00,5.99922368503784e-01
1.35170000000000e-07,1.79999999999891e-01,0.00000000000000e+00,6.00160676898261e-01
1.35200000000000e-07,0.00000000000000e+00,0.00000000000000e+00,6.00981867964081e-01
1.35208000000000e-07,0.00000000000000e+00,0.00000000000000e+00,6.01224518621229e-01
1.35224000000000e-07,0.00000000000000e+00,0.00000000000000e+00,6.01590002225900e-01
1.35256000000000e-07,0.00000000000000e+00,0.00000000000000e+00,6.01942214808208e-01
