Time,v(clk),v(data),v(out)
1.00000000000000e-08,6.00000000000000e-01,0.00000000000000e+00,-9.83614467545569e-06
1.00100000000000e-08,6.00000000000000e-01,5.99999999999985e-02,-5.77271667831850e-06
1.00300000000000e-08,6.00000000000000e-01,1.79999999999996e-01,-3.78729831333052e-07
1.00700000000000e-08,6.00000000000000e-01,4.19999999999990e-01,3.09266528889657e-06
1.01000000000000e-08,6.00000000000000e-01,5.99999999999995e-01,2.46409581159887e-06
1.01080000000000e-08,6.00000000000000e-01,6.00000000000000e-01,2.33668860471700e-06
1.01240000000000e-08,6.00000000000000e-01,6.00000000000000e-01,2.64032855046628e-06
1.01560000000000e-08,6.00000000000000e-01,6.00000000000000e-01,4.12917958656292e-06
1.02200000000000e-08,6.00000000000000e-01,6.00000000000000e-01,5.84817908576632e-06
1.03480000000000e-08,6.00000000000000e-01,6.00000000000000e-01,4.44861365669902e-06
1.06040000000000e-08,6.00000000000000e-01,6.00000000000000e-01,2.18157583501202e-06
1.11028847081879e-08,6.00000000000000e-01,6.00000000000000e-01,3.21552590337726e-06
1.21006541245638e-08,6.00000000000000e-01,6.00000000000000e-01,2.48357852712308e-06
1.40961929573155e-08,6.00000000000000e-01,6.00000000000000e-01,2.50920951567536e-06
1.51000000000000e-08,6.00000000000000e-01,6.00000000000000e-01,2.20411332351985e-06
1.51100000000000e-08,5.39999999999991e-01,6.00000000000000e-01,-2.49304821751464e-05
1.51300000000000e-08,4.19999999999994e-01,6.00000000000000e-01,-7.24300811022413e-05
1.51700000000000e-08,1.80000000000000e-01,6.00000000000000e-01,-1.10571863465431e-04
1.52000000000000e-08,0.00000000000000e+00,6.00000000000000e-01,-4.19335960219272e-05
1.52080000000000e-08,0.00000000000000e+00,6.00000000000000e-01,1.91658276973844e-05
1.52240000000000e-08,0.00000000000000e+00,6.00000000000000e-01,1.11099759491133e-04
1.52560000000000e-08,0.00000000000000e+00,6.00000000000000e-01,1.74245394746440e-04
1.53200000000000e-08,0.00000000000000e+00,6.00000000000000e-01,1.16612222067099e-04
1.54480000000000e-08,0.00000000000000e+00,6.00000000000000e-01,-6.95390267438332e-05
1.57040000000000e-08,0.00000000000000e+00,6.00000000000000e-01,-6.63434972605903e-05
1.62160000000000e-08,0.00000000000000e+00,6.00000000000000e-01,-1.38841639237687e-04
1.70229527608083e-08,0.00000000000000e+00,6.00000000000000e-01,1.46665194510884e-04
1.81676603732124e-08,0.00000000000000e+00,6.00000000000000e-01,-2.79809872948612e-05
1.99643279415058e-08,0.00000000000000e+00,6.00000000000000e-01,-1.53572935737835e-05
2.28322167393435e-08,0.00000000000000e+00,6.00000000000000e-01,3.81206935034489e-05
2.50000000000000e-08,0.00000000000000e+00,6.00000000000000e-01,-5.74386750216357e-05
2.50100000000000e-08,5.99999999999886e-02,6.00000000000000e-01,1.26563250146088e-05
2.50300000000000e-08,1.80000000000006e-01,6.00000000000000e-01,1.17992328998173e-04
2.50700000000000e-08,4.20000000000000e-01,6.00000000000000e-01,1.78170392899905e-04
2.51000000000000e-08,6.00000000000000e-01,6.00000000000000e-01,-5.18642269393861e-05
2.51080000000000e-08,6.00000000000000e-01,6.00000000000000e-01,-2.66073105741112e-04
2.51240000000000e-08,6.00000000000000e-01,6.00000000000000e-01,-8.46009322710745e-04
2.51560000000000e-08,6.00000000000000e-01,6.00000000000000e-01,-2.29966407273097e-03
2.52200000000000e-08,6.00000000000000e-01,6.00000000000000e-01,-4.38040553991389e-03
2.53480000000000e-08,6.00000000000000e-01,6.00000000000000e-01,1.99892881052916e-02
2.56040000000000e-08,6.00000000000000e-01,6.00000000000000e-01,3.16517312239691e-01
2.61160000000000e-08,6.00000000000000e-01,6.00000000000000e-01,6.20307304640530e-01
2.68608056995398e-08,6.00000000000000e-01,6.00000000000000e-01,5.84833480478822e-01
2.81344607144470e-08,6.00000000000000e-01,6.00000000000000e-01,6.14723755382106e-01
2.99394725872222e-08,6.00000000000000e-01,6.00000000000000e-01,5.86638697626560e-01
3.26913538879064e-08,6.00000000000000e-01,6.00000000000000e-01,6.13094902388396e-01
3.51000000000000e-08,5.99999999999970e-01,6.00000000000000e-01,5.87729327559212e-01
3.51100000000000e-08,5.39999999999982e-01,6.00000000000000e-01,5.90614455343556e-01
3.51300000000000e-08,4.19999999999965e-01,6.00000000000000e-01,5.95025617609043e-01
3.51700000000000e-08,1.79999999999970e-01,6.00000000000000e-01,5.99022652638843e-01
3.52000000000000e-08,0.00000000000000e+00,6.00000000000000e-01,6.00451767499279e-01
3.52080000000000e-08,0.00000000000000e+00,6.00000000000000e-01,6.00755138682681e-01
3.52240000000000e-08,0.00000000000000e+00,6.00000000000000e-01,6.01215669610460e-01
3.52560000000000e-08,0.00000000000000e+00,6.00000000000000e-01,6.01548806010600e-01
3.53200000000000e-08,0.00000000000000e+00,6.00000000000000e-01,6.00272478349663e-01
3.54480000000000e-08,0.00000000000000e+00,6.00000000000000e-01,5.86769210212756e-01
3.57040000000000e-08,0.00000000000000e+00,6.00000000000000e-01,5.71645424819308e-01
3.62160000000000e-08,0.00000000000000e+00,6.00000000000000e-01,5.96480801775706e-01
3.72400000000000e-08,0.00000000000000e+00,6.00000000000000e-01,6.01241853195469e-01
3.84889659170318e-08,0.00000000000000e+00,6.00000000000000e-01,5.98338647214810e-01
4.09868977510952e-08,0.00000000000000e+00,6.00000000000000e-01,6.00876564483652e-01
4.47868977510952e-08,0.00000000000000e+00,6.00000000000000e-01,5.98807416367213e-01
4.50000000000000e-08,0.00000000000000e+00,6.00000000000000e-01,5.99969376344136e-01
4.50100000000000e-08,5.99999999999886e-02,6.00000000000000e-01,5.99981890915919e-01
4.50300000000000e-08,1.80000000000006e-01,6.00000000000000e-01,5.99998488485219e-01
4.50700000000000e-08,4.20000000000000e-01,6.00000000000000e-01,5.99993013247722e-01
4.51000000000000e-08,6.00000000000000e-01,6.00000000000000e-01,5.99812754592668e-01
4.51080000000000e-08,6.00000000000000e-01,5.52000000000025e-01,5.99664538441859e-01
4.51240000000000e-08,6.00000000000000e-01,4.55999999999996e-01,5.99293667426782e-01
4.51560000000000e-08,6.00000000000000e-01,2.64000000000016e-01,5.98437119886200e-01
4.52000000000000e-08,6.00000000000000e-01,3.44169137633799e-14,5.97522134270951e-01
4.52064000000000e-08,6.00000000000000e-01,0.00000000000000e+00,5.97429927107072e-01
4.52192000000000e-08,6.00000000000000e-01,0.00000000000000e+00,5.97230900068791e-01
4.52448000000000e-08,6.00000000000000e-01,0.00000000000000e+00,5.96926981167434e-01
4.52960000000000e-08,6.00000000000000e-01,0.00000000000000e+00,5.96599469592670e-01
4.53984000000000e-08,6.00000000000000e-01,0.00000000000000e+00,5.97340664130671e-01
4.56032000000000e-08,6.00000000000000e-01,0.00000000000000e+00,5.99503417719738e-01
4.60128000000000e-08,6.00000000000000e-01,0.00000000000000e+00,6.00107984820053e-01
4.64750910687343e-08,6.00000000000000e-01,0.00000000000000e+00,5.99959598310754e-01
4.73996732062029e-08,6.00000000000000e-01,0.00000000000000e+00,6.00024629034190e-01
4.85669900955872e-08,6.00000000000000e-01,0.00000000000000e+00,5.99982879195889e-01
5.09016238743560e-08,6.00000000000000e-01,0.00000000000000e+00,6.00013832254356e-01
5.47016238743560e-08,6.00000000000000e-01,0.00000000000000e+00,5.99987853022407e-01
5.51000000000000e-08,6.00000000000000e-01,0.00000000000000e+00,6.00002128856288e-01
5.51100000000000e-08,5.40000000000021e-01,0.00000000000000e+00,5.99971673389180e-01
5.51300000000000e-08,4.20000000000004e-01,0.00000000000000e+00,5.99918791303341e-01
5.51700000000000e-08,1.80000000000010e-01,0.00000000000000e+00,6.00092933678521e-01
5.52000000000000e-08,0.00000000000000e+00,0.00000000000000e+00,6.00789499700543e-01
5.52080000000000e-08,0.00000000000000e+00,0.00000000000000e+00,6.01020429435515e-01
5.52240000000000e-08,0.00000000000000e+00,0.00000000000000e+00,6.01387684367882e-01
5.52560000000000e-08,0.00000000000000e+00,0.00000000000000e+00,6.01789278880970e-01
5.53200000000000e-08,0.00000000000000e+00,0.00000000000000e+00,6.02166409972084e-01
5.54480000000000e-08,0.00000000000000e+00,0.00000000000000e+00,6.02596956564852e-01
5.57040000000000e-08,0.00000000000000e+00,0.00000000000000e+00,6.01283892877728e-01
5.62160000000000e-08,0.00000000000000e+00,0.00000000000000e+00,5.99039780674739e-01
5.67785907259983e-08,0.00000000000000e+00,0.00000000000000e+00,5.99844907752006e-01
5.79037721779950e-08,0.00000000000000e+00,0.00000000000000e+00,5.99629183854231e-01
5.91219571530871e-08,0.00000000000000e+00,0.00000000000000e+00,5.99780922459426e-01
6.15583271032713e-08,0.00000000000000e+00,0.00000000000000e+00,5.99807446547898e-01
6.50000000000000e-08,0.00000000000000e+00,0.00000000000000e+00,5.99822644340555e-01
6.50100000000000e-08,5.99999999999886e-02,0.00000000000000e+00,5.99867014583202e-01
6.50300000000000e-08,1.79999999999966e-01,0.00000000000000e+00,5.99930375381578e-01
6.50700000000000e-08,4.19999999999920e-01,0.00000000000000e+00,5.99944750207169e-01
6.51000000000000e-08,5.99999999999966e-01,0.00000000000000e+00,5.99858991093780e-01
6.51080000000000e-08,6.00000000000000e-01,0.00000000000000e+00,5.99821777186286e-01
6.51240000000000e-08,6.00000000000000e-01,0.00000000000000e+00,5.99763329803311e-01
6.51560000000000e-08,6.00000000000000e-01,0.00000000000000e+00,5.99707191286108e-01
6.52200000000000e-08,6.00000000000000e-01,0.00000000000000e+00,5.99676897222397e-01
6.53480000000000e-08,6.00000000000000e-01,0.00000000000000e+00,6.00791109810190e-01
6.56040000000000e-08,6.00000000000000e-01,0.00000000000000e+00,6.10204596045127e-01
6.61159999999999e-08,6.00000000000000e-01,0.00000000000000e+00,1.32403313077779e-01
6.68396907651993e-08,6.00000000000000e-01,0.00000000000000e+00,-6.53757289689035e-02
6.76912462496531e-08,6.00000000000000e-01,0.00000000000000e+00,6.15342675055908e-02
6.93537635688326e-08,6.00000000000000e-01,0.00000000000000e+00,-4.52575602811817e-02
7.12159125636622e-08,6.00000000000000e-01,0.00000000000000e+00,4.64231382815516e-02
7.47548292180139e-08,6.00000000000000e-01,0.00000000000000e+00,-3.81927109299925e-02
7.51000000000000e-08,6.00000000000000e-01,0.00000000000000e+00,2.22607163944948e-02
7.51100000000000e-08,5.40000000000061e-01,0.00000000000000e+00,1.87664553800631e-02
7.51300000000000e-08,4.20000000000084e-01,0.00000000000000e+00,1.28504193176917e-02
7.51700000000000e-08,1.80000000000129e-01,0.00000000000000e+00,5.81937834795236e-03
7.52000000000000e-08,8.40438829641244e-14,0.00000000000000e+00,3.27580091228788e-03
7.52080000000000e-08,0.00000000000000e+00,0.00000000000000e+00,2.90149947478451e-03
7.52240000000000e-08,0.00000000000000e+00,0.00000000000000e+00,2.22472555244555e-03
7.52560000000000e-08,0.00000000000000e+00,0.00000000000000e+00,1.30183749979202e-03
7.53200000000000e-08,0.00000000000000e+00,0.00000000000000e+00,3.47119566283017e-04
7.54480000000000e-08,0.00000000000000e+00,0.00000000000000e+00,-6.55347224633288e-04
7.57040000000000e-08,0.00000000000000e+00,0.00000000000000e+00,-6.46649236013607e-04
7.62159999999999e-08,0.00000000000000e+00,0.00000000000000e+00,3.47245335249874e-04
7.71373271923235e-08,0.00000000000000e+00,0.00000000000000e+00,-2.40400590425932e-04
7.83024490061959e-08,0.00000000000000e+00,0.00000000000000e+00,1.81097908234378e-04
8.06326926339406e-08,0.00000000000000e+00,0.00000000000000e+00,-1.53755178264429e-04
8.44326926339406e-08,0.00000000000000e+00,0.00000000000000e+00,1.41672773701835e-04
8.50000000000000e-08,0.00000000000000e+00,0.00000000000000e+00,-6.81239038112418e-05
8.50100000000000e-08,5.99999999999886e-02,0.00000000000000e+00,-2.36333531090996e-05
8.50300000000000e-08,1.79999999999966e-01,0.00000000000000e+00,4.29010520372509e-05
8.50700000000000e-08,4.19999999999920e-01,0.00000000000000e+00,6.06084606547888e-05
8.51000000000000e-08,5.99999999999966e-01,0.00000000000000e+00,-5.20126498625394e-05
8.51080000000000e-08,6.00000000000000e-01,0.00000000000000e+00,-9.92520978141884e-05
8.51240000000000e-08,6.00000000000000e-01,0.00000000000000e+00,-1.62506457451788e-04
8.51560000000000e-08,6.00000000000000e-01,0.00000000000000e+00,-1.79225606239668e-04
8.52200000000000e-08,6.00000000000000e-01,0.00000000000000e+00,-1.21685899953004e-04
8.53480000000000e-08,6.00000000000000e-01,0.00000000000000e+00,-3.84335874596929e-05
8.56040000000000e-08,6.00000000000000e-01,0.00000000000000e+00,5.25907120817772e-05
8.61159999999999e-08,6.00000000000000e-01,0.00000000000000e+00,6.82426733605596e-06
8.71399999999999e-08,6.00000000000000e-01,0.00000000000000e+00,-4.59883144391694e-06
8.83389738567493e-08,6.00000000000000e-01,0.00000000000000e+00,1.52156327545647e-05
9.00000000000000e-08,6.00000000000000e-01,0.00000000000000e+00,-9.18917635956817e-06
9.00100000000000e-08,6.00000000000000e-01,5.99999999999886e-02,-5.25454551978180e-06
9.00300000000000e-08,6.00000000000000e-01,1.79999999999966e-01,-5.35043115854061e-08
9.00700000000000e-08,6.00000000000000e-01,4.19999999999920e-01,3.25071446518124e-06
9.01000000000000e-08,6.00000000000000e-01,5.99999999999966e-01,2.63922593558841e-06
9.01080000000000e-08,6.00000000000000e-01,6.00000000000000e-01,2.51086471224349e-06
9.01240000000000e-08,6.00000000000000e-01,6.00000000000000e-01,2.80982441352648e-06
9.01560000000000e-08,6.00000000000000e-01,6.00000000000000e-01,4.21820380224619e-06
9.02200000000000e-08,6.00000000000000e-01,6.00000000000000e-01,5.79654556158438e-06
9.03480000000000e-08,6.00000000000000e-01,6.00000000000000e-01,4.20023062409555e-06
9.06040000000000e-08,6.00000000000000e-01,6.00000000000000e-01,2.48595653348956e-06
9.11159999999999e-08,6.00000000000000e-01,6.00000000000000e-01,2.96225077222982e-06
9.21399999999999e-08,6.00000000000000e-01,6.00000000000000e-01,2.69362129953592e-06
9.41879999999998e-08,6.00000000000000e-01,6.00000000000000e-01,2.29868132262134e-06
9.51000000000000e-08,6.00000000000000e-01,6.00000000000000e-01,2.37567956525497e-06
9.51100000000000e-08,5.40000000000061e-01,6.00000000000000e-01,-2.47004982652822e-05
9.51300000000000e-08,4.20000000000084e-01,6.00000000000000e-01,-7.23079793625049e-05
9.51700000000000e-08,1.80000000000129e-01,6.00000000000000e-01,-1.10569202977792e-04
9.52000000000000e-08,8.40438829641244e-14,6.00000000000000e-01,-4.19574209977146e-05
9.52080000000000e-08,0.00000000000000e+00,6.00000000000000e-01,1.91401091587731e-05
9.52240000000000e-08,0.00000000000000e+00,6.00000000000000e-01,1.11072601502837e-04
9.52560000000000e-08,0.00000000000000e+00,6.00000000000000e-01,1.74222287784187e-04
9.53200000000000e-08,0.00000000000000e+00,6.00000000000000e-01,1.16599192280832e-04
9.54480000000000e-08,0.00000000000000e+00,6.00000000000000e-01,-6.95432723939286e-05
9.57040000000000e-08,0.00000000000000e+00,6.00000000000000e-01,-6.63386095394215e-05
9.62159999999999e-08,0.00000000000000e+00,6.00000000000000e-01,-1.38848316313281e-04
9.70229581133549e-08,0.00000000000000e+00,6.00000000000000e-01,1.46671818228703e-04
9.81676748304304e-08,0.00000000000000e+00,6.00000000000000e-01,-2.79853163459060e-05
9.99643429127415e-08,0.00000000000000e+00,6.00000000000000e-01,-1.53542777428396e-05
1.02832319681495e-07,0.00000000000000e+00,6.00000000000000e-01,3.81179459835969e-05
1.05000000000000e-07,0.00000000000000e+00,6.00000000000000e-01,-5.74378594283293e-05
1.05010000000000e-07,5.99999999999886e-02,6.00000000000000e-01,1.26576509164450e-05
1.05030000000000e-07,1.79999999999966e-01,6.00000000000000e-01,1.17994422093499e-04
1.05070000000000e-07,4.19999999999920e-01,6.00000000000000e-01,1.78173239163214e-04
1.05100000000000e-07,5.99999999999966e-01,6.00000000000000e-01,-5.18443019678384e-05
1.05108000000000e-07,6.00000000000000e-01,6.00000000000000e-01,-2.66042470051457e-04
1.05124000000000e-07,6.00000000000000e-01,6.00000000000000e-01,-8.45962605693251e-04
1.05156000000000e-07,6.00000000000000e-01,6.00000000000000e-01,-2.29961426759904e-03
1.05220000000000e-07,6.00000000000000e-01,6.00000000000000e-01,-4.38038697843730e-03
1.05348000000000e-07,6.00000000000000e-01,6.00000000000000e-01,1.99886761491256e-02
1.05604000000000e-07,6.00000000000000e-01,6.00000000000000e-01,3.16515485619782e-01
1.06116000000000e-07,6.00000000000000e-01,6.00000000000000e-01,6.20307112783294e-01
1.06860806555063e-07,6.00000000000000e-01,6.00000000000000e-01,5.84833647965417e-01
1.08134458647995e-07,6.00000000000000e-01,6.00000000000000e-01,6.14723613823456e-01
1.09939470065680e-07,6.00000000000000e-01,6.00000000000000e-01,5.86638837010030e-01
1.12691338825524e-07,6.00000000000000e-01,6.00000000000000e-01,6.13094776165217e-01
1.15100000000000e-07,6.00000000000000e-01,6.00000000000000e-01,5.87729450405549e-01
1.15110000000000e-07,5.40000000000061e-01,6.00000000000000e-01,5.90614551583000e-01
1.15130000000000e-07,4.20000000000084e-01,6.00000000000000e-01,5.95025672671287e-01
1.15170000000000e-07,1.80000000000129e-01,6.00000000000000e-01,5.99022668742352e-01
1.15200000000000e-07,8.40438829641244e-14,6.00000000000000e-01,6.00451774913387e-01
1.15208000000000e-07,0.00000000000000e+00,6.00000000000000e-01,6.00755144906928e-01
1.15224000000000e-07,0.00000000000000e+00,6.00000000000000e-01,6.01215673921337e-01
1.15256000000000e-07,0.00000000000000e+00,6.00000000000000e-01,6.01548808136821e-01
1.15320000000000e-07,0.00000000000000e+00,6.00000000000000e-01,6.00272477810160e-01
1.15448000000000e-07,0.00000000000000e+00,6.00000000000000e-01,5.86769206049740e-01
1.15704000000000e-07,0.00000000000000e+00,6.00000000000000e-01,5.71645424054960e-01
1.16216000000000e-07,0.00000000000000e+00,6.00000000000000e-01,5.96480804096945e-01
1.17240000000000e-07,0.00000000000000e+00,6.00000000000000e-01,6.01241851245146e-01
1.18488965929604e-07,0.00000000000000e+00,6.00000000000000e-01,5.98338648730852e-01
1.20986897788812e-07,0.00000000000000e+00,6.00000000000000e-01,6.00876563107426e-01
1.24786897788812e-07,0.00000000000000e+00,6.00000000000000e-01,5.98807417649526e-01
1.25000000000000e-07,0.00000000000000e+00,6.00000000000000e-01,5.99969375963288e-01
1.25010000000000e-07,5.99999999999092e-02,6.00000000000000e-01,5.99981890587538e-01
1.25030000000000e-07,1.79999999999886e-01,6.00000000000000e-01,5.99998488238063e-01
1.25070000000000e-07,4.19999999999841e-01,6.00000000000000e-01,5.99993013111175e-01
1.25100000000000e-07,5.99999999999886e-01,6.00000000000000e-01,5.99812754517995e-01
1.25108000000000e-07,6.00000000000000e-01,5.51999999999946e-01,5.99664538380165e-01
1.25124000000000e-07,6.00000000000000e-01,4.55999999999996e-01,5.99293667385847e-01
1.25156000000000e-07,6.00000000000000e-01,2.63999999999937e-01,5.98437119865197e-01
1.25200000000000e-07,6.00000000000000e-01,0.00000000000000e+00,5.97522134263401e-01
1.25206400000000e-07,6.00000000000000e-01,0.00000000000000e+00,5.97429927100579e-01
1.25219200000000e-07,6.00000000000000e-01,0.00000000000000e+00,5.97230900064587e-01
1.25244800000000e-07,6.00000000000000e-01,0.00000000000000e+00,5.96926981166904e-01
1.25296000000000e-07,6.00000000000000e-01,0.00000000000000e+00,5.96599469587994e-01
1.25398400000000e-07,6.00000000000000e-01,0.00000000000000e+00,5.97340664116864e-01
1.25603200000000e-07,6.00000000000000e-01,0.00000000000000e+00,5.99503417705788e-01
1.26012800000000e-07,6.00000000000000e-01,0.00000000000000e+00,6.00107984829171e-01
1.26475091010807e-07,6.00000000000000e-01,0.00000000000000e+00,5.99959598311360e-01
1.27399673032422e-07,6.00000000000000e-01,0.00000000000000e+00,6.00024629032470e-01
1.28566989674794e-07,6.00000000000000e-01,0.00000000000000e+00,5.99982879198169e-01
1.30901622959538e-07,6.00000000000000e-01,0.00000000000000e+00,6.00013832251916e-01
1.34701622959538e-07,6.00000000000000e-01,0.00000000000000e+00,5.99987853024489e-01
1.35100000000000e-07,5.99999999999891e-01,0.00000000000000e+00,6.00002128870712e-01
1.35110000000000e-07,5.39999999999823e-01,0.00000000000000e+00,5.99971673402795e-01
1.35130000000000e-07,4.19999999999845e-01,0.00000000000000e+00,5.99918791315344e-01
1.35170000000000e-07,1.79999999999891e-01,0.00000000000000e+00,6.00092933686486e-01
1.35200000000000e-07,0.00000000000000e+00,0.00000000000000e+00,6.00789499704082e-01
1.35208000000000e-07,0.00000000000000e+00,0.00000000000000e+00,6.01020429438293e-01
1.35224000000000e-07,0.00000000000000e+00,0.00000000000000e+00,6.01387684369358e-01
1.35256000000000e-07,0.00000000000000e+00,0.00000000000000e+00,6.01789278881312e-01
