Time,v(clk),v(data),v(out)
1.00000000000000e-08,7.50000000000000e-01,0.00000000000000e+00,1.78064566338473e-05
1.00100000000000e-08,7.50000000000000e-01,7.49999999999982e-02,1.29075257553138e-05
1.00300000000000e-08,7.50000000000000e-01,2.24999999999995e-01,5.96894696133082e-06
1.00700000000000e-08,7.50000000000000e-01,5.24999999999987e-01,-3.58769560587779e-07
1.01000000000000e-08,7.50000000000000e-01,7.49999999999994e-01,-7.63289132895556e-07
1.01080000000000e-08,7.50000000000000e-01,7.50000000000000e-01,-5.28906265916118e-07
1.01240000000000e-08,7.50000000000000e-01,7.50000000000000e-01,5.47940645356793e-08
1.01560000000000e-08,7.50000000000000e-01,7.50000000000000e-01,2.56374015423361e-06
1.02200000000000e-08,7.50000000000000e-01,7.50000000000000e-01,3.32771131678761e-06
1.03480000000000e-08,7.50000000000000e-01,7.50000000000000e-01,2.46032314730506e-06
1.06040000000000e-08,7.50000000000000e-01,7.50000000000000e-01,1.12066669910940e-06
1.11160000000000e-08,7.50000000000000e-01,7.50000000000000e-01,2.56020760584352e-06
1.21400000000000e-08,7.50000000000000e-01,7.50000000000000e-01,8.74831398793227e-07
1.41880000000000e-08,7.50000000000000e-01,7.50000000000000e-01,2.04581105290864e-06
1.51000000000000e-08,7.50000000000000e-01,7.50000000000000e-01,5.62411100988713e-07
1.51100000000000e-08,6.74999999999989e-01,7.50000000000000e-01,-3.03032714225604e-05
1.51300000000000e-08,5.24999999999993e-01,7.50000000000000e-01,-7.81364777096144e-05
1.51700000000000e-08,2.25000000000000e-01,7.50000000000000e-01,-8.93551444226329e-05
1.52000000000000e-08,0.00000000000000e+00,7.50000000000000e-01,2.27221089721744e-06
1.52080000000000e-08,0.00000000000000e+00,7.50000000000000e-01,6.44244279820114e-05
1.52240000000000e-08,0.00000000000000e+00,7.50000000000000e-01,1.44573466397083e-04
1.52560000000000e-08,0.00000000000000e+00,7.50000000000000e-01,1.54440382440592e-04
1.53200000000000e-08,0.00000000000000e+00,7.50000000000000e-01,1.89566367165481e-05
1.54480000000000e-08,0.00000000000000e+00,7.50000000000000e-01,-1.26136107909878e-04
1.57040000000000e-08,0.00000000000000e+00,7.50000000000000e-01,-6.75691646938384e-05
1.62160000000000e-08,0.00000000000000e+00,7.50000000000000e-01,-6.96244069864575e-05
1.68508289555611e-08,0.00000000000000e+00,7.50000000000000e-01,1.61456255109947e-04
1.79830354921645e-08,0.00000000000000e+00,7.50000000000000e-01,-1.11402014573112e-04
1.93835549787477e-08,0.00000000000000e+00,7.50000000000000e-01,8.45527217701507e-05
2.21845939519141e-08,0.00000000000000e+00,7.50000000000000e-01,-7.16838233222108e-05
2.50000000000000e-08,0.00000000000000e+00,7.50000000000000e-01,6.25368381950392e-05
2.50100000000000e-08,7.49999999999858e-02,7.50000000000000e-01,1.18769600314615e-04
2.50300000000000e-08,2.25000000000007e-01,7.50000000000000e-01,1.82551257258530e-04
2.50700000000000e-08,5.25000000000000e-01,7.50000000000000e-01,-1.03505999194918e-04
2.51000000000000e-08,7.50000000000000e-01,7.50000000000000e-01,-2.20028435461932e-03
2.51080000000000e-08,7.50000000000000e-01,7.50000000000000e-01,-3.09975432747553e-03
2.51240000000000e-08,7.50000000000000e-01,7.50000000000000e-01,-4.65953873007184e-03
2.51560000000000e-08,7.50000000000000e-01,7.50000000000000e-01,-5.20773391686027e-03
2.52200000000000e-08,7.50000000000000e-01,7.50000000000000e-01,3.54347120601473e-02
2.53480000000000e-08,7.50000000000000e-01,7.50000000000000e-01,3.00604798845490e-01
2.56040000000000e-08,7.50000000000000e-01,7.50000000000000e-01,7.21312635795916e-01
2.60648098362905e-08,7.50000000000000e-01,7.50000000000000e-01,7.61373663655951e-01
2.66007940064467e-08,7.50000000000000e-01,7.50000000000000e-01,7.40983728371082e-01
2.76576510858958e-08,7.50000000000000e-01,7.50000000000000e-01,7.56171689955181e-01
2.87649788184908e-08,7.50000000000000e-01,7.50000000000000e-01,7.44227622136570e-01
3.01000000000000e-08,7.50000000000000e-01,7.50000000000000e-01,7.54301077801700e-01
3.01100000000000e-08,7.50000000000000e-01,6.75000000000039e-01,7.53703740833617e-01
3.01300000000000e-08,7.50000000000000e-01,5.25000000000018e-01,7.52553298510932e-01
3.01700000000000e-08,7.50000000000000e-01,2.25000000000025e-01,7.51092487295519e-01
3.02000000000000e-08,7.50000000000000e-01,1.80966353013901e-14,7.50592913828153e-01
3.02080000000000e-08,7.50000000000000e-01,0.00000000000000e+00,7.50502130351783e-01
3.02240000000000e-08,7.50000000000000e-01,0.00000000000000e+00,7.50358231148809e-01
3.02560000000000e-08,7.50000000000000e-01,0.00000000000000e+00,7.50138765515403e-01
3.03200000000000e-08,7.50000000000000e-01,0.00000000000000e+00,7.49946982467825e-01
3.04480000000000e-08,7.50000000000000e-01,0.00000000000000e+00,7.49874745367283e-01
3.07040000000000e-08,7.50000000000000e-01,0.00000000000000e+00,7.49915911067389e-01
3.10207304408077e-08,7.50000000000000e-01,0.00000000000000e+00,7.49892596784913e-01
3.16541913224231e-08,7.50000000000000e-01,0.00000000000000e+00,7.49909704612085e-01
3.24420128032439e-08,7.50000000000000e-01,0.00000000000000e+00,7.49917597395973e-01
3.40176557648853e-08,7.50000000000000e-01,0.00000000000000e+00,7.49924053652839e-01
3.51000000000000e-08,7.49999999999963e-01,0.00000000000000e+00,7.49937621568059e-01
3.51100000000000e-08,6.74999999999977e-01,0.00000000000000e+00,7.49890273494536e-01
3.51300000000000e-08,5.24999999999956e-01,0.00000000000000e+00,7.49820875079270e-01
3.51700000000000e-08,2.24999999999963e-01,0.00000000000000e+00,7.50113125936177e-01
3.52000000000000e-08,0.00000000000000e+00,0.00000000000000e+00,7.50928643470390e-01
3.52080000000000e-08,0.00000000000000e+00,0.00000000000000e+00,7.51173145362935e-01
3.52240000000000e-08,0.00000000000000e+00,0.00000000000000e+00,7.51527315638966e-01
3.52560000000000e-08,0.00000000000000e+00,0.00000000000000e+00,7.51529134826790e-01
3.53200000000000e-08,0.00000000000000e+00,0.00000000000000e+00,7.47324157120637e-01
3.54480000000000e-08,0.00000000000000e+00,0.00000000000000e+00,7.22165106080760e-01
3.57040000000000e-08,0.00000000000000e+00,0.00000000000000e+00,7.08371244999561e-01
3.60812210296542e-08,0.00000000000000e+00,0.00000000000000e+00,7.46292336348245e-01
3.66758549742538e-08,0.00000000000000e+00,0.00000000000000e+00,7.49811383955937e-01
3.73508411375137e-08,0.00000000000000e+00,0.00000000000000e+00,7.49001314917747e-01
3.87008134640336e-08,0.00000000000000e+00,0.00000000000000e+00,7.49636244478054e-01
3.91000000000000e-08,0.00000000000000e+00,0.00000000000000e+00,7.49584225769097e-01
3.93699944653040e-08,0.00000000000000e+00,0.00000000000000e+00,7.49529134056521e-01
3.99099833959119e-08,0.00000000000000e+00,0.00000000000000e+00,7.49567598236747e-01
4.09899612571278e-08,0.00000000000000e+00,0.00000000000000e+00,7.49607928603125e-01
4.31499169795596e-08,0.00000000000000e+00,0.00000000000000e+00,7.49635748727229e-01
4.50000000000000e-08,0.00000000000000e+00,0.00000000000000e+00,7.49662450420544e-01
4.50100000000000e-08,7.49999999999858e-02,0.00000000000000e+00,7.49693012504175e-01
4.50300000000000e-08,2.25000000000007e-01,0.00000000000000e+00,7.49732850273486e-01
4.50700000000000e-08,5.25000000000000e-01,0.00000000000000e+00,7.49665857755712e-01
4.51000000000000e-08,7.50000000000000e-01,0.00000000000000e+00,7.49453379839208e-01
4.51080000000000e-08,7.50000000000000e-01,0.00000000000000e+00,7.49390179593247e-01
4.51240000000000e-08,7.50000000000000e-01,0.00000000000000e+00,7.49302711177093e-01
4.51560000000000e-08,7.50000000000000e-01,0.00000000000000e+00,7.49392664005860e-01
4.52200000000000e-08,7.50000000000000e-01,0.00000000000000e+00,7.51499271501385e-01
4.53480000000000e-08,7.50000000000000e-01,0.00000000000000e+00,7.59885770497614e-01
4.56040000000000e-08,7.50000000000000e-01,0.00000000000000e+00,1.99538919808947e-01
4.59789050938117e-08,7.50000000000000e-01,0.00000000000000e+00,-7.74224263212842e-02
4.63675608321396e-08,7.50000000000000e-01,0.00000000000000e+00,6.78211054803550e-02
4.71448723087954e-08,7.50000000000000e-01,0.00000000000000e+00,-5.09881840464021e-02
4.79448397243603e-08,7.50000000000000e-01,0.00000000000000e+00,4.91442946046579e-02
4.94982097010482e-08,7.50000000000000e-01,0.00000000000000e+00,-4.16115425792478e-02
5.00000000000000e-08,7.50000000000000e-01,0.00000000000000e+00,3.59715230565464e-02
5.00100000000000e-08,7.50000000000000e-01,7.49999999999858e-02,2.64002355939479e-02
5.00300000000000e-08,7.50000000000000e-01,2.24999999999957e-01,1.21776264070238e-02
5.00700000000000e-08,7.50000000000000e-01,5.25000000000000e-01,1.76680007098970e-03
5.01000000000000e-08,7.50000000000000e-01,7.50000000000000e-01,5.26937730198705e-04
5.01080000000000e-08,7.50000000000000e-01,7.50000000000000e-01,4.08021612355071e-04
5.01240000000000e-08,7.50000000000000e-01,7.50000000000000e-01,2.18980388315179e-04
5.01560000000000e-08,7.50000000000000e-01,7.50000000000000e-01,6.90009424575630e-05
5.02200000000000e-08,7.50000000000000e-01,7.50000000000000e-01,7.54660706165852e-06
5.03480000000000e-08,7.50000000000000e-01,7.50000000000000e-01,-2.48084405192646e-06
5.06040000000000e-08,7.50000000000000e-01,7.50000000000000e-01,3.41457933418672e-07
5.11160000000001e-08,7.50000000000000e-01,7.50000000000000e-01,-1.28471462601965e-06
5.21400000000002e-08,7.50000000000000e-01,7.50000000000000e-01,-3.62603596860706e-07
5.41880000000003e-08,7.50000000000000e-01,7.50000000000000e-01,-3.91755749787597e-07
5.51000000000000e-08,7.50000000000000e-01,7.50000000000000e-01,-4.43770260688710e-07
5.51100000000000e-08,6.75000000000027e-01,7.50000000000000e-01,-3.11978632627496e-05
5.51300000000000e-08,5.25000000000005e-01,7.50000000000000e-01,-7.91858605095896e-05
5.51700000000000e-08,2.25000000000013e-01,7.50000000000000e-01,-8.81070978249326e-05
5.52000000000000e-08,0.00000000000000e+00,7.50000000000000e-01,3.80877616130287e-06
5.52080000000000e-08,0.00000000000000e+00,7.50000000000000e-01,6.43389939493089e-05
5.52240000000000e-08,0.00000000000000e+00,7.50000000000000e-01,1.39538625954963e-04
5.52560000000000e-08,0.00000000000000e+00,7.50000000000000e-01,1.34867184404381e-04
5.53200000000000e-08,0.00000000000000e+00,7.50000000000000e-01,-6.02714887857486e-05
5.54480000000000e-08,0.00000000000000e+00,7.50000000000000e-01,-6.97142097810386e-04
5.57040000000000e-08,0.00000000000000e+00,7.50000000000000e-01,9.18989800202906e-05
5.61074768546686e-08,0.00000000000000e+00,7.50000000000000e-01,-1.88140084613060e-04
5.67670396545605e-08,0.00000000000000e+00,7.50000000000000e-01,2.16069205959282e-04
5.77921915667470e-08,0.00000000000000e+00,7.50000000000000e-01,-1.12262234846439e-04
5.91231246279371e-08,0.00000000000000e+00,7.50000000000000e-01,5.86413726806968e-05
6.17849907503172e-08,0.00000000000000e+00,7.50000000000000e-01,-3.43776002705608e-05
6.50000000000000e-08,0.00000000000000e+00,7.50000000000000e-01,1.89481306417407e-05
6.50100000000000e-08,7.49999999999858e-02,7.50000000000000e-01,1.49602076784459e-04
6.50300000000000e-08,2.24999999999957e-01,7.50000000000000e-01,2.61898569938031e-04
6.50700000000000e-08,5.24999999999900e-01,7.50000000000000e-01,9.35275908239830e-06
6.51000000000000e-08,7.49999999999957e-01,7.50000000000000e-01,-2.03494875846280e-03
6.51080000000000e-08,7.50000000000000e-01,7.50000000000000e-01,-2.94875708366227e-03
6.51240000000000e-08,7.50000000000000e-01,7.50000000000000e-01,-4.54988147162649e-03
6.51560000000000e-08,7.50000000000000e-01,7.50000000000000e-01,-5.31868954599694e-03
6.52200000000000e-08,7.50000000000000e-01,7.50000000000000e-01,3.36836470806866e-02
6.53480000000000e-08,7.50000000000000e-01,7.50000000000000e-01,2.96504137746702e-01
6.56040000000000e-08,7.50000000000000e-01,7.50000000000000e-01,7.20231497107343e-01
6.60655820470936e-08,7.50000000000000e-01,7.50000000000000e-01,7.61804540783874e-01
6.66001208008427e-08,7.50000000000000e-01,7.50000000000000e-01,7.40616312092742e-01
6.76579132443759e-08,7.50000000000000e-01,7.50000000000000e-01,7.56447448345536e-01
6.87592999778626e-08,7.50000000000000e-01,7.50000000000000e-01,7.43970427670320e-01
7.01000000000000e-08,7.50000000000000e-01,7.50000000000000e-01,7.54511968656202e-01
7.01100000000000e-08,7.50000000000000e-01,6.75000000000014e-01,7.53873693109356e-01
7.01300000000000e-08,7.50000000000000e-01,5.25000000000043e-01,7.52651924862176e-01
7.01700000000000e-08,7.50000000000000e-01,2.25000000000100e-01,7.51121951678584e-01
7.02000000000000e-08,7.50000000000000e-01,4.29656310529936e-14,7.50606770196193e-01
7.02080000000000e-08,7.50000000000000e-01,0.00000000000000e+00,7.50513665548555e-01
7.02240000000000e-08,7.50000000000000e-01,0.00000000000000e+00,7.50366234310506e-01
7.02560000000000e-08,7.50000000000000e-01,0.00000000000000e+00,7.50142522561628e-01
7.03200000000000e-08,7.50000000000000e-01,0.00000000000000e+00,7.49947753810257e-01
7.04480000000000e-08,7.50000000000000e-01,0.00000000000000e+00,7.49875089029443e-01
7.07040000000000e-08,7.50000000000000e-01,0.00000000000000e+00,7.49916254938190e-01
7.10204390875799e-08,7.50000000000000e-01,0.00000000000000e+00,7.49892943220275e-01
7.16533172627398e-08,7.50000000000000e-01,0.00000000000000e+00,7.49909912182048e-01
7.24396485997220e-08,7.50000000000000e-01,0.00000000000000e+00,7.49917836421442e-01
7.40123112736865e-08,7.50000000000000e-01,0.00000000000000e+00,7.49924131349585e-01
7.51000000000000e-08,7.50000000000000e-01,0.00000000000000e+00,7.49937777597344e-01
7.51100000000000e-08,6.75000000000076e-01,0.00000000000000e+00,7.49890372611145e-01
7.51300000000000e-08,5.25000000000105e-01,0.00000000000000e+00,7.49820916710297e-01
7.51700000000000e-08,2.25000000000162e-01,0.00000000000000e+00,7.50113212392552e-01
7.52000000000000e-08,1.05027098129540e-13,0.00000000000000e+00,7.50928817237894e-01
7.52080000000000e-08,0.00000000000000e+00,0.00000000000000e+00,7.51173347995593e-01
7.52240000000000e-08,0.00000000000000e+00,0.00000000000000e+00,7.51527646011308e-01
7.52560000000000e-08,0.00000000000000e+00,0.00000000000000e+00,7.51530278061077e-01
7.53200000000000e-08,0.00000000000000e+00,0.00000000000000e+00,7.47329818594586e-01
7.54480000000000e-08,0.00000000000000e+00,0.00000000000000e+00,7.22174783448403e-01
7.57040000000000e-08,0.00000000000000e+00,0.00000000000000e+00,7.08370964557210e-01
7.60812217414446e-08,0.00000000000000e+00,0.00000000000000e+00,7.46291054272411e-01
7.66758572244863e-08,0.00000000000000e+00,0.00000000000000e+00,7.49812486424734e-01
7.73508436807066e-08,0.00000000000000e+00,0.00000000000000e+00,7.49000680447689e-01
7.81000000000000e-08,0.00000000000000e+00,0.00000000000000e+00,7.49506742800374e-01
7.82349972912441e-08,0.00000000000000e+00,0.00000000000000e+00,7.49536278285288e-01
7.85049918737322e-08,0.00000000000000e+00,0.00000000000000e+00,7.49485833668682e-01
7.90449810387085e-08,0.00000000000000e+00,0.00000000000000e+00,7.49500141579260e-01
8.01249593686610e-08,0.00000000000000e+00,0.00000000000000e+00,7.49591660829676e-01
8.22849160285661e-08,0.00000000000000e+00,0.00000000000000e+00,7.49610986540036e-01
8.50000000000000e-08,0.00000000000000e+00,0.00000000000000e+00,7.49674252771433e-01
8.50100000000000e-08,7.49999999999858e-02,0.00000000000000e+00,7.49703028732161e-01
8.50300000000000e-08,2.24999999999957e-01,0.00000000000000e+00,7.49740004956649e-01
8.50700000000000e-08,5.24999999999900e-01,0.00000000000000e+00,7.49669403081343e-01
8.51000000000000e-08,7.49999999999957e-01,0.00000000000000e+00,7.49455464023393e-01
8.51080000000000e-08,7.50000000000000e-01,0.00000000000000e+00,7.49392005390622e-01
8.51240000000000e-08,7.50000000000000e-01,0.00000000000000e+00,7.49304085730648e-01
8.51560000000000e-08,7.50000000000000e-01,0.00000000000000e+00,7.49393435770765e-01
8.52200000000000e-08,7.50000000000000e-01,0.00000000000000e+00,7.51499512663800e-01
8.53480000000000e-08,7.50000000000000e-01,0.00000000000000e+00,7.59885811014066e-01
8.56040000000000e-08,7.50000000000000e-01,0.00000000000000e+00,1.99538018043217e-01
8.59789052027451e-08,7.50000000000000e-01,0.00000000000000e+00,-7.74225341645512e-02
8.63675610311512e-08,7.50000000000000e-01,0.00000000000000e+00,6.78212067065448e-02
8.71448726879633e-08,7.50000000000000e-01,0.00000000000000e+00,-5.09882670144634e-02
8.79448408799165e-08,7.50000000000000e-01,0.00000000000000e+00,4.91443832719648e-02
8.94982104019390e-08,7.50000000000000e-01,0.00000000000000e+00,-4.16116177944532e-02
9.00000000000000e-08,7.50000000000000e-01,0.00000000000000e+00,3.59715806069257e-02
9.00100000000000e-08,7.50000000000000e-01,7.49999999999858e-02,2.64002677685789e-02
9.00300000000000e-08,7.50000000000000e-01,2.24999999999957e-01,1.21776353651100e-02
9.00700000000000e-08,7.50000000000000e-01,5.24999999999900e-01,1.76680304136691e-03
9.01000000000000e-08,7.50000000000000e-01,7.49999999999957e-01,5.26937133085336e-04
9.01080000000000e-08,7.50000000000000e-01,7.50000000000000e-01,4.08021711491430e-04
9.01240000000000e-08,7.50000000000000e-01,7.50000000000000e-01,2.18980634138950e-04
9.01560000000000e-08,7.50000000000000e-01,7.50000000000000e-01,6.90005589896285e-05
9.02200000000000e-08,7.50000000000000e-01,7.50000000000000e-01,7.54656345536286e-06
9.03480000000000e-08,7.50000000000000e-01,7.50000000000000e-01,-2.48087547017467e-06
9.06040000000000e-08,7.50000000000000e-01,7.50000000000000e-01,3.41541030638749e-07
9.11159999999999e-08,7.50000000000000e-01,7.50000000000000e-01,-1.28481720626517e-06
9.21399999999999e-08,7.50000000000000e-01,7.50000000000000e-01,-3.62518063556309e-07
9.41879999999998e-08,7.50000000000000e-01,7.50000000000000e-01,-3.91861206530111e-07
9.51000000000000e-08,7.50000000000000e-01,7.50000000000000e-01,-4.43678676783320e-07
9.51100000000000e-08,6.75000000000076e-01,7.50000000000000e-01,-3.11978417877057e-05
9.51300000000000e-08,5.25000000000105e-01,7.50000000000000e-01,-7.91858731708367e-05
9.51700000000000e-08,2.25000000000162e-01,7.50000000000000e-01,-8.81070999215888e-05
9.52000000000000e-08,1.05027098129540e-13,7.50000000000000e-01,3.80876031913155e-06
9.52080000000000e-08,0.00000000000000e+00,7.50000000000000e-01,6.43389764055022e-05
9.52240000000000e-08,0.00000000000000e+00,7.50000000000000e-01,1.39538593594411e-04
9.52560000000000e-08,0.00000000000000e+00,7.50000000000000e-01,1.34867050302336e-04
9.53200000000000e-08,0.00000000000000e+00,7.50000000000000e-01,-6.02723749931339e-05
9.54480000000000e-08,0.00000000000000e+00,7.50000000000000e-01,-6.97147011797980e-04
9.57040000000000e-08,0.00000000000000e+00,7.50000000000000e-01,9.19000139163479e-05
9.61074754387440e-08,0.00000000000000e+00,7.50000000000000e-01,-1.88141023906132e-04
9.67670386808698e-08,0.00000000000000e+00,7.50000000000000e-01,2.16069635529162e-04
9.77921891438574e-08,0.00000000000000e+00,7.50000000000000e-01,-1.12261962258279e-04
9.91231213785837e-08,0.00000000000000e+00,7.50000000000000e-01,5.86408216701648e-05
1.01784985848036e-07,0.00000000000000e+00,7.50000000000000e-01,-3.43769416054128e-05
1.05000000000000e-07,0.00000000000000e+00,7.50000000000000e-01,1.89474317582677e-05
1.05010000000000e-07,7.49999999999858e-02,7.50000000000000e-01,1.49602070438196e-04
1.05030000000000e-07,2.24999999999957e-01,7.50000000000000e-01,2.61899074609800e-04
1.05070000000000e-07,5.24999999999900e-01,7.50000000000000e-01,9.35431775534248e-06
1.05100000000000e-07,7.49999999999957e-01,7.50000000000000e-01,-2.03494591658502e-03
1.05108000000000e-07,7.50000000000000e-01,7.50000000000000e-01,-2.94875439329553e-03
1.05124000000000e-07,7.50000000000000e-01,7.50000000000000e-01,-4.54987941504036e-03
1.05156000000000e-07,7.50000000000000e-01,7.50000000000000e-01,-5.31869143244822e-03
1.05220000000000e-07,7.50000000000000e-01,7.50000000000000e-01,3.36836153442847e-02
1.05348000000000e-07,7.50000000000000e-01,7.50000000000000e-01,2.96504063067230e-01
1.05604000000000e-07,7.50000000000000e-01,7.50000000000000e-01,7.20231477350163e-01
1.06065582061254e-07,7.50000000000000e-01,7.50000000000000e-01,7.61804548662963e-01
1.06600120789280e-07,7.50000000000000e-01,7.50000000000000e-01,7.40616305421009e-01
1.07657913249170e-07,7.50000000000000e-01,7.50000000000000e-01,7.56447453353043e-01
1.08759299878584e-07,7.50000000000000e-01,7.50000000000000e-01,7.43970422969620e-01
