Time,v(clk),v(data),v(out),v(reset)
1.00000000000000e-08,7.50000000000000e-01,0.00000000000000e+00,5.11601427033480e-06,0.00000000000000e+00
1.00100000000000e-08,7.50000000000000e-01,7.49999999999982e-02,6.23863453246692e-06,0.00000000000000e+00
1.00300000000000e-08,7.50000000000000e-01,2.24999999999995e-01,6.83618467743619e-06,0.00000000000000e+00
1.00700000000000e-08,7.50000000000000e-01,5.24999999999987e-01,7.01390593010887e-06,0.00000000000000e+00
1.01000000000000e-08,7.50000000000000e-01,7.49999999999994e-01,6.48650973412990e-06,0.00000000000000e+00
1.01080000000000e-08,7.50000000000000e-01,7.50000000000000e-01,6.88712274773268e-06,0.00000000000000e+00
1.01240000000000e-08,7.50000000000000e-01,7.50000000000000e-01,7.29510388072785e-06,0.00000000000000e+00
1.01560000000000e-08,7.50000000000000e-01,7.50000000000000e-01,8.52330519029304e-06,0.00000000000000e+00
1.02200000000000e-08,7.50000000000000e-01,7.50000000000000e-01,7.89503548032436e-06,0.00000000000000e+00
1.03480000000000e-08,7.50000000000000e-01,7.50000000000000e-01,6.29053332030366e-06,0.00000000000000e+00
1.06040000000000e-08,7.50000000000000e-01,7.50000000000000e-01,6.20378355652845e-06,0.00000000000000e+00
1.11160000000000e-08,7.50000000000000e-01,7.50000000000000e-01,6.51785137815650e-06,0.00000000000000e+00
1.21400000000000e-08,7.50000000000000e-01,7.50000000000000e-01,5.44154664715475e-06,0.00000000000000e+00
1.41880000000000e-08,7.50000000000000e-01,7.50000000000000e-01,5.52965464314156e-06,0.00000000000000e+00
1.51000000000000e-08,7.50000000000000e-01,7.50000000000000e-01,4.65350031436749e-06,0.00000000000000e+00
1.51100000000000e-08,6.74999999999989e-01,7.50000000000000e-01,7.96880950379650e-05,7.50000000000106e-02
1.51300000000000e-08,5.24999999999993e-01,7.50000000000000e-01,1.52611194068807e-04,2.25000000000007e-01
1.51700000000000e-08,2.25000000000000e-01,7.50000000000000e-01,1.37789785734747e-04,5.25000000000000e-01
1.52000000000000e-08,0.00000000000000e+00,7.50000000000000e-01,1.22183069842199e-04,7.50000000000000e-01
1.52080000000000e-08,0.00000000000000e+00,7.50000000000000e-01,1.21142505416769e-04,7.50000000000000e-01
1.52240000000000e-08,0.00000000000000e+00,7.50000000000000e-01,1.18321633935103e-04,7.50000000000000e-01
1.52560000000000e-08,0.00000000000000e+00,7.50000000000000e-01,1.01508543504249e-04,7.50000000000000e-01
1.53200000000000e-08,0.00000000000000e+00,7.50000000000000e-01,9.44801396741274e-06,7.50000000000000e-01
1.54480000000000e-08,0.00000000000000e+00,7.50000000000000e-01,-1.51428536976608e-04,7.50000000000000e-01
1.57040000000000e-08,0.00000000000000e+00,7.50000000000000e-01,-1.35196977522926e-04,7.50000000000000e-01
1.60904310590902e-08,0.00000000000000e+00,7.50000000000000e-01,-1.65371830093165e-06,7.50000000000000e-01
1.66584077973594e-08,0.00000000000000e+00,7.50000000000000e-01,1.53395439075818e-04,7.50000000000000e-01
1.77943612738978e-08,0.00000000000000e+00,7.50000000000000e-01,-1.30950401870106e-04,7.50000000000000e-01
1.89296863872859e-08,0.00000000000000e+00,7.50000000000000e-01,1.17451185783264e-04,7.50000000000000e-01
2.12003366140620e-08,0.00000000000000e+00,7.50000000000000e-01,-1.02231146508531e-04,7.50000000000000e-01
2.50000000000000e-08,0.00000000000000e+00,7.50000000000000e-01,1.02531819658050e-04,7.50000000000000e-01
2.50100000000000e-08,7.49999999999858e-02,7.50000000000000e-01,1.51317776777946e-04,7.50000000000000e-01
2.50300000000000e-08,2.25000000000007e-01,7.50000000000000e-01,2.23665435210019e-04,7.50000000000000e-01
2.50700000000000e-08,5.25000000000000e-01,7.50000000000000e-01,2.69041453675234e-04,7.50000000000000e-01
2.51000000000000e-08,7.50000000000000e-01,7.50000000000000e-01,-1.41153838138869e-04,7.50000000000000e-01
2.51080000000000e-08,7.50000000000000e-01,7.50000000000000e-01,-4.61617372266181e-04,7.50000000000000e-01
2.51240000000000e-08,7.50000000000000e-01,7.50000000000000e-01,-1.22982686872775e-03,7.50000000000000e-01
2.51560000000000e-08,7.50000000000000e-01,7.50000000000000e-01,-2.94958033382965e-03,7.50000000000000e-01
2.52200000000000e-08,7.50000000000000e-01,7.50000000000000e-01,-4.67226392094575e-03,7.50000000000000e-01
2.53480000000000e-08,7.50000000000000e-01,7.50000000000000e-01,7.31880936887911e-02,7.50000000000000e-01
2.56040000000000e-08,7.50000000000000e-01,7.50000000000000e-01,6.09490227943394e-01,7.50000000000000e-01
2.61160000000000e-08,7.50000000000000e-01,7.50000000000000e-01,7.81790411334875e-01,7.50000000000000e-01
2.66595540453711e-08,7.50000000000000e-01,7.50000000000000e-01,7.20527737442137e-01,7.50000000000000e-01
2.77466621361133e-08,7.50000000000000e-01,7.50000000000000e-01,7.76144586520975e-01,7.50000000000000e-01
2.92645091636705e-08,7.50000000000000e-01,7.50000000000000e-01,7.23609463038218e-01,7.50000000000000e-01
3.23002032187848e-08,7.50000000000000e-01,7.50000000000000e-01,7.74439807287908e-01,7.50000000000000e-01
3.51000000000000e-08,7.49999999999963e-01,7.50000000000000e-01,7.24873010892464e-01,7.50000000000000e-01
3.51100000000000e-08,6.74999999999977e-01,7.50000000000000e-01,7.33999730546202e-01,7.50000000000000e-01
3.51300000000000e-08,5.24999999999956e-01,7.50000000000000e-01,7.45613263365402e-01,7.50000000000000e-01
3.51700000000000e-08,2.24999999999963e-01,7.50000000000000e-01,7.50795441785059e-01,7.50000000000000e-01
3.52000000000000e-08,0.00000000000000e+00,7.50000000000000e-01,7.51644008145623e-01,7.50000000000000e-01
3.52080000000000e-08,0.00000000000000e+00,7.50000000000000e-01,7.51824509148409e-01,7.50000000000000e-01
3.52240000000000e-08,0.00000000000000e+00,7.50000000000000e-01,7.51784995626691e-01,7.50000000000000e-01
3.52560000000000e-08,0.00000000000000e+00,7.50000000000000e-01,7.48662426564241e-01,7.50000000000000e-01
3.53200000000000e-08,0.00000000000000e+00,7.50000000000000e-01,7.30883317412266e-01,7.50000000000000e-01
3.54480000000000e-08,0.00000000000000e+00,7.50000000000000e-01,7.17081776427801e-01,7.50000000000000e-01
3.57040000000000e-08,0.00000000000000e+00,7.50000000000000e-01,7.47471233244879e-01,7.50000000000000e-01
3.62160000000000e-08,0.00000000000000e+00,7.50000000000000e-01,7.50332959196145e-01,7.50000000000000e-01
3.67992908997069e-08,0.00000000000000e+00,7.50000000000000e-01,7.49046433891925e-01,7.50000000000000e-01
3.79658726991207e-08,0.00000000000000e+00,7.50000000000000e-01,7.50249040983432e-01,7.50000000000000e-01
4.02990362979483e-08,0.00000000000000e+00,7.50000000000000e-01,7.49443056846315e-01,7.50000000000000e-01
4.40990362979483e-08,0.00000000000000e+00,7.50000000000000e-01,7.50308159748318e-01,7.50000000000000e-01
4.50000000000000e-08,0.00000000000000e+00,7.50000000000000e-01,7.49598171049275e-01,7.50000000000000e-01
4.50100000000000e-08,7.49999999999858e-02,7.50000000000000e-01,7.49612224547390e-01,6.75000000000014e-01
4.50300000000000e-08,2.25000000000007e-01,7.50000000000000e-01,7.49647281047513e-01,5.24999999999993e-01
4.50700000000000e-08,5.25000000000000e-01,7.50000000000000e-01,7.51356961916586e-01,2.25000000000000e-01
4.51000000000000e-08,7.50000000000000e-01,7.50000000000000e-01,7.55068533467314e-01,0.00000000000000e+00
4.51080000000000e-08,7.50000000000000e-01,7.50000000000000e-01,7.56188476895204e-01,0.00000000000000e+00
4.51240000000000e-08,7.50000000000000e-01,7.50000000000000e-01,7.58113310276207e-01,0.00000000000000e+00
4.51560000000000e-08,7.50000000000000e-01,7.50000000000000e-01,7.61264853847987e-01,0.00000000000000e+00
4.52200000000000e-08,7.50000000000000e-01,7.50000000000000e-01,7.63730819067602e-01,0.00000000000000e+00
4.53480000000000e-08,7.50000000000000e-01,7.50000000000000e-01,5.07452398229070e-01,0.00000000000000e+00
4.56040000000000e-08,7.50000000000000e-01,7.50000000000000e-01,6.49505294040087e-03,0.00000000000000e+00
4.59891753015199e-08,7.50000000000000e-01,7.50000000000000e-01,-2.79452390854045e-03,0.00000000000000e+00
4.65909946038631e-08,7.50000000000000e-01,7.50000000000000e-01,1.30570036292231e-03,0.00000000000000e+00
4.73350153206790e-08,7.50000000000000e-01,7.50000000000000e-01,-6.70379798040882e-04,0.00000000000000e+00
4.88230567543109e-08,7.50000000000000e-01,7.50000000000000e-01,3.07914443353958e-04,0.00000000000000e+00
5.01000000000000e-08,7.50000000000000e-01,7.49999999999957e-01,-1.22340418063579e-04,0.00000000000000e+00
5.03976082867264e-08,7.50000000000000e-01,7.50000000000000e-01,-1.96983892038019e-04,0.00000000000000e+00
5.09928248601791e-08,7.50000000000000e-01,7.50000000000000e-01,1.25611888988171e-04,0.00000000000000e+00
5.21832580070847e-08,7.50000000000000e-01,7.50000000000000e-01,-9.12760286492257e-05,0.00000000000000e+00
5.45641243008957e-08,7.50000000000000e-01,7.50000000000000e-01,8.53103638189939e-05,0.00000000000000e+00
5.51000000000000e-08,7.50000000000000e-01,7.50000000000000e-01,-3.99544095480951e-05,0.00000000000000e+00
5.51100000000000e-08,6.75000000000027e-01,7.50000000000000e-01,3.33734707607877e-05,7.49999999999734e-02
5.51300000000000e-08,5.25000000000005e-01,7.50000000000000e-01,1.08663886476935e-04,2.24999999999995e-01
5.51700000000000e-08,2.25000000000013e-01,7.50000000000000e-01,9.87187154455754e-05,5.24999999999987e-01
5.52000000000000e-08,0.00000000000000e+00,7.50000000000000e-01,9.20114399303035e-05,7.50000000000000e-01
5.52080000000000e-08,0.00000000000000e+00,7.50000000000000e-01,9.14101072612347e-05,7.50000000000000e-01
5.52240000000000e-08,0.00000000000000e+00,7.50000000000000e-01,8.64147452697001e-05,7.50000000000000e-01
5.52560000000000e-08,0.00000000000000e+00,7.50000000000000e-01,2.64210954877692e-06,7.50000000000000e-01
5.53200000000000e-08,0.00000000000000e+00,7.50000000000000e-01,-7.40415114801801e-04,7.50000000000000e-01
5.54480000000000e-08,0.00000000000000e+00,7.50000000000000e-01,-1.07518367273024e-03,7.50000000000000e-01
5.57040000000000e-08,0.00000000000000e+00,7.50000000000000e-01,2.40691345511681e-04,7.50000000000000e-01
5.60538898869943e-08,0.00000000000000e+00,7.50000000000000e-01,-2.01817061381908e-04,7.50000000000000e-01
5.66393408732217e-08,0.00000000000000e+00,7.50000000000000e-01,1.56837509359792e-04,7.50000000000000e-01
5.78102428456766e-08,0.00000000000000e+00,7.50000000000000e-01,-8.80158976099615e-05,7.50000000000000e-01
5.89104721005431e-08,0.00000000000000e+00,7.50000000000000e-01,4.40862369769056e-05,7.50000000000000e-01
6.11109306102763e-08,0.00000000000000e+00,7.50000000000000e-01,-1.89948417590249e-05,7.50000000000000e-01
6.49109306102763e-08,0.00000000000000e+00,7.50000000000000e-01,1.50889333754103e-05,7.50000000000000e-01
6.50000000000000e-08,0.00000000000000e+00,7.50000000000000e-01,7.66496363844502e-05,7.50000000000000e-01
6.50100000000000e-08,7.49999999999858e-02,7.50000000000000e-01,1.32709442041211e-04,7.50000000000000e-01
6.50300000000000e-08,2.24999999999957e-01,7.50000000000000e-01,2.09153411258094e-04,7.50000000000000e-01
6.50700000000000e-08,5.24999999999900e-01,7.50000000000000e-01,2.49353144202200e-04,7.50000000000000e-01
6.51000000000000e-08,7.49999999999957e-01,7.50000000000000e-01,-1.72970720785481e-04,7.50000000000000e-01
6.51080000000000e-08,7.50000000000000e-01,7.50000000000000e-01,-4.99356135582482e-04,7.50000000000000e-01
6.51240000000000e-08,7.50000000000000e-01,7.50000000000000e-01,-1.27448162274245e-03,7.50000000000000e-01
6.51560000000000e-08,7.50000000000000e-01,7.50000000000000e-01,-2.98716731589393e-03,7.50000000000000e-01
6.52200000000000e-08,7.50000000000000e-01,7.50000000000000e-01,-4.64432265145114e-03,7.50000000000000e-01
6.53480000000000e-08,7.50000000000000e-01,7.50000000000000e-01,7.46735762983953e-02,7.50000000000000e-01
6.56040000000000e-08,7.50000000000000e-01,7.50000000000000e-01,6.11132835283810e-01,7.50000000000000e-01
6.61159999999999e-08,7.50000000000000e-01,7.50000000000000e-01,7.81608475895306e-01,7.50000000000000e-01
6.66602846551539e-08,7.50000000000000e-01,7.50000000000000e-01,7.20678479357359e-01,7.50000000000000e-01
6.77488539654618e-08,7.50000000000000e-01,7.50000000000000e-01,7.76010137084323e-01,7.50000000000000e-01
6.92640854834349e-08,7.50000000000000e-01,7.50000000000000e-01,7.23746791750152e-01,7.50000000000000e-01
7.22945485193811e-08,7.50000000000000e-01,7.50000000000000e-01,7.74311714219473e-01,7.50000000000000e-01
7.51000000000000e-08,7.50000000000000e-01,7.50000000000000e-01,7.25003934212803e-01,7.50000000000000e-01
7.51100000000000e-08,6.75000000000076e-01,7.50000000000000e-01,7.34082768995778e-01,7.50000000000000e-01
7.51300000000000e-08,5.25000000000105e-01,7.50000000000000e-01,7.45635221566325e-01,7.50000000000000e-01
7.51700000000000e-08,2.25000000000162e-01,7.50000000000000e-01,7.50793627553265e-01,7.50000000000000e-01
7.52000000000000e-08,1.05027098129540e-13,7.50000000000000e-01,7.51644027928912e-01,7.50000000000000e-01
7.52080000000000e-08,0.00000000000000e+00,7.50000000000000e-01,7.51824806780943e-01,7.50000000000000e-01
7.52240000000000e-08,0.00000000000000e+00,7.50000000000000e-01,7.51786464670247e-01,7.50000000000000e-01
7.52560000000000e-08,0.00000000000000e+00,7.50000000000000e-01,7.48669971520844e-01,7.50000000000000e-01
7.53200000000000e-08,0.00000000000000e+00,7.50000000000000e-01,7.30899578066765e-01,7.50000000000000e-01
7.54480000000000e-08,0.00000000000000e+00,7.50000000000000e-01,7.17085809568872e-01,7.50000000000000e-01
7.57040000000000e-08,0.00000000000000e+00,7.50000000000000e-01,7.47467684053598e-01,7.50000000000000e-01
7.62159999999999e-08,0.00000000000000e+00,7.50000000000000e-01,7.50334853879887e-01,7.50000000000000e-01
7.67992938598233e-08,0.00000000000000e+00,7.50000000000000e-01,7.49045326163785e-01,7.50000000000000e-01
7.79658815794700e-08,0.00000000000000e+00,7.50000000000000e-01,7.50249987634579e-01,7.50000000000000e-01
8.02990570187633e-08,0.00000000000000e+00,7.50000000000000e-01,7.49442155217726e-01,7.50000000000000e-01
8.40990570187633e-08,0.00000000000000e+00,7.50000000000000e-01,7.50309156946053e-01,7.50000000000000e-01
8.50000000000000e-08,0.00000000000000e+00,7.50000000000000e-01,7.49597042232817e-01,7.50000000000000e-01
8.50100000000000e-08,7.49999999999858e-02,7.50000000000000e-01,7.49606682548850e-01,6.75000000000014e-01
8.50300000000000e-08,2.24999999999957e-01,7.50000000000000e-01,7.49645753253598e-01,5.25000000000043e-01
8.50700000000000e-08,5.24999999999900e-01,7.50000000000000e-01,7.51357298294238e-01,2.25000000000100e-01
8.51000000000000e-08,7.49999999999957e-01,7.50000000000000e-01,7.55068684059626e-01,4.29656310529936e-14
8.51080000000000e-08,7.50000000000000e-01,7.50000000000000e-01,7.56188494996696e-01,0.00000000000000e+00
8.51240000000000e-08,7.50000000000000e-01,7.50000000000000e-01,7.58113042231703e-01,0.00000000000000e+00
8.51560000000000e-08,7.50000000000000e-01,7.50000000000000e-01,7.61263925887959e-01,0.00000000000000e+00
8.52200000000000e-08,7.50000000000000e-01,7.50000000000000e-01,7.63737561239151e-01,0.00000000000000e+00
8.53480000000000e-08,7.50000000000000e-01,7.50000000000000e-01,5.07504458452339e-01,0.00000000000000e+00
8.56040000000000e-08,7.50000000000000e-01,7.50000000000000e-01,6.51487571742465e-03,0.00000000000000e+00
8.59892868696449e-08,7.50000000000000e-01,7.50000000000000e-01,-2.80652108435050e-03,0.00000000000000e+00
8.65910390814006e-08,7.50000000000000e-01,7.50000000000000e-01,1.31437785065713e-03,0.00000000000000e+00
8.73351644067093e-08,7.50000000000000e-01,7.50000000000000e-01,-6.77265213689411e-04,0.00000000000000e+00
8.88234150573266e-08,7.50000000000000e-01,7.50000000000000e-01,3.14172665040295e-04,0.00000000000000e+00
9.01000000000000e-08,7.50000000000000e-01,7.49999999999957e-01,-1.27757219738279e-04,0.00000000000000e+00
9.03976501301235e-08,7.50000000000000e-01,7.50000000000000e-01,-1.97553372684671e-04,0.00000000000000e+00
9.09929503903704e-08,7.50000000000000e-01,7.50000000000000e-01,1.26015574521901e-04,0.00000000000000e+00
9.21835509108642e-08,7.50000000000000e-01,7.50000000000000e-01,-9.16201950821854e-05,0.00000000000000e+00
9.45647519518519e-08,7.50000000000000e-01,7.50000000000000e-01,8.56276132360145e-05,0.00000000000000e+00
9.51000000000000e-08,7.50000000000000e-01,7.50000000000000e-01,-4.01358302343970e-05,0.00000000000000e+00
9.51100000000000e-08,6.75000000000076e-01,7.50000000000000e-01,3.32538056260559e-05,7.49999999999237e-02
9.51300000000000e-08,5.25000000000105e-01,7.50000000000000e-01,1.08599308162753e-04,2.24999999999895e-01
9.51700000000000e-08,2.25000000000162e-01,7.50000000000000e-01,9.86160344594589e-05,5.24999999999838e-01
9.52000000000000e-08,1.05027098129540e-13,7.50000000000000e-01,9.19544659055554e-05,7.49999999999895e-01
9.52080000000000e-08,0.00000000000000e+00,7.50000000000000e-01,9.13584519409288e-05,7.50000000000000e-01
9.52240000000000e-08,0.00000000000000e+00,7.50000000000000e-01,8.63733422113017e-05,7.50000000000000e-01
9.52560000000000e-08,0.00000000000000e+00,7.50000000000000e-01,2.61531680141591e-06,7.50000000000000e-01
9.53200000000000e-08,0.00000000000000e+00,7.50000000000000e-01,-7.40443758998469e-04,7.50000000000000e-01
9.54480000000000e-08,0.00000000000000e+00,7.50000000000000e-01,-1.07522667022800e-03,7.50000000000000e-01
9.57040000000000e-08,0.00000000000000e+00,7.50000000000000e-01,2.40683318919360e-04,7.50000000000000e-01
9.60537326130403e-08,0.00000000000000e+00,7.50000000000000e-01,-2.01815099032365e-04,7.50000000000000e-01
9.66392729755322e-08,0.00000000000000e+00,7.50000000000000e-01,1.56836443387333e-04,7.50000000000000e-01
9.78103537005160e-08,0.00000000000000e+00,7.50000000000000e-01,-8.80107988656693e-05,7.50000000000000e-01
9.89104113914895e-08,0.00000000000000e+00,7.50000000000000e-01,4.40550108839217e-05,7.50000000000000e-01
1.01110526773437e-07,0.00000000000000e+00,7.50000000000000e-01,-1.89561024916385e-05,7.50000000000000e-01
1.04910526773437e-07,0.00000000000000e+00,7.50000000000000e-01,1.50485561864029e-05,7.50000000000000e-01
1.05000000000000e-07,0.00000000000000e+00,7.50000000000000e-01,7.66924697507484e-05,7.50000000000000e-01
1.05010000000000e-07,7.49999999999858e-02,7.50000000000000e-01,1.32700833796982e-04,7.50000000000000e-01
1.05030000000000e-07,2.24999999999957e-01,7.50000000000000e-01,2.09070327524909e-04,7.50000000000000e-01
1.05070000000000e-07,5.24999999999900e-01,7.50000000000000e-01,2.49256624597724e-04,7.50000000000000e-01
1.05100000000000e-07,7.49999999999957e-01,7.50000000000000e-01,-1.72988142440017e-04,7.50000000000000e-01
1.05108000000000e-07,7.50000000000000e-01,7.50000000000000e-01,-4.99342564976170e-04,7.50000000000000e-01
1.05124000000000e-07,7.50000000000000e-01,7.50000000000000e-01,-1.27442286039708e-03,7.50000000000000e-01
1.05156000000000e-07,7.50000000000000e-01,7.50000000000000e-01,-2.98708667899111e-03,7.50000000000000e-01
1.05220000000000e-07,7.50000000000000e-01,7.50000000000000e-01,-4.64440796687893e-03,7.50000000000000e-01
1.05348000000000e-07,7.50000000000000e-01,7.50000000000000e-01,7.46693091375556e-02,7.50000000000000e-01
1.05604000000000e-07,7.50000000000000e-01,7.50000000000000e-01,6.11128143717904e-01,7.50000000000000e-01
1.06116000000000e-07,7.50000000000000e-01,7.50000000000000e-01,7.81608998715473e-01,7.50000000000000e-01
1.06660282534525e-07,7.50000000000000e-01,7.50000000000000e-01,7.20678045468355e-01,7.50000000000000e-01
1.07748847603575e-07,7.50000000000000e-01,7.50000000000000e-01,7.76010523880710e-01,7.50000000000000e-01
1.09264086545872e-07,7.50000000000000e-01,7.50000000000000e-01,7.23746396681150e-01,7.50000000000000e-01
1.12294564430466e-07,7.50000000000000e-01,7.50000000000000e-01,7.74312082609777e-01,7.50000000000000e-01
1.15100000000000e-07,7.50000000000000e-01,7.50000000000000e-01,7.25003557542875e-01,7.50000000000000e-01
1.15110000000000e-07,6.75000000000076e-01,7.50000000000000e-01,7.34082530112795e-01,7.50000000000000e-01
1.15130000000000e-07,5.25000000000105e-01,7.50000000000000e-01,7.45635158383145e-01,7.50000000000000e-01
1.15170000000000e-07,2.25000000000162e-01,7.50000000000000e-01,7.50793632730424e-01,7.50000000000000e-01
1.15200000000000e-07,1.05027098129540e-13,7.50000000000000e-01,7.51644027866553e-01,7.50000000000000e-01
