Time,v(clk),v(data),v(out)
1.00000000000000e-08,7.50000000000000e-01,0.00000000000000e+00,9.96484295819229e-06
1.00100000000000e-08,7.50000000000000e-01,7.49999999999982e-02,1.19301149796233e-05
1.00300000000000e-08,7.50000000000000e-01,2.24999999999995e-01,1.43944413144997e-05
1.00700000000000e-08,7.50000000000000e-01,5.24999999999987e-01,1.51660694155051e-05
1.01000000000000e-08,7.50000000000000e-01,7.49999999999994e-01,1.51942591011325e-05
1.01080000000000e-08,7.50000000000000e-01,7.50000000000000e-01,1.49560379919256e-05
1.01240000000000e-08,7.50000000000000e-01,7.50000000000000e-01,1.49661488549821e-05
1.01560000000000e-08,7.50000000000000e-01,7.50000000000000e-01,1.59234366674949e-05
1.02200000000000e-08,7.50000000000000e-01,7.50000000000000e-01,1.83660844446792e-05
1.03480000000000e-08,7.50000000000000e-01,7.50000000000000e-01,1.82793518107641e-05
1.06040000000000e-08,7.50000000000000e-01,7.50000000000000e-01,1.80813302334722e-05
1.10890901214453e-08,7.50000000000000e-01,7.50000000000000e-01,1.70280730782697e-05
1.20423094828041e-08,7.50000000000000e-01,7.50000000000000e-01,1.73182639994218e-05
1.39487482055218e-08,7.50000000000000e-01,7.50000000000000e-01,1.59511051222205e-05
1.51000000000000e-08,7.50000000000000e-01,7.50000000000000e-01,1.63138996474551e-05
1.51100000000000e-08,6.74999999999989e-01,7.50000000000000e-01,-1.60432896218893e-05
1.51300000000000e-08,5.24999999999993e-01,7.50000000000000e-01,-7.49680518720292e-05
1.51700000000000e-08,2.25000000000000e-01,7.50000000000000e-01,-7.92519317091081e-05
1.52000000000000e-08,0.00000000000000e+00,7.50000000000000e-01,5.70542206197247e-05
1.52080000000000e-08,0.00000000000000e+00,7.50000000000000e-01,1.31170415686617e-04
1.52240000000000e-08,0.00000000000000e+00,7.50000000000000e-01,2.34822313173032e-04
1.52560000000000e-08,0.00000000000000e+00,7.50000000000000e-01,2.66552322495069e-04
1.53200000000000e-08,0.00000000000000e+00,7.50000000000000e-01,6.80067567135831e-05
1.54480000000000e-08,0.00000000000000e+00,7.50000000000000e-01,-2.21930378238869e-04
1.57040000000000e-08,0.00000000000000e+00,7.50000000000000e-01,-1.30910025976493e-04
1.62160000000000e-08,0.00000000000000e+00,7.50000000000000e-01,-4.10238606475821e-05
1.68022292842646e-08,0.00000000000000e+00,7.50000000000000e-01,1.96834182524705e-04
1.79746878527937e-08,0.00000000000000e+00,7.50000000000000e-01,-9.95523767175098e-05
1.93270480082381e-08,0.00000000000000e+00,7.50000000000000e-01,8.05540075200020e-05
2.20317683191269e-08,0.00000000000000e+00,7.50000000000000e-01,-3.63171165792156e-05
2.50000000000000e-08,0.00000000000000e+00,7.50000000000000e-01,4.91082698879210e-05
2.50100000000000e-08,7.49999999999858e-02,7.50000000000000e-01,1.11223543433923e-04
2.50300000000000e-08,2.25000000000007e-01,7.50000000000000e-01,2.13511719246710e-04
2.50700000000000e-08,5.25000000000000e-01,7.50000000000000e-01,3.04225367247397e-04
2.51000000000000e-08,7.50000000000000e-01,7.50000000000000e-01,9.50911873583565e-05
2.51080000000000e-08,7.50000000000000e-01,7.50000000000000e-01,-1.01574592557233e-04
2.51240000000000e-08,7.50000000000000e-01,7.50000000000000e-01,-6.07052679270075e-04
2.51560000000000e-08,7.50000000000000e-01,7.50000000000000e-01,-1.87882063701379e-03
2.52200000000000e-08,7.50000000000000e-01,7.50000000000000e-01,-4.08811854499431e-03
2.53480000000000e-08,7.50000000000000e-01,7.50000000000000e-01,1.89944800537598e-02
2.56040000000000e-08,7.50000000000000e-01,7.50000000000000e-01,4.44157057239457e-01
2.61160000000000e-08,7.50000000000000e-01,7.50000000000000e-01,7.78863533271153e-01
2.66937539341257e-08,7.50000000000000e-01,7.50000000000000e-01,7.27547089053418e-01
2.78492618023772e-08,7.50000000000000e-01,7.50000000000000e-01,7.70854323967477e-01
2.93130372867644e-08,7.50000000000000e-01,7.50000000000000e-01,7.29815502006774e-01
3.15688566963454e-08,7.50000000000000e-01,7.50000000000000e-01,7.69071174287227e-01
3.51000000000000e-08,7.49999999999963e-01,7.50000000000000e-01,7.30853451285289e-01
3.51100000000000e-08,6.74999999999977e-01,7.50000000000000e-01,7.37269009040216e-01
3.51300000000000e-08,5.24999999999956e-01,7.50000000000000e-01,7.45780528237349e-01
3.51700000000000e-08,2.24999999999963e-01,7.50000000000000e-01,7.50511467976078e-01
3.52000000000000e-08,0.00000000000000e+00,7.50000000000000e-01,7.51631195180558e-01
3.52080000000000e-08,0.00000000000000e+00,7.50000000000000e-01,7.51856094770180e-01
3.52240000000000e-08,0.00000000000000e+00,7.50000000000000e-01,7.51994537711579e-01
3.52560000000000e-08,0.00000000000000e+00,7.50000000000000e-01,7.50172638499631e-01
3.53200000000000e-08,0.00000000000000e+00,7.50000000000000e-01,7.36671757177523e-01
3.54480000000000e-08,0.00000000000000e+00,7.50000000000000e-01,7.16773917301624e-01
3.57040000000000e-08,0.00000000000000e+00,7.50000000000000e-01,7.41138621533833e-01
3.62160000000000e-08,0.00000000000000e+00,7.50000000000000e-01,7.53448156831496e-01
3.68100339517411e-08,0.00000000000000e+00,7.50000000000000e-01,7.46262315131845e-01
3.79981018552234e-08,0.00000000000000e+00,7.50000000000000e-01,7.52405744504631e-01
4.03742376621878e-08,0.00000000000000e+00,7.50000000000000e-01,7.47258701989787e-01
4.41742376621878e-08,0.00000000000000e+00,7.50000000000000e-01,7.52284247906722e-01
4.50000000000000e-08,0.00000000000000e+00,7.50000000000000e-01,7.47870037222700e-01
4.50100000000000e-08,7.49999999999858e-02,7.50000000000000e-01,7.48309804571538e-01
4.50300000000000e-08,2.25000000000007e-01,7.50000000000000e-01,7.49001763300934e-01
4.50700000000000e-08,5.25000000000000e-01,7.50000000000000e-01,7.49663552245826e-01
4.51000000000000e-08,7.50000000000000e-01,7.50000000000000e-01,7.49713162309059e-01
4.51080000000000e-08,7.50000000000000e-01,6.90000000000031e-01,7.49632266000570e-01
4.51240000000000e-08,7.50000000000000e-01,5.69999999999994e-01,7.49426585859263e-01
4.51560000000000e-08,7.50000000000000e-01,3.30000000000020e-01,7.48941715151054e-01
4.52000000000000e-08,7.50000000000000e-01,4.29656310529936e-14,7.48457647657876e-01
4.52064000000000e-08,7.50000000000000e-01,0.00000000000000e+00,7.48415401314892e-01
4.52192000000000e-08,7.50000000000000e-01,0.00000000000000e+00,7.48330243413319e-01
4.52448000000000e-08,7.50000000000000e-01,0.00000000000000e+00,7.48188020360460e-01
4.52960000000000e-08,7.50000000000000e-01,0.00000000000000e+00,7.48097023439030e-01
4.53984000000000e-08,7.50000000000000e-01,0.00000000000000e+00,7.48544173099719e-01
4.56032000000000e-08,7.50000000000000e-01,0.00000000000000e+00,7.49278293504070e-01
4.59084310148434e-08,7.50000000000000e-01,0.00000000000000e+00,7.49821027485924e-01
4.64840215025922e-08,7.50000000000000e-01,0.00000000000000e+00,7.50026359439832e-01
4.71114118551285e-08,7.50000000000000e-01,0.00000000000000e+00,7.49993478654899e-01
4.83661925602011e-08,7.50000000000000e-01,0.00000000000000e+00,7.50005049393585e-01
5.08757539703463e-08,7.50000000000000e-01,0.00000000000000e+00,7.49994939196467e-01
5.46757539703463e-08,7.50000000000000e-01,0.00000000000000e+00,7.50005155326410e-01
5.51000000000000e-08,7.50000000000000e-01,0.00000000000000e+00,7.49992037248299e-01
5.51100000000000e-08,6.75000000000027e-01,0.00000000000000e+00,7.49974279553742e-01
5.51300000000000e-08,5.25000000000005e-01,0.00000000000000e+00,7.49953935485476e-01
5.51700000000000e-08,2.25000000000013e-01,0.00000000000000e+00,7.50517801077084e-01
5.52000000000000e-08,0.00000000000000e+00,0.00000000000000e+00,7.51727479543952e-01
5.52080000000000e-08,0.00000000000000e+00,0.00000000000000e+00,7.52022057839341e-01
5.52240000000000e-08,0.00000000000000e+00,0.00000000000000e+00,7.52445896056277e-01
5.52560000000000e-08,0.00000000000000e+00,0.00000000000000e+00,7.52816878169073e-01
5.53200000000000e-08,0.00000000000000e+00,0.00000000000000e+00,7.53269319369532e-01
5.54480000000000e-08,0.00000000000000e+00,0.00000000000000e+00,7.51862453716687e-01
5.57040000000000e-08,0.00000000000000e+00,0.00000000000000e+00,7.49067346813101e-01
5.57538240525507e-08,0.00000000000000e+00,0.00000000000000e+00,7.49291366885900e-01
5.58534721576521e-08,0.00000000000000e+00,0.00000000000000e+00,7.49620570144581e-01
5.60527683678550e-08,0.00000000000000e+00,0.00000000000000e+00,7.49693598372610e-01
5.64513607882607e-08,0.00000000000000e+00,0.00000000000000e+00,7.49677456594003e-01
5.72485456290722e-08,0.00000000000000e+00,0.00000000000000e+00,7.49776721269459e-01
5.88429153106950e-08,0.00000000000000e+00,0.00000000000000e+00,7.49787180853974e-01
6.20316546739408e-08,0.00000000000000e+00,0.00000000000000e+00,7.49882426872026e-01
6.50000000000000e-08,0.00000000000000e+00,0.00000000000000e+00,7.49854953249884e-01
6.50100000000000e-08,7.49999999999858e-02,0.00000000000000e+00,7.49891945164060e-01
6.50300000000000e-08,2.24999999999957e-01,0.00000000000000e+00,7.49935182329360e-01
6.50700000000000e-08,5.24999999999900e-01,0.00000000000000e+00,7.49920055853519e-01
6.51000000000000e-08,7.49999999999957e-01,0.00000000000000e+00,7.49847134338209e-01
6.51080000000000e-08,7.50000000000000e-01,0.00000000000000e+00,7.49818980065872e-01
6.51240000000000e-08,7.50000000000000e-01,0.00000000000000e+00,7.49781840483298e-01
6.51560000000000e-08,7.50000000000000e-01,0.00000000000000e+00,7.49769653830981e-01
6.52200000000000e-08,7.50000000000000e-01,0.00000000000000e+00,7.49786518906674e-01
6.53480000000000e-08,7.50000000000000e-01,0.00000000000000e+00,7.50643234132073e-01
6.56040000000000e-08,7.50000000000000e-01,0.00000000000000e+00,7.56719134252278e-01
6.61159999999999e-08,7.50000000000000e-01,0.00000000000000e+00,2.03220326455006e-01
6.66748422524494e-08,7.50000000000000e-01,0.00000000000000e+00,-7.54098674511032e-02
6.76185065766073e-08,7.50000000000000e-01,0.00000000000000e+00,5.98395037519997e-02
6.88125493204697e-08,7.50000000000000e-01,0.00000000000000e+00,-4.16999300046883e-02
7.04614720673540e-08,7.50000000000000e-01,0.00000000000000e+00,3.67353713585384e-02
7.35735384442132e-08,7.50000000000000e-01,0.00000000000000e+00,-3.14051607468786e-02
7.51000000000000e-08,7.50000000000000e-01,0.00000000000000e+00,2.68647971716014e-02
7.51100000000000e-08,6.75000000000076e-01,0.00000000000000e+00,2.32447356529393e-02
7.51300000000000e-08,5.25000000000105e-01,0.00000000000000e+00,1.74194429390288e-02
7.51700000000000e-08,2.25000000000162e-01,0.00000000000000e+00,1.05221847272072e-02
7.52000000000000e-08,1.05027098129540e-13,0.00000000000000e+00,7.40073918590589e-03
7.52080000000000e-08,0.00000000000000e+00,0.00000000000000e+00,6.81616290148021e-03
7.52240000000000e-08,0.00000000000000e+00,0.00000000000000e+00,5.69963825708002e-03
7.52560000000000e-08,0.00000000000000e+00,0.00000000000000e+00,3.83370157867233e-03
7.53200000000000e-08,0.00000000000000e+00,0.00000000000000e+00,8.68802560273448e-04
7.54480000000000e-08,0.00000000000000e+00,0.00000000000000e+00,-2.00878654738997e-03
7.57040000000000e-08,0.00000000000000e+00,0.00000000000000e+00,-5.52848596423881e-04
7.61137746083675e-08,0.00000000000000e+00,0.00000000000000e+00,5.14253538531928e-04
7.67405278615308e-08,0.00000000000000e+00,0.00000000000000e+00,-3.78386163053007e-04
7.77096644964184e-08,0.00000000000000e+00,0.00000000000000e+00,3.52640703749916e-04
7.96479377661936e-08,0.00000000000000e+00,0.00000000000000e+00,-3.00846536542007e-04
8.34479377661936e-08,0.00000000000000e+00,0.00000000000000e+00,3.14913631503314e-04
8.50000000000000e-08,0.00000000000000e+00,0.00000000000000e+00,-2.59693167848974e-04
8.50100000000000e-08,7.49999999999858e-02,0.00000000000000e+00,-1.42908113039623e-04
8.50300000000000e-08,2.24999999999957e-01,0.00000000000000e+00,1.33220224300401e-05
8.50700000000000e-08,5.24999999999900e-01,0.00000000000000e+00,8.84660039307816e-05
8.51000000000000e-08,7.49999999999957e-01,0.00000000000000e+00,-4.51363550185019e-06
8.51080000000000e-08,7.50000000000000e-01,0.00000000000000e+00,-5.57197364795745e-05
8.51240000000000e-08,7.50000000000000e-01,0.00000000000000e+00,-1.29042320347279e-04
8.51560000000000e-08,7.50000000000000e-01,0.00000000000000e+00,-1.65057432292885e-04
8.52200000000000e-08,7.50000000000000e-01,0.00000000000000e+00,-1.18135728807374e-04
8.53480000000000e-08,7.50000000000000e-01,0.00000000000000e+00,-2.94100920867554e-05
8.56040000000000e-08,7.50000000000000e-01,0.00000000000000e+00,3.69001148710357e-05
8.61159999999999e-08,7.50000000000000e-01,0.00000000000000e+00,3.56391053336451e-05
8.71399999999999e-08,7.50000000000000e-01,0.00000000000000e+00,9.87922456648690e-06
8.84966439996780e-08,7.50000000000000e-01,0.00000000000000e+00,2.84970757576473e-05
9.00000000000000e-08,7.50000000000000e-01,0.00000000000000e+00,1.00080048195221e-05
9.00100000000000e-08,7.50000000000000e-01,7.49999999999858e-02,1.19569168994318e-05
9.00300000000000e-08,7.50000000000000e-01,2.24999999999957e-01,1.44023629526438e-05
9.00700000000000e-08,7.50000000000000e-01,5.24999999999900e-01,1.52002511281182e-05
9.01000000000000e-08,7.50000000000000e-01,7.49999999999957e-01,1.52651131461803e-05
9.01080000000000e-08,7.50000000000000e-01,7.50000000000000e-01,1.50412810172029e-05
9.01240000000000e-08,7.50000000000000e-01,7.50000000000000e-01,1.51951384583168e-05
9.01560000000000e-08,7.50000000000000e-01,7.50000000000000e-01,1.60295330254231e-05
9.02200000000000e-08,7.50000000000000e-01,7.50000000000000e-01,1.83523163355612e-05
9.03480000000000e-08,7.50000000000000e-01,7.50000000000000e-01,1.82444179379418e-05
9.06040000000000e-08,7.50000000000000e-01,7.50000000000000e-01,1.80490204875483e-05
9.11043928764761e-08,7.50000000000000e-01,7.50000000000000e-01,1.70689495555144e-05
9.20986338803953e-08,7.50000000000000e-01,7.50000000000000e-01,1.72505328709808e-05
9.40871158882338e-08,7.50000000000000e-01,7.50000000000000e-01,1.58305254598511e-05
9.51000000000000e-08,7.50000000000000e-01,7.50000000000000e-01,1.62723919270094e-05
9.51100000000000e-08,6.75000000000076e-01,7.50000000000000e-01,-1.60132802901058e-05
9.51300000000000e-08,5.25000000000105e-01,7.50000000000000e-01,-7.49575149913556e-05
9.51700000000000e-08,2.25000000000162e-01,7.50000000000000e-01,-7.92567422808130e-05
9.52000000000000e-08,1.05027098129540e-13,7.50000000000000e-01,5.70515334223712e-05
9.52080000000000e-08,0.00000000000000e+00,7.50000000000000e-01,1.31167600885482e-04
9.52240000000000e-08,0.00000000000000e+00,7.50000000000000e-01,2.34818948471473e-04
9.52560000000000e-08,0.00000000000000e+00,7.50000000000000e-01,2.66543369167843e-04
9.53200000000000e-08,0.00000000000000e+00,7.50000000000000e-01,6.79870321898604e-05
9.54480000000000e-08,0.00000000000000e+00,7.50000000000000e-01,-2.21936766034384e-04
9.57040000000000e-08,0.00000000000000e+00,7.50000000000000e-01,-1.30909376248853e-04
9.62159999999999e-08,0.00000000000000e+00,7.50000000000000e-01,-4.10144909517955e-05
9.68022422335261e-08,0.00000000000000e+00,7.50000000000000e-01,1.96831220916882e-04
9.79747267005785e-08,0.00000000000000e+00,7.50000000000000e-01,-9.95588423946432e-05
9.93270849234509e-08,0.00000000000000e+00,7.50000000000000e-01,8.05644740111862e-05
1.02031801369196e-07,0.00000000000000e+00,7.50000000000000e-01,-3.63288557749422e-05
1.05000000000000e-07,0.00000000000000e+00,7.50000000000000e-01,4.91207026960213e-05
1.05010000000000e-07,7.49999999999858e-02,7.50000000000000e-01,1.11233041744874e-04
1.05030000000000e-07,2.24999999999957e-01,7.50000000000000e-01,2.13516463431852e-04
1.05070000000000e-07,5.24999999999900e-01,7.50000000000000e-01,3.04226804559604e-04
1.05100000000000e-07,7.49999999999957e-01,7.50000000000000e-01,9.50903797694996e-05
1.05108000000000e-07,7.50000000000000e-01,7.50000000000000e-01,-1.01576733850868e-04
1.05124000000000e-07,7.50000000000000e-01,7.50000000000000e-01,-6.07056899730035e-04
1.05156000000000e-07,7.50000000000000e-01,7.50000000000000e-01,-1.87882712926257e-03
1.05220000000000e-07,7.50000000000000e-01,7.50000000000000e-01,-4.08812345397990e-03
1.05348000000000e-07,7.50000000000000e-01,7.50000000000000e-01,1.89944860513176e-02
1.05604000000000e-07,7.50000000000000e-01,7.50000000000000e-01,4.44157167711419e-01
1.06116000000000e-07,7.50000000000000e-01,7.50000000000000e-01,7.78863551096527e-01
1.06693753846975e-07,7.50000000000000e-01,7.50000000000000e-01,7.27547072948367e-01
1.07849261540924e-07,7.50000000000000e-01,7.50000000000000e-01,7.70854337597602e-01
1.09313036992422e-07,7.50000000000000e-01,7.50000000000000e-01,7.29815488082628e-01
1.11568856462472e-07,7.50000000000000e-01,7.50000000000000e-01,7.69071186752608e-01
1.15100000000000e-07,7.50000000000000e-01,7.50000000000000e-01,7.30853438201139e-01
1.15110000000000e-07,6.75000000000076e-01,7.50000000000000e-01,7.37269000237168e-01
1.15130000000000e-07,5.25000000000105e-01,7.50000000000000e-01,7.45780525226649e-01
1.15170000000000e-07,2.25000000000162e-01,7.50000000000000e-01,7.50511467927629e-01
1.15200000000000e-07,1.05027098129540e-13,7.50000000000000e-01,7.51631195151241e-01
1.15208000000000e-07,0.00000000000000e+00,7.50000000000000e-01,7.51856094731711e-01
1.15224000000000e-07,0.00000000000000e+00,7.50000000000000e-01,7.51994537643586e-01
1.15256000000000e-07,0.00000000000000e+00,7.50000000000000e-01,7.50172638367246e-01
1.15320000000000e-07,0.00000000000000e+00,7.50000000000000e-01,7.36671756875662e-01
1.15448000000000e-07,0.00000000000000e+00,7.50000000000000e-01,7.16773917074007e-01
1.15704000000000e-07,0.00000000000000e+00,7.50000000000000e-01,7.41138621616399e-01
1.16216000000000e-07,0.00000000000000e+00,7.50000000000000e-01,7.53448156761474e-01
1.16810033951565e-07,0.00000000000000e+00,7.50000000000000e-01,7.46262315186215e-01
1.17998101854694e-07,0.00000000000000e+00,7.50000000000000e-01,7.52405744456341e-01
1.20374237660953e-07,0.00000000000000e+00,7.50000000000000e-01,7.47258702034954e-01
1.24174237660953e-07,0.00000000000000e+00,7.50000000000000e-01,7.52284247863563e-01
1.25000000000000e-07,0.00000000000000e+00,7.50000000000000e-01,7.47870037261025e-01
1.25010000000000e-07,7.49999999998865e-02,7.50000000000000e-01,7.48309804601669e-01
1.25030000000000e-07,2.24999999999858e-01,7.50000000000000e-01,7.49001763318283e-01
1.25070000000000e-07,5.24999999999801e-01,7.50000000000000e-01,7.49663552251141e-01
1.25100000000000e-07,7.49999999999858e-01,7.50000000000000e-01,7.49713162311787e-01
1.25108000000000e-07,7.50000000000000e-01,6.89999999999932e-01,7.49632266002852e-01
1.25124000000000e-07,7.50000000000000e-01,5.69999999999994e-01,7.49426585861192e-01
1.25156000000000e-07,7.50000000000000e-01,3.29999999999921e-01,7.48941715152196e-01
1.25200000000000e-07,7.50000000000000e-01,0.00000000000000e+00,7.48457647658223e-01
1.25206400000000e-07,7.50000000000000e-01,0.00000000000000e+00,7.48415401315146e-01
1.25219200000000e-07,7.50000000000000e-01,0.00000000000000e+00,7.48330243413303e-01
1.25244800000000e-07,7.50000000000000e-01,0.00000000000000e+00,7.48188020359222e-01
1.25296000000000e-07,7.50000000000000e-01,0.00000000000000e+00,7.48097023438611e-01
1.25398400000000e-07,7.50000000000000e-01,0.00000000000000e+00,7.48544173099007e-01
1.25603200000000e-07,7.50000000000000e-01,0.00000000000000e+00,7.49278293503350e-01
1.25908431014535e-07,7.50000000000000e-01,0.00000000000000e+00,7.49821027486047e-01
1.26484021502722e-07,7.50000000000000e-01,0.00000000000000e+00,7.50026359439834e-01
1.27111411852633e-07,7.50000000000000e-01,0.00000000000000e+00,7.49993478655414e-01
1.28366192552455e-07,7.50000000000000e-01,0.00000000000000e+00,7.50005049392942e-01
1.30875753952098e-07,7.50000000000000e-01,0.00000000000000e+00,7.49994939196978e-01
1.34675753952098e-07,7.50000000000000e-01,0.00000000000000e+00,7.50005155325910e-01
1.35100000000000e-07,7.49999999999864e-01,0.00000000000000e+00,7.49992037248943e-01
1.35110000000000e-07,6.74999999999778e-01,0.00000000000000e+00,7.49974279554042e-01
1.35130000000000e-07,5.24999999999807e-01,0.00000000000000e+00,7.49953935485322e-01
1.35170000000000e-07,2.24999999999864e-01,0.00000000000000e+00,7.50517801079601e-01
1.35200000000000e-07,0.00000000000000e+00,0.00000000000000e+00,7.51727479545638e-01
1.35208000000000e-07,0.00000000000000e+00,0.00000000000000e+00,7.52022057840205e-01
