Time,v(clk),v(data),v(out)
1.00000000000000e-08,7.50000000000000e-01,0.00000000000000e+00,1.93088652231110e-05
1.00100000000000e-08,7.50000000000000e-01,7.49999999999982e-02,1.45086284191534e-05
1.00300000000000e-08,7.50000000000000e-01,2.24999999999995e-01,7.52920918662553e-06
1.00700000000000e-08,7.50000000000000e-01,5.24999999999987e-01,6.22729473920974e-07
1.01000000000000e-08,7.50000000000000e-01,7.49999999999994e-01,-1.45286965484021e-06
1.01080000000000e-08,7.50000000000000e-01,7.50000000000000e-01,-7.58444700224570e-07
1.01240000000000e-08,7.50000000000000e-01,7.50000000000000e-01,1.00235172365015e-06
1.01560000000000e-08,7.50000000000000e-01,7.50000000000000e-01,2.92645108336542e-06
1.02200000000000e-08,7.50000000000000e-01,7.50000000000000e-01,2.98457451973141e-06
1.03480000000000e-08,7.50000000000000e-01,7.50000000000000e-01,7.80610996911624e-07
1.06040000000000e-08,7.50000000000000e-01,7.50000000000000e-01,1.78188228287281e-06
1.11160000000000e-08,7.50000000000000e-01,7.50000000000000e-01,1.69193238762529e-06
1.21400000000000e-08,7.50000000000000e-01,7.50000000000000e-01,1.35230011045779e-06
1.41880000000000e-08,7.50000000000000e-01,7.50000000000000e-01,1.42659719821309e-06
1.51000000000000e-08,7.50000000000000e-01,7.50000000000000e-01,1.02993301931984e-06
1.51100000000000e-08,6.74999999999989e-01,7.50000000000000e-01,-2.90220741016520e-05
1.51300000000000e-08,5.24999999999993e-01,7.50000000000000e-01,-7.63022477206429e-05
1.51700000000000e-08,2.25000000000000e-01,7.50000000000000e-01,-6.62449646413356e-05
1.52000000000000e-08,0.00000000000000e+00,7.50000000000000e-01,5.69108544539454e-05
1.52080000000000e-08,0.00000000000000e+00,7.50000000000000e-01,1.20461783996988e-04
1.52240000000000e-08,0.00000000000000e+00,7.50000000000000e-01,1.93881174341728e-04
1.52560000000000e-08,0.00000000000000e+00,7.50000000000000e-01,1.63445778450552e-04
1.53200000000000e-08,0.00000000000000e+00,7.50000000000000e-01,-3.76537375275758e-05
1.54480000000000e-08,0.00000000000000e+00,7.50000000000000e-01,-1.01874726856636e-04
1.57040000000000e-08,0.00000000000000e+00,7.50000000000000e-01,-2.22319462607800e-04
1.61237108472486e-08,0.00000000000000e+00,7.50000000000000e-01,1.92609505334691e-04
1.66605959433733e-08,0.00000000000000e+00,7.50000000000000e-01,1.14078689107009e-05
1.76316159557114e-08,0.00000000000000e+00,7.50000000000000e-01,-6.89358046618237e-05
1.87668642417573e-08,0.00000000000000e+00,7.50000000000000e-01,9.92570185606289e-05
2.10373608138491e-08,0.00000000000000e+00,7.50000000000000e-01,-1.09542932110376e-04
2.44696497598785e-08,0.00000000000000e+00,7.50000000000000e-01,1.15291447638222e-04
2.50000000000000e-08,0.00000000000000e+00,7.50000000000000e-01,-1.32119726796261e-04
2.50100000000000e-08,7.49999999999858e-02,7.50000000000000e-01,-3.49438875162783e-05
2.50300000000000e-08,2.25000000000007e-01,7.50000000000000e-01,9.91036193866285e-05
2.50700000000000e-08,5.25000000000000e-01,7.50000000000000e-01,3.64368986300115e-05
2.51000000000000e-08,7.50000000000000e-01,7.50000000000000e-01,-1.49491407859392e-03
2.51080000000000e-08,7.50000000000000e-01,7.50000000000000e-01,-2.26905873807762e-03
2.51240000000000e-08,7.50000000000000e-01,7.50000000000000e-01,-3.71519742694621e-03
2.51560000000000e-08,7.50000000000000e-01,7.50000000000000e-01,-5.37237625719391e-03
2.52200000000000e-08,7.50000000000000e-01,7.50000000000000e-01,2.33490144865025e-02
2.53480000000000e-08,7.50000000000000e-01,7.50000000000000e-01,3.28124089337520e-01
2.56040000000000e-08,7.50000000000000e-01,7.50000000000000e-01,7.53629507980399e-01
2.59985909805860e-08,7.50000000000000e-01,7.50000000000000e-01,7.45638745808445e-01
2.65786659979372e-08,7.50000000000000e-01,7.50000000000000e-01,7.54612967824322e-01
2.74518817030225e-08,7.50000000000000e-01,7.50000000000000e-01,7.45671048117323e-01
2.85697501403996e-08,7.50000000000000e-01,7.50000000000000e-01,7.54259147525181e-01
3.01000000000000e-08,7.50000000000000e-01,7.50000000000000e-01,7.45926482898559e-01
3.01100000000000e-08,7.50000000000000e-01,6.75000000000039e-01,7.47444097516375e-01
3.01300000000000e-08,7.50000000000000e-01,5.25000000000018e-01,7.49354662613415e-01
3.01700000000000e-08,7.50000000000000e-01,2.25000000000025e-01,7.50163202264764e-01
3.02000000000000e-08,7.50000000000000e-01,1.80966353013901e-14,7.50119662842170e-01
3.02080000000000e-08,7.50000000000000e-01,0.00000000000000e+00,7.50103202183884e-01
3.02240000000000e-08,7.50000000000000e-01,0.00000000000000e+00,7.50078820405939e-01
3.02560000000000e-08,7.50000000000000e-01,0.00000000000000e+00,7.50020843265352e-01
3.03200000000000e-08,7.50000000000000e-01,0.00000000000000e+00,7.49975688032712e-01
3.04480000000000e-08,7.50000000000000e-01,0.00000000000000e+00,7.49957402625177e-01
3.07040000000000e-08,7.50000000000000e-01,0.00000000000000e+00,7.49972256294506e-01
3.10382715865298e-08,7.50000000000000e-01,0.00000000000000e+00,7.49948997985775e-01
3.16461199687798e-08,7.50000000000000e-01,0.00000000000000e+00,7.49975406543227e-01
3.26563440778210e-08,7.50000000000000e-01,0.00000000000000e+00,7.49957786530445e-01
3.45542875758116e-08,7.50000000000000e-01,0.00000000000000e+00,7.49980867765214e-01
3.51000000000000e-08,7.49999999999963e-01,0.00000000000000e+00,7.49966245218951e-01
3.51100000000000e-08,6.74999999999977e-01,0.00000000000000e+00,7.49932835540274e-01
3.51300000000000e-08,5.24999999999956e-01,0.00000000000000e+00,7.49893001614948e-01
3.51700000000000e-08,2.24999999999963e-01,0.00000000000000e+00,7.50349408530496e-01
3.52000000000000e-08,0.00000000000000e+00,0.00000000000000e+00,7.51363994437262e-01
3.52080000000000e-08,0.00000000000000e+00,0.00000000000000e+00,7.51594059547704e-01
3.52240000000000e-08,0.00000000000000e+00,0.00000000000000e+00,7.51773627793739e-01
3.52560000000000e-08,0.00000000000000e+00,0.00000000000000e+00,7.50060198189770e-01
3.53200000000000e-08,0.00000000000000e+00,0.00000000000000e+00,7.35763204568469e-01
3.54480000000000e-08,0.00000000000000e+00,0.00000000000000e+00,7.11261538337924e-01
3.57040000000000e-08,0.00000000000000e+00,0.00000000000000e+00,7.37964052669047e-01
3.59856372059909e-08,0.00000000000000e+00,0.00000000000000e+00,7.54074510783781e-01
3.65489116179728e-08,0.00000000000000e+00,0.00000000000000e+00,7.45848610052091e-01
3.71042896192003e-08,0.00000000000000e+00,0.00000000000000e+00,7.52173668919131e-01
3.82150456216553e-08,0.00000000000000e+00,0.00000000000000e+00,7.47559524219563e-01
3.91000000000000e-08,0.00000000000000e+00,0.00000000000000e+00,7.51568146592974e-01
3.93185205259828e-08,0.00000000000000e+00,0.00000000000000e+00,7.50097262764256e-01
3.97555615779485e-08,0.00000000000000e+00,0.00000000000000e+00,7.49623152242695e-01
4.06296436818799e-08,0.00000000000000e+00,0.00000000000000e+00,7.50000932021315e-01
4.23778078897426e-08,0.00000000000000e+00,0.00000000000000e+00,7.49726426668172e-01
4.50000000000000e-08,0.00000000000000e+00,0.00000000000000e+00,7.50027571912642e-01
4.50100000000000e-08,7.49999999999858e-02,0.00000000000000e+00,7.50029573074246e-01
4.50300000000000e-08,2.25000000000007e-01,0.00000000000000e+00,7.50019296582149e-01
4.50700000000000e-08,5.25000000000000e-01,0.00000000000000e+00,7.49931742115545e-01
4.51000000000000e-08,7.50000000000000e-01,0.00000000000000e+00,7.49764557774914e-01
4.51080000000000e-08,7.50000000000000e-01,0.00000000000000e+00,7.49720054685354e-01
4.51240000000000e-08,7.50000000000000e-01,0.00000000000000e+00,7.49665734686792e-01
4.51560000000000e-08,7.50000000000000e-01,0.00000000000000e+00,7.49672391954598e-01
4.52200000000000e-08,7.50000000000000e-01,0.00000000000000e+00,7.51124145822797e-01
4.53480000000000e-08,7.50000000000000e-01,0.00000000000000e+00,7.59740378275353e-01
4.56040000000000e-08,7.50000000000000e-01,0.00000000000000e+00,2.16984621392282e-01
4.59848779364685e-08,7.50000000000000e-01,0.00000000000000e+00,-8.68141837166756e-02
4.63839628232094e-08,7.50000000000000e-01,0.00000000000000e+00,7.33269795392530e-02
4.71821325966912e-08,7.50000000000000e-01,0.00000000000000e+00,-5.25582171447551e-02
4.79737247505584e-08,7.50000000000000e-01,0.00000000000000e+00,4.97450438243375e-02
4.95338886848723e-08,7.50000000000000e-01,0.00000000000000e+00,-4.08752835381596e-02
5.00000000000000e-08,7.50000000000000e-01,0.00000000000000e+00,3.32498373324921e-02
5.00100000000000e-08,7.50000000000000e-01,7.49999999999858e-02,2.58413811816968e-02
5.00300000000000e-08,7.50000000000000e-01,2.24999999999957e-01,1.41138478924182e-02
5.00700000000000e-08,7.50000000000000e-01,5.25000000000000e-01,3.46631325597729e-03
5.01000000000000e-08,7.50000000000000e-01,7.50000000000000e-01,1.30903090468797e-03
5.01080000000000e-08,7.50000000000000e-01,7.50000000000000e-01,1.04721484687523e-03
5.01240000000000e-08,7.50000000000000e-01,7.50000000000000e-01,6.18598732204101e-04
5.01560000000000e-08,7.50000000000000e-01,7.50000000000000e-01,2.16033501191277e-04
5.02200000000000e-08,7.50000000000000e-01,7.50000000000000e-01,8.96672235504992e-06
5.03480000000000e-08,7.50000000000000e-01,7.50000000000000e-01,-8.24933258988456e-06
5.06040000000000e-08,7.50000000000000e-01,7.50000000000000e-01,3.18792197130310e-06
5.11160000000001e-08,7.50000000000000e-01,7.50000000000000e-01,-2.31436830674080e-06
5.21400000000002e-08,7.50000000000000e-01,7.50000000000000e-01,1.89008081632244e-06
5.41880000000003e-08,7.50000000000000e-01,7.50000000000000e-01,-2.03066200242822e-06
5.51000000000000e-08,7.50000000000000e-01,7.50000000000000e-01,7.79354327781756e-07
5.51100000000000e-08,6.75000000000027e-01,7.50000000000000e-01,-2.91230936001960e-05
5.51300000000000e-08,5.25000000000005e-01,7.50000000000000e-01,-7.57510019102001e-05
5.51700000000000e-08,2.25000000000013e-01,7.50000000000000e-01,-6.41483499258522e-05
5.52000000000000e-08,0.00000000000000e+00,7.50000000000000e-01,5.35029495551814e-05
5.52080000000000e-08,0.00000000000000e+00,7.50000000000000e-01,1.15161214064970e-04
5.52240000000000e-08,0.00000000000000e+00,7.50000000000000e-01,1.81782514427249e-04
5.52560000000000e-08,0.00000000000000e+00,7.50000000000000e-01,9.85219819905694e-05
5.53200000000000e-08,0.00000000000000e+00,7.50000000000000e-01,-5.91901226919933e-04
5.54480000000000e-08,0.00000000000000e+00,7.50000000000000e-01,-9.07734701079157e-04
5.57040000000000e-08,0.00000000000000e+00,7.50000000000000e-01,1.23252547902212e-04
5.61245824913475e-08,0.00000000000000e+00,7.50000000000000e-01,6.54985737348797e-06
5.66612920457138e-08,0.00000000000000e+00,7.50000000000000e-01,1.10385332961127e-04
5.76358871744165e-08,0.00000000000000e+00,7.50000000000000e-01,-1.33262154862456e-04
5.87709108509375e-08,0.00000000000000e+00,7.50000000000000e-01,1.38836023966805e-04
6.10409582039795e-08,0.00000000000000e+00,7.50000000000000e-01,-1.39132725914339e-04
6.44780834320601e-08,0.00000000000000e+00,7.50000000000000e-01,1.37543132978636e-04
6.50000000000000e-08,0.00000000000000e+00,7.50000000000000e-01,-1.20274302815491e-04
6.50100000000000e-08,7.49999999999858e-02,7.50000000000000e-01,-5.75499936051466e-05
6.50300000000000e-08,2.24999999999957e-01,7.50000000000000e-01,4.89295570519285e-05
6.50700000000000e-08,5.24999999999900e-01,7.50000000000000e-01,8.02476706341856e-06
6.51000000000000e-08,7.49999999999957e-01,7.50000000000000e-01,-1.50798015269897e-03
6.51080000000000e-08,7.50000000000000e-01,7.50000000000000e-01,-2.27940335965728e-03
6.51240000000000e-08,7.50000000000000e-01,7.50000000000000e-01,-3.72160159889443e-03
6.51560000000000e-08,7.50000000000000e-01,7.50000000000000e-01,-5.37525486111262e-03
6.52200000000000e-08,7.50000000000000e-01,7.50000000000000e-01,2.33442942056070e-02
6.53480000000000e-08,7.50000000000000e-01,7.50000000000000e-01,3.28110438874916e-01
6.56040000000000e-08,7.50000000000000e-01,7.50000000000000e-01,7.53627081009692e-01
6.59985997549141e-08,7.50000000000000e-01,7.50000000000000e-01,7.45640193193185e-01
6.65786707018784e-08,7.50000000000000e-01,7.50000000000000e-01,7.54611661890728e-01
6.74518931049521e-08,7.50000000000000e-01,7.50000000000000e-01,7.45672179907288e-01
6.85697456057941e-08,7.50000000000000e-01,7.50000000000000e-01,7.54258085293301e-01
7.01000000000000e-08,7.50000000000000e-01,7.50000000000000e-01,7.45927466240960e-01
7.01100000000000e-08,7.50000000000000e-01,6.75000000000014e-01,7.47444791417544e-01
7.01300000000000e-08,7.50000000000000e-01,5.25000000000043e-01,7.49354936864375e-01
7.01700000000000e-08,7.50000000000000e-01,2.25000000000100e-01,7.50163223193699e-01
7.02000000000000e-08,7.50000000000000e-01,4.29656310529936e-14,7.50119674135065e-01
7.02080000000000e-08,7.50000000000000e-01,0.00000000000000e+00,7.50103212047573e-01
7.02240000000000e-08,7.50000000000000e-01,0.00000000000000e+00,7.50078828022665e-01
7.02560000000000e-08,7.50000000000000e-01,0.00000000000000e+00,7.50020847289434e-01
7.03200000000000e-08,7.50000000000000e-01,0.00000000000000e+00,7.49975690460309e-01
7.04480000000000e-08,7.50000000000000e-01,0.00000000000000e+00,7.49957403291444e-01
7.07040000000000e-08,7.50000000000000e-01,0.00000000000000e+00,7.49972258774536e-01
7.10382735717958e-08,7.50000000000000e-01,0.00000000000000e+00,7.49948999032556e-01
7.16461221365745e-08,7.50000000000000e-01,0.00000000000000e+00,7.49975408502746e-01
7.26563570881026e-08,7.50000000000000e-01,0.00000000000000e+00,7.49957787230629e-01
7.45543159635955e-08,7.50000000000000e-01,0.00000000000000e+00,7.49980869198911e-01
7.51000000000000e-08,7.50000000000000e-01,0.00000000000000e+00,7.49966245661823e-01
7.51100000000000e-08,6.75000000000076e-01,0.00000000000000e+00,7.49932836657828e-01
7.51300000000000e-08,5.25000000000105e-01,0.00000000000000e+00,7.49893002975415e-01
7.51700000000000e-08,2.25000000000162e-01,0.00000000000000e+00,7.50349409389021e-01
7.52000000000000e-08,1.05027098129540e-13,0.00000000000000e+00,7.51363997174187e-01
7.52080000000000e-08,0.00000000000000e+00,0.00000000000000e+00,7.51594064007998e-01
7.52240000000000e-08,0.00000000000000e+00,0.00000000000000e+00,7.51773638392529e-01
7.52560000000000e-08,0.00000000000000e+00,0.00000000000000e+00,7.50060246885241e-01
7.53200000000000e-08,0.00000000000000e+00,0.00000000000000e+00,7.35763334185381e-01
7.54480000000000e-08,0.00000000000000e+00,0.00000000000000e+00,7.11261588398726e-01
7.57040000000000e-08,0.00000000000000e+00,0.00000000000000e+00,7.37964004041657e-01
7.59856372080063e-08,0.00000000000000e+00,0.00000000000000e+00,7.54074543732533e-01
7.65489116240189e-08,0.00000000000000e+00,0.00000000000000e+00,7.45848586912945e-01
7.71042896268728e-08,0.00000000000000e+00,0.00000000000000e+00,7.52173686884883e-01
7.81000000000000e-08,0.00000000000000e+00,0.00000000000000e+00,7.47588891954483e-01
7.82110756005708e-08,0.00000000000000e+00,0.00000000000000e+00,7.49130356398598e-01
7.84332268017123e-08,0.00000000000000e+00,0.00000000000000e+00,7.50021355101055e-01
7.88775292039954e-08,0.00000000000000e+00,0.00000000000000e+00,7.49606146098990e-01
7.97661340085616e-08,0.00000000000000e+00,0.00000000000000e+00,7.49962450156604e-01
8.15433436176940e-08,0.00000000000000e+00,0.00000000000000e+00,7.49728675060732e-01
8.50000000000000e-08,0.00000000000000e+00,0.00000000000000e+00,7.50016937912728e-01
8.50100000000000e-08,7.49999999999858e-02,0.00000000000000e+00,7.50022984129037e-01
8.50300000000000e-08,2.24999999999957e-01,0.00000000000000e+00,7.50018161277681e-01
8.50700000000000e-08,5.24999999999900e-01,0.00000000000000e+00,7.49932711315279e-01
8.51000000000000e-08,7.49999999999957e-01,0.00000000000000e+00,7.49765296102856e-01
8.51080000000000e-08,7.50000000000000e-01,0.00000000000000e+00,7.49720393853207e-01
8.51240000000000e-08,7.50000000000000e-01,0.00000000000000e+00,7.49665192473830e-01
8.51560000000000e-08,7.50000000000000e-01,0.00000000000000e+00,7.49671653136842e-01
8.52200000000000e-08,7.50000000000000e-01,0.00000000000000e+00,7.51123695669336e-01
8.53480000000000e-08,7.50000000000000e-01,0.00000000000000e+00,7.59741090264173e-01
8.56040000000000e-08,7.50000000000000e-01,0.00000000000000e+00,2.16996456455228e-01
8.59848711557912e-08,7.50000000000000e-01,0.00000000000000e+00,-8.68144129399096e-02
8.63839410770165e-08,7.50000000000000e-01,0.00000000000000e+00,7.33261316340019e-02
8.71820809194670e-08,7.50000000000000e-01,0.00000000000000e+00,-5.25570899839367e-02
8.79736398218931e-08,7.50000000000000e-01,0.00000000000000e+00,4.97435165651559e-02
8.95337386950666e-08,7.50000000000000e-01,0.00000000000000e+00,-4.08738463525206e-02
9.00000000000000e-08,7.50000000000000e-01,0.00000000000000e+00,3.32517698219052e-02
9.00100000000000e-08,7.50000000000000e-01,7.49999999999858e-02,2.58431996139868e-02
9.00300000000000e-08,7.50000000000000e-01,2.24999999999957e-01,1.41150548343755e-02
9.00700000000000e-08,7.50000000000000e-01,5.24999999999900e-01,3.46655716452843e-03
9.01000000000000e-08,7.50000000000000e-01,7.49999999999957e-01,1.30916665291461e-03
9.01080000000000e-08,7.50000000000000e-01,7.50000000000000e-01,1.04731245100443e-03
9.01240000000000e-08,7.50000000000000e-01,7.50000000000000e-01,6.18650146214421e-04
9.01560000000000e-08,7.50000000000000e-01,7.50000000000000e-01,2.16053461594350e-04
9.02200000000000e-08,7.50000000000000e-01,7.50000000000000e-01,8.96231796182478e-06
9.03480000000000e-08,7.50000000000000e-01,7.50000000000000e-01,-8.25462588342069e-06
9.06040000000000e-08,7.50000000000000e-01,7.50000000000000e-01,3.19082335314969e-06
9.11159999999999e-08,7.50000000000000e-01,7.50000000000000e-01,-2.31642380396895e-06
9.21399999999999e-08,7.50000000000000e-01,7.50000000000000e-01,1.89195394039669e-06
9.41879999999998e-08,7.50000000000000e-01,7.50000000000000e-01,-2.03234110120426e-06
9.51000000000000e-08,7.50000000000000e-01,7.50000000000000e-01,7.80663960072824e-07
9.51100000000000e-08,6.75000000000076e-01,7.50000000000000e-01,-2.91216983734424e-05
9.51300000000000e-08,5.25000000000105e-01,7.50000000000000e-01,-7.57499995641189e-05
9.51700000000000e-08,2.25000000000162e-01,7.50000000000000e-01,-6.41481161402606e-05
9.52000000000000e-08,1.05027098129540e-13,7.50000000000000e-01,5.35031506257028e-05
9.52080000000000e-08,0.00000000000000e+00,7.50000000000000e-01,1.15161417227512e-04
9.52240000000000e-08,0.00000000000000e+00,7.50000000000000e-01,1.81782864183952e-04
9.52560000000000e-08,0.00000000000000e+00,7.50000000000000e-01,9.85237706756584e-05
9.53200000000000e-08,0.00000000000000e+00,7.50000000000000e-01,-5.91894017083629e-04
9.54480000000000e-08,0.00000000000000e+00,7.50000000000000e-01,-9.07716487957805e-04
9.57040000000000e-08,0.00000000000000e+00,7.50000000000000e-01,1.23246252945164e-04
9.61245824803663e-08,0.00000000000000e+00,7.50000000000000e-01,6.55227150771296e-06
9.66612920369677e-08,0.00000000000000e+00,7.50000000000000e-01,1.10384900693445e-04
9.76358871242296e-08,0.00000000000000e+00,7.50000000000000e-01,-1.33262476067292e-04
9.87709108023334e-08,0.00000000000000e+00,7.50000000000000e-01,1.38836882668745e-04
1.01040958158541e-07,0.00000000000000e+00,7.50000000000000e-01,-1.39133811436685e-04
1.04478083325966e-07,0.00000000000000e+00,7.50000000000000e-01,1.37544357813345e-04
1.05000000000000e-07,0.00000000000000e+00,7.50000000000000e-01,-1.20276243503912e-04
1.05010000000000e-07,7.49999999999858e-02,7.50000000000000e-01,-5.75503455050586e-05
1.05030000000000e-07,2.24999999999957e-01,7.50000000000000e-01,4.89306313902690e-05
1.05070000000000e-07,5.24999999999900e-01,7.50000000000000e-01,8.02549019527504e-06
1.05100000000000e-07,7.49999999999957e-01,7.50000000000000e-01,-1.50797977261351e-03
1.05108000000000e-07,7.50000000000000e-01,7.50000000000000e-01,-2.27940307291156e-03
1.05124000000000e-07,7.50000000000000e-01,7.50000000000000e-01,-3.72160142967215e-03
1.05156000000000e-07,7.50000000000000e-01,7.50000000000000e-01,-5.37525478293252e-03
1.05220000000000e-07,7.50000000000000e-01,7.50000000000000e-01,2.33442942530345e-02
1.05348000000000e-07,7.50000000000000e-01,7.50000000000000e-01,3.28110438121799e-01
1.05604000000000e-07,7.50000000000000e-01,7.50000000000000e-01,7.53627080632553e-01
1.05998599755722e-07,7.50000000000000e-01,7.50000000000000e-01,7.45640193424680e-01
