Time,v(clk),v(data),v(out),v(reset)
1.00000000000000e-08,7.50000000000000e-01,0.00000000000000e+00,6.27825115012866e-06,0.00000000000000e+00
1.00100000000000e-08,7.50000000000000e-01,7.49999999999982e-02,7.72141835660156e-06,0.00000000000000e+00
1.00300000000000e-08,7.50000000000000e-01,2.24999999999995e-01,8.27515471217566e-06,0.00000000000000e+00
1.00700000000000e-08,7.50000000000000e-01,5.24999999999987e-01,7.13810938979959e-06,0.00000000000000e+00
1.01000000000000e-08,7.50000000000000e-01,7.49999999999994e-01,7.22415530249321e-06,0.00000000000000e+00
1.01080000000000e-08,7.50000000000000e-01,7.50000000000000e-01,7.53431138805771e-06,0.00000000000000e+00
1.01240000000000e-08,7.50000000000000e-01,7.50000000000000e-01,8.51841407303877e-06,0.00000000000000e+00
1.01560000000000e-08,7.50000000000000e-01,7.50000000000000e-01,9.89107895196101e-06,0.00000000000000e+00
1.02200000000000e-08,7.50000000000000e-01,7.50000000000000e-01,9.14693131847527e-06,0.00000000000000e+00
1.03480000000000e-08,7.50000000000000e-01,7.50000000000000e-01,8.69673300897544e-06,0.00000000000000e+00
1.06040000000000e-08,7.50000000000000e-01,7.50000000000000e-01,8.17929862975686e-06,0.00000000000000e+00
1.11160000000000e-08,7.50000000000000e-01,7.50000000000000e-01,8.19756524407175e-06,0.00000000000000e+00
1.21400000000000e-08,7.50000000000000e-01,7.50000000000000e-01,7.53236516302241e-06,0.00000000000000e+00
1.41880000000000e-08,7.50000000000000e-01,7.50000000000000e-01,7.22440840310659e-06,0.00000000000000e+00
1.51000000000000e-08,7.50000000000000e-01,7.50000000000000e-01,6.77169084399576e-06,0.00000000000000e+00
1.51100000000000e-08,6.74999999999989e-01,7.50000000000000e-01,1.72052310953755e-04,7.50000000000106e-02
1.51300000000000e-08,5.24999999999993e-01,7.50000000000000e-01,2.92056267611807e-04,2.25000000000007e-01
1.51700000000000e-08,2.25000000000000e-01,7.50000000000000e-01,2.58583020304320e-04,5.25000000000000e-01
1.52000000000000e-08,0.00000000000000e+00,7.50000000000000e-01,3.39059529455857e-04,7.50000000000000e-01
1.52080000000000e-08,0.00000000000000e+00,7.50000000000000e-01,3.30617988300683e-04,7.50000000000000e-01
1.52240000000000e-08,0.00000000000000e+00,7.50000000000000e-01,3.05705734647804e-04,7.50000000000000e-01
1.52560000000000e-08,0.00000000000000e+00,7.50000000000000e-01,1.60276401690904e-04,7.50000000000000e-01
1.53200000000000e-08,0.00000000000000e+00,7.50000000000000e-01,-2.99523718246916e-04,7.50000000000000e-01
1.54480000000000e-08,0.00000000000000e+00,7.50000000000000e-01,-1.87895762378432e-04,7.50000000000000e-01
1.56733505006647e-08,0.00000000000000e+00,7.50000000000000e-01,-7.32278645583784e-05,7.50000000000000e-01
1.60063312415069e-08,0.00000000000000e+00,7.50000000000000e-01,3.15396649319330e-06,7.50000000000000e-01
1.64647191260540e-08,0.00000000000000e+00,7.50000000000000e-01,1.99769285034804e-04,7.50000000000000e-01
1.73624891005460e-08,0.00000000000000e+00,7.50000000000000e-01,-2.23784055243823e-04,7.50000000000000e-01
1.83805795311959e-08,0.00000000000000e+00,7.50000000000000e-01,2.47406973920223e-04,7.50000000000000e-01
2.04167603924956e-08,0.00000000000000e+00,7.50000000000000e-01,-2.37795303192501e-04,7.50000000000000e-01
2.36619087178138e-08,0.00000000000000e+00,7.50000000000000e-01,2.44865492131075e-04,7.50000000000000e-01
2.50000000000000e-08,0.00000000000000e+00,7.50000000000000e-01,-2.29736166376375e-04,7.50000000000000e-01
2.50100000000000e-08,7.49999999999858e-02,7.50000000000000e-01,-6.44562451102698e-05,7.50000000000000e-01
2.50300000000000e-08,2.25000000000007e-01,7.50000000000000e-01,1.94932793903896e-04,7.50000000000000e-01
2.50700000000000e-08,5.25000000000000e-01,7.50000000000000e-01,4.78779233692640e-04,7.50000000000000e-01
2.51000000000000e-08,7.50000000000000e-01,7.50000000000000e-01,6.48570728091144e-05,7.50000000000000e-01
2.51080000000000e-08,7.50000000000000e-01,7.50000000000000e-01,-3.38224726403144e-04,7.50000000000000e-01
2.51240000000000e-08,7.50000000000000e-01,7.50000000000000e-01,-1.25997611331616e-03,7.50000000000000e-01
2.51560000000000e-08,7.50000000000000e-01,7.50000000000000e-01,-3.23760497188740e-03,7.50000000000000e-01
2.52200000000000e-08,7.50000000000000e-01,7.50000000000000e-01,-5.47362783373833e-03,7.50000000000000e-01
2.53480000000000e-08,7.50000000000000e-01,7.50000000000000e-01,7.07560183744246e-02,7.50000000000000e-01
2.56040000000000e-08,7.50000000000000e-01,7.50000000000000e-01,6.60423743277067e-01,7.50000000000000e-01
2.61160000000000e-08,7.50000000000000e-01,7.50000000000000e-01,7.72145047365310e-01,7.50000000000000e-01
2.66015634771758e-08,7.50000000000000e-01,7.50000000000000e-01,7.28784309547589e-01,7.50000000000000e-01
2.75726904315275e-08,7.50000000000000e-01,7.50000000000000e-01,7.69494757368984e-01,7.50000000000000e-01
2.90611965626859e-08,7.50000000000000e-01,7.50000000000000e-01,7.30151225378305e-01,7.50000000000000e-01
3.20382088250026e-08,7.50000000000000e-01,7.50000000000000e-01,7.68748136765223e-01,7.50000000000000e-01
3.51000000000000e-08,7.49999999999963e-01,7.50000000000000e-01,7.30679396780273e-01,7.50000000000000e-01
3.51100000000000e-08,6.74999999999977e-01,7.50000000000000e-01,7.40234540372085e-01,7.50000000000000e-01
3.51300000000000e-08,5.24999999999956e-01,7.50000000000000e-01,7.49827286188568e-01,7.50000000000000e-01
3.51700000000000e-08,2.24999999999963e-01,7.50000000000000e-01,7.51080963699934e-01,7.50000000000000e-01
3.52000000000000e-08,0.00000000000000e+00,7.50000000000000e-01,7.53026707947548e-01,7.50000000000000e-01
3.52080000000000e-08,0.00000000000000e+00,7.50000000000000e-01,7.52974000861612e-01,7.50000000000000e-01
3.52240000000000e-08,0.00000000000000e+00,7.50000000000000e-01,7.50993102640263e-01,7.50000000000000e-01
3.52560000000000e-08,0.00000000000000e+00,7.50000000000000e-01,7.39316020779767e-01,7.50000000000000e-01
3.53200000000000e-08,0.00000000000000e+00,7.50000000000000e-01,7.24479140890186e-01,7.50000000000000e-01
3.54480000000000e-08,0.00000000000000e+00,7.50000000000000e-01,7.43882694308149e-01,7.50000000000000e-01
3.57040000000000e-08,0.00000000000000e+00,7.50000000000000e-01,7.51798131279831e-01,7.50000000000000e-01
3.60226152478164e-08,0.00000000000000e+00,7.50000000000000e-01,7.47724323069520e-01,7.50000000000000e-01
3.66598457434493e-08,0.00000000000000e+00,7.50000000000000e-01,7.51390036816906e-01,7.50000000000000e-01
3.79343067347150e-08,0.00000000000000e+00,7.50000000000000e-01,7.48379541870839e-01,7.50000000000000e-01
4.04832287172463e-08,0.00000000000000e+00,7.50000000000000e-01,7.51382125177763e-01,7.50000000000000e-01
4.42832287172463e-08,0.00000000000000e+00,7.50000000000000e-01,7.48541694512577e-01,7.50000000000000e-01
4.50000000000000e-08,0.00000000000000e+00,7.50000000000000e-01,7.51222420327975e-01,7.50000000000000e-01
4.50100000000000e-08,7.49999999999858e-02,7.50000000000000e-01,7.50684559923395e-01,6.75000000000014e-01
4.50300000000000e-08,2.25000000000007e-01,7.50000000000000e-01,7.50023510185526e-01,5.24999999999993e-01
4.50700000000000e-08,5.25000000000000e-01,7.50000000000000e-01,7.53351652337212e-01,2.25000000000000e-01
4.51000000000000e-08,7.50000000000000e-01,7.50000000000000e-01,7.61991454678458e-01,0.00000000000000e+00
4.51080000000000e-08,7.50000000000000e-01,7.50000000000000e-01,7.64954744121010e-01,0.00000000000000e+00
4.51240000000000e-08,7.50000000000000e-01,7.50000000000000e-01,7.71022334463626e-01,0.00000000000000e+00
4.51560000000000e-08,7.50000000000000e-01,7.50000000000000e-01,7.82590385572190e-01,0.00000000000000e+00
4.52200000000000e-08,7.50000000000000e-01,7.50000000000000e-01,6.83492553903912e-01,0.00000000000000e+00
4.53480000000000e-08,7.50000000000000e-01,7.50000000000000e-01,2.55827651316925e-01,0.00000000000000e+00
4.55652130528160e-08,7.50000000000000e-01,7.50000000000000e-01,-1.69938133302151e-02,0.00000000000000e+00
4.58981208904804e-08,7.50000000000000e-01,7.50000000000000e-01,9.18614242462741e-03,0.00000000000000e+00
4.64663599933270e-08,7.50000000000000e-01,7.50000000000000e-01,-6.59662693746951e-03,0.00000000000000e+00
4.72370699942433e-08,7.50000000000000e-01,7.50000000000000e-01,5.54040554837519e-03,0.00000000000000e+00
4.86732306477173e-08,7.50000000000000e-01,7.50000000000000e-01,-4.94570296836386e-03,0.00000000000000e+00
5.01000000000000e-08,7.50000000000000e-01,7.49999999999957e-01,4.62125593181354e-03,0.00000000000000e+00
5.03872321306948e-08,7.50000000000000e-01,7.50000000000000e-01,4.30956048590168e-04,0.00000000000000e+00
5.09616963920844e-08,7.50000000000000e-01,7.50000000000000e-01,-2.98000201659456e-04,0.00000000000000e+00
5.21106249148635e-08,7.50000000000000e-01,7.50000000000000e-01,2.65236755731268e-04,0.00000000000000e+00
5.44084819604219e-08,7.50000000000000e-01,7.50000000000000e-01,-2.33735743060156e-04,0.00000000000000e+00
5.51000000000000e-08,7.50000000000000e-01,7.50000000000000e-01,1.85150872659244e-04,0.00000000000000e+00
5.51100000000000e-08,6.75000000000027e-01,7.50000000000000e-01,3.00331775360124e-04,7.49999999999734e-02
5.51300000000000e-08,5.25000000000005e-01,7.50000000000000e-01,3.62083518574030e-04,2.24999999999995e-01
5.51700000000000e-08,2.25000000000013e-01,7.50000000000000e-01,2.95448820791619e-04,5.24999999999987e-01
5.52000000000000e-08,0.00000000000000e+00,7.50000000000000e-01,3.47497650270007e-04,7.50000000000000e-01
5.52080000000000e-08,0.00000000000000e+00,7.50000000000000e-01,3.27841649013283e-04,7.50000000000000e-01
5.52240000000000e-08,0.00000000000000e+00,7.50000000000000e-01,2.36021605329151e-04,7.50000000000000e-01
5.52560000000000e-08,0.00000000000000e+00,7.50000000000000e-01,-4.50183089652723e-04,7.50000000000000e-01
5.53200000000000e-08,0.00000000000000e+00,7.50000000000000e-01,-1.59572851247748e-03,7.50000000000000e-01
5.54480000000000e-08,0.00000000000000e+00,7.50000000000000e-01,-7.29747578895268e-04,7.50000000000000e-01
5.56624240809436e-08,0.00000000000000e+00,7.50000000000000e-01,3.63876836165265e-04,7.50000000000000e-01
5.59995773770901e-08,0.00000000000000e+00,7.50000000000000e-01,-4.00070196067682e-04,7.50000000000000e-01
5.64446601738888e-08,0.00000000000000e+00,7.50000000000000e-01,3.53589689632641e-04,7.50000000000000e-01
5.73348257674860e-08,0.00000000000000e+00,7.50000000000000e-01,-2.76575715615774e-04,7.50000000000000e-01
5.83133831160249e-08,0.00000000000000e+00,7.50000000000000e-01,2.35854006983401e-04,7.50000000000000e-01
6.02704978131027e-08,0.00000000000000e+00,7.50000000000000e-01,-2.03187426851111e-04,7.50000000000000e-01
6.34594506848642e-08,0.00000000000000e+00,7.50000000000000e-01,1.99473619390411e-04,7.50000000000000e-01
6.50000000000000e-08,0.00000000000000e+00,7.50000000000000e-01,-1.64822865390341e-04,7.50000000000000e-01
6.50100000000000e-08,7.49999999999858e-02,7.50000000000000e-01,-4.04409088523155e-05,7.50000000000000e-01
6.50300000000000e-08,2.24999999999957e-01,7.50000000000000e-01,1.65266259396751e-04,7.50000000000000e-01
6.50700000000000e-08,5.24999999999900e-01,7.50000000000000e-01,4.41192281448247e-04,7.50000000000000e-01
6.51000000000000e-08,7.49999999999957e-01,7.50000000000000e-01,4.77322049798473e-05,7.50000000000000e-01
6.51080000000000e-08,7.50000000000000e-01,7.50000000000000e-01,-3.51046594069718e-04,7.50000000000000e-01
6.51240000000000e-08,7.50000000000000e-01,7.50000000000000e-01,-1.26448054855575e-03,7.50000000000000e-01
6.51560000000000e-08,7.50000000000000e-01,7.50000000000000e-01,-3.23577908056244e-03,7.50000000000000e-01
6.52200000000000e-08,7.50000000000000e-01,7.50000000000000e-01,-5.49092208824337e-03,7.50000000000000e-01
6.53480000000000e-08,7.50000000000000e-01,7.50000000000000e-01,6.97783512841884e-02,7.50000000000000e-01
6.56040000000000e-08,7.50000000000000e-01,7.50000000000000e-01,6.59744046594856e-01,7.50000000000000e-01
6.61159999999999e-08,7.50000000000000e-01,7.50000000000000e-01,7.72250214206045e-01,7.50000000000000e-01
6.66009712847881e-08,7.50000000000000e-01,7.50000000000000e-01,7.28689001984359e-01,7.50000000000000e-01
6.75709138543646e-08,7.50000000000000e-01,7.50000000000000e-01,7.69580861041230e-01,7.50000000000000e-01
6.90604707777817e-08,7.50000000000000e-01,7.50000000000000e-01,7.30061910220680e-01,7.50000000000000e-01
7.20395846246160e-08,7.50000000000000e-01,7.50000000000000e-01,7.68831282197587e-01,7.50000000000000e-01
7.51000000000000e-08,7.50000000000000e-01,7.50000000000000e-01,7.30592228169517e-01,7.50000000000000e-01
7.51100000000000e-08,6.75000000000076e-01,7.50000000000000e-01,7.40191008425912e-01,7.50000000000000e-01
7.51300000000000e-08,5.25000000000105e-01,7.50000000000000e-01,7.49827410735715e-01,7.50000000000000e-01
7.51700000000000e-08,2.25000000000162e-01,7.50000000000000e-01,7.51081094793191e-01,7.50000000000000e-01
7.52000000000000e-08,1.05027098129540e-13,7.50000000000000e-01,7.53026619198184e-01,7.50000000000000e-01
7.52080000000000e-08,0.00000000000000e+00,7.50000000000000e-01,7.52973837152988e-01,7.50000000000000e-01
7.52240000000000e-08,0.00000000000000e+00,7.50000000000000e-01,7.50992716884979e-01,7.50000000000000e-01
7.52560000000000e-08,0.00000000000000e+00,7.50000000000000e-01,7.39315188819182e-01,7.50000000000000e-01
7.53200000000000e-08,0.00000000000000e+00,7.50000000000000e-01,7.24478478987975e-01,7.50000000000000e-01
7.54480000000000e-08,0.00000000000000e+00,7.50000000000000e-01,7.43883414081536e-01,7.50000000000000e-01
7.57040000000000e-08,0.00000000000000e+00,7.50000000000000e-01,7.51797723645665e-01,7.50000000000000e-01
7.60226167085249e-08,0.00000000000000e+00,7.50000000000000e-01,7.47724638695381e-01,7.50000000000000e-01
7.66598501255748e-08,0.00000000000000e+00,7.50000000000000e-01,7.51389745048677e-01,7.50000000000000e-01
7.79343169596745e-08,0.00000000000000e+00,7.50000000000000e-01,7.48379819004687e-01,7.50000000000000e-01
8.04832506278739e-08,0.00000000000000e+00,7.50000000000000e-01,7.51381853652801e-01,7.50000000000000e-01
8.42832506278739e-08,0.00000000000000e+00,7.50000000000000e-01,7.48541960963860e-01,7.50000000000000e-01
8.50000000000000e-08,0.00000000000000e+00,7.50000000000000e-01,7.51222167884062e-01,7.50000000000000e-01
8.50100000000000e-08,7.49999999999858e-02,7.50000000000000e-01,7.50684445556667e-01,6.75000000000014e-01
8.50300000000000e-08,2.24999999999957e-01,7.50000000000000e-01,7.50023469928340e-01,5.25000000000043e-01
8.50700000000000e-08,5.24999999999900e-01,7.50000000000000e-01,7.53351632705284e-01,2.25000000000100e-01
8.51000000000000e-08,7.49999999999957e-01,7.50000000000000e-01,7.61991495083313e-01,4.29656310529936e-14
8.51080000000000e-08,7.50000000000000e-01,7.50000000000000e-01,7.64954776009167e-01,0.00000000000000e+00
8.51240000000000e-08,7.50000000000000e-01,7.50000000000000e-01,7.71022346253894e-01,0.00000000000000e+00
8.51560000000000e-08,7.50000000000000e-01,7.50000000000000e-01,7.82590378327410e-01,0.00000000000000e+00
8.52200000000000e-08,7.50000000000000e-01,7.50000000000000e-01,6.83492597852068e-01,0.00000000000000e+00
8.53480000000000e-08,7.50000000000000e-01,7.50000000000000e-01,2.55827791033734e-01,0.00000000000000e+00
8.55651205571448e-08,7.50000000000000e-01,7.50000000000000e-01,-1.69516665077215e-02,0.00000000000000e+00
8.58980662457324e-08,7.50000000000000e-01,7.50000000000000e-01,9.16801603853755e-03,0.00000000000000e+00
8.64657944758735e-08,7.50000000000000e-01,7.50000000000000e-01,-6.58398190293352e-03,0.00000000000000e+00
8.72366290089433e-08,7.50000000000000e-01,7.50000000000000e-01,5.53141055948944e-03,0.00000000000000e+00
8.86719517809204e-08,7.50000000000000e-01,7.50000000000000e-01,-4.93806875874744e-03,0.00000000000000e+00
9.01000000000000e-08,7.50000000000000e-01,7.49999999999957e-01,4.61511886370554e-03,0.00000000000000e+00
9.03870645543954e-08,7.50000000000000e-01,7.50000000000000e-01,4.30071127859342e-04,0.00000000000000e+00
9.09611936631862e-08,7.50000000000000e-01,7.50000000000000e-01,-2.97373885936252e-04,0.00000000000000e+00
9.21094518807679e-08,7.50000000000000e-01,7.50000000000000e-01,2.64711704231479e-04,0.00000000000000e+00
9.44059683159313e-08,7.50000000000000e-01,7.50000000000000e-01,-2.33258914105565e-04,0.00000000000000e+00
9.51000000000000e-08,7.50000000000000e-01,7.50000000000000e-01,1.85014912885043e-04,0.00000000000000e+00
9.51100000000000e-08,6.75000000000076e-01,7.50000000000000e-01,3.00198926709502e-04,7.49999999999237e-02
9.51300000000000e-08,5.25000000000105e-01,7.50000000000000e-01,3.61972876668670e-04,2.24999999999895e-01
9.51700000000000e-08,2.25000000000162e-01,7.50000000000000e-01,2.95389829861901e-04,5.24999999999838e-01
9.52000000000000e-08,1.05027098129540e-13,7.50000000000000e-01,3.47459312727755e-04,7.49999999999895e-01
9.52080000000000e-08,0.00000000000000e+00,7.50000000000000e-01,3.27807000651228e-04,7.50000000000000e-01
9.52240000000000e-08,0.00000000000000e+00,7.50000000000000e-01,2.35992204080354e-04,7.50000000000000e-01
9.52560000000000e-08,0.00000000000000e+00,7.50000000000000e-01,-4.50211312384208e-04,7.50000000000000e-01
9.53200000000000e-08,0.00000000000000e+00,7.50000000000000e-01,-1.59576474893401e-03,7.50000000000000e-01
9.54480000000000e-08,0.00000000000000e+00,7.50000000000000e-01,-7.29766650671031e-04,7.50000000000000e-01
9.56624218067005e-08,0.00000000000000e+00,7.50000000000000e-01,3.63890352286674e-04,7.50000000000000e-01
9.59995762016504e-08,0.00000000000000e+00,7.50000000000000e-01,-4.00081187135033e-04,7.50000000000000e-01
9.64446567586247e-08,0.00000000000000e+00,7.50000000000000e-01,3.53592576224256e-04,7.50000000000000e-01
9.73348178725734e-08,0.00000000000000e+00,7.50000000000000e-01,-2.76575721384795e-04,7.50000000000000e-01
9.83133671236816e-08,0.00000000000000e+00,7.50000000000000e-01,2.35852428977702e-04,7.50000000000000e-01
1.00270465625898e-07,0.00000000000000e+00,7.50000000000000e-01,-2.03185241780789e-04,7.50000000000000e-01
1.03459403902874e-07,0.00000000000000e+00,7.50000000000000e-01,1.99471209899244e-04,7.50000000000000e-01
1.05000000000000e-07,0.00000000000000e+00,7.50000000000000e-01,-1.64820867277293e-04,7.50000000000000e-01
1.05010000000000e-07,7.49999999999858e-02,7.50000000000000e-01,-4.04394723674401e-05,7.50000000000000e-01
1.05030000000000e-07,2.24999999999957e-01,7.50000000000000e-01,1.65266322108296e-04,7.50000000000000e-01
1.05070000000000e-07,5.24999999999900e-01,7.50000000000000e-01,4.41191406136708e-04,7.50000000000000e-01
1.05100000000000e-07,7.49999999999957e-01,7.50000000000000e-01,4.77309865349745e-05,7.50000000000000e-01
1.05108000000000e-07,7.50000000000000e-01,7.50000000000000e-01,-3.51048065508633e-04,7.50000000000000e-01
1.05124000000000e-07,7.50000000000000e-01,7.50000000000000e-01,-1.26448231355887e-03,7.50000000000000e-01
1.05156000000000e-07,7.50000000000000e-01,7.50000000000000e-01,-3.23578071973355e-03,7.50000000000000e-01
1.05220000000000e-07,7.50000000000000e-01,7.50000000000000e-01,-5.49092248026805e-03,7.50000000000000e-01
1.05348000000000e-07,7.50000000000000e-01,7.50000000000000e-01,6.97783730067997e-02,7.50000000000000e-01
1.05604000000000e-07,7.50000000000000e-01,7.50000000000000e-01,6.59744061973203e-01,7.50000000000000e-01
1.06116000000000e-07,7.50000000000000e-01,7.50000000000000e-01,7.72250211875030e-01,7.50000000000000e-01
1.06600971298298e-07,7.50000000000000e-01,7.50000000000000e-01,7.28689004096833e-01,7.50000000000000e-01
1.07570913894894e-07,7.50000000000000e-01,7.50000000000000e-01,7.69580859135869e-01,7.50000000000000e-01
1.09060470794296e-07,7.50000000000000e-01,7.50000000000000e-01,7.30061912207906e-01,7.50000000000000e-01
1.12039584593099e-07,7.50000000000000e-01,7.50000000000000e-01,7.68831280356476e-01,7.50000000000000e-01
1.15100000000000e-07,7.50000000000000e-01,7.50000000000000e-01,7.30592230117086e-01,7.50000000000000e-01
1.15110000000000e-07,6.75000000000076e-01,7.50000000000000e-01,7.40191009393142e-01,7.50000000000000e-01
1.15130000000000e-07,5.25000000000105e-01,7.50000000000000e-01,7.49827410734975e-01,7.50000000000000e-01
1.15170000000000e-07,2.25000000000162e-01,7.50000000000000e-01,7.51081094790043e-01,7.50000000000000e-01
