Time,v(clk),v(data),v(out)
1.00000000000000e-08,6.50000000000000e-01,0.00000000000000e+00,2.85114575481497e-05
1.00100000000000e-08,6.50000000000000e-01,6.49999999999984e-02,2.38156219362073e-05
1.00300000000000e-08,6.50000000000000e-01,1.94999999999995e-01,1.75006161087579e-05
1.00700000000000e-08,6.50000000000000e-01,4.54999999999989e-01,1.12661211821713e-05
1.01000000000000e-08,6.50000000000000e-01,6.49999999999995e-01,8.85525415535160e-06
1.01080000000000e-08,6.50000000000000e-01,6.50000000000000e-01,8.36775856989658e-06
1.01240000000000e-08,6.50000000000000e-01,6.50000000000000e-01,8.78685295254561e-06
1.01560000000000e-08,6.50000000000000e-01,6.50000000000000e-01,1.20691165035672e-05
1.02200000000000e-08,6.50000000000000e-01,6.50000000000000e-01,1.59836866388471e-05
1.03480000000000e-08,6.50000000000000e-01,6.50000000000000e-01,8.74705794213365e-06
1.06040000000000e-08,6.50000000000000e-01,6.50000000000000e-01,1.06849431442801e-05
1.11160000000000e-08,6.50000000000000e-01,6.50000000000000e-01,9.96636334846084e-06
1.21400000000000e-08,6.50000000000000e-01,6.50000000000000e-01,1.04031646173926e-05
1.41880000000000e-08,6.50000000000000e-01,6.50000000000000e-01,9.05839839419886e-06
1.51000000000000e-08,6.50000000000000e-01,6.50000000000000e-01,9.87204452863096e-06
1.51100000000000e-08,5.84999999999991e-01,6.50000000000000e-01,-4.83550794553242e-05
1.51300000000000e-08,4.54999999999994e-01,6.50000000000000e-01,-1.31190100554901e-04
1.51700000000000e-08,1.95000000000000e-01,6.50000000000000e-01,-7.41201532832581e-05
1.52000000000000e-08,0.00000000000000e+00,6.50000000000000e-01,1.78607229921697e-04
1.52080000000000e-08,0.00000000000000e+00,6.50000000000000e-01,2.89847266099395e-04
1.52240000000000e-08,0.00000000000000e+00,6.50000000000000e-01,3.97275130054060e-04
1.52560000000000e-08,0.00000000000000e+00,6.50000000000000e-01,2.34203696517978e-04
1.53200000000000e-08,0.00000000000000e+00,6.50000000000000e-01,-2.28618865650274e-04
1.54480000000000e-08,0.00000000000000e+00,6.50000000000000e-01,-2.19295993519577e-04
1.57040000000000e-08,0.00000000000000e+00,6.50000000000000e-01,-7.57213979224181e-05
1.60745776448777e-08,0.00000000000000e+00,6.50000000000000e-01,8.51913254720071e-05
1.66123559572179e-08,0.00000000000000e+00,6.50000000000000e-01,1.10708804695546e-04
1.76129854433133e-08,0.00000000000000e+00,6.50000000000000e-01,-1.42766784149410e-04
1.88780390138833e-08,0.00000000000000e+00,6.50000000000000e-01,1.81922094020150e-04
2.13795300764414e-08,0.00000000000000e+00,6.50000000000000e-01,-1.74385018906020e-04
2.50000000000000e-08,0.00000000000000e+00,6.50000000000000e-01,1.93719203845516e-04
2.50100000000000e-08,6.49999999999877e-02,6.50000000000000e-01,2.47308917243221e-04
2.50300000000000e-08,1.95000000000006e-01,6.50000000000000e-01,3.17971279062294e-04
2.50700000000000e-08,4.55000000000000e-01,6.50000000000000e-01,3.36249289255672e-04
2.51000000000000e-08,6.50000000000000e-01,6.50000000000000e-01,-5.29517788337382e-04
2.51080000000000e-08,6.50000000000000e-01,6.50000000000000e-01,-1.12317665218134e-03
2.51240000000000e-08,6.50000000000000e-01,6.50000000000000e-01,-2.35629140964867e-03
2.51560000000000e-08,6.50000000000000e-01,6.50000000000000e-01,-4.37102435949074e-03
2.52200000000000e-08,6.50000000000000e-01,6.50000000000000e-01,-2.44528597278012e-03
2.53480000000000e-08,6.50000000000000e-01,6.50000000000000e-01,1.80039808595044e-01
2.56040000000000e-08,6.50000000000000e-01,6.50000000000000e-01,6.27734704372776e-01
2.60959701603855e-08,6.50000000000000e-01,6.50000000000000e-01,6.57372012825735e-01
2.66780139153402e-08,6.50000000000000e-01,6.50000000000000e-01,6.42677423279528e-01
2.76213922294132e-08,6.50000000000000e-01,6.50000000000000e-01,6.56049524359010e-01
2.88785561746500e-08,6.50000000000000e-01,6.50000000000000e-01,6.43795636804488e-01
3.13928840651238e-08,6.50000000000000e-01,6.50000000000000e-01,6.55611823180382e-01
3.51000000000000e-08,6.49999999999968e-01,6.50000000000000e-01,6.44142370437290e-01
3.51100000000000e-08,5.84999999999980e-01,6.50000000000000e-01,6.46352475708922e-01
3.51300000000000e-08,4.54999999999962e-01,6.50000000000000e-01,6.49042553266296e-01
3.51700000000000e-08,1.94999999999968e-01,6.50000000000000e-01,6.50629777489698e-01
3.52000000000000e-08,0.00000000000000e+00,6.50000000000000e-01,6.52276714482619e-01
3.52080000000000e-08,0.00000000000000e+00,6.50000000000000e-01,6.52638480671618e-01
3.52240000000000e-08,0.00000000000000e+00,6.50000000000000e-01,6.52823265430517e-01
3.52560000000000e-08,0.00000000000000e+00,6.50000000000000e-01,6.49397474221529e-01
3.53200000000000e-08,0.00000000000000e+00,6.50000000000000e-01,6.32743869760392e-01
3.54480000000000e-08,0.00000000000000e+00,6.50000000000000e-01,6.31660889504315e-01
3.57040000000000e-08,0.00000000000000e+00,6.50000000000000e-01,6.53631474152819e-01
3.60994344266057e-08,0.00000000000000e+00,6.50000000000000e-01,6.45978731771364e-01
3.67392235256787e-08,0.00000000000000e+00,6.50000000000000e-01,6.52572956856601e-01
3.80188017238248e-08,0.00000000000000e+00,6.50000000000000e-01,6.47074316369406e-01
4.05779581201169e-08,0.00000000000000e+00,6.50000000000000e-01,6.52427061598175e-01
4.43779581201169e-08,0.00000000000000e+00,6.50000000000000e-01,6.47339942786907e-01
4.50000000000000e-08,0.00000000000000e+00,6.50000000000000e-01,6.51990500105231e-01
4.50100000000000e-08,6.49999999999877e-02,6.50000000000000e-01,6.51452538454596e-01
4.50300000000000e-08,1.95000000000006e-01,6.50000000000000e-01,6.50657772550094e-01
4.50700000000000e-08,4.55000000000000e-01,6.50000000000000e-01,6.50068715083646e-01
4.51000000000000e-08,6.50000000000000e-01,6.50000000000000e-01,6.49518244105656e-01
4.51080000000000e-08,6.50000000000000e-01,5.98000000000027e-01,6.49204253872169e-01
4.51240000000000e-08,6.50000000000000e-01,4.93999999999995e-01,6.48595414095459e-01
4.51560000000000e-08,6.50000000000000e-01,2.86000000000017e-01,6.47756710439713e-01
4.52000000000000e-08,6.50000000000000e-01,3.71924713249427e-14,6.47245570899956e-01
4.52064000000000e-08,6.50000000000000e-01,0.00000000000000e+00,6.47215825946320e-01
4.52192000000000e-08,6.50000000000000e-01,0.00000000000000e+00,6.47159609389879e-01
4.52448000000000e-08,6.50000000000000e-01,0.00000000000000e+00,6.47172928405299e-01
4.52960000000000e-08,6.50000000000000e-01,0.00000000000000e+00,6.47718731151208e-01
4.53984000000000e-08,6.50000000000000e-01,0.00000000000000e+00,6.48949742593936e-01
4.56032000000000e-08,6.50000000000000e-01,0.00000000000000e+00,6.49890802332057e-01
4.59085299066825e-08,6.50000000000000e-01,0.00000000000000e+00,6.49986852419492e-01
4.63415134587707e-08,6.50000000000000e-01,0.00000000000000e+00,6.50021029516696e-01
4.72074805629471e-08,6.50000000000000e-01,0.00000000000000e+00,6.49979604366895e-01
4.87677942359656e-08,6.50000000000000e-01,0.00000000000000e+00,6.50019802855555e-01
5.18315659863675e-08,6.50000000000000e-01,0.00000000000000e+00,6.49980572543739e-01
5.51000000000000e-08,6.50000000000000e-01,0.00000000000000e+00,6.50019047000619e-01
5.51100000000000e-08,5.85000000000023e-01,0.00000000000000e+00,6.49960275762457e-01
5.51300000000000e-08,4.55000000000005e-01,0.00000000000000e+00,6.49896195111294e-01
5.51700000000000e-08,1.95000000000011e-01,0.00000000000000e+00,6.50636723732089e-01
5.52000000000000e-08,0.00000000000000e+00,0.00000000000000e+00,6.52469285984136e-01
5.52080000000000e-08,0.00000000000000e+00,0.00000000000000e+00,6.52928050516979e-01
5.52240000000000e-08,0.00000000000000e+00,0.00000000000000e+00,6.53585945464604e-01
5.52560000000000e-08,0.00000000000000e+00,0.00000000000000e+00,6.54227716539877e-01
5.53200000000000e-08,0.00000000000000e+00,0.00000000000000e+00,6.53923724917366e-01
5.54480000000000e-08,0.00000000000000e+00,0.00000000000000e+00,6.49238550866472e-01
5.56802574694398e-08,0.00000000000000e+00,0.00000000000000e+00,6.48809302416853e-01
5.59864750164647e-08,0.00000000000000e+00,0.00000000000000e+00,6.49697949145267e-01
5.65989101105145e-08,0.00000000000000e+00,0.00000000000000e+00,6.49393814916633e-01
5.72761646023373e-08,0.00000000000000e+00,0.00000000000000e+00,6.49958766797156e-01
5.86306735859829e-08,0.00000000000000e+00,0.00000000000000e+00,6.49588021060730e-01
6.13396915532740e-08,0.00000000000000e+00,0.00000000000000e+00,6.50067653010418e-01
6.50000000000000e-08,0.00000000000000e+00,0.00000000000000e+00,6.49653542851940e-01
6.50100000000000e-08,6.49999999999877e-02,0.00000000000000e+00,6.49783365651943e-01
6.50300000000000e-08,1.94999999999963e-01,0.00000000000000e+00,6.49928551944462e-01
6.50700000000000e-08,4.54999999999914e-01,0.00000000000000e+00,6.49899000941541e-01
6.51000000000000e-08,6.49999999999963e-01,0.00000000000000e+00,6.49757796666684e-01
6.51080000000000e-08,6.50000000000000e-01,0.00000000000000e+00,6.49708707487983e-01
6.51240000000000e-08,6.50000000000000e-01,0.00000000000000e+00,6.49639228251893e-01
6.51560000000000e-08,6.50000000000000e-01,0.00000000000000e+00,6.49629008963295e-01
6.52200000000000e-08,6.50000000000000e-01,0.00000000000000e+00,6.50061096787638e-01
6.53480000000000e-08,6.50000000000000e-01,0.00000000000000e+00,6.56667255482224e-01
6.56040000000000e-08,6.50000000000000e-01,0.00000000000000e+00,2.67470069125562e-01
6.56582271008887e-08,6.50000000000000e-01,0.00000000000000e+00,1.36607069663829e-01
6.57666813026662e-08,6.50000000000000e-01,0.00000000000000e+00,3.23045074505138e-03
6.59835897062212e-08,6.50000000000000e-01,0.00000000000000e+00,-1.43155277176689e-03
6.64174065133311e-08,6.50000000000000e-01,0.00000000000000e+00,9.96066168168643e-04
6.69623205086288e-08,6.50000000000000e-01,0.00000000000000e+00,-7.38677133244058e-04
6.80521484992242e-08,6.50000000000000e-01,0.00000000000000e+00,6.48801825226867e-04
7.02318044804150e-08,6.50000000000000e-01,0.00000000000000e+00,-5.96370443117732e-04
7.40318044804150e-08,6.50000000000000e-01,0.00000000000000e+00,5.81702829704379e-04
7.51000000000000e-08,6.50000000000000e-01,0.00000000000000e+00,-4.94382841214359e-04
7.51100000000000e-08,5.85000000000066e-01,0.00000000000000e+00,-4.52878813838507e-04
7.51300000000000e-08,4.55000000000091e-01,0.00000000000000e+00,-3.62070678841385e-04
7.51700000000000e-08,1.95000000000140e-01,0.00000000000000e+00,-1.37246866897922e-04
7.52000000000000e-08,9.09272657168003e-14,0.00000000000000e+00,1.34688654019992e-04
7.52080000000000e-08,0.00000000000000e+00,0.00000000000000e+00,2.47582820724589e-04
7.52240000000000e-08,0.00000000000000e+00,0.00000000000000e+00,3.53260220072114e-04
7.52560000000000e-08,0.00000000000000e+00,0.00000000000000e+00,6.54670230882948e-05
7.53200000000000e-08,0.00000000000000e+00,0.00000000000000e+00,-9.54473665600253e-04
7.54480000000000e-08,0.00000000000000e+00,0.00000000000000e+00,-5.76187963471544e-04
7.57040000000000e-08,0.00000000000000e+00,0.00000000000000e+00,3.92312724996560e-04
7.60723362065384e-08,0.00000000000000e+00,0.00000000000000e+00,-2.77647266085377e-04
7.67554756799949e-08,0.00000000000000e+00,0.00000000000000e+00,2.52848652251377e-04
7.81217546269077e-08,0.00000000000000e+00,0.00000000000000e+00,-2.17887827443526e-04
8.08543125207335e-08,0.00000000000000e+00,0.00000000000000e+00,2.25703988279927e-04
8.46543125207335e-08,0.00000000000000e+00,0.00000000000000e+00,-2.03217438927651e-04
8.50000000000000e-08,0.00000000000000e+00,0.00000000000000e+00,1.64627327108934e-04
8.50100000000000e-08,6.49999999999877e-02,0.00000000000000e+00,1.95334889116723e-04
8.50300000000000e-08,1.94999999999963e-01,0.00000000000000e+00,2.30925683522350e-04
8.50700000000000e-08,4.54999999999914e-01,0.00000000000000e+00,1.41541155294800e-04
8.51000000000000e-08,6.49999999999963e-01,0.00000000000000e+00,-7.53227093136383e-05
8.51080000000000e-08,6.50000000000000e-01,0.00000000000000e+00,-1.53898485965628e-04
8.51240000000000e-08,6.50000000000000e-01,0.00000000000000e+00,-2.49416684026643e-04
8.51560000000000e-08,6.50000000000000e-01,0.00000000000000e+00,-2.44843383662222e-04
8.52200000000000e-08,6.50000000000000e-01,0.00000000000000e+00,-1.11273690494164e-04
8.53480000000000e-08,6.50000000000000e-01,0.00000000000000e+00,6.01427910611185e-05
8.56040000000000e-08,6.50000000000000e-01,0.00000000000000e+00,5.95602670992595e-05
8.61159999999999e-08,6.50000000000000e-01,0.00000000000000e+00,-1.09177613566245e-05
8.69794902219675e-08,6.50000000000000e-01,0.00000000000000e+00,3.65098037252926e-05
8.81660214680352e-08,6.50000000000000e-01,0.00000000000000e+00,-6.95762803049494e-06
9.00000000000000e-08,6.50000000000000e-01,0.00000000000000e+00,2.85107183056279e-05
9.00100000000000e-08,6.50000000000000e-01,6.49999999999877e-02,2.37928980284380e-05
9.00300000000000e-08,6.50000000000000e-01,1.94999999999963e-01,1.74682365720116e-05
9.00700000000000e-08,6.50000000000000e-01,4.54999999999914e-01,1.12777183711860e-05
9.01000000000000e-08,6.50000000000000e-01,6.49999999999963e-01,8.89647018589845e-06
9.01080000000000e-08,6.50000000000000e-01,6.50000000000000e-01,8.41561645009009e-06
9.01240000000000e-08,6.50000000000000e-01,6.50000000000000e-01,8.81315038319536e-06
9.01560000000000e-08,6.50000000000000e-01,6.50000000000000e-01,1.20518208616208e-05
9.02200000000000e-08,6.50000000000000e-01,6.50000000000000e-01,1.59188774614613e-05
9.03480000000000e-08,6.50000000000000e-01,6.50000000000000e-01,8.76845145054289e-06
9.06040000000000e-08,6.50000000000000e-01,6.50000000000000e-01,1.06671793478723e-05
9.11159999999999e-08,6.50000000000000e-01,6.50000000000000e-01,1.00058935546786e-05
9.21399999999999e-08,6.50000000000000e-01,6.50000000000000e-01,1.03589198761174e-05
9.41879999999998e-08,6.50000000000000e-01,6.50000000000000e-01,9.10546999099504e-06
9.51000000000000e-08,6.50000000000000e-01,6.50000000000000e-01,9.82176818030336e-06
9.51100000000000e-08,5.85000000000066e-01,6.50000000000000e-01,-4.83802645961165e-05
9.51300000000000e-08,4.55000000000091e-01,6.50000000000000e-01,-1.31179052917207e-04
9.51700000000000e-08,1.95000000000140e-01,6.50000000000000e-01,-7.41036017193886e-05
9.52000000000000e-08,9.09272657168003e-14,6.50000000000000e-01,1.78614309081553e-04
9.52080000000000e-08,0.00000000000000e+00,6.50000000000000e-01,2.89853193067437e-04
9.52240000000000e-08,0.00000000000000e+00,6.50000000000000e-01,3.97279293083891e-04
9.52560000000000e-08,0.00000000000000e+00,6.50000000000000e-01,2.34208037700634e-04
9.53200000000000e-08,0.00000000000000e+00,6.50000000000000e-01,-2.28612178323297e-04
9.54480000000000e-08,0.00000000000000e+00,6.50000000000000e-01,-2.19294132862154e-04
9.57040000000000e-08,0.00000000000000e+00,6.50000000000000e-01,-7.57230422383376e-05
9.60745776924426e-08,0.00000000000000e+00,6.50000000000000e-01,8.51927552573736e-05
9.66123561266083e-08,0.00000000000000e+00,6.50000000000000e-01,1.10707629079370e-04
9.76129853352741e-08,0.00000000000000e+00,6.50000000000000e-01,-1.42765731688642e-04
9.88780399110198e-08,0.00000000000000e+00,6.50000000000000e-01,1.81921115629227e-04
1.01379531642314e-07,0.00000000000000e+00,6.50000000000000e-01,-1.74384078554376e-04
1.05000000000000e-07,0.00000000000000e+00,6.50000000000000e-01,1.93718302576390e-04
1.05010000000000e-07,6.49999999999877e-02,6.50000000000000e-01,2.47308281458913e-04
1.05030000000000e-07,1.94999999999963e-01,6.50000000000000e-01,3.17970981832991e-04
1.05070000000000e-07,4.54999999999914e-01,6.50000000000000e-01,3.36249258171412e-04
1.05100000000000e-07,6.49999999999963e-01,6.50000000000000e-01,-5.29517557786560e-04
1.05108000000000e-07,6.50000000000000e-01,6.50000000000000e-01,-1.12317636151455e-03
1.05124000000000e-07,6.50000000000000e-01,6.50000000000000e-01,-2.35629107511719e-03
1.05156000000000e-07,6.50000000000000e-01,6.50000000000000e-01,-4.37102413522934e-03
1.05220000000000e-07,6.50000000000000e-01,6.50000000000000e-01,-2.44528698976767e-03
1.05348000000000e-07,6.50000000000000e-01,6.50000000000000e-01,1.80039797327802e-01
1.05604000000000e-07,6.50000000000000e-01,6.50000000000000e-01,6.27734700274753e-01
1.06095970179566e-07,6.50000000000000e-01,6.50000000000000e-01,6.57372014421874e-01
1.06678013927856e-07,6.50000000000000e-01,6.50000000000000e-01,6.42677421586645e-01
1.07621392266437e-07,6.50000000000000e-01,6.50000000000000e-01,6.56049525775271e-01
1.08878556217272e-07,6.50000000000000e-01,6.50000000000000e-01,6.43795635320906e-01
1.11392884118941e-07,6.50000000000000e-01,6.50000000000000e-01,6.55611824516938e-01
1.15100000000000e-07,6.50000000000000e-01,6.50000000000000e-01,6.44142369033015e-01
1.15110000000000e-07,5.85000000000066e-01,6.50000000000000e-01,6.46352474874491e-01
1.15130000000000e-07,4.55000000000091e-01,6.50000000000000e-01,6.49042553106823e-01
1.15170000000000e-07,1.95000000000140e-01,6.50000000000000e-01,6.50629777508823e-01
1.15200000000000e-07,9.09272657168003e-14,6.50000000000000e-01,6.52276714476710e-01
1.15208000000000e-07,0.00000000000000e+00,6.50000000000000e-01,6.52638480665895e-01
1.15224000000000e-07,0.00000000000000e+00,6.50000000000000e-01,6.52823265418230e-01
1.15256000000000e-07,0.00000000000000e+00,6.50000000000000e-01,6.49397474197179e-01
1.15320000000000e-07,0.00000000000000e+00,6.50000000000000e-01,6.32743869714684e-01
1.15448000000000e-07,0.00000000000000e+00,6.50000000000000e-01,6.31660889505650e-01
1.15704000000000e-07,0.00000000000000e+00,6.50000000000000e-01,6.53631474176540e-01
1.16099434426308e-07,0.00000000000000e+00,6.50000000000000e-01,6.45978731756358e-01
1.16739223525337e-07,0.00000000000000e+00,6.50000000000000e-01,6.52572956871938e-01
1.18018801723396e-07,0.00000000000000e+00,6.50000000000000e-01,6.47074316354861e-01
1.20577958119513e-07,0.00000000000000e+00,6.50000000000000e-01,6.52427061611912e-01
1.24377958119513e-07,0.00000000000000e+00,6.50000000000000e-01,6.47339942773652e-01
1.25000000000000e-07,0.00000000000000e+00,6.50000000000000e-01,6.51990500116842e-01
1.25010000000000e-07,6.49999999999017e-02,6.50000000000000e-01,6.51452538462589e-01
1.25030000000000e-07,1.94999999999877e-01,6.50000000000000e-01,6.50657772553232e-01
1.25070000000000e-07,4.54999999999828e-01,6.50000000000000e-01,6.50068715083968e-01
1.25100000000000e-07,6.49999999999877e-01,6.50000000000000e-01,6.49518244105767e-01
1.25108000000000e-07,6.50000000000000e-01,5.97999999999941e-01,6.49204253872393e-01
1.25124000000000e-07,6.50000000000000e-01,4.93999999999995e-01,6.48595414095632e-01
1.25156000000000e-07,6.50000000000000e-01,2.85999999999931e-01,6.47756710439735e-01
1.25200000000000e-07,6.50000000000000e-01,0.00000000000000e+00,6.47245570901050e-01
1.25206400000000e-07,6.50000000000000e-01,0.00000000000000e+00,6.47215825947261e-01
1.25219200000000e-07,6.50000000000000e-01,0.00000000000000e+00,6.47159609390343e-01
1.25244800000000e-07,6.50000000000000e-01,0.00000000000000e+00,6.47172928405508e-01
1.25296000000000e-07,6.50000000000000e-01,0.00000000000000e+00,6.47718731152534e-01
1.25398400000000e-07,6.50000000000000e-01,0.00000000000000e+00,6.48949742593147e-01
1.25603200000000e-07,6.50000000000000e-01,0.00000000000000e+00,6.49890802332668e-01
1.25908529905767e-07,6.50000000000000e-01,0.00000000000000e+00,6.49986852418882e-01
1.26341513458650e-07,6.50000000000000e-01,0.00000000000000e+00,6.50021029516972e-01
1.27207480564415e-07,6.50000000000000e-01,0.00000000000000e+00,6.49979604366716e-01
1.28767794231049e-07,6.50000000000000e-01,0.00000000000000e+00,6.50019802855708e-01
1.31831565979194e-07,6.50000000000000e-01,0.00000000000000e+00,6.49980572543599e-01
1.35100000000000e-07,6.49999999999882e-01,0.00000000000000e+00,6.50019047000801e-01
1.35110000000000e-07,5.84999999999808e-01,0.00000000000000e+00,6.49960275762605e-01
1.35130000000000e-07,4.54999999999833e-01,0.00000000000000e+00,6.49896195111102e-01
1.35170000000000e-07,1.94999999999882e-01,0.00000000000000e+00,6.50636723731594e-01
1.35200000000000e-07,0.00000000000000e+00,0.00000000000000e+00,6.52469285985503e-01
1.35208000000000e-07,0.00000000000000e+00,0.00000000000000e+00,6.52928050518491e-01
1.35224000000000e-07,0.00000000000000e+00,0.00000000000000e+00,6.53585945465139e-01
1.35256000000000e-07,0.00000000000000e+00,0.00000000000000e+00,6.54227716538512e-01
