Time,v(clk),v(data),v(out)
1.00000000000000e-08,7.00000000000000e-01,0.00000000000000e+00,2.45070936412753e-06
1.00100000000000e-08,7.00000000000000e-01,6.99999999999983e-02,8.22719821186313e-07
1.00300000000000e-08,7.00000000000000e-01,2.09999999999995e-01,-4.14878090271298e-07
1.00700000000000e-08,7.00000000000000e-01,4.89999999999988e-01,-7.38267901395639e-07
1.01000000000000e-08,7.00000000000000e-01,6.99999999999995e-01,-1.07573659202664e-06
1.01080000000000e-08,7.00000000000000e-01,7.00000000000000e-01,-2.28858653139596e-07
1.01240000000000e-08,7.00000000000000e-01,7.00000000000000e-01,2.55893195204304e-06
1.01560000000000e-08,7.00000000000000e-01,7.00000000000000e-01,6.40011817597957e-06
1.02200000000000e-08,7.00000000000000e-01,7.00000000000000e-01,6.12051761987586e-06
1.03480000000000e-08,7.00000000000000e-01,7.00000000000000e-01,1.69540379732144e-06
1.06040000000000e-08,7.00000000000000e-01,7.00000000000000e-01,5.73133221647842e-06
1.11160000000000e-08,7.00000000000000e-01,7.00000000000000e-01,2.40051115541103e-06
1.21400000000000e-08,7.00000000000000e-01,7.00000000000000e-01,5.09778906946680e-06
1.41880000000000e-08,7.00000000000000e-01,7.00000000000000e-01,2.09252770520807e-06
1.51000000000000e-08,7.00000000000000e-01,7.00000000000000e-01,4.60411571643476e-06
1.51100000000000e-08,6.29999999999990e-01,7.00000000000000e-01,-7.81068727199741e-05
1.51300000000000e-08,4.89999999999994e-01,7.00000000000000e-01,-1.71240474984888e-04
1.51700000000000e-08,2.10000000000000e-01,7.00000000000000e-01,3.04918337450111e-05
1.52000000000000e-08,0.00000000000000e+00,7.00000000000000e-01,4.34560329014705e-04
1.52080000000000e-08,0.00000000000000e+00,7.00000000000000e-01,5.46059727811479e-04
1.52240000000000e-08,0.00000000000000e+00,7.00000000000000e-01,5.36046372772311e-04
1.52560000000000e-08,0.00000000000000e+00,7.00000000000000e-01,-3.47312903301450e-05
1.53200000000000e-08,0.00000000000000e+00,7.00000000000000e-01,-5.08718293000400e-04
1.54480000000000e-08,0.00000000000000e+00,7.00000000000000e-01,8.27849889778499e-05
1.56584238636689e-08,0.00000000000000e+00,7.00000000000000e-01,-1.80867203364070e-04
1.59565807115834e-08,0.00000000000000e+00,7.00000000000000e-01,2.81983024657463e-04
1.65528944074125e-08,0.00000000000000e+00,7.00000000000000e-01,-2.49841108270615e-04
1.71029131320189e-08,0.00000000000000e+00,7.00000000000000e-01,2.22257481457050e-04
1.82029505812318e-08,0.00000000000000e+00,7.00000000000000e-01,-2.00670459318232e-04
2.03922901456460e-08,0.00000000000000e+00,7.00000000000000e-01,1.97358728855613e-04
2.35541498743330e-08,0.00000000000000e+00,7.00000000000000e-01,-1.86950771612367e-04
2.50000000000000e-08,0.00000000000000e+00,7.00000000000000e-01,1.79681545758021e-04
2.50100000000000e-08,6.99999999999867e-02,7.00000000000000e-01,3.03553216674177e-04
2.50300000000000e-08,2.10000000000007e-01,7.00000000000000e-01,4.29129073587983e-04
2.50700000000000e-08,4.90000000000000e-01,7.00000000000000e-01,2.99337058785223e-04
2.51000000000000e-08,7.00000000000000e-01,7.00000000000000e-01,-1.63227332066229e-03
2.51080000000000e-08,7.00000000000000e-01,7.00000000000000e-01,-2.63749113374522e-03
2.51240000000000e-08,7.00000000000000e-01,7.00000000000000e-01,-4.42775132703613e-03
2.51560000000000e-08,7.00000000000000e-01,7.00000000000000e-01,-6.29328511828627e-03
2.52200000000000e-08,7.00000000000000e-01,7.00000000000000e-01,2.88007817844642e-02
2.53480000000000e-08,7.00000000000000e-01,7.00000000000000e-01,4.96864934043235e-01
2.56040000000000e-08,7.00000000000000e-01,7.00000000000000e-01,7.26474624239971e-01
2.58722612760608e-08,7.00000000000000e-01,7.00000000000000e-01,6.77180911962196e-01
2.64087838281825e-08,7.00000000000000e-01,7.00000000000000e-01,7.21218809298667e-01
2.71035128133788e-08,7.00000000000000e-01,7.00000000000000e-01,6.79162768091320e-01
2.83732090010518e-08,7.00000000000000e-01,7.00000000000000e-01,7.19736895122807e-01
3.01000000000000e-08,7.00000000000000e-01,7.00000000000000e-01,6.80001790143748e-01
3.01100000000000e-08,7.00000000000000e-01,6.30000000000037e-01,6.90885156091575e-01
3.01300000000000e-08,7.00000000000000e-01,4.90000000000017e-01,7.00840400294380e-01
3.01700000000000e-08,7.00000000000000e-01,2.10000000000023e-01,6.99677748201906e-01
3.02000000000000e-08,7.00000000000000e-01,1.68753899743024e-14,7.00128289812145e-01
3.02080000000000e-08,7.00000000000000e-01,0.00000000000000e+00,7.00062630468903e-01
3.02240000000000e-08,7.00000000000000e-01,0.00000000000000e+00,6.99989794874134e-01
3.02560000000000e-08,7.00000000000000e-01,0.00000000000000e+00,6.99972445373580e-01
3.03200000000000e-08,7.00000000000000e-01,0.00000000000000e+00,6.99983870905267e-01
3.04480000000000e-08,7.00000000000000e-01,0.00000000000000e+00,6.99998937282518e-01
3.06571278949454e-08,7.00000000000000e-01,0.00000000000000e+00,6.99964195433040e-01
3.09357618251453e-08,7.00000000000000e-01,0.00000000000000e+00,7.00001102411354e-01
3.14930296855453e-08,7.00000000000000e-01,0.00000000000000e+00,6.99967116511414e-01
3.26075654063451e-08,7.00000000000000e-01,0.00000000000000e+00,7.00003725798923e-01
3.48366368479448e-08,7.00000000000000e-01,0.00000000000000e+00,6.99971799678074e-01
3.51000000000000e-08,6.99999999999965e-01,0.00000000000000e+00,7.00005188928848e-01
3.51100000000000e-08,6.29999999999979e-01,0.00000000000000e+00,6.99917553288102e-01
3.51300000000000e-08,4.89999999999959e-01,0.00000000000000e+00,6.99866232617358e-01
3.51700000000000e-08,2.09999999999966e-01,0.00000000000000e+00,7.01156984053776e-01
3.52000000000000e-08,0.00000000000000e+00,0.00000000000000e+00,7.03556576420474e-01
3.52080000000000e-08,0.00000000000000e+00,0.00000000000000e+00,7.03477229917983e-01
3.52240000000000e-08,0.00000000000000e+00,0.00000000000000e+00,7.00581528440073e-01
3.52560000000000e-08,0.00000000000000e+00,0.00000000000000e+00,6.86874326260535e-01
3.53200000000000e-08,0.00000000000000e+00,0.00000000000000e+00,6.81195643787751e-01
3.54480000000000e-08,0.00000000000000e+00,0.00000000000000e+00,7.00928755483363e-01
3.56271592288491e-08,0.00000000000000e+00,0.00000000000000e+00,6.98199358041329e-01
3.59485198386284e-08,0.00000000000000e+00,0.00000000000000e+00,7.00797153796791e-01
3.63495593603143e-08,0.00000000000000e+00,0.00000000000000e+00,6.98857651008953e-01
3.71516384036861e-08,0.00000000000000e+00,0.00000000000000e+00,7.00757883694114e-01
3.87557964904297e-08,0.00000000000000e+00,0.00000000000000e+00,6.99072487015324e-01
3.91000000000000e-08,0.00000000000000e+00,0.00000000000000e+00,7.00647694342744e-01
3.94208316173487e-08,0.00000000000000e+00,0.00000000000000e+00,6.99960410811757e-01
4.00624948520462e-08,0.00000000000000e+00,0.00000000000000e+00,6.99909082669749e-01
4.13458213214410e-08,0.00000000000000e+00,0.00000000000000e+00,6.99968747603322e-01
4.39124742602308e-08,0.00000000000000e+00,0.00000000000000e+00,6.99924604016820e-01
4.50000000000000e-08,0.00000000000000e+00,0.00000000000000e+00,6.99975037118035e-01
4.50100000000000e-08,6.99999999999867e-02,0.00000000000000e+00,7.00034465990079e-01
4.50300000000000e-08,2.10000000000007e-01,0.00000000000000e+00,7.00051116284144e-01
4.50700000000000e-08,4.90000000000000e-01,0.00000000000000e+00,6.99936721098003e-01
4.51000000000000e-08,7.00000000000000e-01,0.00000000000000e+00,6.99767186903377e-01
4.51080000000000e-08,7.00000000000000e-01,0.00000000000000e+00,6.99704181964028e-01
4.51240000000000e-08,7.00000000000000e-01,0.00000000000000e+00,6.99674446206290e-01
4.51560000000000e-08,7.00000000000000e-01,0.00000000000000e+00,6.99792373141432e-01
4.52200000000000e-08,7.00000000000000e-01,0.00000000000000e+00,7.02195359454979e-01
4.53480000000000e-08,7.00000000000000e-01,0.00000000000000e+00,6.31212634795272e-01
4.56040000000000e-08,7.00000000000000e-01,0.00000000000000e+00,6.72869292490037e-02
4.58582259559067e-08,7.00000000000000e-01,0.00000000000000e+00,-3.64644464201937e-02
4.63666778677200e-08,7.00000000000000e-01,0.00000000000000e+00,3.03020050806052e-02
4.70045942220524e-08,7.00000000000000e-01,0.00000000000000e+00,-2.42193932576162e-02
4.82804269307172e-08,7.00000000000000e-01,0.00000000000000e+00,2.30357082291704e-02
5.00000000000000e-08,7.00000000000000e-01,0.00000000000000e+00,-2.08457362859745e-02
5.00100000000000e-08,7.00000000000000e-01,6.99999999999867e-02,-1.38629557219555e-02
5.00300000000000e-08,7.00000000000000e-01,2.09999999999960e-01,-5.95272818242072e-03
5.00700000000000e-08,7.00000000000000e-01,4.90000000000000e-01,-1.79820597026886e-03
5.01000000000000e-08,7.00000000000000e-01,7.00000000000000e-01,-4.74386608476145e-04
5.01080000000000e-08,7.00000000000000e-01,7.00000000000000e-01,-4.40580219593159e-04
5.01240000000000e-08,7.00000000000000e-01,7.00000000000000e-01,-2.94836403928411e-04
5.01560000000000e-08,7.00000000000000e-01,7.00000000000000e-01,-8.65893953041486e-05
5.02200000000000e-08,7.00000000000000e-01,7.00000000000000e-01,-7.77575236184103e-06
5.03480000000000e-08,7.00000000000000e-01,7.00000000000000e-01,1.34909360066313e-05
5.06040000000000e-08,7.00000000000000e-01,7.00000000000000e-01,-9.36648320317909e-06
5.11160000000001e-08,7.00000000000000e-01,7.00000000000000e-01,9.09069855947742e-06
5.21400000000002e-08,7.00000000000000e-01,7.00000000000000e-01,-1.05187975937586e-05
5.41880000000003e-08,7.00000000000000e-01,7.00000000000000e-01,1.11692033561376e-05
5.51000000000000e-08,7.00000000000000e-01,7.00000000000000e-01,-1.05008038003692e-05
5.51100000000000e-08,6.30000000000025e-01,7.00000000000000e-01,-9.19813223698579e-05
5.51300000000000e-08,4.90000000000005e-01,7.00000000000000e-01,-1.76097201236042e-04
5.51700000000000e-08,2.10000000000012e-01,7.00000000000000e-01,2.90860544643126e-05
5.52000000000000e-08,0.00000000000000e+00,7.00000000000000e-01,3.81062871986387e-04
5.52080000000000e-08,0.00000000000000e+00,7.00000000000000e-01,4.30995126301667e-04
5.52240000000000e-08,0.00000000000000e+00,7.00000000000000e-01,1.79249049499591e-04
5.52560000000000e-08,0.00000000000000e+00,7.00000000000000e-01,-1.33755027516841e-03
5.53200000000000e-08,0.00000000000000e+00,7.00000000000000e-01,-1.69534065044418e-03
5.54480000000000e-08,0.00000000000000e+00,7.00000000000000e-01,3.45015954512855e-04
5.56571575214740e-08,0.00000000000000e+00,7.00000000000000e-01,-2.83200819165282e-04
5.59521479754213e-08,0.00000000000000e+00,7.00000000000000e-01,3.31788716614094e-04
5.65421288833161e-08,0.00000000000000e+00,7.00000000000000e-01,-2.82857079642082e-04
5.70888387544888e-08,0.00000000000000e+00,7.00000000000000e-01,2.43079213995967e-04
5.81822584968343e-08,0.00000000000000e+00,7.00000000000000e-01,-2.17526109088299e-04
6.03690979815252e-08,0.00000000000000e+00,7.00000000000000e-01,2.12432257627208e-04
6.35340412994781e-08,0.00000000000000e+00,7.00000000000000e-01,-2.00953616335036e-04
6.50000000000000e-08,0.00000000000000e+00,7.00000000000000e-01,1.91782486700300e-04
6.50100000000000e-08,6.99999999999867e-02,7.00000000000000e-01,3.04218827191810e-04
6.50300000000000e-08,2.09999999999960e-01,7.00000000000000e-01,4.33593973055521e-04
6.50700000000000e-08,4.89999999999907e-01,7.00000000000000e-01,3.10786456266747e-04
6.51000000000000e-08,6.99999999999960e-01,7.00000000000000e-01,-1.63102776528776e-03
6.51080000000000e-08,7.00000000000000e-01,7.00000000000000e-01,-2.63520285855569e-03
6.51240000000000e-08,7.00000000000000e-01,7.00000000000000e-01,-4.42560687636741e-03
6.51560000000000e-08,7.00000000000000e-01,7.00000000000000e-01,-6.29265181983818e-03
6.52200000000000e-08,7.00000000000000e-01,7.00000000000000e-01,2.88056260898855e-02
6.53480000000000e-08,7.00000000000000e-01,7.00000000000000e-01,4.96875288642493e-01
6.56040000000000e-08,7.00000000000000e-01,7.00000000000000e-01,7.26474881668182e-01
6.58722594484142e-08,7.00000000000000e-01,7.00000000000000e-01,6.77180521809646e-01
6.64087783452428e-08,7.00000000000000e-01,7.00000000000000e-01,7.21219108411034e-01
6.71035121085492e-08,7.00000000000000e-01,7.00000000000000e-01,6.79162422696091e-01
6.83731897445142e-08,7.00000000000000e-01,7.00000000000000e-01,7.19737181900758e-01
7.01000000000000e-08,7.00000000000000e-01,7.00000000000000e-01,6.80001477003469e-01
7.01100000000000e-08,7.00000000000000e-01,6.30000000000013e-01,6.90885055171725e-01
7.01300000000000e-08,7.00000000000000e-01,4.90000000000040e-01,7.00840431698398e-01
7.01700000000000e-08,7.00000000000000e-01,2.10000000000093e-01,6.99677724778560e-01
7.02000000000000e-08,7.00000000000000e-01,4.00790511889682e-14,7.00128293065319e-01
7.02080000000000e-08,7.00000000000000e-01,0.00000000000000e+00,7.00062632776271e-01
7.02240000000000e-08,7.00000000000000e-01,0.00000000000000e+00,6.99989793984439e-01
7.02560000000000e-08,7.00000000000000e-01,0.00000000000000e+00,6.99972444181498e-01
7.03200000000000e-08,7.00000000000000e-01,0.00000000000000e+00,6.99983870889158e-01
7.04480000000000e-08,7.00000000000000e-01,0.00000000000000e+00,6.99998936541521e-01
7.06571278903303e-08,7.00000000000000e-01,0.00000000000000e+00,6.99964195994478e-01
7.09357633884920e-08,7.00000000000000e-01,0.00000000000000e+00,7.00001101729498e-01
7.14930343848153e-08,7.00000000000000e-01,0.00000000000000e+00,6.99967116987837e-01
7.26075763774619e-08,7.00000000000000e-01,0.00000000000000e+00,7.00003725218014e-01
7.48366603627550e-08,7.00000000000000e-01,0.00000000000000e+00,6.99971800184165e-01
7.51000000000000e-08,7.00000000000000e-01,0.00000000000000e+00,7.00005188331036e-01
7.51100000000000e-08,6.30000000000071e-01,0.00000000000000e+00,6.99917553582774e-01
7.51300000000000e-08,4.90000000000098e-01,0.00000000000000e+00,6.99866233352075e-01
7.51700000000000e-08,2.10000000000151e-01,0.00000000000000e+00,7.01156983788678e-01
7.52000000000000e-08,9.80326930744013e-14,0.00000000000000e+00,7.03556575167719e-01
7.52080000000000e-08,0.00000000000000e+00,0.00000000000000e+00,7.03477227355389e-01
7.52240000000000e-08,0.00000000000000e+00,0.00000000000000e+00,7.00581521745405e-01
7.52560000000000e-08,0.00000000000000e+00,0.00000000000000e+00,6.86874316175431e-01
7.53200000000000e-08,0.00000000000000e+00,0.00000000000000e+00,6.81195641453501e-01
7.54480000000000e-08,0.00000000000000e+00,0.00000000000000e+00,7.00928756742030e-01
7.56271592289311e-08,0.00000000000000e+00,0.00000000000000e+00,6.98199356992132e-01
7.59485198378316e-08,0.00000000000000e+00,0.00000000000000e+00,7.00797154631949e-01
7.63495593604422e-08,0.00000000000000e+00,0.00000000000000e+00,6.98857650263183e-01
7.71516384056633e-08,0.00000000000000e+00,0.00000000000000e+00,7.00757884383076e-01
7.81000000000000e-08,0.00000000000000e+00,0.00000000000000e+00,6.99079745737943e-01
7.82604158090442e-08,0.00000000000000e+00,0.00000000000000e+00,6.99843987113393e-01
7.85812474271327e-08,0.00000000000000e+00,0.00000000000000e+00,6.99976716997214e-01
7.92229106633096e-08,0.00000000000000e+00,0.00000000000000e+00,6.99875152304715e-01
8.05062371356634e-08,0.00000000000000e+00,0.00000000000000e+00,6.99988566105687e-01
8.30728900803709e-08,0.00000000000000e+00,0.00000000000000e+00,6.99899071599392e-01
8.50000000000000e-08,0.00000000000000e+00,0.00000000000000e+00,6.99998625647629e-01
8.50100000000000e-08,6.99999999999867e-02,0.00000000000000e+00,7.00049048646089e-01
8.50300000000000e-08,2.09999999999960e-01,0.00000000000000e+00,7.00052864935395e-01
8.50700000000000e-08,4.89999999999907e-01,0.00000000000000e+00,6.99936610882643e-01
8.51000000000000e-08,6.99999999999960e-01,0.00000000000000e+00,6.99767026502325e-01
8.51080000000000e-08,7.00000000000000e-01,0.00000000000000e+00,6.99704052655761e-01
8.51240000000000e-08,7.00000000000000e-01,0.00000000000000e+00,6.99674366033955e-01
8.51560000000000e-08,7.00000000000000e-01,0.00000000000000e+00,6.99792315556141e-01
8.52200000000000e-08,7.00000000000000e-01,0.00000000000000e+00,7.02195585317072e-01
8.53480000000000e-08,7.00000000000000e-01,0.00000000000000e+00,6.31166584164845e-01
8.56040000000000e-08,7.00000000000000e-01,0.00000000000000e+00,6.72596299861714e-02
8.58582293578861e-08,7.00000000000000e-01,0.00000000000000e+00,-3.64529320703347e-02
8.63666880736582e-08,7.00000000000000e-01,0.00000000000000e+00,3.02922362843858e-02
8.70046446867327e-08,7.00000000000000e-01,0.00000000000000e+00,-2.42125100129913e-02
8.82805579128816e-08,7.00000000000000e-01,0.00000000000000e+00,2.30290937628045e-02
9.00000000000000e-08,7.00000000000000e-01,0.00000000000000e+00,-2.08399671002469e-02
9.00100000000000e-08,7.00000000000000e-01,6.99999999999867e-02,-1.38589147451586e-02
9.00300000000000e-08,7.00000000000000e-01,2.09999999999960e-01,-5.95068082261047e-03
9.00700000000000e-08,7.00000000000000e-01,4.89999999999907e-01,-1.79761641323205e-03
9.01000000000000e-08,7.00000000000000e-01,6.99999999999960e-01,-4.74213323552866e-04
9.01080000000000e-08,7.00000000000000e-01,7.00000000000000e-01,-4.40425409271999e-04
9.01240000000000e-08,7.00000000000000e-01,7.00000000000000e-01,-2.94737429399117e-04
9.01560000000000e-08,7.00000000000000e-01,7.00000000000000e-01,-8.65584392757551e-05
9.02200000000000e-08,7.00000000000000e-01,7.00000000000000e-01,-7.77284920508436e-06
9.03480000000000e-08,7.00000000000000e-01,7.00000000000000e-01,1.34878875659161e-05
9.06040000000000e-08,7.00000000000000e-01,7.00000000000000e-01,-9.36319525024140e-06
9.11159999999999e-08,7.00000000000000e-01,7.00000000000000e-01,9.08888428588495e-06
9.21399999999999e-08,7.00000000000000e-01,7.00000000000000e-01,-1.05152733094012e-05
9.41879999999998e-08,7.00000000000000e-01,7.00000000000000e-01,1.11668239333746e-05
9.51000000000000e-08,7.00000000000000e-01,7.00000000000000e-01,-1.04973319702299e-05
9.51100000000000e-08,6.30000000000071e-01,7.00000000000000e-01,-9.19776108776887e-05
9.51300000000000e-08,4.90000000000098e-01,7.00000000000000e-01,-1.76096039098572e-04
9.51700000000000e-08,2.10000000000151e-01,7.00000000000000e-01,2.90873888832976e-05
9.52000000000000e-08,9.80326930744013e-14,7.00000000000000e-01,3.81073649265096e-04
9.52080000000000e-08,0.00000000000000e+00,7.00000000000000e-01,4.31015688671724e-04
9.52240000000000e-08,0.00000000000000e+00,7.00000000000000e-01,1.79293009061707e-04
9.52560000000000e-08,0.00000000000000e+00,7.00000000000000e-01,-1.33744642673038e-03
9.53200000000000e-08,0.00000000000000e+00,7.00000000000000e-01,-1.69517779628818e-03
9.54480000000000e-08,0.00000000000000e+00,7.00000000000000e-01,3.45024801967818e-04
9.56571575418575e-08,0.00000000000000e+00,7.00000000000000e-01,-2.83230422313620e-04
9.59521593791615e-08,0.00000000000000e+00,7.00000000000000e-01,3.31820397531848e-04
9.65421630537693e-08,0.00000000000000e+00,7.00000000000000e-01,-2.82891735979052e-04
9.70888795707188e-08,0.00000000000000e+00,7.00000000000000e-01,2.43113571187328e-04
9.81823126046177e-08,0.00000000000000e+00,7.00000000000000e-01,-2.17560112484606e-04
1.00369178672416e-07,0.00000000000000e+00,7.00000000000000e-01,2.12465933779183e-04
1.03534138547415e-07,0.00000000000000e+00,7.00000000000000e-01,-2.00987085794710e-04
1.05000000000000e-07,0.00000000000000e+00,7.00000000000000e-01,1.91814336649281e-04
1.05010000000000e-07,6.99999999999867e-02,7.00000000000000e-01,3.04236005221364e-04
1.05030000000000e-07,2.09999999999960e-01,7.00000000000000e-01,4.33595631466124e-04
1.05070000000000e-07,4.89999999999907e-01,7.00000000000000e-01,3.10785773225596e-04
1.05100000000000e-07,6.99999999999960e-01,7.00000000000000e-01,-1.63102742876009e-03
1.05108000000000e-07,7.00000000000000e-01,7.00000000000000e-01,-2.63520216472771e-03
1.05124000000000e-07,7.00000000000000e-01,7.00000000000000e-01,-4.42560607350362e-03
1.05156000000000e-07,7.00000000000000e-01,7.00000000000000e-01,-6.29265226344049e-03
1.05220000000000e-07,7.00000000000000e-01,7.00000000000000e-01,2.88055944230422e-02
1.05348000000000e-07,7.00000000000000e-01,7.00000000000000e-01,4.96875211632682e-01
1.05604000000000e-07,7.00000000000000e-01,7.00000000000000e-01,7.26474880302045e-01
1.05872259460030e-07,7.00000000000000e-01,7.00000000000000e-01,6.77180524058646e-01
1.06408778380090e-07,7.00000000000000e-01,7.00000000000000e-01,7.21219106959436e-01
