Time,v(clk),v(data),v(out)
1.00000000000000e-08,6.00000000000000e-01,0.00000000000000e+00,9.48100283762812e-07
1.00100000000000e-08,6.00000000000000e-01,5.99999999999985e-02,1.44398005340329e-06
1.00300000000000e-08,6.00000000000000e-01,1.79999999999996e-01,1.40452952120118e-06
1.00700000000000e-08,6.00000000000000e-01,4.19999999999990e-01,-1.94784471770765e-06
1.01000000000000e-08,6.00000000000000e-01,5.99999999999995e-01,-5.77591579965786e-06
1.01080000000000e-08,6.00000000000000e-01,6.00000000000000e-01,-7.50847788889841e-06
1.01240000000000e-08,6.00000000000000e-01,6.00000000000000e-01,-8.34524536226511e-06
1.01560000000000e-08,6.00000000000000e-01,6.00000000000000e-01,-4.14963368970678e-06
1.02200000000000e-08,6.00000000000000e-01,6.00000000000000e-01,3.93796244351624e-06
1.03480000000000e-08,6.00000000000000e-01,6.00000000000000e-01,6.50639804414266e-06
1.06040000000000e-08,6.00000000000000e-01,6.00000000000000e-01,3.97499432739506e-06
1.11160000000000e-08,6.00000000000000e-01,6.00000000000000e-01,3.52887931789544e-06
1.20461505931057e-08,6.00000000000000e-01,6.00000000000000e-01,4.75730345907838e-06
1.39064517793173e-08,6.00000000000000e-01,6.00000000000000e-01,3.10833476869794e-06
1.51000000000000e-08,6.00000000000000e-01,6.00000000000000e-01,4.26813666071051e-06
1.51100000000000e-08,5.39999999999991e-01,6.00000000000000e-01,-9.79660356617007e-05
1.51300000000000e-08,4.19999999999994e-01,6.00000000000000e-01,-2.68187291114885e-04
1.51700000000000e-08,1.80000000000000e-01,6.00000000000000e-01,-3.74542065864542e-04
1.52000000000000e-08,0.00000000000000e+00,6.00000000000000e-01,-6.45808484897037e-05
1.52080000000000e-08,0.00000000000000e+00,6.00000000000000e-01,1.61078812128387e-04
1.52240000000000e-08,0.00000000000000e+00,6.00000000000000e-01,4.89784752482111e-04
1.52560000000000e-08,0.00000000000000e+00,6.00000000000000e-01,7.01901714337858e-04
1.53200000000000e-08,0.00000000000000e+00,6.00000000000000e-01,5.36944984109042e-04
1.54480000000000e-08,0.00000000000000e+00,6.00000000000000e-01,-1.67830128769621e-04
1.57040000000000e-08,0.00000000000000e+00,6.00000000000000e-01,-2.78998012784901e-04
1.62160000000000e-08,0.00000000000000e+00,6.00000000000000e-01,7.54396065444189e-05
1.68932276825495e-08,0.00000000000000e+00,6.00000000000000e-01,-1.08866109151971e-04
1.79494494127528e-08,0.00000000000000e+00,6.00000000000000e-01,2.30699930315116e-04
2.00483669853023e-08,0.00000000000000e+00,6.00000000000000e-01,-2.50347130243787e-04
2.23328956060790e-08,0.00000000000000e+00,6.00000000000000e-01,2.59059657953134e-04
2.50000000000000e-08,0.00000000000000e+00,6.00000000000000e-01,-2.54597801392841e-04
2.50100000000000e-08,5.99999999999886e-02,6.00000000000000e-01,-5.34539961924707e-05
2.50300000000000e-08,1.80000000000006e-01,6.00000000000000e-01,2.91132564998839e-04
2.50700000000000e-08,4.20000000000000e-01,6.00000000000000e-01,7.29762978491907e-04
2.51000000000000e-08,6.00000000000000e-01,6.00000000000000e-01,7.58102432618368e-04
2.51080000000000e-08,6.00000000000000e-01,6.00000000000000e-01,6.05878924164902e-04
2.51240000000000e-08,6.00000000000000e-01,6.00000000000000e-01,2.38716919395837e-04
2.51560000000000e-08,6.00000000000000e-01,6.00000000000000e-01,-8.04644293599416e-04
2.52200000000000e-08,6.00000000000000e-01,6.00000000000000e-01,-3.05800384572668e-03
2.53480000000000e-08,6.00000000000000e-01,6.00000000000000e-01,-5.80416228997935e-03
2.56040000000000e-08,6.00000000000000e-01,6.00000000000000e-01,4.98168349505478e-02
2.61160000000000e-08,6.00000000000000e-01,6.00000000000000e-01,5.21111514556266e-01
2.71400000000000e-08,6.00000000000000e-01,6.00000000000000e-01,6.19606154362059e-01
2.81731862171420e-08,6.00000000000000e-01,6.00000000000000e-01,5.80173773689268e-01
3.01000000000000e-08,6.00000000000000e-01,6.00000000000000e-01,6.17417603589489e-01
3.01100000000000e-08,6.00000000000000e-01,5.40000000000031e-01,6.11794277681535e-01
3.01300000000000e-08,6.00000000000000e-01,4.20000000000014e-01,6.04198267465589e-01
3.01700000000000e-08,6.00000000000000e-01,1.80000000000020e-01,6.00153258812260e-01
3.02000000000000e-08,6.00000000000000e-01,1.44328993201270e-14,6.00031798088102e-01
3.02080000000000e-08,6.00000000000000e-01,0.00000000000000e+00,6.00019225090631e-01
3.02240000000000e-08,6.00000000000000e-01,0.00000000000000e+00,5.99997121895607e-01
3.02560000000000e-08,6.00000000000000e-01,0.00000000000000e+00,5.99979769505301e-01
3.03200000000000e-08,6.00000000000000e-01,0.00000000000000e+00,5.99968772033229e-01
3.04480000000000e-08,6.00000000000000e-01,0.00000000000000e+00,5.99952438016004e-01
3.07040000000000e-08,6.00000000000000e-01,0.00000000000000e+00,6.00007033723239e-01
3.11385607271997e-08,6.00000000000000e-01,0.00000000000000e+00,5.99965277610747e-01
3.18446132288087e-08,6.00000000000000e-01,0.00000000000000e+00,5.99984828871095e-01
3.28537828460579e-08,6.00000000000000e-01,0.00000000000000e+00,5.99977738542148e-01
3.48721220805563e-08,6.00000000000000e-01,0.00000000000000e+00,5.99983428463976e-01
3.51000000000000e-08,5.99999999999970e-01,0.00000000000000e+00,5.99987259635856e-01
3.51100000000000e-08,5.39999999999982e-01,0.00000000000000e+00,5.99880188079736e-01
3.51300000000000e-08,4.19999999999965e-01,0.00000000000000e+00,5.99750683220600e-01
3.51700000000000e-08,1.79999999999970e-01,0.00000000000000e+00,6.00255875201106e-01
3.52000000000000e-08,0.00000000000000e+00,0.00000000000000e+00,6.02119471072257e-01
3.52080000000000e-08,0.00000000000000e+00,0.00000000000000e+00,6.02726056260264e-01
3.52240000000000e-08,0.00000000000000e+00,0.00000000000000e+00,6.03577760045983e-01
3.52560000000000e-08,0.00000000000000e+00,0.00000000000000e+00,6.04009096991991e-01
3.53200000000000e-08,0.00000000000000e+00,0.00000000000000e+00,6.00312962050912e-01
3.54480000000000e-08,0.00000000000000e+00,0.00000000000000e+00,5.83870939934420e-01
3.57040000000000e-08,0.00000000000000e+00,0.00000000000000e+00,5.88442094125377e-01
3.61478827745218e-08,0.00000000000000e+00,0.00000000000000e+00,6.04195149912790e-01
3.67737066609094e-08,0.00000000000000e+00,0.00000000000000e+00,5.95682599193750e-01
3.80253544336845e-08,0.00000000000000e+00,0.00000000000000e+00,6.03040651085256e-01
3.91000000000000e-08,0.00000000000000e+00,0.00000000000000e+00,5.97009256602073e-01
3.92474470426421e-08,0.00000000000000e+00,0.00000000000000e+00,5.99170212342360e-01
3.95423411279262e-08,0.00000000000000e+00,0.00000000000000e+00,6.00191909998573e-01
4.01321292984943e-08,0.00000000000000e+00,0.00000000000000e+00,5.99595482360148e-01
4.13117056396307e-08,0.00000000000000e+00,0.00000000000000e+00,6.00104516468551e-01
4.36708583219035e-08,0.00000000000000e+00,0.00000000000000e+00,5.99703849265885e-01
4.50000000000000e-08,0.00000000000000e+00,0.00000000000000e+00,6.00101277058279e-01
4.50100000000000e-08,5.99999999999886e-02,0.00000000000000e+00,6.00181397431672e-01
4.50300000000000e-08,1.80000000000006e-01,0.00000000000000e+00,6.00265597693199e-01
4.50700000000000e-08,4.20000000000000e-01,0.00000000000000e+00,6.00195500657567e-01
4.51000000000000e-08,6.00000000000000e-01,0.00000000000000e+00,6.00007662756163e-01
4.51080000000000e-08,6.00000000000000e-01,0.00000000000000e+00,5.99901558237335e-01
4.51240000000000e-08,6.00000000000000e-01,0.00000000000000e+00,5.99745436640916e-01
4.51560000000000e-08,6.00000000000000e-01,0.00000000000000e+00,5.99639321666470e-01
4.52200000000000e-08,6.00000000000000e-01,0.00000000000000e+00,5.99654536910062e-01
4.53480000000000e-08,6.00000000000000e-01,0.00000000000000e+00,5.99814171334798e-01
4.56040000000000e-08,6.00000000000000e-01,0.00000000000000e+00,6.02349518104849e-01
4.61160000000000e-08,6.00000000000000e-01,0.00000000000000e+00,3.43343025959426e-01
4.71400000000000e-08,6.00000000000000e-01,0.00000000000000e+00,-4.82073108389097e-02
4.81504605739361e-08,6.00000000000000e-01,0.00000000000000e+00,3.81869514975248e-02
5.00000000000000e-08,6.00000000000000e-01,0.00000000000000e+00,-2.44264609786122e-02
5.00100000000000e-08,6.00000000000000e-01,5.99999999999886e-02,-2.33374593564581e-02
5.00300000000000e-08,6.00000000000000e-01,1.79999999999966e-01,-2.04377853300807e-02
5.00700000000000e-08,6.00000000000000e-01,4.20000000000000e-01,-1.40372314726451e-02
5.01000000000000e-08,6.00000000000000e-01,6.00000000000000e-01,-1.04038776137173e-02
5.01080000000000e-08,6.00000000000000e-01,6.00000000000000e-01,-9.64270521421830e-03
5.01240000000000e-08,6.00000000000000e-01,6.00000000000000e-01,-8.22076828810488e-03
5.01560000000000e-08,6.00000000000000e-01,6.00000000000000e-01,-5.95050420878661e-03
5.02200000000000e-08,6.00000000000000e-01,6.00000000000000e-01,-3.07010176961471e-03
5.03480000000000e-08,6.00000000000000e-01,6.00000000000000e-01,-6.79110941907896e-04
5.06040000000000e-08,6.00000000000000e-01,6.00000000000000e-01,7.95662060337071e-05
5.11160000000001e-08,6.00000000000000e-01,6.00000000000000e-01,-3.31719995200278e-05
5.21288658208965e-08,6.00000000000000e-01,6.00000000000000e-01,2.34596481843690e-05
5.41545974626892e-08,6.00000000000000e-01,6.00000000000000e-01,-1.68494735524388e-05
5.51000000000000e-08,6.00000000000000e-01,6.00000000000000e-01,1.39773915193327e-05
5.51100000000000e-08,5.40000000000021e-01,6.00000000000000e-01,-8.92250776131503e-05
5.51300000000000e-08,4.20000000000004e-01,6.00000000000000e-01,-2.56754919559232e-04
5.51700000000000e-08,1.80000000000010e-01,6.00000000000000e-01,-3.69546736835022e-04
5.52000000000000e-08,0.00000000000000e+00,6.00000000000000e-01,-6.31085213116944e-05
5.52080000000000e-08,0.00000000000000e+00,6.00000000000000e-01,1.61496099908620e-04
5.52240000000000e-08,0.00000000000000e+00,6.00000000000000e-01,4.80293526058190e-04
5.52560000000000e-08,0.00000000000000e+00,6.00000000000000e-01,6.87791176799332e-04
5.53200000000000e-08,0.00000000000000e+00,6.00000000000000e-01,3.89193093048967e-04
5.54480000000000e-08,0.00000000000000e+00,6.00000000000000e-01,-7.52166229772665e-04
5.57040000000000e-08,0.00000000000000e+00,6.00000000000000e-01,-5.10770017415195e-04
5.62160000000000e-08,0.00000000000000e+00,6.00000000000000e-01,2.38889311159948e-04
5.68929530907196e-08,0.00000000000000e+00,6.00000000000000e-01,-2.33204796128896e-04
5.79493200702294e-08,0.00000000000000e+00,6.00000000000000e-01,3.32386568360097e-04
6.00484595615945e-08,0.00000000000000e+00,6.00000000000000e-01,-3.44510960133309e-04
6.23323463787672e-08,0.00000000000000e+00,6.00000000000000e-01,3.45424907041642e-04
6.50000000000000e-08,0.00000000000000e+00,6.00000000000000e-01,-3.36898865485051e-04
6.50100000000000e-08,5.99999999999886e-02,6.00000000000000e-01,-1.19278933290404e-04
6.50300000000000e-08,1.79999999999966e-01,6.00000000000000e-01,2.52778439027865e-04
6.50700000000000e-08,4.19999999999920e-01,6.00000000000000e-01,7.10184336788919e-04
6.51000000000000e-08,5.99999999999966e-01,6.00000000000000e-01,7.46304306893153e-04
6.51080000000000e-08,6.00000000000000e-01,6.00000000000000e-01,5.95343217458813e-04
6.51240000000000e-08,6.00000000000000e-01,6.00000000000000e-01,2.30466685596731e-04
6.51560000000000e-08,6.00000000000000e-01,6.00000000000000e-01,-8.09791194413642e-04
6.52200000000000e-08,6.00000000000000e-01,6.00000000000000e-01,-3.05990446960614e-03
6.53480000000000e-08,6.00000000000000e-01,6.00000000000000e-01,-5.80425126722230e-03
6.56040000000000e-08,6.00000000000000e-01,6.00000000000000e-01,4.98210409240053e-02
6.61159999999999e-08,6.00000000000000e-01,6.00000000000000e-01,5.21114577163288e-01
6.71399999999999e-08,6.00000000000000e-01,6.00000000000000e-01,6.19605662056247e-01
6.81731927014815e-08,6.00000000000000e-01,6.00000000000000e-01,5.80174240990273e-01
7.01000000000000e-08,6.00000000000000e-01,6.00000000000000e-01,6.17417178720673e-01
7.01100000000000e-08,6.00000000000000e-01,5.40000000000011e-01,6.11793966984373e-01
7.01300000000000e-08,6.00000000000000e-01,4.20000000000034e-01,6.04198188083969e-01
7.01700000000000e-08,6.00000000000000e-01,1.80000000000080e-01,6.00153287541043e-01
7.02000000000000e-08,6.00000000000000e-01,3.44169137633799e-14,6.00031769178216e-01
7.02080000000000e-08,6.00000000000000e-01,0.00000000000000e+00,6.00019212341617e-01
7.02240000000000e-08,6.00000000000000e-01,0.00000000000000e+00,5.99997127780244e-01
7.02560000000000e-08,6.00000000000000e-01,0.00000000000000e+00,5.99979781150486e-01
7.03200000000000e-08,6.00000000000000e-01,0.00000000000000e+00,5.99968774945343e-01
7.04480000000000e-08,6.00000000000000e-01,0.00000000000000e+00,5.99952435651824e-01
7.07040000000000e-08,6.00000000000000e-01,0.00000000000000e+00,6.00007034622976e-01
7.11385592563559e-08,6.00000000000000e-01,0.00000000000000e+00,5.99965277372825e-01
7.18446248163620e-08,6.00000000000000e-01,0.00000000000000e+00,5.99984830349590e-01
7.28537996037096e-08,6.00000000000000e-01,0.00000000000000e+00,5.99977737773771e-01
7.48721491784046e-08,6.00000000000000e-01,0.00000000000000e+00,5.99983429815574e-01
7.51000000000000e-08,6.00000000000000e-01,0.00000000000000e+00,5.99987259300424e-01
7.51100000000000e-08,5.40000000000061e-01,0.00000000000000e+00,5.99880188856032e-01
7.51300000000000e-08,4.20000000000084e-01,0.00000000000000e+00,5.99750683646525e-01
7.51700000000000e-08,1.80000000000129e-01,0.00000000000000e+00,6.00255875456231e-01
7.52000000000000e-08,8.40438829641244e-14,0.00000000000000e+00,6.02119471628421e-01
7.52080000000000e-08,0.00000000000000e+00,0.00000000000000e+00,6.02726056912088e-01
7.52240000000000e-08,0.00000000000000e+00,0.00000000000000e+00,6.03577761239496e-01
7.52560000000000e-08,0.00000000000000e+00,0.00000000000000e+00,6.04009102559302e-01
7.53200000000000e-08,0.00000000000000e+00,0.00000000000000e+00,6.00312995810408e-01
7.54480000000000e-08,0.00000000000000e+00,0.00000000000000e+00,5.83870982726764e-01
7.57040000000000e-08,0.00000000000000e+00,0.00000000000000e+00,5.88442085808855e-01
7.61478827617733e-08,0.00000000000000e+00,0.00000000000000e+00,6.04195153456701e-01
7.67737066476652e-08,0.00000000000000e+00,0.00000000000000e+00,5.95682596260625e-01
7.69301626191382e-08,0.00000000000000e+00,0.00000000000000e+00,5.98715813693042e-01
7.72430745620842e-08,0.00000000000000e+00,0.00000000000000e+00,6.00121013308423e-01
7.78688984479761e-08,0.00000000000000e+00,0.00000000000000e+00,5.99364072666744e-01
7.81000000000000e-08,0.00000000000000e+00,0.00000000000000e+00,5.99910704036016e-01
7.82251647771784e-08,0.00000000000000e+00,0.00000000000000e+00,5.99802200826863e-01
7.84754943315352e-08,0.00000000000000e+00,0.00000000000000e+00,5.99756795558058e-01
7.89761534402487e-08,0.00000000000000e+00,0.00000000000000e+00,5.99822060516810e-01
7.99774716576758e-08,0.00000000000000e+00,0.00000000000000e+00,5.99835154676086e-01
8.19801080925300e-08,0.00000000000000e+00,0.00000000000000e+00,5.99901222122738e-01
8.50000000000000e-08,0.00000000000000e+00,0.00000000000000e+00,5.99910076511818e-01
8.50100000000000e-08,5.99999999999886e-02,0.00000000000000e+00,6.00021184021941e-01
8.50300000000000e-08,1.79999999999966e-01,0.00000000000000e+00,6.00162428035015e-01
8.50700000000000e-08,4.19999999999920e-01,0.00000000000000e+00,6.00155499931664e-01
8.51000000000000e-08,5.99999999999966e-01,0.00000000000000e+00,5.99987974170252e-01
8.51080000000000e-08,6.00000000000000e-01,0.00000000000000e+00,5.99884363745728e-01
8.51240000000000e-08,6.00000000000000e-01,0.00000000000000e+00,5.99732081940646e-01
8.51560000000000e-08,6.00000000000000e-01,0.00000000000000e+00,5.99632333676671e-01
8.52200000000000e-08,6.00000000000000e-01,0.00000000000000e+00,5.99654357412552e-01
8.53480000000000e-08,6.00000000000000e-01,0.00000000000000e+00,5.99815671796356e-01
8.56040000000000e-08,6.00000000000000e-01,0.00000000000000e+00,6.02353717524612e-01
8.61159999999999e-08,6.00000000000000e-01,0.00000000000000e+00,3.43203802027982e-01
8.71399999999999e-08,6.00000000000000e-01,0.00000000000000e+00,-4.82508220619655e-02
8.81503850598367e-08,6.00000000000000e-01,0.00000000000000e+00,3.82245204403211e-02
9.00000000000000e-08,6.00000000000000e-01,0.00000000000000e+00,-2.44512969424849e-02
9.00100000000000e-08,6.00000000000000e-01,5.99999999999886e-02,-2.33582079978619e-02
9.00300000000000e-08,6.00000000000000e-01,1.79999999999966e-01,-2.04545224508870e-02
9.00700000000000e-08,6.00000000000000e-01,4.19999999999920e-01,-1.40485996727034e-02
9.01000000000000e-08,6.00000000000000e-01,5.99999999999966e-01,-1.04125474997512e-02
9.01080000000000e-08,6.00000000000000e-01,6.00000000000000e-01,-9.65032341034421e-03
9.01240000000000e-08,6.00000000000000e-01,6.00000000000000e-01,-8.22644513957922e-03
9.01560000000000e-08,6.00000000000000e-01,6.00000000000000e-01,-5.95363153402059e-03
9.02200000000000e-08,6.00000000000000e-01,6.00000000000000e-01,-3.07143690364648e-03
9.03480000000000e-08,6.00000000000000e-01,6.00000000000000e-01,-6.81058633573622e-04
9.06040000000000e-08,6.00000000000000e-01,6.00000000000000e-01,8.07260451426012e-05
9.11159999999999e-08,6.00000000000000e-01,6.00000000000000e-01,-3.40875844267972e-05
9.21281698803524e-08,6.00000000000000e-01,6.00000000000000e-01,2.42806871991273e-05
9.41525096410575e-08,6.00000000000000e-01,6.00000000000000e-01,-1.76172399599366e-05
9.51000000000000e-08,6.00000000000000e-01,6.00000000000000e-01,1.46478733841337e-05
9.51100000000000e-08,5.40000000000061e-01,6.00000000000000e-01,-8.87071973836306e-05
9.51300000000000e-08,4.20000000000084e-01,6.00000000000000e-01,-2.57551652963234e-04
9.51700000000000e-08,1.80000000000129e-01,6.00000000000000e-01,-3.70096438655390e-04
9.52000000000000e-08,8.40438829641244e-14,6.00000000000000e-01,-6.35529316846267e-05
9.52080000000000e-08,0.00000000000000e+00,6.00000000000000e-01,1.61087512192987e-04
9.52240000000000e-08,0.00000000000000e+00,6.00000000000000e-01,4.79944940127833e-04
9.52560000000000e-08,0.00000000000000e+00,6.00000000000000e-01,6.87540425206731e-04
9.53200000000000e-08,0.00000000000000e+00,6.00000000000000e-01,3.89082763741638e-04
9.54480000000000e-08,0.00000000000000e+00,6.00000000000000e-01,-7.51823819133683e-04
9.57040000000000e-08,0.00000000000000e+00,6.00000000000000e-01,-5.10521603519901e-04
9.62159999999999e-08,0.00000000000000e+00,6.00000000000000e-01,2.38730058994368e-04
9.68929600455759e-08,0.00000000000000e+00,6.00000000000000e-01,-2.33088300846021e-04
9.79493256874772e-08,0.00000000000000e+00,6.00000000000000e-01,3.32293117342173e-04
1.00048460622485e-07,0.00000000000000e+00,6.00000000000000e-01,-3.44425690657718e-04
1.02332368013100e-07,0.00000000000000e+00,6.00000000000000e-01,3.45347538307999e-04
1.05000000000000e-07,0.00000000000000e+00,6.00000000000000e-01,-3.36826607392108e-04
1.05010000000000e-07,5.99999999999886e-02,6.00000000000000e-01,-1.19226491190186e-04
1.05030000000000e-07,1.79999999999966e-01,6.00000000000000e-01,2.52807347311118e-04
1.05070000000000e-07,4.19999999999920e-01,6.00000000000000e-01,7.10200767348831e-04
1.05100000000000e-07,5.99999999999966e-01,6.00000000000000e-01,7.46315795447788e-04
1.05108000000000e-07,6.00000000000000e-01,6.00000000000000e-01,5.95354568412795e-04
1.05124000000000e-07,6.00000000000000e-01,6.00000000000000e-01,2.30478344355536e-04
1.05156000000000e-07,6.00000000000000e-01,6.00000000000000e-01,-8.09778716810108e-04
1.05220000000000e-07,6.00000000000000e-01,6.00000000000000e-01,-3.05989480862560e-03
1.05348000000000e-07,6.00000000000000e-01,6.00000000000000e-01,-5.80424919458993e-03
1.05604000000000e-07,6.00000000000000e-01,6.00000000000000e-01,4.98208869491299e-02
1.06116000000000e-07,6.00000000000000e-01,6.00000000000000e-01,5.21114465512092e-01
1.07140000000000e-07,6.00000000000000e-01,6.00000000000000e-01,6.19605680018032e-01
1.08173192465839e-07,6.00000000000000e-01,6.00000000000000e-01,5.80174223972526e-01
1.10100000000000e-07,6.00000000000000e-01,6.00000000000000e-01,6.17417194242115e-01
1.10110000000000e-07,6.00000000000000e-01,5.40000000000091e-01,6.11793977280189e-01
1.10130000000000e-07,6.00000000000000e-01,4.20000000000114e-01,6.04198191659589e-01
1.10170000000000e-07,6.00000000000000e-01,1.80000000000159e-01,6.00153287497768e-01
