Time,v(clk),v(data),v(out),v(reset)
1.00000000000000e-08,6.50000000000000e-01,0.00000000000000e+00,-3.10599879697112e-06,0.00000000000000e+00
1.00100000000000e-08,6.50000000000000e-01,6.49999999999984e-02,2.44250897209197e-07,0.00000000000000e+00
1.00300000000000e-08,6.50000000000000e-01,1.94999999999995e-01,2.84563501706803e-06,0.00000000000000e+00
1.00700000000000e-08,6.50000000000000e-01,4.54999999999989e-01,2.13659220629075e-06,0.00000000000000e+00
1.01000000000000e-08,6.50000000000000e-01,6.49999999999995e-01,2.30293828840794e-06,0.00000000000000e+00
1.01080000000000e-08,6.50000000000000e-01,6.50000000000000e-01,2.54619749859991e-06,0.00000000000000e+00
1.01240000000000e-08,6.50000000000000e-01,6.50000000000000e-01,3.39495303606357e-06,0.00000000000000e+00
1.01560000000000e-08,6.50000000000000e-01,6.50000000000000e-01,4.33515225083808e-06,0.00000000000000e+00
1.02200000000000e-08,6.50000000000000e-01,6.50000000000000e-01,3.65408093214170e-06,0.00000000000000e+00
1.03480000000000e-08,6.50000000000000e-01,6.50000000000000e-01,3.66921266087283e-06,0.00000000000000e+00
1.06040000000000e-08,6.50000000000000e-01,6.50000000000000e-01,3.44121496045902e-06,0.00000000000000e+00
1.11160000000000e-08,6.50000000000000e-01,6.50000000000000e-01,3.59315676366247e-06,0.00000000000000e+00
1.21400000000000e-08,6.50000000000000e-01,6.50000000000000e-01,3.04153639129473e-06,0.00000000000000e+00
1.41880000000000e-08,6.50000000000000e-01,6.50000000000000e-01,3.03975841675977e-06,0.00000000000000e+00
1.51000000000000e-08,6.50000000000000e-01,6.50000000000000e-01,2.60958138818823e-06,0.00000000000000e+00
1.51100000000000e-08,5.84999999999991e-01,6.50000000000000e-01,1.64095697409793e-04,6.50000000000092e-02
1.51300000000000e-08,4.54999999999994e-01,6.50000000000000e-01,2.99652733860678e-04,1.95000000000006e-01
1.51700000000000e-08,1.95000000000000e-01,6.50000000000000e-01,2.03312961907377e-04,4.55000000000000e-01
1.52000000000000e-08,0.00000000000000e+00,6.50000000000000e-01,2.34296071749594e-04,6.50000000000000e-01
1.52080000000000e-08,0.00000000000000e+00,6.50000000000000e-01,2.39909596890749e-04,6.50000000000000e-01
1.52240000000000e-08,0.00000000000000e+00,6.50000000000000e-01,2.45615776312727e-04,6.50000000000000e-01
1.52560000000000e-08,0.00000000000000e+00,6.50000000000000e-01,2.09516210686010e-04,6.50000000000000e-01
1.53200000000000e-08,0.00000000000000e+00,6.50000000000000e-01,-9.91620902072235e-05,6.50000000000000e-01
1.54480000000000e-08,0.00000000000000e+00,6.50000000000000e-01,-2.29047296320325e-04,6.50000000000000e-01
1.56972863919568e-08,0.00000000000000e+00,6.50000000000000e-01,6.67784946784024e-05,6.50000000000000e-01
1.60541257248077e-08,0.00000000000000e+00,6.50000000000000e-01,-1.63637935381555e-04,6.50000000000000e-01
1.66437357771808e-08,0.00000000000000e+00,6.50000000000000e-01,2.24914529943483e-04,6.50000000000000e-01
1.78229558819270e-08,0.00000000000000e+00,6.50000000000000e-01,-1.97222845689169e-04,6.50000000000000e-01
1.89923692876232e-08,0.00000000000000e+00,6.50000000000000e-01,1.76173322296903e-04,6.50000000000000e-01
2.13311960990155e-08,0.00000000000000e+00,6.50000000000000e-01,-1.62300234968223e-04,6.50000000000000e-01
2.50000000000000e-08,0.00000000000000e+00,6.50000000000000e-01,1.57402848658277e-04,6.50000000000000e-01
2.50100000000000e-08,6.49999999999877e-02,6.50000000000000e-01,2.56461539324793e-04,6.50000000000000e-01
2.50300000000000e-08,1.95000000000006e-01,6.50000000000000e-01,3.99134551890702e-04,6.50000000000000e-01
2.50700000000000e-08,4.55000000000000e-01,6.50000000000000e-01,5.44432020226110e-04,6.50000000000000e-01
2.51000000000000e-08,6.50000000000000e-01,6.50000000000000e-01,3.35490172333475e-04,6.50000000000000e-01
2.51080000000000e-08,6.50000000000000e-01,6.50000000000000e-01,8.28191637913533e-05,6.50000000000000e-01
2.51240000000000e-08,6.50000000000000e-01,6.50000000000000e-01,-5.55664038960235e-04,6.50000000000000e-01
2.51560000000000e-08,6.50000000000000e-01,6.50000000000000e-01,-2.14091741630622e-03,6.50000000000000e-01
2.52200000000000e-08,6.50000000000000e-01,6.50000000000000e-01,-4.67823066352489e-03,6.50000000000000e-01
2.53480000000000e-08,6.50000000000000e-01,6.50000000000000e-01,7.52615827328614e-03,6.50000000000000e-01
2.56040000000000e-08,6.50000000000000e-01,6.50000000000000e-01,4.61121912355686e-01,6.50000000000000e-01
2.61160000000000e-08,6.50000000000000e-01,6.50000000000000e-01,6.73045913301726e-01,6.50000000000000e-01
2.66584146554179e-08,6.50000000000000e-01,6.50000000000000e-01,6.30353659664920e-01,6.50000000000000e-01
2.77432439662536e-08,6.50000000000000e-01,6.50000000000000e-01,6.68725697741393e-01,6.50000000000000e-01
2.93409153351020e-08,6.50000000000000e-01,6.50000000000000e-01,6.31292917528165e-01,6.50000000000000e-01
3.18705021782599e-08,6.50000000000000e-01,6.50000000000000e-01,6.67846055255050e-01,6.50000000000000e-01
3.51000000000000e-08,6.49999999999968e-01,6.50000000000000e-01,6.31795756956115e-01,6.50000000000000e-01
3.51100000000000e-08,5.84999999999980e-01,6.50000000000000e-01,6.40368255455106e-01,6.50000000000000e-01
3.51300000000000e-08,4.54999999999962e-01,6.50000000000000e-01,6.49366210453333e-01,6.50000000000000e-01
3.51700000000000e-08,1.94999999999968e-01,6.50000000000000e-01,6.50842091236816e-01,6.50000000000000e-01
3.52000000000000e-08,0.00000000000000e+00,6.50000000000000e-01,6.52536585309244e-01,6.50000000000000e-01
3.52080000000000e-08,0.00000000000000e+00,6.50000000000000e-01,6.52921849937007e-01,6.50000000000000e-01
3.52240000000000e-08,0.00000000000000e+00,6.50000000000000e-01,6.52925983538452e-01,6.50000000000000e-01
3.52560000000000e-08,0.00000000000000e+00,6.50000000000000e-01,6.47437143912984e-01,6.50000000000000e-01
3.53200000000000e-08,0.00000000000000e+00,6.50000000000000e-01,6.30663428681594e-01,6.50000000000000e-01
3.54480000000000e-08,0.00000000000000e+00,6.50000000000000e-01,6.38111729421409e-01,6.50000000000000e-01
3.57040000000000e-08,0.00000000000000e+00,6.50000000000000e-01,6.53758083242444e-01,6.50000000000000e-01
3.60683574163632e-08,0.00000000000000e+00,6.50000000000000e-01,6.46201003469822e-01,6.50000000000000e-01
3.67848092459215e-08,0.00000000000000e+00,6.50000000000000e-01,6.52775213609667e-01,6.50000000000000e-01
3.82177129050381e-08,0.00000000000000e+00,6.50000000000000e-01,6.47090671422696e-01,6.50000000000000e-01
4.10835202232713e-08,0.00000000000000e+00,6.50000000000000e-01,6.52641292502755e-01,6.50000000000000e-01
4.48835202232713e-08,0.00000000000000e+00,6.50000000000000e-01,6.47315482184605e-01,6.50000000000000e-01
4.50000000000000e-08,0.00000000000000e+00,6.50000000000000e-01,6.51179722857699e-01,6.50000000000000e-01
4.50100000000000e-08,6.49999999999877e-02,6.50000000000000e-01,6.50682311764164e-01,5.85000000000012e-01
4.50300000000000e-08,1.95000000000006e-01,6.50000000000000e-01,6.50028594979657e-01,4.54999999999994e-01
4.50700000000000e-08,4.55000000000000e-01,6.50000000000000e-01,6.51962354893399e-01,1.95000000000000e-01
4.51000000000000e-08,6.50000000000000e-01,6.50000000000000e-01,6.58643130780179e-01,0.00000000000000e+00
4.51080000000000e-08,6.50000000000000e-01,6.50000000000000e-01,6.61082260032729e-01,0.00000000000000e+00
4.51240000000000e-08,6.50000000000000e-01,6.50000000000000e-01,6.65822669380193e-01,0.00000000000000e+00
4.51560000000000e-08,6.50000000000000e-01,6.50000000000000e-01,6.76901204843532e-01,0.00000000000000e+00
4.52200000000000e-08,6.50000000000000e-01,6.50000000000000e-01,6.50258886877191e-01,0.00000000000000e+00
4.53480000000000e-08,6.50000000000000e-01,6.50000000000000e-01,3.37200049297665e-01,0.00000000000000e+00
4.55880690499729e-08,6.50000000000000e-01,6.50000000000000e-01,-2.47298854733955e-03,0.00000000000000e+00
4.59453552790055e-08,6.50000000000000e-01,6.50000000000000e-01,4.26460815787596e-03,0.00000000000000e+00
4.65127697725276e-08,6.50000000000000e-01,6.50000000000000e-01,-4.26698152247945e-03,0.00000000000000e+00
4.73949337962235e-08,6.50000000000000e-01,6.50000000000000e-01,4.50297819719983e-03,0.00000000000000e+00
4.90174697415328e-08,6.50000000000000e-01,6.50000000000000e-01,-4.30358862461050e-03,0.00000000000000e+00
5.01000000000000e-08,6.50000000000000e-01,6.49999999999963e-01,4.44997217579267e-03,0.00000000000000e+00
5.04245071890619e-08,6.50000000000000e-01,6.50000000000000e-01,1.03818437783230e-04,0.00000000000000e+00
5.10735215671856e-08,6.50000000000000e-01,6.50000000000000e-01,-1.00408299011192e-04,0.00000000000000e+00
5.23715503234331e-08,6.50000000000000e-01,6.50000000000000e-01,1.02471581216895e-04,0.00000000000000e+00
5.49676078359280e-08,6.50000000000000e-01,6.50000000000000e-01,-9.92460356085954e-05,0.00000000000000e+00
5.51000000000000e-08,6.50000000000000e-01,6.50000000000000e-01,8.38474738689005e-05,0.00000000000000e+00
5.51100000000000e-08,5.85000000000023e-01,6.50000000000000e-01,2.00084380108802e-04,6.49999999999769e-02
5.51300000000000e-08,4.55000000000005e-01,6.50000000000000e-01,2.97117149346000e-04,1.94999999999995e-01
5.51700000000000e-08,1.95000000000011e-01,6.50000000000000e-01,2.02227576964538e-04,4.54999999999989e-01
5.52000000000000e-08,0.00000000000000e+00,6.50000000000000e-01,2.24047752548855e-04,6.50000000000000e-01
5.52080000000000e-08,0.00000000000000e+00,6.50000000000000e-01,2.25898849457014e-04,6.50000000000000e-01
5.52240000000000e-08,0.00000000000000e+00,6.50000000000000e-01,2.16102795486284e-04,6.50000000000000e-01
5.52560000000000e-08,0.00000000000000e+00,6.50000000000000e-01,-4.39515717565106e-05,6.50000000000000e-01
5.53200000000000e-08,0.00000000000000e+00,6.50000000000000e-01,-1.12271311793177e-03,6.50000000000000e-01
5.54480000000000e-08,0.00000000000000e+00,6.50000000000000e-01,-9.37341632292150e-04,6.50000000000000e-01
5.56921993837973e-08,0.00000000000000e+00,6.50000000000000e-01,4.18335004503341e-04,6.50000000000000e-01
5.60506403358363e-08,0.00000000000000e+00,6.50000000000000e-01,-3.87478636076764e-04,6.50000000000000e-01
5.66469028779449e-08,0.00000000000000e+00,6.50000000000000e-01,3.21971592839308e-04,6.50000000000000e-01
5.78394279621619e-08,0.00000000000000e+00,6.50000000000000e-01,-2.61943202646310e-04,6.50000000000000e-01
5.90082565979552e-08,0.00000000000000e+00,6.50000000000000e-01,2.16545121766823e-04,6.50000000000000e-01
6.13459138695418e-08,0.00000000000000e+00,6.50000000000000e-01,-1.93390428281824e-04,6.50000000000000e-01
6.50000000000000e-08,0.00000000000000e+00,6.50000000000000e-01,1.83409266863898e-04,6.50000000000000e-01
6.50100000000000e-08,6.49999999999877e-02,6.50000000000000e-01,2.71489180664046e-04,6.50000000000000e-01
6.50300000000000e-08,1.94999999999963e-01,6.50000000000000e-01,4.12044636300526e-04,6.50000000000000e-01
6.50700000000000e-08,4.54999999999914e-01,6.50000000000000e-01,5.60539079518710e-04,6.50000000000000e-01
6.51000000000000e-08,6.49999999999963e-01,6.50000000000000e-01,3.23039007638672e-04,6.50000000000000e-01
6.51080000000000e-08,6.50000000000000e-01,6.50000000000000e-01,5.98475789736139e-05,6.50000000000000e-01
6.51240000000000e-08,6.50000000000000e-01,6.50000000000000e-01,-5.95939538503232e-04,6.50000000000000e-01
6.51560000000000e-08,6.50000000000000e-01,6.50000000000000e-01,-2.19214569561452e-03,6.50000000000000e-01
6.52200000000000e-08,6.50000000000000e-01,6.50000000000000e-01,-4.70757621460605e-03,6.50000000000000e-01
6.53480000000000e-08,6.50000000000000e-01,6.50000000000000e-01,8.19091855216338e-03,6.50000000000000e-01
6.56040000000000e-08,6.50000000000000e-01,6.50000000000000e-01,4.63829379965596e-01,6.50000000000000e-01
6.61159999999999e-08,6.50000000000000e-01,6.50000000000000e-01,6.73142654877728e-01,6.50000000000000e-01
6.66570933779310e-08,6.50000000000000e-01,6.50000000000000e-01,6.30216983602339e-01,6.50000000000000e-01
6.77392801337931e-08,6.50000000000000e-01,6.50000000000000e-01,6.68830133745111e-01,6.50000000000000e-01
6.93399734453892e-08,6.50000000000000e-01,6.50000000000000e-01,6.31170706583949e-01,6.50000000000000e-01
7.18768549133206e-08,6.50000000000000e-01,6.50000000000000e-01,6.67948523994800e-01,6.50000000000000e-01
7.51000000000000e-08,6.50000000000000e-01,6.50000000000000e-01,6.31678504771633e-01,6.50000000000000e-01
7.51100000000000e-08,5.85000000000066e-01,6.50000000000000e-01,6.40302782443205e-01,6.50000000000000e-01
7.51300000000000e-08,4.55000000000091e-01,6.50000000000000e-01,6.49359832052424e-01,6.50000000000000e-01
7.51700000000000e-08,1.95000000000140e-01,6.50000000000000e-01,6.50843240930526e-01,6.50000000000000e-01
7.52000000000000e-08,9.09272657168003e-14,6.50000000000000e-01,6.52535770473501e-01,6.50000000000000e-01
7.52080000000000e-08,0.00000000000000e+00,6.50000000000000e-01,6.52920793572965e-01,6.50000000000000e-01
7.52240000000000e-08,0.00000000000000e+00,6.50000000000000e-01,6.52923997962654e-01,6.50000000000000e-01
7.52560000000000e-08,0.00000000000000e+00,6.50000000000000e-01,6.47432349351875e-01,6.50000000000000e-01
7.53200000000000e-08,0.00000000000000e+00,6.50000000000000e-01,6.30657975953651e-01,6.50000000000000e-01
7.54480000000000e-08,0.00000000000000e+00,6.50000000000000e-01,6.38110704077999e-01,6.50000000000000e-01
7.57040000000000e-08,0.00000000000000e+00,6.50000000000000e-01,6.53757834454089e-01,6.50000000000000e-01
7.60683564173688e-08,0.00000000000000e+00,6.50000000000000e-01,6.46201298058297e-01,6.50000000000000e-01
7.67847357716057e-08,0.00000000000000e+00,6.50000000000000e-01,6.52774936130380e-01,6.50000000000000e-01
7.82174944800795e-08,0.00000000000000e+00,6.50000000000000e-01,6.47090946695886e-01,6.50000000000000e-01
8.10830118970272e-08,0.00000000000000e+00,6.50000000000000e-01,6.52641008340997e-01,6.50000000000000e-01
8.48830118970272e-08,0.00000000000000e+00,6.50000000000000e-01,6.47315759566945e-01,6.50000000000000e-01
8.50000000000000e-08,0.00000000000000e+00,6.50000000000000e-01,6.51184107074194e-01,6.50000000000000e-01
8.50100000000000e-08,6.49999999999877e-02,6.50000000000000e-01,6.50685263786634e-01,5.85000000000012e-01
8.50300000000000e-08,1.94999999999963e-01,6.50000000000000e-01,6.50029600612340e-01,4.55000000000037e-01
8.50700000000000e-08,4.54999999999914e-01,6.50000000000000e-01,6.51962350444891e-01,1.95000000000086e-01
8.51000000000000e-08,6.49999999999963e-01,6.50000000000000e-01,6.58643126264643e-01,3.71924713249427e-14
8.51080000000000e-08,6.50000000000000e-01,6.50000000000000e-01,6.61082259897090e-01,0.00000000000000e+00
8.51240000000000e-08,6.50000000000000e-01,6.50000000000000e-01,6.65822678714570e-01,0.00000000000000e+00
8.51560000000000e-08,6.50000000000000e-01,6.50000000000000e-01,6.76901236664802e-01,0.00000000000000e+00
8.52200000000000e-08,6.50000000000000e-01,6.50000000000000e-01,6.50259362758859e-01,0.00000000000000e+00
8.53480000000000e-08,6.50000000000000e-01,6.50000000000000e-01,3.37200513517298e-01,0.00000000000000e+00
8.55880685434904e-08,6.50000000000000e-01,6.50000000000000e-01,-2.47294329801231e-03,0.00000000000000e+00
8.59453542039037e-08,6.50000000000000e-01,6.50000000000000e-01,4.26458316723265e-03,0.00000000000000e+00
8.65130224452253e-08,6.50000000000000e-01,6.50000000000000e-01,-4.26695078203075e-03,0.00000000000000e+00
8.73950874649244e-08,6.50000000000000e-01,6.50000000000000e-01,4.50301088391513e-03,0.00000000000000e+00
8.90178404519763e-08,6.50000000000000e-01,6.50000000000000e-01,-4.30364566060293e-03,0.00000000000000e+00
9.01000000000000e-08,6.50000000000000e-01,6.49999999999963e-01,4.45004314782949e-03,0.00000000000000e+00
9.04245505974104e-08,6.50000000000000e-01,6.50000000000000e-01,1.03796955906057e-04,0.00000000000000e+00
9.10736517922311e-08,6.50000000000000e-01,6.50000000000000e-01,-1.00391068492672e-04,0.00000000000000e+00
9.23718541818727e-08,6.50000000000000e-01,6.50000000000000e-01,1.02455936086692e-04,0.00000000000000e+00
9.49682589611558e-08,6.50000000000000e-01,6.50000000000000e-01,-9.92311930169691e-05,0.00000000000000e+00
9.51000000000000e-08,6.50000000000000e-01,6.50000000000000e-01,8.37526517602355e-05,0.00000000000000e+00
9.51100000000000e-08,5.85000000000066e-01,6.50000000000000e-01,2.00057750299548e-04,6.49999999999339e-02
9.51300000000000e-08,4.55000000000091e-01,6.50000000000000e-01,2.97129526247004e-04,1.94999999999909e-01
9.51700000000000e-08,1.95000000000140e-01,6.50000000000000e-01,2.02230119419416e-04,4.54999999999860e-01
9.52000000000000e-08,9.09272657168003e-14,6.50000000000000e-01,2.24051804182640e-04,6.49999999999909e-01
9.52080000000000e-08,0.00000000000000e+00,6.50000000000000e-01,2.25903221502989e-04,6.50000000000000e-01
9.52240000000000e-08,0.00000000000000e+00,6.50000000000000e-01,2.16105141806165e-04,6.50000000000000e-01
9.52560000000000e-08,0.00000000000000e+00,6.50000000000000e-01,-4.39597137653347e-05,6.50000000000000e-01
9.53200000000000e-08,0.00000000000000e+00,6.50000000000000e-01,-1.12271146271334e-03,6.50000000000000e-01
9.54480000000000e-08,0.00000000000000e+00,6.50000000000000e-01,-9.37352467916819e-04,6.50000000000000e-01
9.56922254420401e-08,0.00000000000000e+00,6.50000000000000e-01,4.18406875774907e-04,6.50000000000000e-01
9.60506510811620e-08,0.00000000000000e+00,6.50000000000000e-01,-3.87583605400591e-04,6.50000000000000e-01
9.66468227434210e-08,0.00000000000000e+00,6.50000000000000e-01,3.22074357187061e-04,6.50000000000000e-01
9.78391660679390e-08,0.00000000000000e+00,6.50000000000000e-01,-2.62031417032473e-04,6.50000000000000e-01
9.90079810930680e-08,0.00000000000000e+00,6.50000000000000e-01,2.16625969356904e-04,6.50000000000000e-01
1.01345611143326e-07,0.00000000000000e+00,6.50000000000000e-01,-1.93467331379792e-04,6.50000000000000e-01
1.05000000000000e-07,0.00000000000000e+00,6.50000000000000e-01,1.83483429635064e-04,6.50000000000000e-01
1.05010000000000e-07,6.49999999999877e-02,6.50000000000000e-01,2.71559806915352e-04,6.50000000000000e-01
1.05030000000000e-07,1.94999999999963e-01,6.50000000000000e-01,4.12101513602998e-04,6.50000000000000e-01
1.05070000000000e-07,4.54999999999914e-01,6.50000000000000e-01,5.60568730908803e-04,6.50000000000000e-01
1.05100000000000e-07,6.49999999999963e-01,6.50000000000000e-01,3.23052139462696e-04,6.50000000000000e-01
1.05108000000000e-07,6.50000000000000e-01,6.50000000000000e-01,5.98552731473356e-05,6.50000000000000e-01
1.05124000000000e-07,6.50000000000000e-01,6.50000000000000e-01,-5.95940867428382e-04,6.50000000000000e-01
1.05156000000000e-07,6.50000000000000e-01,6.50000000000000e-01,-2.19215406898189e-03,6.50000000000000e-01
1.05220000000000e-07,6.50000000000000e-01,6.50000000000000e-01,-4.70758254273790e-03,6.50000000000000e-01
1.05348000000000e-07,6.50000000000000e-01,6.50000000000000e-01,8.19082186189186e-03,6.50000000000000e-01
1.05604000000000e-07,6.50000000000000e-01,6.50000000000000e-01,4.63829007229074e-01,6.50000000000000e-01
1.06116000000000e-07,6.50000000000000e-01,6.50000000000000e-01,6.73142642322591e-01,6.50000000000000e-01
1.06657093561124e-07,6.50000000000000e-01,6.50000000000000e-01,6.30217001847496e-01,6.50000000000000e-01
1.07739280683374e-07,6.50000000000000e-01,6.50000000000000e-01,6.68830120208029e-01,6.50000000000000e-01
1.09339973574112e-07,6.50000000000000e-01,6.50000000000000e-01,6.31170722738693e-01,6.50000000000000e-01
1.11876853966950e-07,6.50000000000000e-01,6.50000000000000e-01,6.67948510634972e-01,6.50000000000000e-01
1.15100000000000e-07,6.50000000000000e-01,6.50000000000000e-01,6.31678520242948e-01,6.50000000000000e-01
1.15110000000000e-07,5.85000000000066e-01,6.50000000000000e-01,6.40302791031672e-01,6.50000000000000e-01
1.15130000000000e-07,4.55000000000091e-01,6.50000000000000e-01,6.49359832984186e-01,6.50000000000000e-01
1.15170000000000e-07,1.95000000000140e-01,6.50000000000000e-01,6.50843240793399e-01,6.50000000000000e-01
1.15200000000000e-07,9.09272657168003e-14,6.50000000000000e-01,6.52535770594095e-01,6.50000000000000e-01
1.15208000000000e-07,0.00000000000000e+00,6.50000000000000e-01,6.52920793737157e-01,6.50000000000000e-01
1.15224000000000e-07,0.00000000000000e+00,6.50000000000000e-01,6.52923998295727e-01,6.50000000000000e-01
